!Keysight Technologies,N5222B,MY61253708,A.15.00.15
!Date: Wednesday, June 19, 2024 08:59:07
!Correction: S11(C  2-Port  ) 
!S21(C  2-Port  ) 
!S12(C  2-Port  ) 
!S22(C  2-Port  ) 
!S2P File: Measurements: S11, S21, S12, S22:
# Hz S  RI   R 50
10000000 0.99908793 -0.0022981167 -4.5227564e-005 0.00024143516 0.00012311802 0.00044168447 0.99880916 -0.0006082654
19996226.415094 0.99928015 -0.0020437837 0.00014051056 0.00068410474 -5.5012555e-005 0.0005992587 0.99918485 -0.0022880435
29992452.830189 0.99978602 -0.0025059283 0.00011133865 0.0011811383 5.9957529e-005 0.0010729787 0.99951345 -0.0027788281
39988679.245283 1.0001708 -0.0031191409 3.959368e-005 0.001506414 1.7947808e-005 0.0013940808 0.99967241 -0.0031792969
49984905.660377 1.0001899 -0.0039563775 6.882532e-006 0.0017627252 3.7460413e-005 0.0017677464 0.99977136 -0.0038298368
59981132.075472 1.0003399 -0.0047383308 4.7042151e-005 0.0020940988 4.0629937e-005 0.0021712421 0.99977469 -0.0043015778
69977358.490566 1.0001143 -0.0052607525 6.8174973e-005 0.002483719 2.8535072e-005 0.0024357731 0.99960899 -0.0049059279
79973584.90566 0.99984336 -0.0058572888 1.2964942e-005 0.0028479067 2.0923209e-005 0.0028371138 0.99939322 -0.0053918958
89969811.320755 0.99976647 -0.0061124265 1.9556377e-005 0.0031821893 3.0715019e-005 0.0031858226 0.99951768 -0.0057309568
99966037.735849 1.0000405 -0.0068452805 1.4515768e-005 0.003510498 3.2549608e-005 0.0035691878 0.99957395 -0.0065409541
109962264.15094 1.0000178 -0.0077686161 2.8079899e-005 0.0038845032 3.3375924e-005 0.0039093336 0.99956656 -0.0074264556
119958490.56604 1.0001358 -0.0088142157 4.9062772e-005 0.0042750053 4.8354967e-005 0.0042890953 0.99957997 -0.0083408058
129954716.98113 1.0000488 -0.009848088 5.1326235e-005 0.0046079354 4.7027599e-005 0.0046504564 0.99957049 -0.0092667639
139950943.39623 0.99999142 -0.010707572 5.574149e-005 0.0049754889 3.6137455e-005 0.0049883323 0.99951214 -0.01007241
149947169.81132 0.9998315 -0.011403084 5.3089578e-005 0.005332151 6.5643108e-005 0.0053524589 0.99944574 -0.010671884
159943396.22642 0.99978912 -0.011927605 5.2928459e-005 0.0056919446 6.4812368e-005 0.0056992518 0.99956083 -0.011155337
169939622.64151 0.999789 -0.012288287 5.7379541e-005 0.0060393577 7.3522038e-005 0.0060734367 0.99961054 -0.011589043
179935849.0566 0.99985349 -0.012565523 0.00012654334 0.0063788639 8.5207401e-005 0.0064029638 0.99952257 -0.012042195
189932075.4717 0.99988151 -0.013381541 7.4262265e-005 0.0067351433 0.00011110189 0.0067849066 0.99971819 -0.012634873
199928301.88679 0.99993879 -0.014342666 9.0655871e-005 0.007075761 0.00012639817 0.0071886214 0.9996053 -0.013556808
209924528.30189 0.99966615 -0.015033588 0.00013362803 0.007428484 0.00011809601 0.0074788071 0.99940759 -0.014310986
219920754.71698 0.99967217 -0.015942425 0.00012059556 0.0077650109 0.00012943312 0.0078174835 0.99925387 -0.015054166
229916981.13208 0.99941951 -0.01681444 0.00015532644 0.0081492262 0.00014502089 0.0082096672 0.99908239 -0.015788704
239913207.54717 0.99922717 -0.017487748 0.00016086006 0.0084959371 0.00015786341 0.0085780844 0.99911296 -0.016542083
249909433.96226 0.99929535 -0.018132895 0.00015255227 0.0088505121 0.00016584829 0.0089158872 0.99924493 -0.01718685
259905660.37736 0.99942613 -0.018787324 0.00017047208 0.0092261676 0.0001496803 0.0092118774 0.99940908 -0.017845124
269901886.79245 0.99958295 -0.019288093 0.00019070366 0.0095512336 0.00018895045 0.0096203759 0.99976236 -0.018488631
279898113.20755 0.99975908 -0.020136178 0.00022161147 0.0099110492 0.00016857265 0.0099623222 0.9995622 -0.019282043
289894339.62264 0.99967355 -0.020968199 0.00026217522 0.010261219 0.00023897877 0.010349745 0.99950856 -0.020016342
299890566.03774 0.99963319 -0.021472901 0.00024707709 0.010615247 0.00022632326 0.010699709 0.99932784 -0.020584464
309886792.45283 0.99930292 -0.022111192 0.00026194134 0.010945014 0.00027961493 0.011042277 0.99918872 -0.021013752
319883018.86792 0.99924308 -0.022730649 0.00024928804 0.01132925 0.00021897443 0.011374736 0.99922156 -0.021522492
329879245.28302 0.99919742 -0.02341041 0.00027223118 0.011733886 0.00028395047 0.011762765 0.99925542 -0.022316366
339875471.69811 0.99917156 -0.024174348 0.00031089049 0.012041979 0.00029643194 0.012100484 0.99917179 -0.023147359
349871698.11321 0.99934375 -0.024956077 0.00032925117 0.012424546 0.00031961687 0.012499354 0.99928218 -0.024074972
359867924.5283 0.99926353 -0.025823623 0.00032055331 0.012780953 0.00031710602 0.01283947 0.99922705 -0.025048852
369864150.9434 0.99947059 -0.026610911 0.00035317894 0.01311348 0.00034014485 0.013224046 0.99920148 -0.025786549
379860377.35849 0.99927247 -0.027410612 0.00043356582 0.013456319 0.00037983083 0.013527176 0.99911809 -0.026508629
389856603.77358 0.99912477 -0.027947336 0.00040570181 0.013800493 0.00040429551 0.013893947 0.99912339 -0.026948214
399852830.18868 0.99899805 -0.028620601 0.00043407548 0.01419205 0.00040852744 0.014254767 0.99916548 -0.027426153
409849056.60377 0.99896288 -0.029030442 0.00046504766 0.01448888 0.00043189514 0.014556535 0.99919754 -0.027930981
419845283.01887 0.99904668 -0.029567152 0.00047498429 0.014868837 0.00045433687 0.014962535 0.9991293 -0.028543174
429841509.43396 0.99904084 -0.030202448 0.00044378405 0.015198297 0.00048447261 0.015308088 0.9994064 -0.029293984
439837735.84906 0.99898869 -0.03113091 0.00054244511 0.015586566 0.00049637281 0.015675351 0.9991467 -0.030286819
449833962.26415 0.99895763 -0.032026619 0.0005429131 0.015882669 0.00055972487 0.01600273 0.99875236 -0.031128556
459830188.67925 0.99882662 -0.032949597 0.00050512981 0.016239338 0.00048948824 0.016419955 0.9985677 -0.03188318
469826415.09434 0.99877417 -0.033756405 0.00055912044 0.016624952 0.00051400531 0.016711771 0.9984042 -0.032491744
479822641.50943 0.99867052 -0.034330674 0.00057784724 0.016985869 0.00055511366 0.017122038 0.99839729 -0.032981455
489818867.92453 0.99876165 -0.034873784 0.00060724188 0.017306838 0.00061411969 0.017466767 0.99871325 -0.033549398
499815094.33962 0.99888164 -0.035487801 0.00062587112 0.017668536 0.00064399093 0.017782286 0.99903053 -0.034177482
509811320.75472 0.99895042 -0.035956901 0.00064003572 0.018016558 0.00068578287 0.018143684 0.99918407 -0.035105709
519807547.16981 0.99892056 -0.036553532 0.00069723139 0.018322192 0.00066432497 0.018471587 0.99907017 -0.035862446
529803773.58491 0.9989059 -0.037219793 0.0007124003 0.018720256 0.00070106704 0.018833984 0.99881369 -0.036513865
539800000 0.99895579 -0.038010865 0.00076401723 0.019092849 0.00071047805 0.019206934 0.99863875 -0.037154272
549796226.41509 0.99875695 -0.038883656 0.00076114386 0.01945412 0.00077803154 0.01959314 0.99849039 -0.037706405
559792452.83019 0.99840808 -0.03960678 0.00076740328 0.019795127 0.0007830346 0.019919522 0.99831498 -0.038215309
569788679.24528 0.99820197 -0.04033199 0.00079457974 0.020166386 0.00079057598 0.020299822 0.99855667 -0.038925678
579784905.66038 0.9981817 -0.040938802 0.00079088332 0.020487094 0.00085023721 0.020630723 0.998595 -0.039765477
589781132.07547 0.99841511 -0.041583925 0.00089681335 0.020866826 0.00085232966 0.021032527 0.99875647 -0.040686309
599777358.49057 0.99848044 -0.042255014 0.00089162309 0.02123224 0.00091586262 0.021386862 0.99874383 -0.041481256
609773584.90566 0.99863857 -0.043114021 0.00095177296 0.021590536 0.00096223346 0.021701891 0.99855453 -0.042399209
619769811.32075 0.99874109 -0.043763161 0.0010477793 0.021895487 0.00099030975 0.022054603 0.99856037 -0.042929977
629766037.73585 0.99857491 -0.044513702 0.001062748 0.022287052 0.0010537878 0.022394516 0.99836397 -0.04343763
639762264.15094 0.99834156 -0.045132995 0.0010627902 0.022550669 0.0010623287 0.022755176 0.99810445 -0.043962181
649758490.56604 0.99809968 -0.045665279 0.0010504643 0.022902993 0.001086982 0.023080148 0.99825478 -0.044364661
659754716.98113 0.99798995 -0.046115279 0.0010899752 0.023232579 0.0010753945 0.023460597 0.99829519 -0.04496336
669750943.39623 0.99804783 -0.046774566 0.0010656468 0.023656052 0.0011227839 0.023809781 0.9983474 -0.045786679
679747169.81132 0.99802041 -0.047512505 0.0011438807 0.024008336 0.001167311 0.024171097 0.99832857 -0.046870477
689743396.22642 0.99813974 -0.048360676 0.0011860002 0.024341153 0.0011760527 0.024524357 0.99816608 -0.047816634
699739622.64151 0.99832547 -0.049199879 0.0012299754 0.024711061 0.0012654644 0.024876807 0.9980154 -0.04851526
709735849.0566 0.99827754 -0.050094165 0.0012794245 0.025055876 0.0013061007 0.02521476 0.99778318 -0.049145207
719732075.4717 0.99808884 -0.050831437 0.0013017096 0.025367208 0.0013300441 0.025551833 0.99784064 -0.049812466
729728301.88679 0.99802327 -0.051374823 0.0013152026 0.025736483 0.0013582818 0.025894398 0.99792314 -0.050197124
739724528.30189 0.99779201 -0.052061379 0.001367534 0.026054136 0.0013912744 0.026245916 0.99811488 -0.050883397
749720754.71698 0.99781132 -0.0525662 0.0014322801 0.026374025 0.0014582612 0.026573461 0.99815071 -0.051644266
759716981.13208 0.99788612 -0.053088516 0.001445191 0.026774578 0.0014769128 0.026918113 0.99814212 -0.052383304
769713207.54717 0.99779946 -0.053807735 0.0014985381 0.027108038 0.0014866199 0.027262738 0.99789929 -0.053148836
779709433.96226 0.99795634 -0.054582682 0.001536879 0.027447613 0.0015320864 0.027610894 0.9975462 -0.053864125
789705660.37736 0.99787605 -0.055503041 0.0015861224 0.027757343 0.0015886435 0.027977673 0.99724007 -0.054595083
799701886.79245 0.99787664 -0.056381017 0.0015978767 0.02811205 0.0016075559 0.028331241 0.99714053 -0.055213839
809698113.20755 0.9976961 -0.056966454 0.0016175909 0.028468089 0.0016152253 0.02868351 0.99724472 -0.055658787
819694339.62264 0.9975245 -0.057726145 0.0016639293 0.028764904 0.0016799578 0.029015906 0.99733829 -0.056310117
829690566.03774 0.99747276 -0.058270305 0.0016886378 0.029141258 0.0017093411 0.029369602 0.99763405 -0.057255834
839686792.45283 0.99759775 -0.058626503 0.0017135693 0.029483827 0.0017299801 0.029689228 0.99768454 -0.05807814
849683018.86792 0.99770409 -0.05949603 0.0017932777 0.029848313 0.0017853356 0.030081958 0.99755335 -0.058880538
859679245.28302 0.99772036 -0.060105294 0.0018175794 0.030189615 0.0018015373 0.03039461 0.99724728 -0.059526414
869675471.69811 0.99759471 -0.060945392 0.0018721446 0.030531675 0.0018432727 0.030753527 0.99691546 -0.060088664
879671698.11321 0.99758631 -0.061647847 0.0018889774 0.030817084 0.0019016134 0.031098381 0.99693829 -0.060494669
889667924.5283 0.99726975 -0.062492549 0.0019137971 0.031182041 0.0019556256 0.031396955 0.99668717 -0.061015964
899664150.9434 0.99719739 -0.063229978 0.0019694511 0.031511184 0.001950941 0.031760667 0.99674517 -0.061665118
909660377.35849 0.9970538 -0.064032272 0.0019707191 0.031857245 0.0019985796 0.032116707 0.99693573 -0.062604323
919656603.77358 0.99718833 -0.064600453 0.0020313133 0.032196842 0.0020427424 0.032449994 0.99690318 -0.063580215
929652830.18868 0.99714422 -0.065346092 0.0020527411 0.032524522 0.002068379 0.032787677 0.99673504 -0.064408422
939649056.60377 0.99731314 -0.066053957 0.0020556264 0.032899 0.0020634383 0.033123121 0.99654603 -0.065239161
949645283.01887 0.99723721 -0.066920444 0.0020626334 0.033228155 0.0020976095 0.033473626 0.99629861 -0.065750867
959641509.43396 0.99716002 -0.067640036 0.0021094298 0.03361119 0.0021413676 0.03390111 0.99625003 -0.066329241
969637735.84906 0.99707425 -0.068431437 0.0021611089 0.033994935 0.0021606684 0.034232818 0.99634802 -0.066662818
979633962.26415 0.99690831 -0.069185406 0.0022265408 0.034305844 0.0022442255 0.034580473 0.99626333 -0.067327268
989630188.67925 0.9969241 -0.069613278 0.0022374447 0.034660172 0.0022670366 0.034935363 0.99650109 -0.06794104
999626415.09434 0.9969424 -0.070350617 0.002319172 0.035003137 0.0023308508 0.03527585 0.99639547 -0.068795532
1009622641.5094 0.99693233 -0.071009517 0.0023211874 0.035350725 0.002366906 0.035628118 0.99622285 -0.069685936
1019618867.9245 0.99711949 -0.071885481 0.0024095881 0.035697356 0.0024493667 0.036008678 0.99594051 -0.070633784
1029615094.3396 0.99707395 -0.072869778 0.0024630781 0.036043487 0.0025122929 0.036300223 0.99560821 -0.071176291
1039611320.7547 0.99713558 -0.073795915 0.0024907524 0.036391579 0.0025266418 0.036654662 0.9954797 -0.071921557
1049607547.1698 0.99693626 -0.074719943 0.0025563166 0.036716674 0.0025588633 0.036990911 0.9954825 -0.072557203
1059603773.5849 0.99681997 -0.075473279 0.0025875904 0.037019972 0.0026014503 0.037321296 0.99552971 -0.073009193
1069600000 0.99645627 -0.076074243 0.0025607049 0.037352134 0.0026564728 0.037662044 0.99565423 -0.073781073
1079596226.4151 0.99648958 -0.07671953 0.0025987444 0.03769736 0.0026761563 0.037982181 0.99561638 -0.074626774
1089592452.8302 0.99648577 -0.077295154 0.0026122211 0.038041849 0.0027141711 0.038319163 0.9955585 -0.075387597
1099588679.2453 0.99652314 -0.077984363 0.0026448034 0.038404617 0.0027180221 0.038701154 0.99522352 -0.075993538
1109584905.6604 0.99668664 -0.078876674 0.002700422 0.038744006 0.0027550105 0.039038643 0.99498975 -0.076553643
1119581132.0755 0.99670225 -0.079909392 0.002691688 0.039080918 0.0028210422 0.039440479 0.99474591 -0.077038996
1129577358.4906 0.9963904 -0.080769479 0.0027577505 0.039508574 0.0028017908 0.039827783 0.99466395 -0.077497184
1139573584.9057 0.99614197 -0.081685454 0.0027764179 0.039838452 0.0029202737 0.040138505 0.99478251 -0.078230858
1149569811.3208 0.99606603 -0.082600541 0.0028807272 0.04018319 0.0029570519 0.040504608 0.99483538 -0.079008438
1159566037.7358 0.99579239 -0.083215863 0.0029172897 0.040488161 0.0029899143 0.040805422 0.99498326 -0.080021173
1169562264.1509 0.99559283 -0.083925337 0.0029306654 0.040840931 0.0030290466 0.041158721 0.99480104 -0.080781043
1179558490.566 0.99558866 -0.084697127 0.0029538639 0.041215692 0.0030270345 0.041565467 0.99464548 -0.081530407
1189554716.9811 0.99555981 -0.08531639 0.0030033728 0.041583259 0.0031248601 0.041902423 0.99433273 -0.082110107
1199550943.3962 0.99546885 -0.086235583 0.0030202288 0.042000767 0.0031459145 0.042275913 0.99412143 -0.082547903
1209547169.8113 0.99534112 -0.087231666 0.003074429 0.042303152 0.0032059327 0.042609423 0.99406254 -0.082886323
1219543396.2264 0.99505234 -0.088069461 0.0031377319 0.042698238 0.0032220427 0.043001011 0.99414098 -0.083245859
1229539622.6415 0.99480766 -0.088942379 0.0032341499 0.043032203 0.0033400245 0.043360874 0.99427116 -0.084008574
1239535849.0566 0.99456179 -0.089592993 0.0032735504 0.043351851 0.0034101093 0.043668106 0.99429113 -0.08503598
1249532075.4717 0.99420762 -0.090385646 0.0033425714 0.043716125 0.0034808361 0.043989781 0.99414921 -0.08575353
1259528301.8868 0.99402779 -0.090792179 0.0033818427 0.044062629 0.0035429355 0.044334166 0.99392152 -0.08679232
1269524528.3019 0.99389249 -0.091589928 0.003492482 0.044401389 0.0036321599 0.044693936 0.99370456 -0.08745566
1279520754.717 0.99351609 -0.092361279 0.0035294609 0.044673383 0.0037055307 0.044971596 0.99339008 -0.088045247
1289516981.1321 0.99339843 -0.093187094 0.0035618693 0.04501792 0.0036920831 0.045282602 0.99341536 -0.088513702
1299513207.5472 0.9930228 -0.094023228 0.0035659149 0.045354236 0.0036989935 0.045617901 0.99359214 -0.088882565
1309509433.9623 0.99257141 -0.094779745 0.0036001019 0.045669619 0.0037341639 0.045917433 0.99365306 -0.089577958
1319505660.3774 0.99217594 -0.095501125 0.0035995422 0.046015505 0.0037061675 0.046258271 0.99371403 -0.090283424
1329501886.7925 0.99188042 -0.096138 0.0036699418 0.046366423 0.00375567 0.04664227 0.99368787 -0.091249615
1339498113.2075 0.99163347 -0.096724093 0.003659864 0.046681426 0.0037873331 0.046966333 0.99328017 -0.091951191
1349494339.6226 0.99142057 -0.09720999 0.0036647683 0.047071256 0.0037934068 0.047292981 0.99291587 -0.092628159
1359490566.0377 0.991256 -0.097903401 0.0036663525 0.047441736 0.0038084202 0.047695741 0.99259031 -0.093140274
1369486792.4528 0.9910388 -0.098549426 0.0037158001 0.047852837 0.0038142838 0.048082285 0.99246383 -0.093650848
1379483018.8679 0.99073428 -0.099041939 0.0037211541 0.04822379 0.0038248808 0.048450898 0.99240482 -0.094054699
1389479245.283 0.990385 -0.099620193 0.0037896428 0.048603341 0.003878884 0.048847809 0.99247134 -0.094785064
1399475471.6981 0.9899683 -0.10009795 0.0037787557 0.048969373 0.0038888808 0.049208023 0.99263012 -0.095443934
1409471698.1132 0.98959535 -0.10043569 0.0038440304 0.049373709 0.0039423038 0.049624443 0.99264181 -0.096261233
1419467924.5283 0.98938709 -0.10071069 0.0038699722 0.049781092 0.0039771227 0.049997877 0.99240893 -0.09704271
1429464150.9434 0.98927855 -0.10117927 0.0039179102 0.050207336 0.0039706733 0.050419606 0.99233878 -0.097577304
1439460377.3585 0.98949051 -0.10154666 0.003995386 0.050647285 0.0040938947 0.050911851 0.99204695 -0.097855821
1449456603.7736 0.98945093 -0.10222141 0.0041466756 0.051087949 0.0041727014 0.051300678 0.99190599 -0.098293081
1459452830.1887 0.98958707 -0.10296375 0.0043074042 0.051499583 0.004365284 0.051721465 0.99206889 -0.098636001
1469449056.6038 0.98948371 -0.10369301 0.0044508241 0.051812559 0.004457714 0.052100226 0.99222088 -0.099339098
1479445283.0189 0.98933506 -0.10437253 0.0046201777 0.052170057 0.004627862 0.05239651 0.99232119 -0.10023122
1489441509.434 0.98918903 -0.10490391 0.00468993 0.052495077 0.0047537107 0.052736782 0.99217385 -0.10115367
1499437735.8491 0.98904186 -0.10518748 0.0048227683 0.052796796 0.0048586391 0.05302228 0.99204755 -0.1020675
1509433962.2642 0.98903936 -0.10575944 0.0049334122 0.053067256 0.0049647018 0.053308804 0.99185824 -0.10269819
1519430188.6792 0.98911095 -0.10627645 0.0049802531 0.053379968 0.0050164461 0.053653147 0.99169898 -0.10337466
1529426415.0943 0.98909259 -0.10694742 0.0050653629 0.053650163 0.0050755013 0.05394388 0.99162519 -0.10377625
1539422641.5094 0.98908365 -0.1077838 0.0051216157 0.054000333 0.0051345243 0.054252241 0.99164182 -0.10418904
1549418867.9245 0.98899776 -0.10864416 0.0051904973 0.054295309 0.0051729968 0.054563962 0.9919436 -0.10500546
1559415094.3396 0.98881304 -0.10940227 0.0052538533 0.054611053 0.005241951 0.054856487 0.99205542 -0.10566437
1569411320.7547 0.98866832 -0.11024216 0.0053082751 0.054905519 0.0052849418 0.055189982 0.99192345 -0.10654324
1579407547.1698 0.98853451 -0.11072096 0.0053559779 0.055155162 0.0053120768 0.055500612 0.99163419 -0.10737288
1589403773.5849 0.9884609 -0.11124876 0.0053019486 0.055483114 0.0053176433 0.055809326 0.99135399 -0.10812834
1599400000 0.98845643 -0.11172664 0.0053526219 0.055859335 0.0053384155 0.05611404 0.99089694 -0.10861951
1609396226.4151 0.98855138 -0.1123228 0.0053414209 0.056174155 0.0053578652 0.056454632 0.99074668 -0.1091338
1619392452.8302 0.98847216 -0.11304402 0.0053229872 0.056527384 0.0053327009 0.056828596 0.99076533 -0.109676
1629388679.2453 0.98816383 -0.11373767 0.0054328516 0.05688484 0.0053470209 0.057218947 0.99100125 -0.11016726
1639384905.6604 0.98800695 -0.11445222 0.0053877868 0.057271272 0.0053500542 0.05762938 0.99118751 -0.11105455
1649381132.0755 0.98760664 -0.11508676 0.0053958111 0.057647541 0.0053869896 0.058038674 0.99120462 -0.11198559
1659377358.4906 0.98748106 -0.11594561 0.0054588653 0.058050767 0.0054151192 0.058401749 0.99116063 -0.11289036
1669373584.9057 0.98748726 -0.11638001 0.0055006463 0.058465563 0.0054927734 0.058834821 0.99077994 -0.11348242
1679369811.3208 0.98746192 -0.11709055 0.0055475403 0.058829274 0.005534621 0.05922395 0.99055028 -0.11406156
1689366037.7358 0.98746729 -0.11767995 0.0056299325 0.059247613 0.0056068674 0.059651714 0.99032116 -0.11437967
1699362264.1509 0.98763752 -0.11828674 0.0056652585 0.059617471 0.0056568477 0.060006782 0.99058688 -0.11486049
1709358490.566 0.9874571 -0.11904967 0.0057821786 0.060032692 0.0057025431 0.060422257 0.99057084 -0.11544576
1719354716.9811 0.9872126 -0.11972916 0.0058084223 0.060399562 0.005776437 0.060815137 0.99063587 -0.11618656
1729350943.3962 0.98680317 -0.12032461 0.0059411526 0.060827017 0.0058888923 0.061217442 0.99064523 -0.11700618
