!Keysight Technologies,N5222B,MY61253708,A.15.00.15
!Date: Wednesday, June 19, 2024 10:17:21
!Correction: S11(C  2-Port  ) 
!S21(C  2-Port  ) 
!S12(C  2-Port  ) 
!S22(C  2-Port  ) 
!S2P File: Measurements: S11, S21, S12, S22:
# Hz S  RI   R 50
10000000 0.99868554 -0.0029477477 -2.0322943e-005 0.00032025573 0.0003269928 0.00012981583 0.99865186 -0.0015617609
19996226.415094 1.0001352 -0.0024855435 -0.00017001512 0.00083932414 -6.1107334e-005 0.00059710135 1.0002234 -0.002276957
29992452.830189 0.99970871 -0.0024296939 5.1750569e-005 0.00099618721 -4.8689952e-005 0.00099387893 0.99940073 -0.0027127862
39988679.245283 1.0000505 -0.0029729605 1.1833064e-005 0.0013308926 2.0789375e-005 0.0012769365 0.99972498 -0.0030756295
49984905.660377 1.0001941 -0.0036537051 -6.011338e-006 0.0016799546 2.4474517e-005 0.0016527672 0.99992824 -0.0035853088
59981132.075472 1.0003659 -0.0044398606 2.2527995e-005 0.0019860195 5.828368e-005 0.0019602778 0.99995124 -0.0042008758
69977358.490566 1.0002429 -0.005046498 5.8805745e-006 0.0022849215 2.7944479e-005 0.0023272559 0.99975884 -0.0047883447
79973584.90566 0.99998087 -0.0056737065 3.1954842e-005 0.0025881494 1.9829604e-005 0.0026214006 0.9994055 -0.0052531064
89969811.320755 0.99994993 -0.0057050288 1.9625877e-005 0.0029397476 1.8865103e-006 0.0029184835 0.99963045 -0.005482614
99966037.735849 1.0002041 -0.0064121783 3.6305864e-006 0.0032511482 -5.9871236e-006 0.0032772128 0.99971879 -0.0062284917
109962264.15094 1.0002348 -0.0073311627 3.1708973e-005 0.0035615615 2.9121875e-005 0.0036019925 0.99971676 -0.0070308
119958490.56604 1.0002329 -0.0082235336 4.4305343e-005 0.0039132806 2.6773778e-005 0.0039340933 0.99976349 -0.0078400373
129954716.98113 1.0001694 -0.0091252923 2.5817193e-005 0.0042181304 2.6820577e-005 0.0042588939 0.99974847 -0.0087043941
139950943.39623 1.0001168 -0.0098872259 3.6654805e-005 0.0045527802 2.6337715e-005 0.0045703934 0.99968052 -0.0094530936
149947169.81132 0.99997848 -0.010604292 5.2738935e-005 0.0049049133 3.6619138e-005 0.0049314313 0.99964643 -0.010057807
159943396.22642 0.99994457 -0.011130095 6.2840758e-005 0.0052290484 6.0386024e-005 0.005242134 0.99966872 -0.01053381
169939622.64151 0.99990845 -0.011527345 5.9828046e-005 0.0055429465 5.0330069e-005 0.0055782013 0.99970442 -0.010986112
179935849.0566 0.99998087 -0.011736095 8.3476771e-005 0.0058583221 6.6361274e-005 0.0059075174 0.99958563 -0.01133436
189932075.4717 1.0000753 -0.012536108 0.000101957 0.0061816974 8.3207851e-005 0.0061994158 0.9998439 -0.011874944
199928301.88679 1.0000111 -0.013343632 9.705103e-005 0.0065266751 7.7470439e-005 0.0065516508 0.99970877 -0.012714952
209924528.30189 0.99981564 -0.01387386 7.9849618e-005 0.0068549807 9.9388533e-005 0.006886967 0.99950057 -0.013348326
219920754.71698 0.99994016 -0.014627934 0.00010563689 0.0071767382 0.00010326202 0.0071985917 0.99942231 -0.013957083
229916981.13208 0.99971879 -0.015558928 0.00013765739 0.0075117932 0.00010398892 0.0075219246 0.99944657 -0.014781594
239913207.54717 0.99961066 -0.016196014 0.00011998224 0.0078162551 0.00013015234 0.007854904 0.99937034 -0.015528351
249909433.96226 0.99964201 -0.016767472 0.00014411518 0.0081444923 0.00013330346 0.0081643425 0.99946922 -0.016079187
259905660.37736 0.99976003 -0.01739195 0.00012222491 0.0084614232 0.00016281055 0.0084758922 0.99961388 -0.016615748
269901886.79245 0.99986053 -0.018099099 0.00016264175 0.0088255974 0.00014374172 0.0088718422 0.9999733 -0.017344296
279898113.20755 0.99983197 -0.01867573 0.00013385969 0.0091104452 0.00014167884 0.0091601573 0.99985325 -0.018146783
289894339.62264 0.99985063 -0.019471258 0.00019909767 0.0094187167 0.00019934215 0.0095117884 0.9997139 -0.018853873
299890566.03774 0.9998045 -0.019919962 0.00018457905 0.0097962255 0.0001953803 0.0097919228 0.99945986 -0.019321024
309886792.45283 0.99959278 -0.020430654 0.0001699056 0.010066421 0.00019243418 0.010137987 0.99936938 -0.019725122
319883018.86792 0.99975145 -0.021108896 0.00020852545 0.010425341 0.00020514522 0.010449038 0.99949878 -0.02020663
329879245.28302 0.99968886 -0.021871328 0.00022796215 0.010743744 0.00026497664 0.010812221 0.99959815 -0.020983398
339875471.69811 0.99962705 -0.022662021 0.00026925874 0.01110986 0.00022148574 0.011111184 0.99955899 -0.021763101
349871698.11321 0.99977779 -0.023466259 0.00025638402 0.011429284 0.00023777131 0.011429009 0.9995507 -0.022669494
359867924.5283 0.99954617 -0.024244606 0.00028366596 0.011703888 0.00028975168 0.011788839 0.99949431 -0.023553878
369864150.9434 0.99981636 -0.024978191 0.0003134138 0.01206589 0.00030827685 0.012108612 0.99949962 -0.024228394
379860377.35849 0.99960017 -0.025759861 0.00030177273 0.012391753 0.00027011288 0.012432047 0.99933213 -0.024901941
389856603.77358 0.99953294 -0.026331991 0.00034074113 0.012712424 0.000323507 0.012765521 0.99940276 -0.02530387
399852830.18868 0.99935889 -0.026920438 0.00033888547 0.013029628 0.00035555754 0.013076056 0.99945426 -0.025870711
409849056.60377 0.99929374 -0.027474876 0.00037428728 0.013352213 0.0003321394 0.01340288 0.99947274 -0.026335444
419845283.01887 0.99917501 -0.027832299 0.00038137054 0.013648105 0.0003734706 0.013726452 0.9994151 -0.026871413
429841509.43396 0.99934155 -0.028466016 0.00041047577 0.014013514 0.00039656786 0.014073985 0.99961561 -0.027661443
439837735.84906 0.99906904 -0.029407397 0.00043224683 0.014329895 0.00045165338 0.014345055 0.99933392 -0.028611958
449833962.26415 0.99890375 -0.030195296 0.0004486437 0.014642799 0.00043797772 0.014679252 0.99897128 -0.029393226
459830188.67925 0.99878395 -0.030828863 0.00041913334 0.014932601 0.00042181183 0.015011309 0.99881101 -0.030064046
469826415.09434 0.99866176 -0.031568468 0.0004444723 0.015317495 0.00045127375 0.015328689 0.99852324 -0.030624509
479822641.50943 0.9985559 -0.032063171 0.00049311225 0.015628576 0.00045192544 0.015697584 0.99858934 -0.031076007
489818867.92453 0.9986968 -0.032513589 0.00051117782 0.015955834 0.00050157821 0.016002545 0.99880588 -0.031519651
499815094.33962 0.99876142 -0.033046216 0.00051735993 0.016255796 0.00054825982 0.016312806 0.9991191 -0.03211233
509811320.75472 0.99882334 -0.033461031 0.0005718419 0.016597319 0.00050631166 0.016628375 0.99918896 -0.032861579
519807547.16981 0.99874806 -0.033959359 0.00055627339 0.016907122 0.00058769807 0.016973613 0.99916327 -0.033654898
529803773.58491 0.99881017 -0.034517497 0.00056547113 0.017222647 0.00056242011 0.017289558 0.99897695 -0.03421101
539800000 0.99890482 -0.035130128 0.00059068436 0.017560575 0.00060372381 0.017637119 0.99887061 -0.034801662
549796226.41509 0.99880135 -0.035921007 0.00060064904 0.017903822 0.00064018508 0.01797675 0.99867797 -0.03532666
559792452.83019 0.99858665 -0.036666036 0.00064377952 0.018204171 0.00062929746 0.018242899 0.99865365 -0.035743177
569788679.24528 0.99847144 -0.037274033 0.00063581206 0.018524606 0.00066111144 0.018610885 0.99880892 -0.036568165
579784905.66038 0.99848098 -0.037843831 0.00066663977 0.018879581 0.00065142184 0.018910754 0.99889016 -0.037294693
589781132.07547 0.99856293 -0.038492322 0.00074285734 0.019206503 0.00069962349 0.019289773 0.99900889 -0.038128346
599777358.49057 0.99871069 -0.039159 0.00075487792 0.019546822 0.00073534437 0.019611036 0.99903089 -0.038917124
609773584.90566 0.99886435 -0.039838217 0.00076826377 0.019844342 0.00075551181 0.019906716 0.99887437 -0.039689261
619769811.32075 0.99898833 -0.040598452 0.00085256016 0.0201487 0.00081711356 0.020242248 0.9988749 -0.040202945
629766037.73585 0.99889052 -0.041146845 0.00082551502 0.020476803 0.00085822865 0.020537231 0.99864841 -0.040781438
639762264.15094 0.99868983 -0.041829467 0.00088121369 0.020749489 0.00086974679 0.020867683 0.99851406 -0.041290119
649758490.56604 0.99863786 -0.042442679 0.00088066794 0.021098332 0.00085144117 0.021156043 0.9986521 -0.041629434
659754716.98113 0.99850345 -0.042825282 0.00084437616 0.021412965 0.00088336226 0.021499677 0.99868089 -0.042253047
669750943.39623 0.99851304 -0.043379784 0.00089356024 0.021793244 0.00093910797 0.02188077 0.99883467 -0.042982429
679747169.81132 0.99850821 -0.044139631 0.00092747656 0.022097167 0.0009458469 0.022199005 0.99875641 -0.043900207
689743396.22642 0.99868226 -0.045000434 0.0009815339 0.022422271 0.00097659416 0.022545559 0.99856913 -0.044858247
699739622.64151 0.99878597 -0.04576844 0.0010148063 0.022762284 0.0010162108 0.02283393 0.99849319 -0.045539498
709735849.0566 0.99873835 -0.046609066 0.001072576 0.023083618 0.0010429241 0.023170348 0.99820662 -0.046260409
719732075.4717 0.99860138 -0.047316134 0.0010661823 0.023373228 0.0010782089 0.023472048 0.99833316 -0.046734631
729728301.88679 0.99853688 -0.047945201 0.0011332035 0.023673743 0.0010692514 0.023765661 0.9983409 -0.047216952
739724528.30189 0.99849117 -0.048545182 0.0011760737 0.024009997 0.0011565727 0.02413452 0.99853945 -0.047850832
749720754.71698 0.99837118 -0.04909198 0.0011733109 0.024323277 0.0012193453 0.024424709 0.99849832 -0.048557177
759716981.13208 0.99842286 -0.04956001 0.0012225322 0.024650212 0.0011997502 0.024760541 0.99854434 -0.049351215
769713207.54717 0.99833894 -0.05036816 0.0012525404 0.024950406 0.0012540976 0.025070293 0.99823761 -0.05004856
779709433.96226 0.99851203 -0.0508736 0.0012410398 0.02529205 0.0012672764 0.025387449 0.99802291 -0.050651554
789705660.37736 0.99834359 -0.051759481 0.0013241954 0.025617439 0.0012850976 0.025692694 0.99777716 -0.051279396
799701886.79245 0.99821663 -0.052612185 0.0013550557 0.025899928 0.001319035 0.026001193 0.99767625 -0.051941544
809698113.20755 0.99819213 -0.053167492 0.0013805199 0.026222337 0.0013576855 0.026336957 0.99770135 -0.052382961
819694339.62264 0.99800247 -0.053752452 0.0013758047 0.026512371 0.0013855784 0.026642788 0.9978205 -0.0529975
829690566.03774 0.99794877 -0.054379016 0.0014241561 0.026859902 0.0014066305 0.026971567 0.99798346 -0.053831667
839686792.45283 0.99797696 -0.054817379 0.0014293636 0.027148303 0.0014491095 0.027266216 0.998061 -0.054674834
849683018.86792 0.99809426 -0.055432074 0.0014579524 0.027500411 0.0014800066 0.027603745 0.99793053 -0.055361249
859679245.28302 0.99808621 -0.056211889 0.0014749076 0.027819755 0.0015034219 0.027928123 0.99767137 -0.055948049
869675471.69811 0.99800503 -0.056947112 0.0015428569 0.028136436 0.0015529832 0.028226856 0.9973563 -0.056511253
879671698.11321 0.99797845 -0.057583258 0.0015914256 0.028423944 0.0015997293 0.028534343 0.99736112 -0.056899339
889667924.5283 0.99782747 -0.058347821 0.0016222969 0.028725553 0.0016347915 0.02885304 0.99717385 -0.057455987
899664150.9434 0.99757677 -0.058972925 0.0015963521 0.029020026 0.0016298806 0.029148377 0.99728394 -0.057962328
909660377.35849 0.99761981 -0.05965969 0.0016609398 0.02936038 0.0016676439 0.02948793 0.99743915 -0.058777705
919656603.77358 0.99770141 -0.060277179 0.0016533523 0.029672567 0.0016559795 0.029821245 0.99738026 -0.059713945
929652830.18868 0.99769974 -0.060996443 0.00168854 0.029951913 0.0016775159 0.030113004 0.99725521 -0.060541391
939649056.60377 0.99782658 -0.061583489 0.0017241761 0.030296169 0.0017074756 0.030410336 0.99715573 -0.06125313
949645283.01887 0.99781543 -0.062398214 0.0017021552 0.030622069 0.0017038983 0.030729394 0.99692988 -0.061755992
959641509.43396 0.9977088 -0.062998593 0.0017316164 0.031005051 0.001768508 0.031112023 0.99688858 -0.062317431
969637735.84906 0.99766386 -0.063758016 0.0017805127 0.031314962 0.0018047327 0.031443778 0.99685705 -0.062653095
979633962.26415 0.99758762 -0.064495087 0.0018458783 0.031614151 0.0018508409 0.031728525 0.99687278 -0.063326746
989630188.67925 0.99761117 -0.06501317 0.0018671574 0.031924117 0.0018719072 0.03207548 0.99709094 -0.063945502
999626415.09434 0.99767435 -0.06559965 0.0019001458 0.03223994 0.0019167373 0.032398731 0.99706149 -0.064694881
1009622641.5094 0.9976331 -0.066227064 0.0019451976 0.032575212 0.0019681705 0.032768302 0.99690592 -0.065481007
1019618867.9245 0.99779969 -0.067020923 0.0019740257 0.032882106 0.0020124558 0.033070158 0.99664742 -0.066331863
1029615094.3396 0.99768257 -0.067926079 0.0020176331 0.033203352 0.0020678937 0.033320181 0.99627739 -0.066836387
1039611320.7547 0.99776626 -0.068784893 0.0020613503 0.033505462 0.0020718165 0.033658851 0.99630922 -0.067539811
1049607547.1698 0.99761951 -0.069618441 0.0021077502 0.033809278 0.0020954686 0.033952169 0.99631739 -0.068088695
1059603773.5849 0.99752367 -0.070365727 0.0021191649 0.034090817 0.0021318402 0.03426075 0.99626827 -0.068667114
1069600000 0.99733651 -0.070958048 0.0021221498 0.034395974 0.0021520471 0.034543209 0.9964335 -0.06938073
1079596226.4151 0.99728912 -0.071606413 0.0021321326 0.034725044 0.002189639 0.034899861 0.99642968 -0.070105478
1089592452.8302 0.99731797 -0.072312623 0.0021899054 0.035062812 0.0022008251 0.035192721 0.99633121 -0.070857078
1099588679.2453 0.99739605 -0.072926313 0.0021560825 0.035401218 0.0022031181 0.035543498 0.99602169 -0.071468979
1109584905.6604 0.99750531 -0.073723212 0.0022082161 0.035703376 0.0022491813 0.035881896 0.99579865 -0.07204029
1119581132.0755 0.99747014 -0.074620858 0.0022232793 0.036056772 0.0022372613 0.036238588 0.99560785 -0.072411194
1129577358.4906 0.99725831 -0.07535249 0.0022209398 0.036382541 0.0023189839 0.036577329 0.99552 -0.072866946
1139573584.9057 0.99708569 -0.076285392 0.0023000399 0.036698617 0.0023251818 0.036875147 0.99561822 -0.073471546
1149569811.3208 0.99696344 -0.0771337 0.0023527276 0.037036404 0.0024098835 0.037179533 0.99579972 -0.074271113
1159566037.7358 0.9968248 -0.07769829 0.0023893975 0.037334651 0.0024320781 0.037503429 0.99583876 -0.075202852
1169562264.1509 0.99668074 -0.078389555 0.002406273 0.037622638 0.0024510752 0.03782611 0.9957062 -0.075996757
1179558490.566 0.99666679 -0.079203144 0.0023872547 0.037998427 0.002483756 0.038180586 0.99559414 -0.076747999
1189554716.9811 0.99659687 -0.079938143 0.002401582 0.038335051 0.0025292663 0.038508765 0.99534369 -0.077281326
1199550943.3962 0.996521 -0.080762535 0.0024758149 0.038705088 0.0025675036 0.03883601 0.99518836 -0.077670962
1209547169.8113 0.99635732 -0.081627369 0.0025104815 0.03901238 0.0026052911 0.039148871 0.99502331 -0.077998742
1219543396.2264 0.99615926 -0.082417294 0.0025812224 0.039388858 0.0026595765 0.039542601 0.9951238 -0.078398094
1229539622.6415 0.99593353 -0.08320567 0.0026311558 0.039690301 0.0027495939 0.039844513 0.99524152 -0.079125583
1239535849.0566 0.99558681 -0.083759159 0.0026835455 0.039997231 0.0027534701 0.040172171 0.9954021 -0.079953492
1249532075.4717 0.99530268 -0.084520072 0.002740334 0.040316865 0.0028231451 0.040459815 0.9952395 -0.080720305
1259528301.8868 0.99518681 -0.085027933 0.0027775411 0.040618226 0.0028933287 0.04077981 0.99505973 -0.081617981
1269524528.3019 0.99503708 -0.08570078 0.0028411252 0.04095291 0.0029464271 0.041076422 0.99476469 -0.082229674
1279520754.717 0.99466693 -0.086435631 0.0029201203 0.04121327 0.0029986443 0.041348878 0.99454349 -0.082775511
1289516981.1321 0.99454057 -0.087217331 0.0029275054 0.041498058 0.0030044317 0.041607331 0.99463916 -0.083283931
1299513207.5472 0.99420154 -0.088125557 0.0029063858 0.041820165 0.0030155797 0.041929916 0.99470705 -0.083636731
1309509433.9623 0.9938035 -0.088789955 0.0029267119 0.042119503 0.0030470416 0.042226199 0.994771 -0.084426165
1319505660.3774 0.99344748 -0.08954528 0.0029481445 0.042436752 0.0030578254 0.042558979 0.99485081 -0.085014597
1329501886.7925 0.99311626 -0.090132028 0.0029645115 0.04277955 0.0030760765 0.042865202 0.9948467 -0.085957736
1339498113.2075 0.99288183 -0.090686649 0.0029960666 0.043088667 0.0030919183 0.043187626 0.9944911 -0.08664462
1349494339.6226 0.99269331 -0.091217369 0.0029441351 0.043439273 0.0030718599 0.043503322 0.99413311 -0.087255754
1359490566.0377 0.99265075 -0.091714323 0.0029755607 0.043782003 0.0030655134 0.04385671 0.9939639 -0.087751567
1369486792.4528 0.99241841 -0.092247844 0.0029690797 0.044168495 0.003079772 0.044187244 0.99374014 -0.088214457
1379483018.8679 0.99214518 -0.092828289 0.0030177205 0.044513028 0.0031098798 0.044567246 0.99380338 -0.088542871
1389479245.283 0.99182612 -0.093347043 0.0030554831 0.044882491 0.0031127501 0.044930182 0.99374151 -0.089204043
1399475471.6981 0.99148011 -0.093839973 0.0030665807 0.04516723 0.0031081568 0.045256328 0.99398404 -0.089895308
1409471698.1132 0.9911769 -0.094208099 0.003111006 0.045596983 0.0031641526 0.045659374 0.994017 -0.090690143
1419467924.5283 0.99100786 -0.094508022 0.0031089829 0.045946788 0.0031480379 0.046046879 0.99377942 -0.091392696
1429464150.9434 0.99082971 -0.094967097 0.0031787101 0.046322785 0.0032115001 0.046397168 0.99373329 -0.092003167
1439460377.3585 0.99100071 -0.09540619 0.0032393886 0.046770263 0.0032737888 0.04682086 0.99347109 -0.092277616
1449456603.7736 0.99095792 -0.095938995 0.0033446141 0.047181476 0.0033685779 0.047196146 0.99336529 -0.092678204
1459452830.1887 0.99103957 -0.096550256 0.0034891851 0.04757417 0.0034932122 0.047613416 0.99342161 -0.09294796
1469449056.6038 0.99108589 -0.097221434 0.0036326954 0.047888517 0.0036594933 0.047978684 0.99372256 -0.093620867
1479445283.0189 0.99091733 -0.097837701 0.0037733708 0.04814627 0.003765132 0.048252866 0.99377811 -0.094506711
1489441509.434 0.99082184 -0.098285407 0.0038683061 0.048482724 0.0038809255 0.04854466 0.99367279 -0.095305711
1499437735.8491 0.99066687 -0.098680317 0.0039732307 0.048765842 0.0040127933 0.048810307 0.99351323 -0.096129745
1509433962.2642 0.99072611 -0.099152103 0.0040927529 0.049020804 0.004065651 0.049079344 0.99336749 -0.096867345
1519430188.6792 0.99079877 -0.099712849 0.0041557364 0.049277358 0.0041353274 0.049359806 0.99322605 -0.097392797
1529426415.0943 0.99066377 -0.1003581 0.0041869543 0.049558263 0.0041903388 0.049630448 0.99313015 -0.09783265
1539422641.5094 0.9907859 -0.10118021 0.0042465669 0.049861927 0.0042160265 0.049965575 0.99318767 -0.098319314
1549418867.9245 0.99061203 -0.1019243 0.0043107057 0.050126083 0.0042860312 0.05023158 0.99344146 -0.09905225
1559415094.3396 0.99048114 -0.10258773 0.0043154936 0.050432906 0.0042926893 0.050490797 0.99353868 -0.099688232
1569411320.7547 0.99029094 -0.10341427 0.0043957494 0.05064553 0.0043642307 0.050791681 0.99349409 -0.10047531
1579407547.1698 0.99028504 -0.10389102 0.0044368855 0.050955217 0.0043780766 0.051061027 0.9931404 -0.10126019
1589403773.5849 0.99024558 -0.10445276 0.0043938272 0.051239878 0.004373949 0.051350817 0.99295199 -0.10197562
1599400000 0.9901616 -0.1047965 0.0044041863 0.051529042 0.0043647224 0.051650267 0.99251431 -0.10245889
1609396226.4151 0.99018824 -0.10550345 0.0044037411 0.051841475 0.0043519405 0.051937144 0.99241102 -0.10296904
1619392452.8302 0.99015838 -0.10610017 0.0044197161 0.052187145 0.0043593701 0.052295182 0.99238026 -0.10338554
1629388679.2453 0.98992836 -0.10676295 0.0044311881 0.052512668 0.0043524764 0.052648 0.99251759 -0.10385346
1639384905.6604 0.98972678 -0.10740063 0.0044098971 0.052886404 0.0043608276 0.053016208 0.99281627 -0.10470888
1649381132.0755 0.98956299 -0.10812119 0.0044423826 0.053199463 0.0043667536 0.053354699 0.99277055 -0.10562629
1659377358.4906 0.98939645 -0.1088984 0.004392663 0.053601563 0.004417751 0.053716198 0.99271762 -0.10649922
1669373584.9057 0.9893437 -0.10936238 0.0044691097 0.053962212 0.0044406289 0.054106396 0.99249148 -0.10717436
1679369811.3208 0.98940408 -0.11001378 0.004529288 0.054331429 0.0044714008 0.054466832 0.9922021 -0.10769302
1689366037.7358 0.98940676 -0.11062711 0.0045932122 0.054702878 0.0044766255 0.054839969 0.99208248 -0.10797301
1699362264.1509 0.98960716 -0.11115082 0.0046262331 0.05509501 0.0045516416 0.055246871 0.99223471 -0.10839175
1709358490.566 0.98935604 -0.11181195 0.0046533914 0.055374652 0.0046090111 0.055617228 0.9922691 -0.10893501
1719354716.9811 0.98908842 -0.11246759 0.0047142189 0.055767171 0.0046719331 0.055945441 0.99232447 -0.10962817
1729350943.3962 0.98882306 -0.11295483 0.0047985762 0.056162562 0.0047209803 0.056367464 0.99236244 -0.11046338
