!Keysight Technologies,N5222B,MY61253708,A.15.00.15
!Date: Wednesday, June 19, 2024 08:37:31
!Correction: S11(C  2-Port  ) 
!S21(C  2-Port  ) 
!S12(C  2-Port  ) 
!S22(C  2-Port  ) 
!S2P File: Measurements: S11, S21, S12, S22:
# Hz S  RI   R 50
10000000 0.99880719 -0.0023308098 -9.4962932e-005 0.00054802134 -0.0002191184 0.00082808436 0.99872196 -0.0012159348
19996226.415094 0.99896902 -0.0025371909 6.9850474e-005 0.0011975737 4.5545748e-005 0.0012682681 0.99920905 -0.0027035475
29992452.830189 0.99975139 -0.0033482611 3.7370017e-005 0.0019144984 1.0842574e-005 0.0018440718 0.99952626 -0.0035638213
39988679.245283 1.0000726 -0.0041983575 3.7887512e-005 0.0025538346 6.5869099e-005 0.0024904166 0.99968195 -0.0042923689
49984905.660377 1.0001577 -0.0052682459 5.5190292e-005 0.0031342467 2.5687157e-005 0.0031244582 0.99970746 -0.0051510632
59981132.075472 1.0001578 -0.0063454211 3.6212034e-005 0.0037660489 0.00010804913 0.0037008394 0.99965674 -0.0059556663
69977358.490566 0.99993551 -0.0071371961 9.6465999e-005 0.004380567 3.3652643e-005 0.0043672887 0.99953204 -0.0067109242
79973584.90566 0.9997468 -0.0078989863 8.0235302e-005 0.0049680062 7.6261349e-005 0.0049686674 0.99928635 -0.0075357258
89969811.320755 0.99972689 -0.0085651577 7.380452e-005 0.0056216004 5.9377635e-005 0.0055544842 0.99937975 -0.0081720054
99966037.735849 0.99976629 -0.0094614923 0.00011115847 0.0061840843 0.00011763419 0.006223002 0.99941397 -0.0092004985
109962264.15094 0.99989361 -0.010711133 0.00012624427 0.0068420181 0.00013719534 0.0068499274 0.99943709 -0.010320961
119958490.56604 0.99993521 -0.012015373 0.00015080324 0.007466387 0.00014328212 0.00743833 0.99944085 -0.011537731
129954716.98113 0.9998371 -0.01337105 0.00014451309 0.008067783 0.00015623611 0.0080870083 0.99941045 -0.012756705
139950943.39623 0.99974418 -0.014494253 0.00018321062 0.0086960318 0.00017820143 0.0086881826 0.99927926 -0.013803707
149947169.81132 0.99958849 -0.015390337 0.00023506326 0.0093192216 0.00022426178 0.0093196984 0.99921447 -0.014688969
159943396.22642 0.99955904 -0.016153246 0.00024136528 0.0099151451 0.00024471013 0.0099212229 0.99931592 -0.015376627
169939622.64151 0.99960101 -0.016811848 0.00026310375 0.010546307 0.00026590924 0.010560813 0.9993915 -0.016082391
179935849.0566 0.99955118 -0.017401934 0.00028856355 0.011174369 0.00030988595 0.011175846 0.99935788 -0.016758412
189932075.4717 0.99964666 -0.018388629 0.00032888772 0.011835777 0.00034787087 0.011822155 0.99945301 -0.017696321
199928301.88679 0.99958616 -0.019572467 0.00038303528 0.012411939 0.00036879606 0.012434422 0.99935091 -0.018863112
209924528.30189 0.99933094 -0.020654529 0.0004242172 0.013083252 0.00042801176 0.013080158 0.99910378 -0.019992277
219920754.71698 0.9988451 -0.021778643 0.00082630431 0.013593159 0.00086512463 0.013582168 0.99846685 -0.020894617
229916981.13208 0.99883288 -0.022860497 0.00048555946 0.014129588 0.00047928421 0.014168285 0.99870276 -0.021899819
239913207.54717 0.99875426 -0.023815785 0.00050596532 0.014795517 0.00050965836 0.014832694 0.99867684 -0.02287503
249909433.96226 0.99879825 -0.024722368 0.0005768952 0.015432693 0.000557933 0.015450733 0.9987579 -0.023788482
259905660.37736 0.99905503 -0.025554359 0.00056625437 0.016068744 0.00059216842 0.016074851 0.99894643 -0.024667859
269901886.79245 0.99915236 -0.026495516 0.00063425209 0.016708236 0.0006643415 0.016676325 0.99928743 -0.025566325
279898113.20755 0.99919617 -0.027511045 0.00065767951 0.017252492 0.00067786011 0.017313343 0.99906713 -0.026625112
289894339.62264 0.99916148 -0.028481424 0.00075985584 0.017953534 0.00069818273 0.017909095 0.99901718 -0.027743012
299890566.03774 0.99900335 -0.02947107 0.00076246727 0.018478122 0.00077114301 0.018562974 0.99875009 -0.028493017
309886792.45283 0.99864566 -0.030306533 0.00082036899 0.019183669 0.0007876145 0.019156951 0.99849671 -0.029232897
319883018.86792 0.9985038 -0.031163573 0.00087972172 0.019752953 0.00088488963 0.019772034 0.99846196 -0.030060917
329879245.28302 0.99835098 -0.03211087 0.00086975563 0.020384176 0.00089668669 0.020347554 0.99852908 -0.030954748
339875471.69811 0.99824673 -0.033124954 0.00095922383 0.02097233 0.00097433524 0.02100612 0.99842435 -0.031980857
349871698.11321 0.99846029 -0.034266442 0.0010827365 0.021606229 0.0010604272 0.021635816 0.99850518 -0.033259362
359867924.5283 0.99834073 -0.035301208 0.0010876879 0.02219929 0.0010696724 0.022236573 0.99851882 -0.03442663
369864150.9434 0.99857736 -0.036442637 0.0011762944 0.022797577 0.0011343323 0.022859043 0.99843889 -0.03553471
379860377.35849 0.99835199 -0.037414789 0.0011943299 0.023467861 0.0012143918 0.023412008 0.99825966 -0.036418781
389856603.77358 0.99830377 -0.03817749 0.0012636269 0.024013851 0.0012621172 0.024037469 0.99823308 -0.037168056
399852830.18868 0.99799728 -0.039143026 0.0013253046 0.024636546 0.0013266699 0.024666831 0.99823654 -0.037856013
409849056.60377 0.99787039 -0.039834462 0.0014159845 0.025230287 0.0014054148 0.025259381 0.99819559 -0.038586304
419845283.01887 0.9978652 -0.040602595 0.0014666915 0.025858041 0.0014556972 0.025860732 0.99826276 -0.039459854
429841509.43396 0.99793899 -0.041442126 0.0015040701 0.026476225 0.0015381202 0.026519336 0.99826014 -0.040560097
439837735.84906 0.99773693 -0.042676985 0.0015844072 0.027092213 0.0016421957 0.02711883 0.99801791 -0.041752644
449833962.26415 0.99763864 -0.043805301 0.0017160084 0.027653804 0.0016936776 0.02772706 0.99765861 -0.042894453
459830188.67925 0.99747157 -0.04500398 0.0017433567 0.02829681 0.0017622001 0.028307468 0.99742752 -0.043964058
469826415.09434 0.99734318 -0.046078652 0.0018308843 0.028906267 0.0018132329 0.028954849 0.99712831 -0.044747353
479822641.50943 0.99721479 -0.046831787 0.0019349291 0.029492415 0.0018572649 0.029549444 0.99713516 -0.04546164
489818867.92453 0.99728453 -0.04762423 0.0019772612 0.030081097 0.0019906694 0.0301551 0.99742568 -0.046357781
499815094.33962 0.99731296 -0.04845956 0.0020579146 0.030667853 0.0020373845 0.030738942 0.99769878 -0.047166109
509811320.75472 0.9974668 -0.049190607 0.0021496853 0.031287536 0.0020996402 0.03134973 0.99773562 -0.048319079
519807547.16981 0.99731982 -0.050029576 0.002205289 0.031870566 0.0022127414 0.031953435 0.9977119 -0.049382836
529803773.58491 0.99724734 -0.051025361 0.0022486877 0.032467719 0.0023068516 0.032577205 0.99729073 -0.050347507
539800000 0.99712199 -0.051970154 0.0023621372 0.033093125 0.0023305193 0.03317314 0.99702251 -0.051335752
549796226.41509 0.99678761 -0.05317384 0.0024296707 0.033791095 0.0024098605 0.033799082 0.99667954 -0.052090079
559792452.83019 0.99646723 -0.054204375 0.0025256164 0.034327433 0.0025341585 0.034391072 0.99651402 -0.052841842
569788679.24528 0.99627113 -0.055121154 0.0025839554 0.034920894 0.0026013497 0.03495615 0.99662441 -0.05377683
579784905.66038 0.99624884 -0.055917919 0.0027141492 0.035567973 0.0026715596 0.035567202 0.99678916 -0.054833002
589781132.07547 0.99639165 -0.056842059 0.0027775904 0.036166999 0.0027378211 0.036199044 0.99687827 -0.056015879
599777358.49057 0.99650121 -0.057747334 0.0028901724 0.036779985 0.0028859787 0.036796182 0.99682999 -0.057067633
609773584.90566 0.99659514 -0.058828041 0.0029931578 0.037321951 0.0029777624 0.037405193 0.99662733 -0.058233552
619769811.32075 0.9965629 -0.05978173 0.003075284 0.037965257 0.0030847946 0.03799209 0.99646652 -0.058983028
629766037.73585 0.99623185 -0.060707271 0.0032094419 0.038546275 0.003164703 0.038589813 0.99610353 -0.059713781
639762264.15094 0.9959358 -0.06162262 0.0033058608 0.0391066 0.0032608639 0.03915669 0.99592572 -0.060462773
649758490.56604 0.99569732 -0.062462777 0.0033639846 0.03971203 0.0033539254 0.03975983 0.99591881 -0.06114544
659754716.98113 0.99550849 -0.063234031 0.0034005027 0.040306307 0.0033878293 0.040385358 0.99590516 -0.062008679
669750943.39623 0.99538761 -0.064097434 0.0035134088 0.040911056 0.003491343 0.040957972 0.99593252 -0.063113719
679747169.81132 0.99538666 -0.065093771 0.0036376163 0.041541323 0.0036120091 0.041585781 0.99581289 -0.064360306
689743396.22642 0.99551582 -0.066262305 0.003719423 0.042151216 0.003758857 0.042221211 0.99554288 -0.065660357
699739622.64151 0.99561262 -0.067293584 0.0038667601 0.042748637 0.0038416684 0.042789459 0.99542451 -0.066588998
709735849.0566 0.99551868 -0.068477303 0.0039800694 0.043324139 0.0040006153 0.043393955 0.99509138 -0.067453437
719732075.4717 0.99537796 -0.069432557 0.0041194102 0.043913186 0.0040485393 0.043946132 0.99512416 -0.06830436
729728301.88679 0.99506956 -0.070206672 0.0042082928 0.044476219 0.0041607115 0.044535346 0.995116 -0.068961352
739724528.30189 0.99489146 -0.070993513 0.0042818375 0.045084585 0.0042734444 0.045137279 0.99526882 -0.069857895
749720754.71698 0.99478674 -0.071789443 0.0044214875 0.045671642 0.0044215759 0.045750417 0.99519289 -0.070864424
759716981.13208 0.99465477 -0.072506994 0.0045295916 0.046266913 0.0044967216 0.046312749 0.99504691 -0.071906239
769713207.54717 0.99453598 -0.073574454 0.0046043415 0.046852365 0.0046037957 0.046945006 0.99470669 -0.072873503
779709433.96226 0.99468911 -0.074488476 0.0047492711 0.047466446 0.0047278861 0.047517095 0.99431247 -0.073858209
789705660.37736 0.99446464 -0.075795054 0.0048293062 0.048045143 0.0048338771 0.04813116 0.99395895 -0.074803978
799701886.79245 0.99428582 -0.076880425 0.0049640089 0.048670001 0.0049515776 0.048686314 0.99380326 -0.075673133
809698113.20755 0.99420273 -0.077747658 0.0050360658 0.049213503 0.0049951249 0.049311042 0.99386305 -0.076361254
819694339.62264 0.9939037 -0.078669429 0.0051723225 0.049782969 0.0051554712 0.049904268 0.99389666 -0.07727021
829690566.03774 0.99383461 -0.079474747 0.0052903648 0.050378658 0.0052775014 0.050476037 0.99404275 -0.078434885
839686792.45283 0.99380827 -0.080212891 0.0053707473 0.05100577 0.0053842375 0.051046267 0.99405277 -0.079540044
849683018.86792 0.99383336 -0.081119858 0.0054999664 0.051625993 0.0055496376 0.051712494 0.99383944 -0.080628246
859679245.28302 0.99380076 -0.082092375 0.0056331754 0.052261561 0.0056681093 0.052306764 0.9935019 -0.081480235
869675471.69811 0.99353337 -0.083167672 0.0058252644 0.052845772 0.0058021992 0.052919704 0.99300557 -0.082278699
879671698.11321 0.99336505 -0.084196292 0.0059728874 0.053421177 0.0059614177 0.053530883 0.99278939 -0.08306022
889667924.5283 0.99295884 -0.085366786 0.006173294 0.054043598 0.0061794044 0.054162927 0.99252933 -0.08382678
899664150.9434 0.99250925 -0.086382568 0.0064665694 0.054652151 0.0064706169 0.054734077 0.99232388 -0.084832996
909660377.35849 0.99221331 -0.087022334 0.0067091733 0.054881949 0.0066834623 0.054963853 0.99224371 -0.08560963
919656603.77358 0.99248087 -0.087786645 0.0065719159 0.055351481 0.0066089556 0.055448797 0.99240148 -0.086697519
929652830.18868 0.99260223 -0.088843703 0.0065931436 0.055965111 0.0066118594 0.056006603 0.9921841 -0.087842226
939649056.60377 0.99272299 -0.089749545 0.0066421237 0.056544416 0.0066230427 0.056641515 0.99207795 -0.088893324
949645283.01887 0.99262786 -0.090965427 0.0066978717 0.057177901 0.0067094681 0.057267699 0.99172658 -0.089645147
959641509.43396 0.99244893 -0.091858268 0.0067918785 0.057837293 0.0068119783 0.0579492 0.99160683 -0.090449035
969637735.84906 0.99222088 -0.092798769 0.0069589131 0.058463465 0.006947957 0.058572348 0.99155271 -0.091030926
979633962.26415 0.99193478 -0.093788885 0.0071173655 0.059023999 0.0071106502 0.059125986 0.99148762 -0.091996014
989630188.67925 0.99180061 -0.094546422 0.0072443997 0.059613835 0.0071907435 0.059758842 0.99149615 -0.092851236
999626415.09434 0.99174565 -0.09545663 0.0073438138 0.060208105 0.0073593035 0.060354095 0.99140126 -0.094001979
1009622641.5094 0.99173498 -0.09652552 0.0074452469 0.060824774 0.0075248489 0.060946058 0.99108928 -0.095116332
1019618867.9245 0.99173951 -0.097672947 0.0076293214 0.061432738 0.0076481239 0.061534911 0.99072593 -0.096350938
1029615094.3396 0.9916451 -0.09893164 0.0078146178 0.062040053 0.0078482274 0.062103309 0.99030042 -0.097119719
1039611320.7547 0.99154061 -0.10001412 0.0079315044 0.062571228 0.0079861116 0.062703244 0.99006784 -0.098111361
1049607547.1698 0.99127644 -0.10117187 0.0080794413 0.063116454 0.0081155691 0.063253216 0.98999691 -0.098877944
1059603773.5849 0.99104023 -0.10207528 0.0082360543 0.063627705 0.0082802717 0.063821495 0.98991287 -0.09967795
1069600000 0.99054503 -0.10298973 0.0083258785 0.064188883 0.0083773993 0.064401165 0.99002337 -0.10064504
1079596226.4151 0.99045962 -0.1037626 0.008425639 0.064784832 0.0085169114 0.064965069 0.98976117 -0.10161917
1089592452.8302 0.99033284 -0.10465677 0.0086029414 0.065396674 0.0086950539 0.065556228 0.98957694 -0.10267909
1099588679.2453 0.99030125 -0.10551772 0.008723123 0.065973051 0.0087841861 0.066112339 0.98912615 -0.10348013
1109584905.6604 0.99031812 -0.10665476 0.008879181 0.066580512 0.0089449678 0.06669867 0.98875999 -0.10428631
1119581132.0755 0.99018323 -0.10800744 0.0089913439 0.067192458 0.0090804696 0.067295194 0.98846155 -0.10499097
1129577358.4906 0.98986614 -0.10908476 0.0091455299 0.067757152 0.0092414673 0.067938134 0.98830199 -0.10563099
1139573584.9057 0.98942959 -0.11025867 0.0093078874 0.068319693 0.0094294548 0.06849549 0.98821801 -0.10666052
1149569811.3208 0.98913926 -0.11129605 0.0094989808 0.068870008 0.0096437559 0.069053546 0.98825204 -0.10772181
1159566037.7358 0.98886943 -0.1122154 0.0096300486 0.069410086 0.0097709242 0.069592804 0.98823088 -0.10898864
1169562264.1509 0.98864007 -0.11304983 0.0097493827 0.069951378 0.0098577458 0.070131965 0.98791903 -0.11002177
1179558490.566 0.98845953 -0.11405016 0.0098488256 0.070613161 0.010002704 0.070729017 0.98773003 -0.11085474
1189554716.9811 0.98837227 -0.11494529 0.010030277 0.071207643 0.010182362 0.071296267 0.98724848 -0.11163339
1199550943.3962 0.98818481 -0.11602303 0.010158302 0.071771555 0.010308245 0.071859673 0.9869743 -0.11219728
1209547169.8113 0.98788738 -0.11715446 0.010309834 0.072367646 0.01047465 0.072450556 0.98688871 -0.11279805
1219543396.2264 0.98746753 -0.11827263 0.010479844 0.072968781 0.010596073 0.073087476 0.98684639 -0.11348643
1229539622.6415 0.98710203 -0.11938232 0.010663446 0.073512048 0.01082707 0.073681749 0.98684514 -0.11449525
1239535849.0566 0.98676145 -0.12040025 0.010807389 0.074067391 0.011006888 0.074251734 0.98680437 -0.1156913
1249532075.4717 0.98633021 -0.12127557 0.011010472 0.074685208 0.011172839 0.074729718 0.98646498 -0.11679063
1259528301.8868 0.98599541 -0.12203974 0.011162177 0.075253919 0.011403838 0.075337283 0.98607075 -0.1178965
1269524528.3019 0.98572159 -0.12301153 0.011397237 0.075832389 0.011553846 0.075828731 0.98573995 -0.11886576
1279520754.717 0.98523605 -0.12397185 0.011541351 0.076334305 0.011709357 0.076310568 0.98538589 -0.11957666
1289516981.1321 0.9849546 -0.12495127 0.011695402 0.0768736 0.011880713 0.076849729 0.98531032 -0.12024102
1299513207.5472 0.98448443 -0.12597272 0.011826187 0.077425435 0.011991195 0.077422373 0.98530936 -0.12090039
1309509433.9623 0.98395103 -0.12693073 0.011936103 0.077944197 0.012133623 0.077997141 0.98532104 -0.12187858
1319505660.3774 0.98338664 -0.12786341 0.012080944 0.078546792 0.012250034 0.078527801 0.98525214 -0.12269242
1329501886.7925 0.9829185 -0.12878177 0.012233134 0.079116106 0.012418795 0.079066537 0.98504293 -0.12393078
1339498113.2075 0.98256826 -0.12951523 0.012368301 0.079634607 0.012590496 0.079605028 0.98453844 -0.1248692
1349494339.6226 0.98234355 -0.13043976 0.012511978 0.080252476 0.012634833 0.080204628 0.9840337 -0.12572044
1359490566.0377 0.98203558 -0.13126081 0.01261932 0.080864191 0.01277373 0.080754802 0.98373508 -0.12654603
1369486792.4528 0.98176992 -0.13212037 0.012807146 0.081460766 0.012914659 0.081362911 0.98336303 -0.12725028
1379483018.8679 0.98132384 -0.13290548 0.012920294 0.082051091 0.013041106 0.081964694 0.98329371 -0.12780637
1389479245.283 0.98081499 -0.13362658 0.013110276 0.08264786 0.013202678 0.082585149 0.98319584 -0.12875316
1399475471.6981 0.98028278 -0.13419515 0.01320703 0.083227411 0.013323195 0.083138652 0.98327577 -0.12964559
1409471698.1132 0.97981507 -0.1347352 0.013386561 0.083810546 0.013494726 0.083756134 0.98305058 -0.13067843
1419467924.5283 0.97953379 -0.13524123 0.013502091 0.084465146 0.013626114 0.084395811 0.98284948 -0.13163784
1429464150.9434 0.97929811 -0.13585103 0.013683818 0.085104637 0.013758238 0.084990792 0.98259938 -0.13237506
1439460377.3585 0.97927552 -0.13664919 0.01394565 0.085824378 0.013947971 0.085682832 0.98216337 -0.13291305
1449456603.7736 0.97923738 -0.13750921 0.014212559 0.086483642 0.014182065 0.086309433 0.98191971 -0.13349926
1459452830.1887 0.97908473 -0.13847616 0.01447197 0.087091506 0.014466912 0.086977489 0.981897 -0.13410455
1469449056.6038 0.97896606 -0.13944203 0.014760239 0.087677918 0.014735593 0.087560363 0.98201138 -0.13511983
1479445283.0189 0.97867799 -0.14025146 0.01500141 0.088159449 0.014969554 0.08806733 0.98186505 -0.13624695
1489441509.434 0.97843271 -0.14103067 0.015287139 0.08868818 0.01528345 0.088679262 0.98154646 -0.13738474
1499437735.8491 0.97815895 -0.14155436 0.015566835 0.089222685 0.015502691 0.089135423 0.98132652 -0.1384303
1509433962.2642 0.97797507 -0.14226009 0.015800104 0.08972387 0.015738653 0.089635663 0.98095882 -0.13928871
1519430188.6792 0.97792912 -0.14299345 0.015998827 0.090235084 0.015947023 0.090113997 0.98077291 -0.14007071
1529426415.0943 0.97777927 -0.14393705 0.01622083 0.09075202 0.016103033 0.090631671 0.98054004 -0.14065373
1539422641.5094 0.97762448 -0.14499348 0.016407318 0.091273487 0.016343813 0.091153979 0.98054451 -0.14139299
1549418867.9245 0.97732675 -0.14598802 0.016642675 0.09174291 0.016522029 0.091704808 0.98058027 -0.14226161
1559415094.3396 0.97702932 -0.1468643 0.016815543 0.09219943 0.016726334 0.092186093 0.98056245 -0.14325252
1569411320.7547 0.97669184 -0.14784735 0.016976971 0.092672929 0.016951662 0.092706777 0.98033613 -0.14428371
1579407547.1698 0.97650844 -0.14848614 0.017140981 0.093130186 0.017041085 0.093148835 0.97980589 -0.14519772
1589403773.5849 0.97640812 -0.14939782 0.017251238 0.09363544 0.017160974 0.093637012 0.97944057 -0.14615041
1599400000 0.97632623 -0.15005356 0.017373566 0.09417741 0.017257752 0.094145432 0.9789356 -0.14686367
1609396226.4151 0.97611767 -0.15099306 0.017494582 0.094755493 0.017343439 0.094732195 0.97872239 -0.14761931
1619392452.8302 0.97600591 -0.1518338 0.017599154 0.095361069 0.017441373 0.095347025 0.97860056 -0.14839923
1629388679.2453 0.97554439 -0.15269229 0.017778523 0.095945194 0.017611533 0.095929146 0.97868168 -0.14921248
1639384905.6604 0.97517258 -0.15363219 0.017875552 0.096494488 0.017777981 0.096633136 0.97876495 -0.15033905
1649381132.0755 0.97482187 -0.15455145 0.018058332 0.097084075 0.017949104 0.097228892 0.97859329 -0.15149459
1659377358.4906 0.97442472 -0.1554952 0.018209413 0.097662553 0.018152945 0.097792119 0.97831357 -0.15248364
1669373584.9057 0.97425419 -0.15615457 0.018373257 0.098283119 0.018315291 0.09836296 0.97792 -0.15332916
1679369811.3208 0.97424823 -0.15715532 0.018621195 0.098949581 0.018531293 0.09900476 0.97749621 -0.15408231
1689366037.7358 0.97402793 -0.1580061 0.018797167 0.09952642 0.01868479 0.099582732 0.97713345 -0.15447605
1699362264.1509 0.97405738 -0.15885748 0.019064741 0.10011943 0.018915702 0.10018259 0.97726524 -0.15524983
1709358490.566 0.97378492 -0.15982901 0.019258128 0.10069322 0.019076001 0.10080592 0.97713727 -0.15597488
1719354716.9811 0.97338569 -0.16057533 0.019422129 0.101245 0.019332346 0.10142648 0.97705203 -0.15708467
1729350943.3962 0.97290671 -0.16136593 0.019626489 0.10189269 0.019557018 0.1020074 0.97684944 -0.1582627
1739347169.8113 0.97264266 -0.16194513 0.019882504 0.10248628 0.01985441 0.10267973 0.97664928 -0.15937802
1749343396.2264 0.97226107 -0.16256529 0.020214509 0.10306881 0.020050697 0.10323016 0.97630858 -0.1604225
1759339622.6415 0.9722023 -0.16323069 0.020395704 0.10364371 0.020338975 0.10375788 0.97596514 -0.16118965
