!Keysight Technologies,N5222B,MY61253708,A.15.00.15
!Date: Wednesday, June 19, 2024 10:14:00
!Correction: S11(C  2-Port  ) 
!S21(C  2-Port  ) 
!S12(C  2-Port  ) 
!S22(C  2-Port  ) 
!S2P File: Measurements: S11, S21, S12, S22:
# Hz S  RI   R 50
10000000 0.99859601 -0.0032148659 7.8481564e-005 0.00051866448 8.2037164e-005 0.00024699233 0.99874723 -0.0017190278
19996226.415094 1.0000575 -0.0024237633 -3.3080345e-005 0.00058149034 6.0736784e-005 0.00073589431 1.0001826 -0.0025091469
29992452.830189 0.9996894 -0.0024684966 -3.4839279e-005 0.00096351292 1.0971242e-005 0.0010758141 0.99955589 -0.0026087165
39988679.245283 1.0001024 -0.0030076504 -2.517784e-005 0.0013373606 -1.637949e-006 0.0012968717 0.9996857 -0.0030028969
49984905.660377 1.0002539 -0.0036713183 -2.3943314e-005 0.0016113226 2.0526466e-005 0.0016257511 0.9999314 -0.0035735667
59981132.075472 1.0004539 -0.0045303106 -3.0989526e-005 0.0019537979 1.653441e-005 0.0019511663 0.99994165 -0.0041213036
69977358.490566 1.0002966 -0.0051564593 1.246604e-005 0.0022910088 1.5233985e-005 0.0022996641 0.99978191 -0.0046971589
79973584.90566 0.99995589 -0.0057196915 1.9724597e-005 0.0026021283 1.4721649e-005 0.0025868982 0.99947685 -0.005120337
89969811.320755 0.99997562 -0.0057303607 3.6107143e-005 0.0029524455 2.331147e-005 0.0029411411 0.99968576 -0.0053314567
99966037.735849 1.0002354 -0.0064789206 5.2643183e-005 0.0032555403 1.277338e-005 0.0032413355 0.99978948 -0.0061197132
109962264.15094 1.0002524 -0.0073350072 3.7865189e-005 0.0035976421 1.2889737e-005 0.0036139791 0.99978936 -0.0069276839
119958490.56604 1.0002596 -0.0082938969 3.5489327e-005 0.0039158277 2.4519162e-005 0.0039223609 0.999807 -0.0077860057
129954716.98113 1.0002136 -0.0092335045 2.3301109e-005 0.0042342898 4.2065978e-005 0.0042678276 0.99979079 -0.0086011589
139950943.39623 1.0001513 -0.0099814143 2.8218841e-005 0.0045539397 3.161488e-005 0.0045798118 0.99970418 -0.0093249138
149947169.81132 1.0000241 -0.01071012 4.1957246e-005 0.0048996182 4.4067623e-005 0.0049042865 0.99965978 -0.0099259019
159943396.22642 0.99998224 -0.011225045 4.9393391e-005 0.0052303444 5.5795768e-005 0.005229299 0.99973238 -0.010411769
169939622.64151 0.99993044 -0.011650562 4.722731e-005 0.0055419877 6.2322419e-005 0.0055712494 0.9997617 -0.010850601
179935849.0566 1.0000277 -0.011854261 6.4102351e-005 0.0059040575 8.9824549e-005 0.0059010517 0.999699 -0.011217088
189932075.4717 1.0001171 -0.01266858 6.0768798e-005 0.0062005129 9.17078e-005 0.0062211468 0.99988925 -0.011740565
199928301.88679 1.0000565 -0.013450176 0.00010983809 0.0065261032 8.8546425e-005 0.0065424941 0.99975353 -0.012638032
209924528.30189 0.99988878 -0.014003038 0.00010057294 0.0068526343 0.00010683527 0.0068563926 0.99954814 -0.013254777
219920754.71698 0.99998176 -0.014793962 8.8950153e-005 0.0071571963 9.8162331e-005 0.0072033042 0.99945533 -0.013840884
229916981.13208 0.99977666 -0.015638798 0.00011260808 0.0075162402 0.00011169887 0.0075306669 0.999475 -0.014655113
239913207.54717 0.99965125 -0.016358603 0.00013484113 0.007800342 0.00012543536 0.0078671491 0.99945068 -0.015339896
249909433.96226 0.99965298 -0.016933709 0.00013932516 0.0081492681 0.00014867075 0.0081709418 0.99951202 -0.015983254
259905660.37736 0.99971223 -0.017531753 0.00019461336 0.0084811067 0.00019228319 0.0085285213 0.99966872 -0.016495973
269901886.79245 0.99991375 -0.018171772 0.00018868549 0.0087881954 0.00021464552 0.0088482518 1.0000513 -0.017227724
279898113.20755 0.99996227 -0.018741712 0.00015318161 0.0091345003 0.00017481577 0.0091998363 0.99988401 -0.017893389
289894339.62264 0.99989527 -0.019551963 0.00018126098 0.0094436985 0.00017673848 0.0095048659 0.99976647 -0.018676221
299890566.03774 0.99983901 -0.020090848 0.00022911699 0.0097893653 0.0002126405 0.0098692849 0.99954391 -0.019133776
309886792.45283 0.99965352 -0.020620719 0.00020492089 0.010124644 0.00020336284 0.010129482 0.99950767 -0.019570075
319883018.86792 0.99969101 -0.021230727 0.00019905949 0.010440294 0.00019559264 0.010496279 0.99963272 -0.020042837
329879245.28302 0.99969572 -0.022081554 0.0002246364 0.010756598 0.0002395222 0.010775405 0.99974799 -0.020796597
339875471.69811 0.99961156 -0.022778086 0.00024969864 0.011080591 0.00024126959 0.011117239 0.99967182 -0.021604784
349871698.11321 0.99973917 -0.023625582 0.00026690541 0.011422035 0.0002321552 0.011451652 0.99972641 -0.022527695
359867924.5283 0.99961102 -0.024365634 0.00026523555 0.011708102 0.00028777868 0.011796923 0.99963242 -0.023345351
369864150.9434 0.99972337 -0.025144666 0.00028891675 0.012082024 0.00028011133 0.012079958 0.9995904 -0.024149954
379860377.35849 0.99963737 -0.02588442 0.00030070241 0.01235843 0.00032027648 0.012444906 0.99959302 -0.024810478
389856603.77358 0.99962056 -0.026414216 0.00033377344 0.012711888 0.00031779427 0.012744337 0.99951756 -0.025334388
399852830.18868 0.99930519 -0.027069718 0.00030042464 0.01302501 0.00033375854 0.013052216 0.99950606 -0.025808901
409849056.60377 0.99933261 -0.027469968 0.00035140669 0.013354735 0.0003609799 0.013416163 0.99950355 -0.026365027
419845283.01887 0.9992857 -0.027950883 0.00037046429 0.013641143 0.00039365282 0.013766901 0.99938071 -0.026867062
429841509.43396 0.99941206 -0.028581917 0.00038608862 0.014022173 0.00039081043 0.01409874 0.99957323 -0.027596921
439837735.84906 0.99928325 -0.02950497 0.00040369923 0.014317203 0.00044081931 0.014394605 0.99937582 -0.028605491
449833962.26415 0.99912632 -0.03024894 0.00043334113 0.014630539 0.00043631578 0.014685105 0.99885678 -0.029394358
459830188.67925 0.99898553 -0.030948311 0.00041251536 0.01493561 0.00040452136 0.015007438 0.99857295 -0.030009478
469826415.09434 0.99888629 -0.031560153 0.00044775521 0.015314193 0.00044590887 0.015345403 0.99832189 -0.030472875
479822641.50943 0.99879575 -0.032154597 0.00049491413 0.015627081 0.00046082446 0.015706116 0.99830168 -0.030829906
489818867.92453 0.99893272 -0.032733113 0.00049867155 0.015961941 0.00050444016 0.016019199 0.99858522 -0.031358868
499815094.33962 0.99896109 -0.033271164 0.00053608278 0.01628232 0.00056087598 0.016312715 0.99885237 -0.031838655
509811320.75472 0.99905813 -0.033672664 0.00055287837 0.016577488 0.00052972557 0.016608 0.99899179 -0.032644775
519807547.16981 0.99897712 -0.034287214 0.00059356401 0.016913997 0.00056480989 0.016957983 0.99900299 -0.033273518
529803773.58491 0.99893665 -0.034848779 0.00056181941 0.017266395 0.000586804 0.017280022 0.99879992 -0.033770591
539800000 0.99911082 -0.035485342 0.00057945936 0.017575538 0.00060296105 0.017634319 0.99865115 -0.034371704
549796226.41509 0.99891621 -0.036310792 0.00058100186 0.017899664 0.00064692041 0.01797173 0.998514 -0.034816951
559792452.83019 0.99879968 -0.037000239 0.00061932765 0.018226426 0.00065982249 0.018320408 0.99849707 -0.035305977
569788679.24528 0.99865329 -0.037640661 0.00066542905 0.018543476 0.00067640049 0.018598503 0.99875295 -0.0361031
579784905.66038 0.99858171 -0.038235009 0.00067261897 0.01886688 0.00072874816 0.018966105 0.99881679 -0.036749177
589781132.07547 0.99869442 -0.038918853 0.00069841184 0.019182682 0.00069757458 0.0192925 0.99892175 -0.037654966
599777358.49057 0.99881172 -0.039505571 0.00074224453 0.019501332 0.00075397827 0.019601032 0.99902397 -0.038343281
609773584.90566 0.99895555 -0.040240038 0.00077678816 0.019834446 0.00074983272 0.019973006 0.99882752 -0.039222009
619769811.32075 0.99899691 -0.040941447 0.00080008106 0.020155862 0.00084624253 0.020269953 0.99877405 -0.03977102
629766037.73585 0.99891704 -0.041514367 0.00085088145 0.020465365 0.00081680529 0.0205565 0.99871743 -0.040234566
639762264.15094 0.99876434 -0.042259187 0.00085709291 0.020822298 0.00084894849 0.020830726 0.99852365 -0.040772557
649758490.56604 0.99864364 -0.042800933 0.00084219454 0.021065742 0.00088707684 0.021172496 0.99867159 -0.041195527
659754716.98113 0.99851918 -0.043361396 0.00085246004 0.021430064 0.0008853646 0.021531094 0.99879909 -0.041748047
669750943.39623 0.99853361 -0.043725044 0.00087767607 0.021761917 0.00090873195 0.021865901 0.99886358 -0.042517781
679747169.81132 0.99852735 -0.04457745 0.00096072524 0.022123182 0.00093173573 0.022195831 0.99881005 -0.043438829
689743396.22642 0.99872959 -0.045328349 0.00097545329 0.022460952 0.0010269778 0.022512475 0.99864846 -0.044360787
699739622.64151 0.99881363 -0.046098202 0.001026554 0.022742603 0.0010254625 0.022866238 0.99862856 -0.045052707
709735849.0566 0.998752 -0.047061831 0.0010562448 0.023064073 0.0010694246 0.023148712 0.99832249 -0.045666531
719732075.4717 0.99860054 -0.04777208 0.0010975967 0.023405138 0.0011145123 0.023459788 0.99841309 -0.046347648
729728301.88679 0.99855173 -0.048218071 0.0011243196 0.023690263 0.0010879692 0.023789724 0.99841893 -0.046790421
739724528.30189 0.99844813 -0.048855335 0.0011703749 0.024006462 0.0011641923 0.024149712 0.99863386 -0.047498226
749720754.71698 0.99838251 -0.049378976 0.001198444 0.024345059 0.0011839792 0.024425549 0.99860162 -0.048216626
759716981.13208 0.99840033 -0.049972326 0.0012107389 0.024643656 0.0012225611 0.024772918 0.99860251 -0.048956782
769713207.54717 0.99840355 -0.050599039 0.0012401622 0.024938066 0.0012731589 0.025022831 0.9983505 -0.049670488
779709433.96226 0.99850076 -0.051280119 0.0012656283 0.025277549 0.0012593496 0.02541291 0.99809307 -0.050250821
789705660.37736 0.99831271 -0.052099466 0.0013216157 0.025571356 0.0012863427 0.025665512 0.99778146 -0.050975084
799701886.79245 0.99831498 -0.052909136 0.0013462594 0.025915965 0.0013248781 0.026010178 0.99768841 -0.051539838
809698113.20755 0.99822879 -0.053458109 0.0013665 0.026191846 0.0013503798 0.026353283 0.99773997 -0.052031085
819694339.62264 0.99802262 -0.054119885 0.0014062752 0.02654531 0.0013680286 0.026655117 0.99778455 -0.05260548
829690566.03774 0.99805129 -0.054732025 0.0014241114 0.026852267 0.0014464445 0.026979443 0.99795413 -0.053478211
839686792.45283 0.99811506 -0.055204779 0.0014379583 0.027158285 0.0014227624 0.027291615 0.99797273 -0.054262072
849683018.86792 0.99816751 -0.055866845 0.0014597478 0.02749557 0.0014648759 0.027621936 0.99789143 -0.054964378
859679245.28302 0.99824494 -0.056559026 0.0014971187 0.027805418 0.0015032068 0.027953973 0.9976598 -0.055607051
869675471.69811 0.99815011 -0.057254255 0.0015585646 0.028154321 0.0015491517 0.028281495 0.99727321 -0.05611074
879671698.11321 0.99805248 -0.057823718 0.0015683407 0.028428771 0.0015671935 0.028547581 0.99728757 -0.056528814
889667924.5283 0.99793488 -0.058735073 0.0016021319 0.028725222 0.0016060667 0.028846532 0.99716884 -0.05697301
899664150.9434 0.99771643 -0.059339553 0.0016290648 0.029059265 0.0016318001 0.029184617 0.99721801 -0.057617038
909660377.35849 0.99773306 -0.060000807 0.0016577053 0.029394565 0.0016498887 0.029478343 0.99728191 -0.058373511
919656603.77358 0.99781901 -0.06061399 0.0016535814 0.029698756 0.0016799434 0.029816622 0.99735594 -0.059253886
929652830.18868 0.99773264 -0.061363876 0.0017172806 0.029987238 0.0017123418 0.030134063 0.99717391 -0.06009379
939649056.60377 0.99792272 -0.062012583 0.0017106412 0.030296348 0.0016997103 0.030445859 0.9970333 -0.060779333
949645283.01887 0.99787337 -0.062860139 0.0017046757 0.030638233 0.0017058658 0.030761963 0.99686205 -0.061362624
959641509.43396 0.99781346 -0.063519597 0.0017378898 0.030977549 0.0017597144 0.031119125 0.99674934 -0.061779082
969637735.84906 0.99776638 -0.06419614 0.0017869957 0.031337567 0.0017957157 0.031472486 0.99676013 -0.062122315
979633962.26415 0.99766046 -0.064964399 0.0018767079 0.031635296 0.001843987 0.031793814 0.99684107 -0.062751278
989630188.67925 0.99767554 -0.065470994 0.0018750653 0.031951092 0.0018878113 0.032105118 0.99699342 -0.063401729
999626415.09434 0.99768108 -0.066072077 0.0019276924 0.032242518 0.0019280594 0.032419875 0.99697453 -0.064130306
1009622641.5094 0.99772328 -0.06663692 0.0019329661 0.032583535 0.0019482868 0.032775488 0.99681926 -0.065024361
1019618867.9245 0.99787712 -0.06744507 0.0019879234 0.032907899 0.0020428915 0.033081729 0.99664783 -0.065808013
1029615094.3396 0.9978466 -0.068337649 0.00203925 0.033219665 0.0020719375 0.033361077 0.99622387 -0.066298366
1039611320.7547 0.99789411 -0.069178998 0.0020458288 0.033504866 0.0020978125 0.033665851 0.99625266 -0.066968739
1049607547.1698 0.99772877 -0.070073411 0.002083417 0.033805665 0.0021131416 0.033998646 0.99620813 -0.067536458
1059603773.5849 0.99764752 -0.070791692 0.0021175947 0.034073874 0.0021309964 0.034259036 0.99621868 -0.068057805
1069600000 0.99735731 -0.071459234 0.0021068016 0.034399077 0.002154123 0.034618404 0.99634057 -0.068826884
1079596226.4151 0.9973895 -0.072078042 0.0021246993 0.034747735 0.0021677301 0.034913599 0.99638063 -0.069578551
1089592452.8302 0.99739075 -0.072744757 0.0021567959 0.035075642 0.0021984065 0.035240024 0.99635929 -0.070294112
1099588679.2453 0.99743772 -0.073369384 0.0021492559 0.035371814 0.0022232272 0.035554864 0.99604225 -0.070886105
1109584905.6604 0.99762571 -0.074191704 0.0022047451 0.035723206 0.0022256924 0.035900943 0.99581444 -0.07149142
1119581132.0755 0.99755871 -0.075105563 0.0022002156 0.036054458 0.0022318219 0.036256 0.99561131 -0.071805447
1129577358.4906 0.99741852 -0.075812995 0.0022545569 0.036397401 0.0022951942 0.036593515 0.99547374 -0.072292358
1139573584.9057 0.99713981 -0.076750815 0.002321546 0.036739215 0.0023563746 0.036920711 0.99560404 -0.072909415
1149569811.3208 0.99705553 -0.077532969 0.0023384527 0.03705471 0.0023964983 0.037244789 0.99573189 -0.073671028
1159566037.7358 0.99685192 -0.078197181 0.0023743138 0.037340671 0.0024343068 0.037538771 0.9957993 -0.07471031
1169562264.1509 0.99668765 -0.078852147 0.0023695193 0.037645858 0.0024521202 0.037838839 0.99567783 -0.075458497
1179558490.566 0.99672699 -0.079679392 0.002412719 0.037997991 0.0024885137 0.03821899 0.99558485 -0.076166689
1189554716.9811 0.9966507 -0.080441475 0.0024261698 0.038344286 0.0025304817 0.038523622 0.99524981 -0.076733172
1199550943.3962 0.99663806 -0.081242085 0.0024658162 0.038687836 0.0025688577 0.038887858 0.99514079 -0.077136219
1209547169.8113 0.99643677 -0.082141772 0.002503572 0.039032068 0.0026089996 0.039170671 0.99503076 -0.077462882
1219543396.2264 0.996243 -0.082876429 0.0025463942 0.039384861 0.0026419875 0.039547618 0.99515003 -0.077833325
1229539622.6415 0.99596047 -0.083587021 0.0026168749 0.039679579 0.0027268007 0.039867468 0.99524838 -0.078501195
1239535849.0566 0.99573827 -0.0842219 0.0026875064 0.03999044 0.0027788403 0.040191047 0.99537838 -0.079375207
1249532075.4717 0.9954052 -0.084973529 0.0027169455 0.040298451 0.0028395075 0.040499292 0.99523026 -0.080131501
1259528301.8868 0.99526864 -0.085438997 0.0027817562 0.040655665 0.0028908681 0.040801033 0.9949162 -0.081000507
1269524528.3019 0.99509859 -0.086183041 0.0028346218 0.040939175 0.0029828213 0.041092664 0.99481785 -0.081725329
1279520754.717 0.99479991 -0.086978741 0.0029206432 0.041259311 0.0030093524 0.041345447 0.99447632 -0.082220614
1289516981.1321 0.99461681 -0.087725103 0.0029166508 0.041540012 0.0030235322 0.041665748 0.9945569 -0.082635492
1299513207.5472 0.994326 -0.088603944 0.0029208716 0.041833315 0.0030221678 0.041957792 0.99474525 -0.083082378
1309509433.9623 0.99393815 -0.089332864 0.0029475726 0.042104818 0.0030720057 0.042269528 0.99475998 -0.083800212
1319505660.3774 0.99356186 -0.090069085 0.0029538097 0.042460538 0.0030763131 0.042626385 0.99484622 -0.084436595
1329501886.7925 0.99331576 -0.090640128 0.0029580072 0.042781729 0.0030769147 0.042870935 0.9948386 -0.085378259
1339498113.2075 0.9930315 -0.091212511 0.0029879976 0.043127637 0.0030973414 0.043205291 0.99446392 -0.086046815
1349494339.6226 0.99287546 -0.091777653 0.0029842919 0.04343085 0.0030818963 0.043533452 0.99409866 -0.086620547
1359490566.0377 0.99273127 -0.092243791 0.0029951669 0.043764994 0.0030694585 0.043872334 0.9939239 -0.087123871
1369486792.4528 0.99255264 -0.092839748 0.0029821983 0.044113342 0.0030674506 0.044264957 0.9937973 -0.087594569
1379483018.8679 0.99225408 -0.093377963 0.0029974107 0.044524457 0.003054782 0.044590808 0.99379021 -0.08792188
1389479245.283 0.99198461 -0.093887061 0.0030520093 0.044892952 0.0031262543 0.04498833 0.99374425 -0.088575363
1399475471.6981 0.99157488 -0.094276249 0.0030774511 0.045208581 0.0031657405 0.045282345 0.99393576 -0.089320719
1409471698.1132 0.99121302 -0.094702907 0.0030979053 0.04558491 0.0031717701 0.045669928 0.99387521 -0.090076797
1419467924.5283 0.99114972 -0.095007181 0.0031241877 0.045941424 0.0031918874 0.046034187 0.9937607 -0.090787798
1429464150.9434 0.9909606 -0.095438987 0.0031742956 0.046337731 0.003228534 0.046430856 0.99367321 -0.091368526
1439460377.3585 0.99111801 -0.095905587 0.0032344088 0.046784922 0.003323134 0.046846863 0.99338347 -0.091784611
1449456603.7736 0.99115551 -0.096436694 0.0033553634 0.047189433 0.0034329863 0.047262292 0.99339473 -0.092019126
1459452830.1887 0.99111015 -0.097095937 0.0034717862 0.047552042 0.0035010725 0.047665067 0.9934414 -0.09235993
1469449056.6038 0.99112248 -0.097812861 0.0036474494 0.047895197 0.0036315033 0.047981348 0.99368286 -0.092956662
1479445283.0189 0.9909606 -0.098343521 0.0037534216 0.048177321 0.0037708608 0.048268005 0.99377507 -0.093862943
1489441509.434 0.99094784 -0.098780364 0.0038994215 0.048506632 0.0039175283 0.048588842 0.99369156 -0.094660282
1499437735.8491 0.99083829 -0.099186212 0.0040017534 0.048751906 0.0040069316 0.048852082 0.99360406 -0.095533669
1509433962.2642 0.99080497 -0.09970744 0.0040643443 0.049023937 0.0040880535 0.049112868 0.99341339 -0.096193321
1519430188.6792 0.99087256 -0.10027716 0.0041574202 0.049263813 0.0041560754 0.049379826 0.9933337 -0.09685567
1529426415.0943 0.99085903 -0.1009593 0.0042173378 0.049556233 0.0041813422 0.049669415 0.99317133 -0.097249866
1539422641.5094 0.99083692 -0.10173357 0.0042691459 0.049883831 0.0042495555 0.04996933 0.99331611 -0.097668245
1549418867.9245 0.99068618 -0.10251099 0.0042987792 0.050140977 0.0042826394 0.050214116 0.99348938 -0.098332211
1559415094.3396 0.99059105 -0.10315809 0.0043591838 0.050421178 0.0042686686 0.050543748 0.9936558 -0.099054426
1569411320.7547 0.99045014 -0.10386886 0.0043737143 0.050647087 0.0043682158 0.050816324 0.99359488 -0.099847272
1579407547.1698 0.99044043 -0.10438621 0.004410259 0.050951086 0.004390425 0.051088277 0.99314225 -0.10064796
1589403773.5849 0.99036849 -0.10491219 0.0044052992 0.051257819 0.0044028219 0.051394254 0.99303615 -0.10133985
1599400000 0.9902274 -0.10542041 0.0044181002 0.051492289 0.0043710703 0.051668432 0.99260175 -0.10184491
1609396226.4151 0.99024177 -0.10606212 0.004397654 0.05184567 0.0043746382 0.0519813 0.99249643 -0.10232469
1619392452.8302 0.99027789 -0.10666975 0.0044018123 0.052166328 0.0043582805 0.052327886 0.9924438 -0.10279036
1629388679.2453 0.98999625 -0.10732263 0.0044255108 0.052513167 0.0043683574 0.052697677 0.99269599 -0.10324031
1639384905.6604 0.98975134 -0.10802422 0.0044171298 0.05284813 0.0043611065 0.053066026 0.9928841 -0.10410974
1649381132.0755 0.98966181 -0.10866395 0.0044450238 0.053249739 0.0044112522 0.053406227 0.99293828 -0.10500428
1659377358.4906 0.98944855 -0.10944605 0.0044481177 0.0535894 0.0044431742 0.053766951 0.99285734 -0.10590336
1669373584.9057 0.98939133 -0.10984933 0.0044855271 0.053983107 0.0044471389 0.054141212 0.99250865 -0.10649984
1679369811.3208 0.98941576 -0.11049846 0.0044973055 0.054346919 0.0045142565 0.054525085 0.99237353 -0.10712928
1689366037.7358 0.98938918 -0.11122528 0.0045691524 0.054688588 0.0045198146 0.054903705 0.99222767 -0.10741019
1699362264.1509 0.98955041 -0.11177288 0.0046305899 0.05507822 0.0045375293 0.055295125 0.99243951 -0.10781716
1709358490.566 0.98945975 -0.11240126 0.0046843179 0.055427834 0.0045971638 0.055625908 0.99244028 -0.10841456
1719354716.9811 0.98908722 -0.11295822 0.0047258735 0.055779912 0.0046742316 0.056022037 0.99246216 -0.10907009
