!Keysight Technologies,N5222B,MY61253708,A.15.00.15
!Date: Wednesday, June 19, 2024 09:00:21
!Correction: S11(C  2-Port  ) 
!S21(C  2-Port  ) 
!S12(C  2-Port  ) 
!S22(C  2-Port  ) 
!S2P File: Measurements: S11, S21, S12, S22:
# Hz S  RI   R 50
10000000 0.99855554 -0.0020919144 -4.7462963e-006 0.00035802051 0.00018922376 0.00030604415 0.99871159 -0.00092810392
19996226.415094 0.99896216 -0.001893878 -9.7135169e-005 0.0007699671 4.8977556e-005 0.00067939109 0.99928725 -0.002158165
29992452.830189 0.99986583 -0.0023983121 -1.5629339e-005 0.0010142477 -4.2066211e-005 0.001023636 0.99950856 -0.0027349889
39988679.245283 1.0000972 -0.0031496882 1.88228e-005 0.0013794114 -3.0975163e-005 0.0014798758 0.99965656 -0.0032164603
49984905.660377 1.0002383 -0.0038357079 3.3253338e-005 0.0017554942 3.202731e-005 0.0017653694 0.99979842 -0.0038147569
59981132.075472 1.0003467 -0.0047245324 1.9973784e-005 0.0021393101 -1.1024124e-005 0.0021434613 0.99972624 -0.0043490529
69977358.490566 1.0000532 -0.0052632634 1.8270206e-005 0.0024400926 2.5500587e-005 0.0024917948 0.99957287 -0.0048750378
79973584.90566 0.99980187 -0.0058821142 1.2841541e-005 0.0028082458 3.5212492e-005 0.0028319384 0.99931836 -0.0053653717
89969811.320755 0.99981821 -0.0060757101 -3.9901352e-006 0.0031696833 4.3796143e-005 0.0031911882 0.99947095 -0.0057364106
99966037.735849 1.0000732 -0.0068113804 3.2941112e-005 0.0035149157 3.1984353e-005 0.0035648274 0.99953264 -0.0065299273
109962264.15094 1.0001013 -0.0077572465 5.0569302e-005 0.0038765329 4.8038433e-005 0.0039358782 0.99955934 -0.0073896945
119958490.56604 1.0001388 -0.0087607503 6.3511077e-005 0.0042322082 3.1817006e-005 0.0042705862 0.99959636 -0.0082887709
129954716.98113 1.0000893 -0.0098319352 5.8722799e-005 0.0046180626 3.6106096e-005 0.0046216343 0.99958199 -0.0092610717
139950943.39623 1.0000435 -0.010660842 4.9314986e-005 0.0049464847 4.3550754e-005 0.0049811429 0.99950629 -0.010032579
149947169.81132 0.99984825 -0.011356205 6.2498264e-005 0.0053040679 5.9851911e-005 0.0053102523 0.99946153 -0.010638148
159943396.22642 0.99983835 -0.01189658 8.0812024e-005 0.0056630336 5.4694479e-005 0.0056802956 0.99954748 -0.011120141
169939622.64151 0.99980581 -0.01223173 8.0556783e-005 0.0060004257 6.595446e-005 0.0060505355 0.99959898 -0.011557207
179935849.0566 0.99991393 -0.012589544 9.5766038e-005 0.0063483259 7.4701849e-005 0.0063805217 0.99951613 -0.012005121
189932075.4717 1.000046 -0.013335764 9.0730609e-005 0.0067097209 9.1515016e-005 0.0067696981 0.99969196 -0.012561113
199928301.88679 0.99997181 -0.014228672 0.00014002295 0.0070524439 6.1943429e-005 0.0070992177 0.99962342 -0.013552308
209924528.30189 0.99974293 -0.014971763 0.00011006033 0.0074045081 0.00011599227 0.007489 0.99937886 -0.01427789
219920754.71698 0.99975997 -0.01587227 0.00013533514 0.0077832732 0.00014786399 0.0077949222 0.99919784 -0.014969736
229916981.13208 0.99941993 -0.016755581 0.00014545908 0.0081266314 0.00012387731 0.0081897574 0.99910456 -0.015785813
239913207.54717 0.99929219 -0.017447433 0.00014534076 0.0084544159 0.00016899678 0.0085194148 0.99909246 -0.016495341
249909433.96226 0.99935895 -0.018053323 0.00015028357 0.0088108648 0.0001691489 0.0088581592 0.99925601 -0.017106473
259905660.37736 0.99957997 -0.018708408 0.00022363476 0.0091353357 0.00018370338 0.0092683006 0.99941576 -0.01779896
269901886.79245 0.99959296 -0.019268408 0.00021952554 0.0095276525 0.00018071686 0.0096059749 0.99982768 -0.018457413
279898113.20755 0.99974835 -0.020049512 0.00019608717 0.0099385222 0.00022620242 0.0099441912 0.99958998 -0.019153103
289894339.62264 0.99967754 -0.020798117 0.0002075457 0.010266013 0.00025512557 0.010274418 0.99949241 -0.020091742
299890566.03774 0.99954051 -0.021381468 0.00023085345 0.01056009 0.00019691885 0.010649721 0.99925351 -0.020503849
309886792.45283 0.99933916 -0.021998018 0.00028144347 0.010913276 0.00024621608 0.010980594 0.99909902 -0.0209442
319883018.86792 0.99928379 -0.022655368 0.00026006671 0.011287072 0.00022268202 0.011415476 0.99923122 -0.021542877
329879245.28302 0.99932027 -0.023461938 0.00024969084 0.01168118 0.00028850278 0.011705812 0.99930739 -0.022206575
339875471.69811 0.99916744 -0.024032883 0.00033915578 0.012016168 0.00025040878 0.012047635 0.99920094 -0.023133464
349871698.11321 0.99941784 -0.02503565 0.00031286245 0.012343407 0.0003125174 0.012421247 0.99925357 -0.024039775
359867924.5283 0.99929339 -0.025776863 0.00034949603 0.012693799 0.00035352213 0.012746269 0.99918365 -0.02500245
369864150.9434 0.99947625 -0.026575714 0.00040002191 0.013031343 0.00037185801 0.013120332 0.9992407 -0.025688201
379860377.35849 0.99930489 -0.027469665 0.00037321262 0.013370949 0.00039104372 0.013530235 0.99916768 -0.026409358
389856603.77358 0.99925077 -0.027907312 0.00038728211 0.013762901 0.00038805837 0.013827591 0.99917674 -0.026949018
399852830.18868 0.99901849 -0.028585583 0.00043173553 0.014108147 0.00043558981 0.014171179 0.99914211 -0.027394503
409849056.60377 0.99907839 -0.029033303 0.00041453185 0.014450698 0.0004260297 0.014553587 0.99917841 -0.027850095
419845283.01887 0.99899614 -0.029422134 0.00047202222 0.014796973 0.00045840396 0.014907051 0.99922353 -0.028418899
429841509.43396 0.9991008 -0.030068904 0.00049448991 0.01514172 0.00047556777 0.015229119 0.9993459 -0.029214084
439837735.84906 0.99900019 -0.031072408 0.000536351 0.015475411 0.00051910407 0.01562769 0.99908757 -0.030205876
449833962.26415 0.999026 -0.031906039 0.00052539026 0.015826089 0.00050016912 0.015915006 0.99883455 -0.031057656
459830188.67925 0.99875987 -0.032888234 0.00053422898 0.016162701 0.00049329549 0.016282717 0.9985677 -0.0318591
469826415.09434 0.9988097 -0.033647716 0.00051663676 0.016564228 0.00051983772 0.016693082 0.99836504 -0.032458663
479822641.50943 0.99867284 -0.03427951 0.00055333157 0.016872244 0.00056484877 0.017037049 0.99843723 -0.032900229
489818867.92453 0.99874532 -0.034756303 0.00060374569 0.017221 0.00062012859 0.017365832 0.99871296 -0.033514798
499815094.33962 0.99884129 -0.035421491 0.00063786097 0.017574348 0.00063626189 0.017733468 0.9990232 -0.034068793
509811320.75472 0.99902797 -0.035708558 0.00065962429 0.017957991 0.00064047921 0.018079929 0.99907786 -0.034866236
519807547.16981 0.99893868 -0.036398202 0.00067325728 0.018273935 0.00068622082 0.018425768 0.99918878 -0.035731584
529803773.58491 0.99887729 -0.037110388 0.0006901985 0.018666262 0.00069585815 0.018773733 0.99889475 -0.036411285
539800000 0.99889529 -0.037846595 0.00069267256 0.018988594 0.00073897326 0.019112689 0.99868184 -0.037157044
549796226.41509 0.99867153 -0.038702607 0.00075526768 0.019367445 0.00077537214 0.019485034 0.99846613 -0.037641108
559792452.83019 0.99843621 -0.039595544 0.00076336134 0.019718736 0.00075129233 0.019867413 0.99828446 -0.038119793
569788679.24528 0.99827921 -0.040178955 0.00084373029 0.020088904 0.00075813942 0.020248447 0.99849725 -0.038868755
579784905.66038 0.99828649 -0.040823743 0.00081103202 0.020416746 0.00080576329 0.020581227 0.99867159 -0.039617836
589781132.07547 0.99844193 -0.041447163 0.00085722469 0.02076965 0.00089212507 0.020920897 0.99875391 -0.040598363
599777358.49057 0.99857903 -0.042114496 0.0009549493 0.021157619 0.00091658719 0.021284115 0.99876469 -0.041393846
609773584.90566 0.99867451 -0.042869758 0.00091667054 0.02145486 0.00096660038 0.021593427 0.99866176 -0.042337649
619769811.32075 0.99869448 -0.04361552 0.00097255316 0.021822998 0.0010446445 0.021969641 0.99853647 -0.042780131
629766037.73585 0.99855137 -0.044332176 0.0010324446 0.022142608 0.0010161093 0.022291303 0.99832869 -0.043321609
639762264.15094 0.99835956 -0.0449716 0.001060466 0.022461317 0.0010633604 0.022635989 0.99815804 -0.043830663
649758490.56604 0.9981994 -0.045606524 0.0010450408 0.022799792 0.0010647909 0.022941619 0.99823558 -0.044253945
659754716.98113 0.99801832 -0.046119124 0.0010683239 0.023181573 0.0010900348 0.023340769 0.99834472 -0.044807345
669750943.39623 0.99799162 -0.046767294 0.0010650046 0.02354295 0.0010785372 0.023724459 0.99836445 -0.045696676
679747169.81132 0.99806345 -0.0474324 0.0011385221 0.023938555 0.0011357509 0.024074832 0.99837255 -0.046717755
689743396.22642 0.99820387 -0.048235685 0.0011800379 0.0242627 0.0012268452 0.024432108 0.99814737 -0.047700763
699739622.64151 0.99827713 -0.049097359 0.0011996543 0.024589537 0.0012424104 0.024761658 0.99806571 -0.048398554
709735849.0566 0.99822706 -0.050071992 0.001282889 0.024953257 0.0012654531 0.025116393 0.99783707 -0.049083211
719732075.4717 0.99823099 -0.050759673 0.001326276 0.025277637 0.0013026996 0.025437411 0.99789715 -0.049625993
729728301.88679 0.99806201 -0.051281124 0.0013522636 0.025587425 0.0013258718 0.025795203 0.99791217 -0.050179005
739724528.30189 0.99794036 -0.051881 0.0013872078 0.025959946 0.0013797609 0.026123734 0.99811983 -0.050820619
749720754.71698 0.99785137 -0.052384391 0.0014119726 0.026303938 0.0014231154 0.026505062 0.9981479 -0.05145891
759716981.13208 0.99786925 -0.052947521 0.001476516 0.026621211 0.0014251824 0.026848774 0.99814022 -0.052297562
769713207.54717 0.99778199 -0.053733259 0.0014731111 0.026975429 0.0015044203 0.027194459 0.99784034 -0.053013861
779709433.96226 0.99803931 -0.054391734 0.0015453289 0.02735085 0.0015104238 0.027510665 0.99755877 -0.05372775
789705660.37736 0.99784923 -0.055382758 0.0015503066 0.027699379 0.001583525 0.027859397 0.99727798 -0.054550469
799701886.79245 0.99782896 -0.056215346 0.0015954068 0.028010719 0.0016111974 0.02819955 0.99720204 -0.055037796
809698113.20755 0.99773318 -0.056881383 0.001618742 0.028336424 0.0016100113 0.02855262 0.9972406 -0.055468664
819694339.62264 0.99759543 -0.057517409 0.0016675903 0.028662058 0.0016370327 0.028894365 0.99740779 -0.056176752
829690566.03774 0.99754608 -0.058151037 0.0017331885 0.029037142 0.0016822657 0.029231697 0.99761939 -0.05700478
839686792.45283 0.99762094 -0.05857417 0.0017069066 0.029378021 0.0017162822 0.029587863 0.99767226 -0.057980478
849683018.86792 0.99773902 -0.059235558 0.0017336013 0.02974131 0.0017634388 0.029927101 0.99760109 -0.058693111
859679245.28302 0.99773002 -0.06003204 0.0018039374 0.030062551 0.0018382594 0.030269183 0.99725825 -0.059427738
869675471.69811 0.99765623 -0.060796499 0.0018688813 0.030402511 0.001853209 0.030633699 0.9968617 -0.05988735
879671698.11321 0.99755293 -0.061519586 0.0018553108 0.030746283 0.0018939069 0.030965243 0.99693602 -0.060333125
889667924.5283 0.99734807 -0.062380493 0.0018984741 0.031043055 0.0019281888 0.031299803 0.99673951 -0.060892433
899664150.9434 0.9971118 -0.063099444 0.0019475296 0.031412642 0.0019923411 0.031638037 0.99678701 -0.061473846
909660377.35849 0.99709004 -0.063756764 0.0019752281 0.031729218 0.0019916715 0.031968091 0.99693114 -0.062507465
919656603.77358 0.99721426 -0.06453982 0.0019952804 0.032101948 0.0020361869 0.032327995 0.99693924 -0.063386723
929652830.18868 0.99725008 -0.065196037 0.0020192238 0.032411553 0.0020448752 0.032677621 0.99676788 -0.064350039
939649056.60377 0.99736094 -0.065974683 0.0020323312 0.032734495 0.0020594383 0.033030428 0.99655986 -0.065096587
949645283.01887 0.99739289 -0.06678357 0.0020669403 0.033095282 0.0020621389 0.033342596 0.9963578 -0.065555297
959641509.43396 0.99724567 -0.067492157 0.0021033362 0.033503048 0.0020963894 0.033747591 0.99632037 -0.066145569
969637735.84906 0.99719226 -0.068164587 0.0021365816 0.033855453 0.0021821978 0.034105107 0.99631774 -0.066517025
979633962.26415 0.99700987 -0.069039851 0.0022420548 0.034169782 0.0022157102 0.034435499 0.9963522 -0.067182899
989630188.67925 0.99698502 -0.069482923 0.0022498285 0.034537323 0.0022820225 0.034806926 0.99655879 -0.067803562
999626415.09434 0.99695653 -0.070172131 0.0022729132 0.03487701 0.0023020487 0.03516946 0.99645841 -0.068641365
1009622641.5094 0.99708223 -0.07088846 0.0022994559 0.035220522 0.0023520933 0.035517968 0.99625129 -0.069501638
1019618867.9245 0.99707252 -0.071670666 0.0023891618 0.035562903 0.0024267361 0.035853576 0.9960379 -0.070510253
1029615094.3396 0.99709749 -0.07269311 0.0024358872 0.035907224 0.0024629012 0.036150407 0.99561262 -0.071096033
1039611320.7547 0.99719912 -0.07362327 0.0025057662 0.036211513 0.0025222627 0.036505759 0.99556136 -0.07161817
1049607547.1698 0.99696648 -0.074586436 0.0025242507 0.036549654 0.0025375765 0.036837019 0.99551451 -0.072385967
1059603773.5849 0.99681133 -0.075235486 0.0025453856 0.036840037 0.0025941702 0.037148304 0.99551213 -0.072892636
1069600000 0.99651933 -0.075897723 0.0025909208 0.037189852 0.0026046615 0.037491646 0.99567223 -0.073672146
1079596226.4151 0.99650431 -0.076551348 0.0025691488 0.037538126 0.00264685 0.037815727 0.99571556 -0.074463889
1089592452.8302 0.9965899 -0.077168643 0.0026251273 0.037894271 0.0026983013 0.03819878 0.99566096 -0.075166136
1099588679.2453 0.99660575 -0.077810735 0.0026520453 0.038217001 0.0026676934 0.038546585 0.99524528 -0.075760454
1109584905.6604 0.99674606 -0.078701854 0.0026800325 0.038605813 0.002720559 0.038916618 0.99499106 -0.07642813
1119581132.0755 0.99666727 -0.07967554 0.0026907511 0.038941056 0.0027449508 0.03926558 0.9948355 -0.07675679
1129577358.4906 0.99652565 -0.080573946 0.0027484316 0.039341435 0.0027929954 0.039646644 0.99468148 -0.077340066
1139573584.9057 0.99624759 -0.081479996 0.0027813949 0.039687205 0.0028626788 0.040005382 0.9947654 -0.07799238
1149569811.3208 0.99604338 -0.082406268 0.0028631 0.04001262 0.0029095488 0.040353522 0.9949196 -0.078759678
1159566037.7358 0.99583697 -0.083087742 0.0028924029 0.040395394 0.002952151 0.040664382 0.99501103 -0.079823107
1169562264.1509 0.9956665 -0.083716184 0.0029073432 0.040687282 0.0030085314 0.040981088 0.99476647 -0.080642939
1179558490.566 0.99563909 -0.084416918 0.0029093537 0.041044418 0.0030241318 0.04139892 0.99470705 -0.081331387
1189554716.9811 0.99556154 -0.085192561 0.0029719835 0.04143326 0.0031165127 0.041747574 0.99435961 -0.081880063
1199550943.3962 0.99558151 -0.086148024 0.0030335672 0.04178606 0.0031609442 0.042098932 0.99414831 -0.082353204
1209547169.8113 0.99534225 -0.087068215 0.0031024655 0.04214007 0.0031698681 0.042470831 0.99411422 -0.082595035
1219543396.2264 0.99518037 -0.087853961 0.0031239009 0.042558521 0.0032290658 0.042814922 0.99420333 -0.08309941
1229539622.6415 0.99489278 -0.088701218 0.0032123234 0.042855922 0.0033039469 0.04320037 0.99433422 -0.083814204
1239535849.0566 0.99466354 -0.089395881 0.0032734443 0.043196619 0.0033941846 0.043533783 0.99434286 -0.084802389
1249532075.4717 0.99421817 -0.090109229 0.0033240628 0.043547697 0.0034601188 0.043846305 0.99417031 -0.085640825
1259528301.8868 0.99399966 -0.090628624 0.0033851415 0.043890551 0.0035001878 0.04417121 0.99395049 -0.086571157
1269524528.3019 0.99393785 -0.091402441 0.0034864359 0.044207983 0.0035890825 0.044493586 0.99371117 -0.087207407
1279520754.717 0.99356222 -0.092204764 0.0034938368 0.044543475 0.0036226355 0.044756889 0.99339831 -0.087801941
1289516981.1321 0.99338979 -0.092969447 0.0035108021 0.044809703 0.0036745276 0.045111567 0.99345356 -0.088247627
1299513207.5472 0.99303794 -0.093806237 0.0035156868 0.045139059 0.003647428 0.045436077 0.99361515 -0.088685274
1309509433.9623 0.99261189 -0.094566539 0.003547213 0.04550397 0.0036935871 0.045747712 0.99369973 -0.089383081
1319505660.3774 0.99221313 -0.095349669 0.0035798205 0.045839593 0.0037342422 0.046114698 0.99371326 -0.090090469
1329501886.7925 0.99191463 -0.095896959 0.0036059935 0.046167068 0.0037491322 0.046451747 0.99374163 -0.091004968
1339498113.2075 0.99164218 -0.096579909 0.00362672 0.046501148 0.0037678471 0.046786867 0.99329638 -0.091793895
1349494339.6226 0.99145931 -0.097071983 0.0036091623 0.046876483 0.003741126 0.047131278 0.99286115 -0.092394136
1359490566.0377 0.99143982 -0.097743303 0.0036442056 0.047296643 0.0037692133 0.047495853 0.99269533 -0.092976868
1369486792.4528 0.99115717 -0.098244131 0.003637623 0.047632143 0.0038039684 0.04783161 0.99246866 -0.093380094
1379483018.8679 0.99084443 -0.098910391 0.0036814581 0.048025917 0.0038087126 0.048275646 0.99244064 -0.093767621
1389479245.283 0.99048728 -0.099490404 0.0037444364 0.048434362 0.0038332287 0.048645493 0.99250329 -0.094519019
1399475471.6981 0.9899767 -0.099811792 0.003750084 0.048814636 0.0038454793 0.049049124 0.99261737 -0.095206946
1409471698.1132 0.98965424 -0.10020081 0.0038022494 0.049209204 0.003917695 0.049419578 0.99264038 -0.096093908
1419467924.5283 0.98941207 -0.10048652 0.0038235998 0.049575444 0.0039433138 0.049814157 0.9925012 -0.09674257
1429464150.9434 0.98930097 -0.1009365 0.0039090831 0.050037064 0.0039716754 0.050230727 0.99232817 -0.097324193
1439460377.3585 0.98953986 -0.1013924 0.0039661564 0.050507426 0.0040529417 0.050690971 0.99210018 -0.09763886
1449456603.7736 0.98958397 -0.10200357 0.0040484378 0.050875008 0.0041433098 0.051116273 0.99199432 -0.098003611
1459452830.1887 0.98958045 -0.10276964 0.0042393263 0.051299602 0.0042886753 0.051537499 0.9921174 -0.098381519
1469449056.6038 0.98959398 -0.10344285 0.0044046156 0.051668152 0.0044310633 0.051879987 0.99233818 -0.099120349
1479445283.0189 0.98941427 -0.1041325 0.0045466949 0.051982339 0.0045646145 0.052239563 0.99225646 -0.10003443
1489441509.434 0.98930299 -0.10463345 0.0046359748 0.052286346 0.0047215372 0.052594468 0.99220252 -0.10094044
1499437735.8491 0.98907113 -0.10498559 0.0047704931 0.052604966 0.0048394557 0.05281394 0.99215448 -0.1017496
1509433962.2642 0.98908484 -0.1054275 0.0048814109 0.05286441 0.0049267183 0.053151548 0.99185354 -0.10247743
1519430188.6792 0.98921084 -0.10602224 0.0049306694 0.053159051 0.0049634688 0.053404115 0.99176311 -0.10301158
1529426415.0943 0.98923182 -0.1067661 0.0050159357 0.053421672 0.0050282311 0.053745106 0.99168468 -0.1035105
1539422641.5094 0.9891907 -0.10753783 0.0050901729 0.053809926 0.0051179715 0.054045361 0.99176818 -0.10405821
1549418867.9245 0.98901033 -0.10848728 0.0052011991 0.054095194 0.0051229214 0.054349143 0.9919374 -0.10467871
1559415094.3396 0.98890817 -0.10915014 0.0052208602 0.054391939 0.0052236523 0.054708511 0.99211913 -0.10547969
1569411320.7547 0.98868155 -0.10993636 0.0052521499 0.054655988 0.0052388981 0.054970112 0.99197382 -0.10621475
1579407547.1698 0.98866123 -0.1104721 0.0053088581 0.055002388 0.0052879285 0.05527075 0.99154699 -0.1071188
1589403773.5849 0.98859024 -0.11100039 0.0052901823 0.055298161 0.0052829124 0.055606544 0.99144024 -0.10788438
1599400000 0.9884851 -0.11147669 0.0052760076 0.055587318 0.0052852519 0.055928696 0.99095619 -0.1082958
1609396226.4151 0.98851562 -0.11212093 0.0052804472 0.055979747 0.0053072521 0.056246895 0.99081105 -0.10886271
1619392452.8302 0.98853505 -0.11278966 0.0052943788 0.056344636 0.0052661952 0.056657735 0.99084407 -0.10926571
1629388679.2453 0.98831862 -0.11354432 0.0053478796 0.056696262 0.0052974001 0.057024535 0.99105132 -0.10981333
1639384905.6604 0.98796171 -0.11429461 0.0053635533 0.057048306 0.0053031333 0.057439107 0.99127531 -0.1107364
1649381132.0755 0.98779714 -0.11492807 0.0053597353 0.057444014 0.005336022 0.057814315 0.99123156 -0.11169603
1659377358.4906 0.9876225 -0.115704 0.0053950697 0.057854474 0.0054011866 0.058188029 0.99122632 -0.11263761
1669373584.9057 0.98749077 -0.11621729 0.0054346966 0.058204826 0.0054162606 0.058576193 0.99093235 -0.1132461
1679369811.3208 0.98757756 -0.11689472 0.0054969341 0.058590215 0.0054858681 0.059012298 0.99060094 -0.11376446
1689366037.7358 0.98757124 -0.11749423 0.0055811573 0.059002519 0.0055146646 0.059386 0.9903928 -0.11411929
1699362264.1509 0.98775744 -0.11806874 0.0056547113 0.059394307 0.0055946968 0.05978116 0.99058986 -0.11463799
1709358490.566 0.98759818 -0.11880182 0.0057066474 0.059791394 0.0056560738 0.060191423 0.99052596 -0.11517709
1719354716.9811 0.98727858 -0.11947024 0.005774742 0.060192876 0.0057897493 0.060606301 0.99062204 -0.11591193
1729350943.3962 0.9869256 -0.12003684 0.0058258902 0.060569771 0.0058610346 0.060992517 0.99070901 -0.1168572
