!Keysight Technologies,N5222B,MY61253708,A.15.00.15
!Date: Wednesday, June 19, 2024 09:44:45
!Correction: S11(C  2-Port  ) 
!S21(C  2-Port  ) 
!S12(C  2-Port  ) 
!S22(C  2-Port  ) 
!S2P File: Measurements: S11, S21, S12, S22:
# Hz S  RI   R 50
10000000 0.998622 -0.002835542 0.00021765041 0.00060779223 7.7801757e-005 0.00057060958 0.99843335 -0.0013105869
19996226.415094 0.99890393 -0.0030283928 -4.6688045e-005 0.00070761971 0.00016104241 0.0007120216 0.99926102 -0.0033699572
29992452.830189 0.9996556 -0.0024772286 5.6154095e-005 0.0009253567 -4.6222995e-006 0.0010251233 0.99949425 -0.0026733875
39988679.245283 1.0000587 -0.0030075908 -1.3382625e-005 0.0014170768 -7.2839612e-006 0.0013473378 0.9996779 -0.003051579
49984905.660377 1.0001651 -0.0037329495 -3.1999778e-005 0.0017051229 -1.2129836e-005 0.0016613452 0.99983162 -0.0036432445
59981132.075472 1.0003451 -0.0046416223 2.1683227e-005 0.0020417725 2.8602721e-005 0.0020011826 0.99986744 -0.0041684508
69977358.490566 1.0002127 -0.0052306559 -2.3282802e-005 0.002312087 2.7195303e-005 0.0023147657 0.99968755 -0.0047189984
79973584.90566 0.99989235 -0.0057620406 1.3879151e-005 0.0026515215 -2.6512425e-006 0.0026567997 0.99935699 -0.0052393377
89969811.320755 0.99990469 -0.005900681 4.460942e-005 0.002969678 1.6392325e-005 0.0029984773 0.9996103 -0.0054285228
99966037.735849 1.0001566 -0.006606698 4.2852305e-005 0.003323256 2.3180794e-005 0.0033522751 0.99969232 -0.0062855184
109962264.15094 1.0001688 -0.0075473785 5.6180637e-005 0.003638899 2.1298241e-005 0.0036776527 0.99969429 -0.0070597231
119958490.56604 1.0001905 -0.0084191263 4.1022431e-005 0.0039549246 3.2096985e-005 0.0039975359 0.99970978 -0.0079379678
129954716.98113 1.0001431 -0.009405762 4.8922026e-005 0.0042882403 2.7539674e-005 0.0043327441 0.99970418 -0.0088390112
139950943.39623 1.0000753 -0.010224704 4.6422952e-005 0.0046132179 3.7582955e-005 0.0046678642 0.99959117 -0.0095439032
149947169.81132 0.99994135 -0.010898769 3.6556739e-005 0.0049687447 6.0039572e-005 0.0050033634 0.9995839 -0.010155737
159943396.22642 0.99988317 -0.011457205 4.5193126e-005 0.0052768914 4.3174718e-005 0.0053373184 0.99963427 -0.010632426
169939622.64151 0.99986899 -0.011865221 7.0723065e-005 0.0056273746 7.0968992e-005 0.0056466479 0.99965566 -0.011060029
179935849.0566 0.99994868 -0.012148291 4.0395418e-005 0.0059297271 8.814258e-005 0.0059904144 0.99962461 -0.011444986
189932075.4717 1.0000607 -0.012924224 8.020713e-005 0.0062765107 7.3837815e-005 0.006323331 0.99976861 -0.012009799
199928301.88679 0.99997538 -0.013657272 9.3774055e-005 0.0065925438 7.2902767e-005 0.0066458108 0.99971163 -0.01284039
209924528.30189 0.99970001 -0.014276385 0.00010929897 0.0069418703 8.3022052e-005 0.0070104836 0.99949729 -0.013528898
219920754.71698 0.99985933 -0.015074611 0.00011520716 0.0072675543 9.1548078e-005 0.0073330812 0.99937987 -0.014169395
229916981.13208 0.99963725 -0.015960276 0.0001047249 0.0076063178 0.00012741331 0.0076632383 0.99933267 -0.015005141
239913207.54717 0.99953371 -0.016661163 0.00015175312 0.0079294397 0.00012422662 0.0079981294 0.99932629 -0.015701659
249909433.96226 0.99952996 -0.01726222 0.00012593321 0.0082464078 0.00014078198 0.0083262669 0.99941355 -0.016333818
259905660.37736 0.99959588 -0.017926425 0.00013606483 0.008637175 0.00013060542 0.0086902007 0.99957979 -0.016881287
269901886.79245 0.99970049 -0.01852861 0.0001611287 0.0088666417 0.00015706918 0.0089668939 0.99987316 -0.017580137
279898113.20755 0.99985182 -0.019239724 0.00011860626 0.0092394203 0.00016495236 0.0093184104 0.99975485 -0.018266529
289894339.62264 0.99973607 -0.019926459 0.00018828781 0.0096150553 0.0001892955 0.0096850395 0.99963772 -0.018999368
299890566.03774 0.99981576 -0.020392835 0.00017655012 0.0099172015 0.00019816379 0.010015553 0.99942541 -0.01943022
309886792.45283 0.99953389 -0.021039531 0.00020101271 0.010289683 0.00015515112 0.01036884 0.99943078 -0.019838333
319883018.86792 0.99955732 -0.021584094 0.00019923411 0.010562819 0.00018892158 0.010661387 0.99954093 -0.020354867
329879245.28302 0.99955976 -0.022324771 0.0002532159 0.010882568 0.00028335629 0.010965453 0.99951541 -0.021167904
339875471.69811 0.9994241 -0.023119688 0.00023980171 0.011227645 0.00026682182 0.01127423 0.99949121 -0.021969885
349871698.11321 0.99956852 -0.023989052 0.00027933018 0.011507265 0.00024904474 0.01163598 0.99951684 -0.022917598
359867924.5283 0.99941176 -0.02474457 0.00026499759 0.011875601 0.00028257119 0.011974622 0.99945235 -0.023774028
369864150.9434 0.99962598 -0.025487334 0.00031454023 0.012200724 0.000311699 0.012351595 0.99946898 -0.024603754
379860377.35849 0.99958128 -0.026192844 0.00030763424 0.012528038 0.00031444523 0.012638113 0.99933809 -0.025220469
389856603.77358 0.99947166 -0.026706696 0.00029331027 0.012873421 0.00035743834 0.012965119 0.99938375 -0.025707871
399852830.18868 0.99922401 -0.027369648 0.00038030697 0.01319902 0.00037715491 0.013291983 0.99940574 -0.026199818
409849056.60377 0.99922049 -0.027830413 0.00036944231 0.013506534 0.0003591743 0.013624296 0.99933434 -0.026670296
419845283.01887 0.99918711 -0.02826339 0.00037274091 0.013847537 0.00038082851 0.013976407 0.99927676 -0.02723074
429841509.43396 0.9992342 -0.028879166 0.00042088563 0.014205207 0.00037509808 0.014302814 0.99949706 -0.027941018
439837735.84906 0.99918664 -0.02982831 0.0004390768 0.014513203 0.00042135722 0.014664618 0.99924016 -0.028881401
449833962.26415 0.99913275 -0.030617446 0.00044058729 0.014827221 0.00044375286 0.014930593 0.99892896 -0.029630125
459830188.67925 0.9989506 -0.031308591 0.00043174252 0.015138699 0.00047068531 0.015296122 0.99859762 -0.030356526
469826415.09434 0.99891424 -0.032045901 0.00047251116 0.015534357 0.00045986054 0.015629191 0.99841154 -0.030938536
479822641.50943 0.99882728 -0.032752708 0.0005108366 0.01583156 0.0005172384 0.015969193 0.99841487 -0.031344533
489818867.92453 0.99896812 -0.033260047 0.00053038029 0.016154554 0.00051277271 0.016308598 0.99873459 -0.031815141
499815094.33962 0.99894321 -0.033967614 0.00052846177 0.016493957 0.00054890895 0.01662063 0.99903429 -0.03246662
509811320.75472 0.99903917 -0.034318648 0.0006051684 0.016856819 0.00056347018 0.016927181 0.99916893 -0.033209741
519807547.16981 0.99895465 -0.034832627 0.00062424457 0.017146617 0.00055694394 0.017298372 0.99913353 -0.03396371
529803773.58491 0.99893451 -0.035464644 0.00054377969 0.017445793 0.00057989825 0.017648593 0.9988448 -0.034500897
539800000 0.99900895 -0.036136001 0.0005886585 0.017808232 0.00061852927 0.017964916 0.99872071 -0.03511636
549796226.41509 0.99891502 -0.036886513 0.0006232732 0.018133935 0.0006702058 0.018250452 0.99855769 -0.035577267
559792452.83019 0.99872565 -0.037673652 0.00065894797 0.018432129 0.00062676705 0.01861256 0.99855697 -0.036087394
569788679.24528 0.99862421 -0.038421482 0.00069850637 0.01880284 0.00069416128 0.01891149 0.99870139 -0.036921442
579784905.66038 0.99843794 -0.038932964 0.00069687178 0.019135837 0.00070509466 0.019283252 0.99880582 -0.037561893
589781132.07547 0.99854779 -0.039599568 0.00072755758 0.019474264 0.00073052663 0.019633915 0.99891806 -0.038542986
599777358.49057 0.99873263 -0.040205002 0.00079183467 0.019769926 0.00076964777 0.019991223 0.99890417 -0.039274484
609773584.90566 0.99889779 -0.040978026 0.00082001649 0.020084823 0.00080881943 0.020270545 0.99880153 -0.039984815
619769811.32075 0.99893868 -0.04166767 0.00083108153 0.020447986 0.00084211538 0.020578036 0.99874455 -0.040558666
629766037.73585 0.99883646 -0.042274296 0.00089452323 0.020760678 0.00090940576 0.020915108 0.99858654 -0.041100919
639762264.15094 0.99863929 -0.042937711 0.00091030984 0.021025188 0.00085951271 0.021234958 0.99847347 -0.041585997
649758490.56604 0.99845791 -0.043579668 0.00085859559 0.021386031 0.000921119 0.021570684 0.99849969 -0.042038739
659754716.98113 0.9983319 -0.044088572 0.00092474371 0.021690004 0.00093800481 0.021886859 0.99863541 -0.04260841
669750943.39623 0.99842978 -0.04446882 0.00095091853 0.02208324 0.00092919683 0.022259446 0.99867946 -0.043383658
679747169.81132 0.99837911 -0.045289159 0.00095485931 0.022402715 0.00097696355 0.022598503 0.99861747 -0.044364303
689743396.22642 0.99857271 -0.046101332 0.0010402882 0.022720831 0.0010303752 0.022948116 0.99854732 -0.0452739
699739622.64151 0.99863255 -0.046814919 0.0010572588 0.023027452 0.0010511242 0.023254581 0.99839926 -0.04598698
709735849.0566 0.99867219 -0.047687821 0.0011188177 0.023336397 0.0011282219 0.023553174 0.99816799 -0.04661908
719732075.4717 0.99850464 -0.048379183 0.0011351272 0.023661666 0.001135719 0.023883468 0.99822438 -0.047246635
729728301.88679 0.998474 -0.049043238 0.0011405246 0.023968432 0.0011795675 0.024242714 0.9982574 -0.047699213
739724528.30189 0.9983415 -0.049628004 0.0012323256 0.024321033 0.0011927392 0.024545932 0.99841577 -0.04833129
749720754.71698 0.99827158 -0.050160378 0.0012404784 0.024616644 0.001239764 0.024868798 0.9984501 -0.049091667
759716981.13208 0.99831665 -0.050686121 0.0012286669 0.024961909 0.0012662699 0.025176287 0.99844372 -0.049779326
769713207.54717 0.99820489 -0.051388383 0.0012868093 0.025263295 0.0012786491 0.025530148 0.99814147 -0.050459027
779709433.96226 0.99842834 -0.051971868 0.0013051062 0.025582548 0.0013500538 0.025826231 0.99797988 -0.051144354
789705660.37736 0.99827385 -0.052924603 0.0013671024 0.025930658 0.0013729045 0.026154678 0.99770457 -0.051944673
799701886.79245 0.99819154 -0.053635657 0.0013651121 0.026237501 0.0013643317 0.026476283 0.99761212 -0.052481622
809698113.20755 0.99810731 -0.054297477 0.0013811642 0.02653276 0.0013907074 0.026792159 0.997545 -0.052878127
819694339.62264 0.99796778 -0.054877251 0.0014158576 0.02689065 0.0014135097 0.027127514 0.99769425 -0.053464055
829690566.03774 0.99792904 -0.055529594 0.0014639227 0.027231665 0.0014529172 0.027426738 0.99792826 -0.054403394
839686792.45283 0.99796063 -0.056010336 0.0014538891 0.02750852 0.0015220824 0.02776349 0.99792475 -0.05518651
849683018.86792 0.99809319 -0.056670249 0.0015115503 0.027869441 0.0015302435 0.028102411 0.99790108 -0.055925615
859679245.28302 0.99808586 -0.057367831 0.001542747 0.028174933 0.0015811184 0.028438117 0.9975583 -0.0565494
869675471.69811 0.99803913 -0.058063745 0.0015996201 0.028502183 0.0016046651 0.028772153 0.99723965 -0.057051659
879671698.11321 0.99801552 -0.058752857 0.0016481995 0.028789356 0.0016489895 0.029078241 0.99726528 -0.057477709
889667924.5283 0.9977411 -0.059511274 0.0016600993 0.029110011 0.001654393 0.029375473 0.99708939 -0.057926744
899664150.9434 0.99772644 -0.060243368 0.0016702227 0.029445525 0.0017048093 0.02969618 0.99718922 -0.058524072
909660377.35849 0.99766803 -0.060946003 0.0017164354 0.02973799 0.0017015096 0.030012187 0.99727732 -0.059429705
919656603.77358 0.99767578 -0.061581731 0.0017364207 0.030064622 0.0017389287 0.030366281 0.9973194 -0.060324162
929652830.18868 0.99769449 -0.062306464 0.0017300444 0.030385163 0.0017822431 0.030650482 0.99711227 -0.061249584
939649056.60377 0.99794269 -0.062919587 0.0017664731 0.030710766 0.0017594844 0.030971739 0.99694979 -0.061922342
949645283.01887 0.99782974 -0.063745841 0.0017554536 0.031006228 0.0018090216 0.03133858 0.99672365 -0.062465403
959641509.43396 0.99774987 -0.064459056 0.0018106094 0.031392481 0.0018569548 0.031697702 0.99671602 -0.062881857
969637735.84906 0.99769342 -0.065147847 0.0018384336 0.031736992 0.0018741712 0.032033123 0.99668801 -0.063251466
979633962.26415 0.99762625 -0.06586425 0.0019042569 0.032038268 0.0019325903 0.032319147 0.99673307 -0.06395743
989630188.67925 0.99747217 -0.066409409 0.0019326517 0.03236305 0.0019586887 0.032670792 0.99699402 -0.064513177
999626415.09434 0.99764049 -0.067033112 0.0019951118 0.032654494 0.0020065159 0.03300089 0.99683487 -0.065419972
1009622641.5094 0.99758494 -0.067635775 0.0019758204 0.032995924 0.0020181797 0.033361055 0.99675632 -0.066167951
1019618867.9245 0.9976784 -0.068484306 0.0020506647 0.033339314 0.0021044523 0.033649065 0.99651796 -0.067035869
1029615094.3396 0.99765265 -0.069416493 0.0021278998 0.033647478 0.0021565901 0.033943757 0.99613255 -0.067579746
1039611320.7547 0.9976759 -0.070273101 0.0021588746 0.033970155 0.0021809759 0.034244038 0.99605656 -0.068241417
1049607547.1698 0.99758041 -0.07114736 0.0021791735 0.03424092 0.0021845542 0.034560587 0.9960438 -0.068812825
1059603773.5849 0.99742889 -0.071848273 0.0021853214 0.034561764 0.0022482239 0.034892529 0.99606454 -0.069378555
1069600000 0.99719453 -0.072583944 0.0021858625 0.034866322 0.0022668391 0.035195906 0.9962101 -0.070015669
1079596226.4151 0.9972496 -0.073177233 0.0022082157 0.035175007 0.0022540065 0.035508513 0.99619836 -0.070830315
1089592452.8302 0.99723905 -0.073782891 0.0022316519 0.035520546 0.0023049861 0.035853043 0.99623567 -0.071555734
1099588679.2453 0.99733287 -0.07448262 0.0022518989 0.035862807 0.002328258 0.03617977 0.99584925 -0.07216084
1109584905.6604 0.99741256 -0.075325668 0.0022986587 0.03618468 0.0022960287 0.036552817 0.99562186 -0.072696477
1119581132.0755 0.99725485 -0.076108083 0.0022714282 0.036538616 0.0023781052 0.036884304 0.9954493 -0.073184282
1129577358.4906 0.99720752 -0.076978683 0.0023297407 0.036894668 0.0023979917 0.037261821 0.99541652 -0.073571771
1139573584.9057 0.99697942 -0.077853918 0.0023646364 0.037224002 0.0024443083 0.037575658 0.99545181 -0.074204326
1149569811.3208 0.99686438 -0.078794159 0.0024241065 0.037535358 0.0025095383 0.037891183 0.99550599 -0.074983366
1159566037.7358 0.99668121 -0.07945469 0.0024768496 0.03781525 0.0025530364 0.038185339 0.99561518 -0.075988114
1169562264.1509 0.99640644 -0.080024689 0.0024893787 0.03814704 0.0025493819 0.038516574 0.99545515 -0.076786309
1179558490.566 0.99644375 -0.080832213 0.0024705618 0.038505558 0.0025842569 0.038860828 0.99535221 -0.077429742
1189554716.9811 0.99640524 -0.081579387 0.0025228718 0.038885035 0.0026723882 0.039226387 0.99507987 -0.078052908
1199550943.3962 0.9963789 -0.082398176 0.002578469 0.039192632 0.0026820358 0.039555885 0.99501884 -0.07841301
1209547169.8113 0.99621391 -0.083278105 0.0026226109 0.03954624 0.0027390951 0.03987392 0.99484688 -0.078800142
1219543396.2264 0.99601734 -0.084072188 0.0026697512 0.039888822 0.0027815145 0.0402463 0.99483258 -0.079126671
1229539622.6415 0.99569988 -0.084875196 0.0027252045 0.040203016 0.0028393399 0.040564574 0.99501294 -0.079911232
1239535849.0566 0.99544597 -0.085505664 0.0027823513 0.040528912 0.0029204674 0.040900424 0.99508846 -0.080759019
1249532075.4717 0.99518752 -0.086278461 0.0028312802 0.04086053 0.0029922579 0.041187096 0.99500412 -0.081594385
1259528301.8868 0.99498677 -0.086698741 0.0028784797 0.041168377 0.0030290782 0.041511029 0.99474764 -0.082463205
1269524528.3019 0.99486864 -0.087441325 0.0029440708 0.041476481 0.003091285 0.041816622 0.99453694 -0.083108127
1279520754.717 0.9944188 -0.088194177 0.0030086583 0.041749727 0.0031328043 0.042074796 0.99421811 -0.083643824
1289516981.1321 0.99427515 -0.088948876 0.0030177636 0.042068917 0.0031677308 0.042381216 0.99428684 -0.084089935
1299513207.5472 0.99406314 -0.089799792 0.0030468106 0.04235103 0.003185004 0.042684015 0.99443763 -0.084485531
1309509433.9623 0.99361163 -0.090517178 0.0030517234 0.042678792 0.0031810449 0.043006182 0.99454534 -0.085240901
1319505660.3774 0.9932158 -0.091254249 0.0030285819 0.043008853 0.0032039424 0.043325182 0.99457872 -0.085844174
1329501886.7925 0.99293107 -0.091910571 0.0030412078 0.043316402 0.003212722 0.043633923 0.99456674 -0.086853534
1339498113.2075 0.99262655 -0.092478126 0.0030924845 0.043669943 0.0032551708 0.043972109 0.99420315 -0.087566108
1349494339.6226 0.99242342 -0.092959806 0.0030938406 0.043963268 0.0032180869 0.04429907 0.99391085 -0.088031471
1359490566.0377 0.99239403 -0.093537748 0.0030946732 0.044319741 0.0032051336 0.04466635 0.99365145 -0.088626742
1369486792.4528 0.99215961 -0.094104975 0.003096275 0.044704951 0.0032151071 0.04502802 0.99343514 -0.089072049
1379483018.8679 0.99194473 -0.094593734 0.0031653182 0.045094032 0.0032286546 0.045312975 0.99344373 -0.08934129
1389479245.283 0.99164099 -0.095202178 0.0031602122 0.045463305 0.0032390989 0.045741912 0.99349952 -0.090057015
1399475471.6981 0.99117827 -0.095584244 0.0031757373 0.045801088 0.0032889973 0.046083722 0.99363899 -0.090754837
1409471698.1132 0.99087447 -0.095984913 0.0032458876 0.046156432 0.0033383484 0.046490554 0.99362648 -0.091619551
1419467924.5283 0.9907403 -0.096278876 0.0032611592 0.046538085 0.0033408497 0.046851419 0.99347186 -0.092269778
1429464150.9434 0.99059212 -0.096725196 0.0033055432 0.046925142 0.0033631865 0.047221962 0.99338031 -0.092833132
1439460377.3585 0.99073267 -0.097226053 0.0033375202 0.047375631 0.003448884 0.047639754 0.99314725 -0.093256801
1449456603.7736 0.99071956 -0.097663388 0.0034935316 0.047797427 0.0035577184 0.048058659 0.99299115 -0.093550161
1459452830.1887 0.99073648 -0.098341197 0.0036063269 0.048134662 0.0036853757 0.048436485 0.99316669 -0.093864977
1469449056.6038 0.99067789 -0.099110872 0.0037587229 0.048527058 0.0038230401 0.048828717 0.9934324 -0.094423503
1479445283.0189 0.99059802 -0.099646792 0.0038749718 0.04880916 0.0039373068 0.049074654 0.99348336 -0.095363617
1489441509.434 0.9905861 -0.10014987 0.003997162 0.049104564 0.0041157342 0.049404226 0.99333787 -0.096202701
1499437735.8491 0.99037695 -0.10044718 0.0041397084 0.04941722 0.0041621253 0.049664199 0.99326265 -0.097014964
1509433962.2642 0.99034101 -0.10097089 0.0042248215 0.04965049 0.0042327684 0.049961876 0.99299341 -0.097695842
1519430188.6792 0.99043548 -0.10148066 0.004287865 0.049917642 0.004295228 0.050228845 0.99290663 -0.098323971
1529426415.0943 0.99035776 -0.10220194 0.0043253414 0.050177082 0.0043321401 0.050511859 0.9928292 -0.098814666
1539422641.5094 0.9904381 -0.10305072 0.0043779439 0.050506353 0.0044097807 0.050838169 0.99291992 -0.099209636
1549418867.9245 0.99032277 -0.10380119 0.0044359025 0.050775267 0.0044710608 0.051134393 0.99313742 -0.099906549
1559415094.3396 0.99021751 -0.10446534 0.0045137946 0.051063433 0.004466489 0.051391762 0.99326241 -0.10058898
1569411320.7547 0.9900254 -0.1052343 0.0045496216 0.051276833 0.0045540221 0.051674463 0.99320751 -0.1014021
1579407547.1698 0.99001491 -0.10579178 0.0045532431 0.051603965 0.0045440355 0.051990949 0.99288028 -0.1022232
1589403773.5849 0.98995888 -0.10628131 0.0045329425 0.051886685 0.0045432448 0.052256793 0.99268067 -0.10288247
1599400000 0.98988098 -0.10671788 0.0045282925 0.052178632 0.004584902 0.052545883 0.99238682 -0.1033501
1609396226.4151 0.98986381 -0.10736679 0.0045492719 0.052503936 0.0045178244 0.052892916 0.99205446 -0.1038733
1619392452.8302 0.98985648 -0.10793909 0.0045469459 0.052853785 0.0045776777 0.053243279 0.99205041 -0.10433874
1629388679.2453 0.98960519 -0.1086728 0.004562851 0.053196125 0.0045716781 0.053594697 0.99236107 -0.10489741
1639384905.6604 0.98929834 -0.10940088 0.0045532598 0.053545069 0.0045853336 0.053965833 0.99251592 -0.10564746
1649381132.0755 0.98924148 -0.11006761 0.0046359543 0.053912722 0.0045767631 0.054352105 0.99247801 -0.10664734
1659377358.4906 0.98908436 -0.11076608 0.0046020746 0.054294832 0.0046090558 0.054691263 0.99247879 -0.10745493
1669373584.9057 0.9889816 -0.11128016 0.004667331 0.054687209 0.0046358099 0.05508171 0.99212211 -0.10815051
1679369811.3208 0.98907143 -0.11191458 0.0046868902 0.05501489 0.0046803458 0.055481639 0.99195302 -0.10870579
1689366037.7358 0.98904133 -0.11256126 0.0047481582 0.055429365 0.004721649 0.055820122 0.99182445 -0.10898334
1699362264.1509 0.98915738 -0.11312461 0.0047984729 0.055790201 0.0047621867 0.056200605 0.99194533 -0.10944031
1709358490.566 0.98902631 -0.11376068 0.0048138965 0.056120757 0.0048486404 0.056592889 0.99196827 -0.11007078
1719354716.9811 0.98883253 -0.11438781 0.0049259979 0.056492724 0.0049087498 0.056965925 0.99206114 -0.11068651
1729350943.3962 0.98844242 -0.11491174 0.0049500093 0.056900825 0.0049726516 0.057357598 0.99214315 -0.11147898
