!Keysight Technologies,N5222B,MY61253708,A.15.00.15
!Date: Wednesday, June 19, 2024 09:59:14
!Correction: S11(C  2-Port  ) 
!S21(C  2-Port  ) 
!S12(C  2-Port  ) 
!S22(C  2-Port  ) 
!S2P File: Measurements: S11, S21, S12, S22:
# Hz S  RI   R 50
10000000 0.99838197 -0.0029172897 -0.00010029945 0.00032215071 0.00011608584 0.00021219355 0.99861389 -0.0013881028
19996226.415094 1.0000904 -0.0031251311 4.8779446e-005 0.00067593215 4.7865906e-005 0.00071276148 1.0003792 -0.00289765
29992452.830189 0.9997291 -0.0025007725 7.2316237e-005 0.0010839648 -8.0040772e-006 0.00097106816 0.99953413 -0.0027076006
39988679.245283 1.0000057 -0.0030250847 -2.4670066e-005 0.0013707142 -2.0872685e-006 0.0012987244 0.99970627 -0.0030455887
49984905.660377 1.0001533 -0.0036296844 -1.6493548e-005 0.0016742747 -5.3671538e-006 0.0016588374 0.99989271 -0.0035564303
59981132.075472 1.0003726 -0.0045120418 8.0330647e-006 0.0019645416 -3.105728e-006 0.0019748891 0.99986911 -0.0041559339
69977358.490566 1.0001603 -0.0051034819 2.8106439e-005 0.002299183 3.0547533e-005 0.002334937 0.99979103 -0.0047157109
79973584.90566 0.99990779 -0.0057335198 -1.0341406e-005 0.002622582 2.6218826e-005 0.0026466767 0.99943179 -0.0051905513
89969811.320755 0.99994421 -0.0058360994 2.0793173e-005 0.0029662058 3.8304133e-005 0.0030040923 0.99969929 -0.0054058433
99966037.735849 1.0001584 -0.0065442324 2.3273053e-005 0.0033239832 8.6435466e-006 0.0033226474 0.99975145 -0.0061983615
109962264.15094 1.0001552 -0.0074249059 3.9622129e-005 0.0036374545 3.8331025e-005 0.0036167291 0.99974769 -0.0070121735
119958490.56604 1.0001909 -0.0083371401 3.8031256e-005 0.0039469725 5.3888652e-005 0.0039901091 0.99978328 -0.0078610778
129954716.98113 1.0001348 -0.009265393 4.7894311e-005 0.0042729229 4.5505585e-005 0.0042895675 0.99977016 -0.0087366104
139950943.39623 1.0000588 -0.010057451 5.0931441e-005 0.0046048416 5.381582e-005 0.0046268008 0.99967223 -0.0094448272
149947169.81132 0.99993801 -0.01072222 2.366933e-005 0.0049482035 5.9490558e-005 0.0049556196 0.99964339 -0.01002571
159943396.22642 0.99988854 -0.011368304 6.8729511e-005 0.0052594049 6.5540196e-005 0.0052882843 0.99972379 -0.010540396
169939622.64151 0.99987143 -0.011735216 7.4198761e-005 0.0055975304 6.0077175e-005 0.0056153773 0.99974585 -0.010980867
179935849.0566 0.99995041 -0.012012511 8.9414534e-005 0.0059143896 5.4533477e-005 0.0059511689 0.9997105 -0.011379421
189932075.4717 1.0000309 -0.012760669 9.8956749e-005 0.0062574376 8.7284716e-005 0.0062770545 0.99987066 -0.01188767
199928301.88679 0.99993968 -0.013594776 6.0524908e-005 0.0065648882 8.2874903e-005 0.0066038291 0.9997412 -0.012707502
209924528.30189 0.9997015 -0.014103904 8.2885148e-005 0.0069021904 0.00011889287 0.0069371173 0.99952281 -0.013398722
219920754.71698 0.99990052 -0.014876395 0.0001188179 0.0072473548 0.00010488252 0.0072714458 0.99944532 -0.014018536
229916981.13208 0.99969131 -0.015774637 0.00012279418 0.0075700041 9.7718555e-005 0.0075981412 0.99946564 -0.014818579
239913207.54717 0.99953198 -0.016486771 0.00013847521 0.00787568 0.00013157976 0.0079372106 0.9994005 -0.015503423
249909433.96226 0.99951732 -0.017094195 0.00011607283 0.0082043177 0.00012906222 0.0082747182 0.99947333 -0.016156852
259905660.37736 0.99961853 -0.017657191 0.00017602928 0.0085556852 0.00020201597 0.0085940538 0.99966037 -0.016699195
269901886.79245 0.99971509 -0.018374994 0.00012722355 0.0088978214 0.0001883104 0.0089492192 0.99996656 -0.017378554
279898113.20755 0.9998275 -0.019062743 0.00018250453 0.0092188884 0.0001095857 0.0092791244 0.99986482 -0.018160224
289894339.62264 0.99981487 -0.01976341 0.00022668391 0.00949811 0.0002059713 0.009579421 0.99973327 -0.018848389
299890566.03774 0.9997173 -0.020298719 0.00016684365 0.0099061821 0.00020284788 0.0099408478 0.99949306 -0.019295126
309886792.45283 0.99957091 -0.020799771 0.00019930257 0.010161004 0.00022389891 0.010262925 0.99941325 -0.019763425
319883018.86792 0.99962568 -0.021452397 0.00025253231 0.010531519 0.00025426922 0.010550411 0.9996022 -0.020209044
329879245.28302 0.99967885 -0.022191375 0.0002285582 0.010854967 0.00026115729 0.010898987 0.99970835 -0.02108705
339875471.69811 0.99947757 -0.02301614 0.00024271978 0.011196611 0.00026479561 0.011236262 0.99962962 -0.021808714
349871698.11321 0.9996348 -0.02376166 0.00026068813 0.011498377 0.00027063466 0.011586408 0.99966443 -0.02276808
359867924.5283 0.99944818 -0.024473995 0.00025690254 0.01178356 0.00028896984 0.011901317 0.99956381 -0.023650557
369864150.9434 0.99960625 -0.025317967 0.00034231669 0.012197672 0.00029804674 0.0122069 0.99953628 -0.024294257
379860377.35849 0.99955177 -0.026000023 0.00034980197 0.012490033 0.00029469328 0.012557676 0.99949366 -0.025014162
389856603.77358 0.99938709 -0.026505798 0.00033669407 0.012806674 0.00032987166 0.012904707 0.99948692 -0.025594622
399852830.18868 0.99924076 -0.027262181 0.00035792589 0.013105804 0.00035022246 0.013241414 0.9995231 -0.026041567
409849056.60377 0.99932903 -0.027701585 0.00037855102 0.013465339 0.00038014172 0.013534389 0.99947232 -0.026521869
419845283.01887 0.99921113 -0.028139293 0.00040152576 0.013811246 0.00039210683 0.013862329 0.99938893 -0.027048647
429841509.43396 0.99935818 -0.028744638 0.00039899675 0.014114316 0.0003903741 0.014220095 0.9995445 -0.027770698
439837735.84906 0.9992004 -0.029632449 0.00043465302 0.014447072 0.0004525379 0.014547012 0.99921441 -0.028764799
449833962.26415 0.99903166 -0.030390024 0.00042562746 0.014750745 0.00045400113 0.014805873 0.99885535 -0.029509723
459830188.67925 0.99895376 -0.031087309 0.00043590972 0.015073001 0.00043330295 0.015166349 0.99866349 -0.030206501
469826415.09434 0.99889845 -0.031844825 0.00046435185 0.015445154 0.00047780015 0.015484219 0.99839056 -0.030723631
479822641.50943 0.99878144 -0.03242667 0.00049305242 0.015784713 0.0004787161 0.015853334 0.99841172 -0.031111501
489818867.92453 0.99884653 -0.032953978 0.00050068414 0.016098758 0.00052022282 0.016210692 0.99867612 -0.031610608
499815094.33962 0.99894369 -0.033660173 0.0005478072 0.016408484 0.00055797864 0.016501261 0.99893481 -0.032150924
509811320.75472 0.99901098 -0.034060836 0.00056732574 0.016732756 0.00059752737 0.016827688 0.99907893 -0.03292276
519807547.16981 0.99897039 -0.034541488 0.00056885183 0.017057844 0.00056045409 0.017165011 0.99904966 -0.033611506
529803773.58491 0.9989152 -0.035147756 0.00058168638 0.017399859 0.00058807153 0.01746122 0.99886847 -0.034200996
539800000 0.99898869 -0.035796523 0.00061518769 0.017730597 0.00062430673 0.017822487 0.99875277 -0.034797549
549796226.41509 0.99887186 -0.036653996 0.0006245682 0.018066552 0.00063540181 0.018174637 0.99861985 -0.035212964
559792452.83019 0.9986214 -0.037294209 0.00059983321 0.018374227 0.0006506592 0.018471772 0.99854964 -0.035745323
569788679.24528 0.99855375 -0.038036287 0.00066490425 0.018700654 0.00065036304 0.018847371 0.99872828 -0.036485642
579784905.66038 0.99851483 -0.038578808 0.00069563917 0.019064642 0.00069599366 0.019146219 0.9988175 -0.037196711
589781132.07547 0.99860156 -0.03925553 0.00075744931 0.019385984 0.00068645272 0.019489065 0.99895573 -0.038019389
599777358.49057 0.99869812 -0.039826334 0.00078622252 0.01967917 0.00075316522 0.019791437 0.99900025 -0.0388726
609773584.90566 0.99880576 -0.040566474 0.00079341675 0.020026989 0.00083493616 0.020133166 0.99884444 -0.0396569
619769811.32075 0.99895477 -0.041272283 0.00082115037 0.020315714 0.00082843425 0.020452794 0.99883801 -0.040225983
629766037.73585 0.99884617 -0.041928887 0.00086577237 0.020649044 0.00088075083 0.020734143 0.99864161 -0.04072246
639762264.15094 0.99870813 -0.042579725 0.00090505113 0.020962939 0.00089148176 0.021067251 0.99859715 -0.041183516
649758490.56604 0.99859893 -0.043156937 0.00087190839 0.021301271 0.00088933483 0.0213855 0.99860173 -0.041645736
659754716.98113 0.99842036 -0.043649256 0.00090952218 0.021622034 0.00087722577 0.02171449 0.99868691 -0.042144269
669750943.39623 0.99841672 -0.044175208 0.00092155347 0.021939408 0.00092235487 0.022095647 0.99880052 -0.042991608
679747169.81132 0.99849844 -0.044908732 0.00095869589 0.022296274 0.00098598609 0.022443332 0.99876267 -0.043947831
689743396.22642 0.9985795 -0.045702547 0.00099861622 0.022626836 0.00099918805 0.022790506 0.9986375 -0.044803798
699739622.64151 0.9986589 -0.046512365 0.0010276968 0.022938898 0.0010417504 0.023099864 0.99852133 -0.045509815
709735849.0566 0.99864066 -0.047416367 0.0010865907 0.023268033 0.0011013892 0.023377417 0.9982307 -0.046228297
719732075.4717 0.99853992 -0.048144549 0.0011291644 0.023563085 0.001103153 0.023703011 0.99835521 -0.046794266
729728301.88679 0.99843985 -0.048556477 0.001146866 0.023903225 0.0011383053 0.02403973 0.99838746 -0.04727906
739724528.30189 0.99836677 -0.049259439 0.0011813524 0.024239192 0.0011847629 0.024374414 0.99856079 -0.047960043
749720754.71698 0.99827999 -0.049788132 0.001221939 0.024558013 0.0012281248 0.024697583 0.99854439 -0.04865855
759716981.13208 0.99824476 -0.050309062 0.0012294762 0.024867646 0.001227661 0.024979383 0.99850708 -0.049410194
769713207.54717 0.99829841 -0.051048845 0.0012555523 0.025180599 0.001273931 0.025320377 0.99830663 -0.050116301
779709433.96226 0.99838239 -0.051693767 0.0012870188 0.025489295 0.0012977497 0.025633005 0.99802613 -0.050753381
789705660.37736 0.99833393 -0.052485645 0.0013196794 0.025805995 0.0013459632 0.025962969 0.99781674 -0.051462561
799701886.79245 0.99821818 -0.053228527 0.0013805227 0.026132602 0.0013578832 0.02626783 0.99767876 -0.052042156
809698113.20755 0.9981339 -0.053837851 0.0013839777 0.026455119 0.0014025434 0.026619937 0.99765706 -0.052498728
819694339.62264 0.99790561 -0.054587036 0.0014148229 0.026770584 0.0014006896 0.026922356 0.99775469 -0.053126782
829690566.03774 0.9979037 -0.055164754 0.0014208248 0.027085425 0.0014475556 0.027238013 0.99801517 -0.053972304
839686792.45283 0.99798828 -0.055630744 0.0014201961 0.02739127 0.0014669742 0.027574129 0.99802202 -0.05478707
849683018.86792 0.99807495 -0.056298055 0.0014661578 0.027713845 0.0015020883 0.027925463 0.99792677 -0.055481091
859679245.28302 0.99808729 -0.056987315 0.0015461873 0.02806589 0.0015263222 0.028208641 0.99764276 -0.056072831
869675471.69811 0.99802387 -0.057741463 0.0015918622 0.028382871 0.0015812768 0.028527988 0.99728036 -0.056632012
879671698.11321 0.99798739 -0.058364503 0.001581854 0.02867783 0.0016134313 0.028858351 0.99728882 -0.057017639
889667924.5283 0.99780869 -0.059081674 0.0016525527 0.028982148 0.0016329372 0.029161345 0.99716306 -0.057548463
899664150.9434 0.99766731 -0.059854895 0.0016307486 0.029304463 0.0016607037 0.029466696 0.99717379 -0.058101445
909660377.35849 0.99765718 -0.060482949 0.0016630343 0.029621009 0.0016706968 0.029791228 0.99733269 -0.058911785
919656603.77358 0.9977572 -0.061108008 0.0016854885 0.029958969 0.0017146771 0.030117657 0.99730504 -0.059783593
929652830.18868 0.99769402 -0.061884999 0.0017187381 0.030252252 0.0017564464 0.030421598 0.99717176 -0.060637951
939649056.60377 0.99789143 -0.062488973 0.0017357059 0.030562408 0.0017610407 0.030740267 0.99702215 -0.061367959
949645283.01887 0.99781525 -0.063342616 0.0017558236 0.030906131 0.0017745894 0.031086445 0.99687415 -0.061894409
959641509.43396 0.99780941 -0.063984215 0.0017579198 0.031275924 0.0017919391 0.031441752 0.99680114 -0.062385172
969637735.84906 0.99765998 -0.064728409 0.0018296912 0.031598579 0.0018296577 0.031785998 0.99678171 -0.062788785
979633962.26415 0.99747539 -0.06543164 0.001890783 0.031898506 0.0019102597 0.032091688 0.99681348 -0.063412033
989630188.67925 0.99756831 -0.065929383 0.0018825103 0.032190744 0.0019222265 0.032425411 0.99703443 -0.064000368
999626415.09434 0.99758816 -0.066633373 0.0019420963 0.032547735 0.0019637747 0.032754458 0.99692708 -0.06480208
1009622641.5094 0.99761397 -0.067196175 0.0019731121 0.032880034 0.0020099999 0.033130843 0.99679518 -0.065541327
1019618867.9245 0.99764472 -0.068013132 0.0020422661 0.03319579 0.0020645745 0.033423241 0.99656826 -0.06637688
1029615094.3396 0.99773753 -0.068939477 0.002080976 0.033515323 0.002096938 0.033690058 0.99623227 -0.066989154
1039611320.7547 0.99769557 -0.069781512 0.0021097027 0.033811435 0.0021192348 0.034001082 0.99620634 -0.067594379
1049607547.1698 0.9975211 -0.070645407 0.0021340598 0.034096576 0.0021513014 0.034309551 0.99614406 -0.068202108
1059603773.5849 0.99749535 -0.07133165 0.0021651099 0.034393363 0.0022273948 0.034607396 0.99618459 -0.068742216
1069600000 0.99726039 -0.072004825 0.0021687858 0.034712214 0.0022135377 0.034922268 0.99635577 -0.069487721
1079596226.4151 0.99726218 -0.07267376 0.0021778713 0.035037808 0.0022204672 0.035267148 0.99631965 -0.070233069
1089592452.8302 0.99730599 -0.073400557 0.0022042347 0.035386227 0.0022382392 0.035584487 0.99626368 -0.070934772
1099588679.2453 0.99735224 -0.073981971 0.0021891352 0.03570646 0.0022820923 0.035903931 0.99597287 -0.071633607
1109584905.6604 0.99746817 -0.074816018 0.0022414988 0.036039326 0.0022762157 0.036244199 0.99580765 -0.072113723
1119581132.0755 0.99743754 -0.075706497 0.002231753 0.036392897 0.0022931732 0.036601733 0.99555182 -0.072521642
1129577358.4906 0.99723852 -0.076478451 0.0023006387 0.036722742 0.0023639537 0.036950924 0.99543357 -0.072984904
1139573584.9057 0.99705619 -0.07737413 0.0023425911 0.037036777 0.0024197279 0.037295952 0.99553227 -0.073624551
1149569811.3208 0.9969027 -0.078168824 0.0023854352 0.037375126 0.0024917405 0.037596513 0.99568427 -0.074365295
1159566037.7358 0.99668181 -0.078818023 0.0024383944 0.037649699 0.0025077378 0.037897833 0.99577343 -0.075332522
1169562264.1509 0.99661398 -0.079471529 0.002428757 0.03799767 0.002504399 0.038228568 0.99560583 -0.076140672
1179558490.566 0.99652874 -0.080273785 0.0024576611 0.038353387 0.002545303 0.038620926 0.99549317 -0.076837771
1189554716.9811 0.99645913 -0.081049085 0.0024819616 0.038699359 0.0025803717 0.03891886 0.99518967 -0.077373475
1199550943.3962 0.99643683 -0.081876397 0.0025267806 0.039034586 0.0026344918 0.039260942 0.99504375 -0.07780531
1209547169.8113 0.99626404 -0.082731292 0.002556622 0.039357312 0.0026570568 0.039569534 0.99497586 -0.078163266
1219543396.2264 0.99604976 -0.083526671 0.0026154178 0.039727036 0.0027140519 0.039968606 0.99504966 -0.078545928
1229539622.6415 0.99578083 -0.084318519 0.0027097743 0.04003121 0.0027907789 0.040264517 0.99516153 -0.079253733
1239535849.0566 0.99560082 -0.08496502 0.0027447315 0.040363684 0.0028404268 0.040611692 0.99525779 -0.080093741
1249532075.4717 0.99522036 -0.085623018 0.0027825166 0.040691823 0.002930478 0.040895056 0.99513131 -0.080893539
1259528301.8868 0.99506485 -0.086152375 0.002835067 0.0410017 0.0029842202 0.041198328 0.99486208 -0.081781626
1269524528.3019 0.9948926 -0.086849362 0.0029325522 0.041309696 0.0030193254 0.041513667 0.99469429 -0.082441807
1279520754.717 0.99453765 -0.087635733 0.0029450795 0.041557521 0.0031014979 0.041774526 0.99445254 -0.082976319
1289516981.1321 0.99442291 -0.08846581 0.0029725814 0.041879203 0.0030897558 0.042039603 0.99444669 -0.083414704
1299513207.5472 0.99415898 -0.089302957 0.0030009076 0.042213187 0.0031084884 0.042370174 0.99460673 -0.08383891
1309509433.9623 0.99370742 -0.089999229 0.0029830886 0.042483211 0.0031325836 0.042674553 0.99467671 -0.084549531
1319505660.3774 0.99337888 -0.090706363 0.0030025057 0.042815268 0.0031310199 0.042995088 0.9947294 -0.085181937
1329501886.7925 0.99312866 -0.091347426 0.0030185804 0.043171 0.0031511225 0.043339606 0.99477941 -0.086146951
1339498113.2075 0.99287093 -0.091834426 0.0030494928 0.043488741 0.0031892508 0.043633599 0.99438006 -0.086888134
1349494339.6226 0.99260533 -0.092420816 0.003020653 0.043819293 0.0031511243 0.043951865 0.99397069 -0.087400936
1359490566.0377 0.99246329 -0.092920184 0.0030502789 0.044176839 0.0031541437 0.044316977 0.99380589 -0.087889403
1369486792.4528 0.99228871 -0.093473405 0.0030513192 0.044538982 0.0031790547 0.044651937 0.9936682 -0.088315308
1379483018.8679 0.99206865 -0.094064437 0.0030874636 0.044903778 0.0031853933 0.045024808 0.99367452 -0.088747606
1389479245.283 0.99173552 -0.094575286 0.0031100605 0.045281202 0.0032186657 0.045436494 0.99363959 -0.089437932
1399475471.6981 0.99134898 -0.094968081 0.0031211693 0.045596857 0.0032401066 0.045732338 0.99377882 -0.090049297
1409471698.1132 0.99109548 -0.095424563 0.0031915104 0.045978103 0.0032725234 0.046134446 0.99378902 -0.090896375
1419467924.5283 0.99089563 -0.095749319 0.0032428997 0.04635524 0.0032792548 0.046501603 0.99365157 -0.091614932
1429464150.9434 0.99077332 -0.096178293 0.003255263 0.046766579 0.003320856 0.046890408 0.99352491 -0.09206602
1439460377.3585 0.99088365 -0.096532077 0.0033157608 0.047208212 0.0033955984 0.047323301 0.99327832 -0.092501923
1449456603.7736 0.99086225 -0.097170845 0.003448681 0.047564216 0.003473145 0.04768629 0.99313521 -0.09283486
1459452830.1887 0.99092072 -0.097736806 0.0035746023 0.047967266 0.0035697334 0.04807914 0.99333405 -0.09310919
1469449056.6038 0.99087822 -0.098427951 0.0037263148 0.048327986 0.0037407782 0.048471279 0.99363339 -0.093792886
1479445283.0189 0.9908101 -0.099018648 0.0037959567 0.048577964 0.0038679657 0.048727531 0.99359995 -0.094686806
1489441509.434 0.9907195 -0.099506021 0.0039908048 0.048882075 0.0040331427 0.049054243 0.99351346 -0.095536232
1499437735.8491 0.99051988 -0.099887431 0.0040587541 0.049168348 0.0041175708 0.049311176 0.99348015 -0.096268982
1509433962.2642 0.99050033 -0.1004132 0.0041599069 0.049469449 0.0041676913 0.049584184 0.99322551 -0.097054943
1519430188.6792 0.99066478 -0.10103458 0.0042347349 0.049721479 0.0042335223 0.049864069 0.9930414 -0.097642809
1529426415.0943 0.99053943 -0.10167101 0.0042782575 0.050002255 0.0042895097 0.050158121 0.99307179 -0.098021895
1539422641.5094 0.99065083 -0.10249773 0.0043227891 0.05030122 0.0043315818 0.050471004 0.99313319 -0.098511212
1549418867.9245 0.99044365 -0.10328808 0.0043919468 0.050548177 0.0043932181 0.050770953 0.99331009 -0.099202156
1559415094.3396 0.99038315 -0.1038824 0.0044275336 0.050839268 0.0044261105 0.051008247 0.99346554 -0.099900573
1569411320.7547 0.99021131 -0.10461733 0.0044616815 0.051161148 0.0044279899 0.05131964 0.99337 -0.10074925
1579407547.1698 0.99015194 -0.1051307 0.0044816532 0.051385608 0.0044790474 0.051598273 0.99307972 -0.10147174
1589403773.5849 0.99007869 -0.10570565 0.0045161154 0.051701359 0.004519064 0.051880166 0.99282789 -0.10218516
1599400000 0.99005657 -0.10612097 0.0045026792 0.052025352 0.0044990936 0.052183576 0.99250603 -0.10264954
1609396226.4151 0.99001932 -0.10684685 0.0044962615 0.052306581 0.0044900309 0.052518144 0.99230206 -0.10323279
1619392452.8302 0.99004573 -0.10743648 0.0045148451 0.052668683 0.0044606868 0.052892417 0.99223673 -0.10359794
1629388679.2453 0.98984921 -0.10815752 0.0045444965 0.052974697 0.0045058616 0.053205386 0.99248672 -0.10421219
1639384905.6604 0.98959482 -0.10879251 0.0045173895 0.053339496 0.0044890591 0.053569276 0.99273157 -0.10494464
1649381132.0755 0.98937988 -0.1094822 0.0045173503 0.053695589 0.0044897906 0.05396108 0.99271864 -0.10586807
1659377358.4906 0.9892174 -0.11021015 0.0045508426 0.054061569 0.004534604 0.05432054 0.99264449 -0.10681394
1669373584.9057 0.98921633 -0.11061287 0.0045741941 0.054429613 0.0045522628 0.054698221 0.99242777 -0.10746872
1679369811.3208 0.98917937 -0.11131251 0.0046229446 0.054798018 0.0045822542 0.055058368 0.99207807 -0.10791841
1689366037.7358 0.98926288 -0.11188307 0.0047005415 0.055194207 0.00460531 0.055426337 0.99203718 -0.10827029
1699362264.1509 0.98934036 -0.11248505 0.004731073 0.055545043 0.0047259238 0.055825822 0.99217051 -0.10876715
1709358490.566 0.98925555 -0.11312899 0.004775553 0.055908937 0.004742546 0.056167714 0.99222326 -0.10927588
1719354716.9811 0.98890662 -0.11378816 0.0048393011 0.056244433 0.0048030131 0.05655805 0.99229956 -0.10993338
