!Keysight Technologies,N5222B,MY61253708,A.15.00.15
!Date: Wednesday, June 19, 2024 09:55:53
!Correction: S11(C  2-Port  ) 
!S21(C  2-Port  ) 
!S12(C  2-Port  ) 
!S22(C  2-Port  ) 
!S2P File: Measurements: S11, S21, S12, S22:
# Hz S  RI   R 50
10000000 0.99889588 -0.0028581917 0.00042553409 0.00049227563 -1.1930999e-005 0.00033019535 0.99832034 -0.0014402866
19996226.415094 0.99965155 -0.0034931898 1.3187586e-005 0.0005658021 3.3424352e-005 0.00077863305 1.0001552 -0.0033487678
29992452.830189 0.99974376 -0.0024674833 1.1624536e-005 0.00097913772 -4.9760711e-005 0.001018865 0.99942005 -0.0027668774
39988679.245283 1.0000211 -0.0030004829 1.3739918e-007 0.0013128093 -1.0703341e-005 0.0013768573 0.99969459 -0.0031140447
49984905.660377 1.0001631 -0.0036615729 -8.0477912e-006 0.0016476663 1.3856392e-005 0.0016752623 0.99986708 -0.0036588311
59981132.075472 1.0004395 -0.0045192838 4.072953e-005 0.0019798169 -2.4749315e-006 0.0020215821 0.99984783 -0.0041497052
69977358.490566 1.0002298 -0.0051190797 4.2001091e-005 0.0022858311 1.7614359e-005 0.0023092104 0.99974442 -0.0048126895
79973584.90566 0.99994117 -0.0056881607 3.8198428e-005 0.0026350548 4.5686844e-005 0.002655311 0.99938792 -0.0052652359
89969811.320755 0.99996156 -0.0057900548 6.9286907e-006 0.0029768711 -5.0418312e-006 0.0029671313 0.99961114 -0.0055315495
99966037.735849 1.0002215 -0.0065538883 2.0687003e-007 0.003299749 5.7267025e-006 0.0033261105 0.99970007 -0.0062921941
109962264.15094 1.0002342 -0.0074596107 5.0873437e-005 0.0036048098 3.1934062e-005 0.0036709292 0.99967599 -0.0070796013
119958490.56604 1.0002246 -0.0083042085 2.5952933e-005 0.0039580856 3.3085234e-005 0.0039897733 0.99971205 -0.0079658926
129954716.98113 1.0001507 -0.0092500746 3.9003673e-005 0.0042722174 3.8663973e-005 0.0043342933 0.99968779 -0.0088601112
139950943.39623 1.000115 -0.01006298 3.0142997e-005 0.0046222853 4.5785084e-005 0.0046342742 0.99962038 -0.0095784776
149947169.81132 0.9999944 -0.010705054 6.162026e-005 0.004952237 5.7509867e-005 0.0049715713 0.99956417 -0.010189086
159943396.22642 0.99995685 -0.011320233 6.5052416e-005 0.0052832067 6.2071253e-005 0.0053117923 0.99965012 -0.010686755
169939622.64151 0.99991584 -0.011700131 6.1054132e-005 0.0056368778 5.1961746e-005 0.005661719 0.99967229 -0.011138432
179935849.0566 0.99994427 -0.011989087 8.3932187e-005 0.0059184497 7.2800904e-005 0.0059847762 0.99958783 -0.011500716
189932075.4717 1.0001236 -0.01273331 8.1409002e-005 0.0062612649 6.8912283e-005 0.0063204179 0.99979609 -0.012056619
199928301.88679 1.0000558 -0.013574928 8.5680862e-005 0.0066117947 8.5604494e-005 0.0066236793 0.99966657 -0.012862414
209924528.30189 0.99975914 -0.014152825 8.0333673e-005 0.0069139604 8.5983775e-005 0.0069725257 0.9994536 -0.01355426
219920754.71698 0.99994624 -0.014895022 0.00012825406 0.0072496478 9.9277357e-005 0.0072994214 0.99934494 -0.014151484
229916981.13208 0.99971557 -0.015764952 0.00012304285 0.0076121683 0.00012624823 0.0076231686 0.9993664 -0.014980197
239913207.54717 0.99960208 -0.016440229 0.00013640938 0.0079188123 0.00014167072 0.007969073 0.999318 -0.015716966
249909433.96226 0.99959975 -0.017097861 0.0001364022 0.0082536507 0.00014808285 0.0083062435 0.99939376 -0.01635024
259905660.37736 0.99971402 -0.017681241 0.00017253403 0.0085450262 0.00014919927 0.0086223632 0.99959981 -0.016889185
269901886.79245 0.99978924 -0.018282562 0.00016411918 0.0089195548 0.00016784261 0.0089535145 0.99987668 -0.017632663
279898113.20755 0.99983084 -0.019010514 0.00017052889 0.0092274835 0.00013010134 0.009338662 0.99974668 -0.018332943
289894339.62264 0.99983597 -0.019697487 0.00020964816 0.0095903687 0.0001802193 0.0096441749 0.9996016 -0.019174784
299890566.03774 0.99979866 -0.020165712 0.00018359534 0.0098710069 0.00016285782 0.0099005392 0.99937379 -0.019614816
309886792.45283 0.99959522 -0.020805836 0.00016680534 0.010225794 0.00025631016 0.010268332 0.99929672 -0.020002559
319883018.86792 0.99976462 -0.021343231 0.00020400481 0.010540824 0.00026181666 0.01062162 0.99942499 -0.020480454
329879245.28302 0.99963057 -0.022223592 0.00024406845 0.010874614 0.00023920089 0.010911513 0.9995349 -0.021304876
339875471.69811 0.99954045 -0.022840552 0.00026485417 0.011224781 0.00026065996 0.011278503 0.99946535 -0.02205465
349871698.11321 0.99971014 -0.023802102 0.00029790867 0.011516009 0.00024831109 0.011620146 0.99950898 -0.022978753
359867924.5283 0.99952781 -0.024499774 0.00028696377 0.011877253 0.0002771616 0.011949038 0.99941552 -0.023817092
369864150.9434 0.99969786 -0.025345355 0.00029558106 0.012173531 0.00031391671 0.012268698 0.99941164 -0.024524271
379860377.35849 0.99963647 -0.026019841 0.0003356419 0.012534403 0.0003457116 0.012602237 0.99927902 -0.025142938
389856603.77358 0.99945831 -0.026642293 0.00033719605 0.012889601 0.00032178266 0.012910193 0.99926603 -0.025677562
399852830.18868 0.99931496 -0.027216196 0.00034826901 0.013160787 0.00036303373 0.013228829 0.99940908 -0.026154429
409849056.60377 0.99923885 -0.027617352 0.00035628641 0.013534539 0.00036763612 0.013577471 0.99938124 -0.026679385
419845283.01887 0.99924344 -0.028115004 0.0003822376 0.013835816 0.00036203954 0.013926323 0.99934721 -0.027183831
429841509.43396 0.99929839 -0.028740913 0.00041901087 0.014148844 0.00039840676 0.014239034 0.99958599 -0.027940422
439837735.84906 0.99920005 -0.029678151 0.00044895697 0.014474616 0.0004307807 0.014587225 0.99932986 -0.028887495
449833962.26415 0.99911845 -0.030468225 0.00041539548 0.014798809 0.000450294 0.014862002 0.99900818 -0.029669821
459830188.67925 0.99892974 -0.031149 0.00043586828 0.015101472 0.00042239763 0.015173476 0.99881637 -0.030414164
469826415.09434 0.99884212 -0.031848222 0.00046232529 0.015460392 0.00043736398 0.015567371 0.99859548 -0.030968457
479822641.50943 0.99870777 -0.032402158 0.00048233755 0.015793541 0.00049023051 0.015905434 0.99862069 -0.031476811
489818867.92453 0.99881482 -0.032972544 0.0005558352 0.016133942 0.00050762715 0.016229715 0.99895126 -0.03195554
499815094.33962 0.99884415 -0.033494502 0.00054949801 0.016467368 0.00056654867 0.016527928 0.99919897 -0.032555133
509811320.75472 0.99899048 -0.033920117 0.00058612972 0.016790548 0.00056360761 0.016871026 0.99932021 -0.033371508
519807547.16981 0.99887919 -0.034505427 0.00055960706 0.017104868 0.00057018688 0.01718002 0.99928272 -0.034052789
529803773.58491 0.9988957 -0.03510645 0.00060799345 0.017426325 0.00058151223 0.017514814 0.99900901 -0.034670055
539800000 0.99901778 -0.035768867 0.00060606445 0.017740635 0.00062734424 0.017843064 0.99886084 -0.035345227
549796226.41509 0.99880773 -0.036583573 0.00062281825 0.018076325 0.00066061039 0.018222561 0.99877048 -0.035808444
559792452.83019 0.99870586 -0.037219614 0.00062049367 0.01842685 0.00066747237 0.01852129 0.99865949 -0.03628701
569788679.24528 0.99858171 -0.03790015 0.00067615602 0.018778877 0.00068903668 0.018820696 0.99875057 -0.037149042
579784905.66038 0.99848098 -0.038406551 0.00071746018 0.01909166 0.00069695641 0.019186798 0.99894416 -0.037779115
589781132.07547 0.99869394 -0.039105028 0.00073655881 0.019400835 0.00073010288 0.019500097 0.99897486 -0.038605273
599777358.49057 0.99874938 -0.039723963 0.00075970311 0.019798767 0.00074336119 0.019919025 0.99895895 -0.039459139
609773584.90566 0.99887431 -0.040491618 0.00082945649 0.020085849 0.00083922531 0.020183144 0.99880493 -0.04024078
619769811.32075 0.99900848 -0.041217148 0.0008371654 0.020408966 0.00083072111 0.020508669 0.99877703 -0.040800482
629766037.73585 0.99884617 -0.04181096 0.00086914655 0.020691711 0.00084762555 0.020793825 0.99863088 -0.041309804
639762264.15094 0.99867809 -0.042473391 0.00085642468 0.021009991 0.00086466246 0.021148691 0.99847025 -0.041785732
649758490.56604 0.99861735 -0.04311201 0.00090004364 0.021330239 0.00089519052 0.02147733 0.99858034 -0.04228811
659754716.98113 0.99848533 -0.043614447 0.00089943316 0.021648044 0.00089927297 0.021814087 0.99863279 -0.042860508
669750943.39623 0.99846524 -0.044023335 0.00089727668 0.022022476 0.00096628023 0.022170071 0.99873674 -0.043646336
679747169.81132 0.9984926 -0.044813365 0.00098660355 0.022341486 0.00096215343 0.022503074 0.99867558 -0.044474937
689743396.22642 0.99862635 -0.045520216 0.0009908909 0.022704069 0.0010039387 0.022813713 0.99849367 -0.045480937
699739622.64151 0.99868822 -0.046410769 0.0010512089 0.023016181 0.0010429844 0.02316967 0.99845856 -0.046140909
709735849.0566 0.99867779 -0.047266051 0.001107658 0.023336306 0.001095659 0.023489008 0.99817264 -0.046803899
719732075.4717 0.99855226 -0.047962129 0.001144181 0.02364598 0.0011389684 0.023780681 0.99825764 -0.047369212
729728301.88679 0.99850184 -0.048570901 0.0011652615 0.024000775 0.0011651171 0.024115819 0.99832004 -0.047843069
739724528.30189 0.99837458 -0.04923594 0.001176741 0.02428613 0.00119879 0.024428338 0.9984352 -0.048480675
749720754.71698 0.99830925 -0.049702898 0.0011853813 0.02461387 0.0012243646 0.024742693 0.99850249 -0.049198925
759716981.13208 0.99838126 -0.050217509 0.0012432421 0.02492227 0.001242483 0.025045214 0.99845326 -0.049920201
769713207.54717 0.99830192 -0.050896734 0.0012680348 0.0252175 0.0012902487 0.025384866 0.99820822 -0.050593883
779709433.96226 0.99845612 -0.051566202 0.0012952634 0.025541026 0.0013218981 0.02570029 0.99795187 -0.051268477
789705660.37736 0.9981879 -0.052470386 0.0013503348 0.025896752 0.0013435353 0.026030179 0.99773008 -0.05199492
799701886.79245 0.99822378 -0.053234041 0.0013579251 0.02619864 0.0013623508 0.026345935 0.99766952 -0.052554876
809698113.20755 0.99813926 -0.053839788 0.0013919671 0.026537495 0.001389513 0.026692256 0.99767482 -0.052956745
819694339.62264 0.99799287 -0.054437667 0.0014119428 0.026834393 0.001418869 0.027011065 0.99776447 -0.053615034
829690566.03774 0.99793774 -0.055072546 0.0014567906 0.02716722 0.0014514206 0.027304418 0.99798423 -0.054449141
839686792.45283 0.99794829 -0.055513531 0.0014793635 0.027471449 0.0014778972 0.027650496 0.99803251 -0.055291921
849683018.86792 0.99811172 -0.056237638 0.0015212896 0.027818399 0.0015191543 0.027970079 0.99792391 -0.056070946
859679245.28302 0.99809843 -0.056930035 0.001564702 0.028134767 0.0015579667 0.028309032 0.9976474 -0.056699395
869675471.69811 0.99802607 -0.057593465 0.0015966501 0.028454138 0.0016208608 0.028643135 0.99732745 -0.057207584
879671698.11321 0.99789828 -0.058201671 0.0016100103 0.028753765 0.0016229812 0.028939042 0.99732983 -0.057667397
889667924.5283 0.99783909 -0.058977395 0.0016676895 0.029063055 0.0016411711 0.029244818 0.99717617 -0.058119088
899664150.9434 0.99765897 -0.059709609 0.0016643861 0.029373335 0.0016662506 0.029566657 0.99720061 -0.058784187
909660377.35849 0.99759537 -0.060312286 0.0016861199 0.029695701 0.001711329 0.029894238 0.99740124 -0.059623912
919656603.77358 0.99771965 -0.061051667 0.0017271265 0.030017244 0.0017163581 0.030228175 0.99730253 -0.060440302
929652830.18868 0.99764347 -0.061751992 0.001738986 0.030327937 0.0017452314 0.030500993 0.99720418 -0.061301023
939649056.60377 0.99777591 -0.062372625 0.0017204555 0.030644935 0.0017714053 0.030853603 0.9970845 -0.062049478
949645283.01887 0.99780846 -0.063263446 0.0017244717 0.030984683 0.0017705392 0.031169482 0.99687308 -0.062586576
959641509.43396 0.99768054 -0.063916862 0.0017506247 0.031363007 0.0018405402 0.031537365 0.99681675 -0.06313026
969637735.84906 0.99766839 -0.064672619 0.0018517599 0.031673651 0.0018715346 0.031880844 0.9967882 -0.063508749
979633962.26415 0.99747854 -0.065318376 0.0019054196 0.031987846 0.0019079084 0.03220439 0.99689454 -0.064144954
989630188.67925 0.99758112 -0.065913409 0.0019528922 0.032297794 0.0019337703 0.032519117 0.99702126 -0.06475848
999626415.09434 0.99764264 -0.066470802 0.0019577174 0.032634802 0.0019601882 0.032862421 0.99696732 -0.065485746
1009622641.5094 0.99767119 -0.067055658 0.0019925972 0.032986663 0.0020160144 0.033195194 0.99684191 -0.066331744
1019618867.9245 0.99770671 -0.067884192 0.0020452412 0.033295091 0.0020580278 0.033497334 0.99662769 -0.067151546
1029615094.3396 0.99770761 -0.068820238 0.002089195 0.033614829 0.0021315487 0.033781335 0.99621975 -0.067754507
1039611320.7547 0.99772763 -0.069630384 0.0021115113 0.033886079 0.0021155607 0.034126196 0.99619645 -0.068417311
1049607547.1698 0.99761415 -0.07059592 0.0021586025 0.034189828 0.0021730638 0.034420758 0.99611193 -0.068985067
1059603773.5849 0.99750137 -0.071297437 0.002179089 0.034512088 0.0022139559 0.034744442 0.996162 -0.069523603
1069600000 0.99729925 -0.071862429 0.0021675425 0.034792937 0.002230485 0.035058774 0.9962889 -0.070268601
1079596226.4151 0.99724096 -0.072581157 0.0021917732 0.035150357 0.0022521466 0.035374623 0.99628872 -0.070998654
1089592452.8302 0.99727768 -0.073187798 0.0022150036 0.035472598 0.0022600442 0.035709955 0.99624383 -0.071758628
1099588679.2453 0.99726772 -0.073790342 0.0022277255 0.035801038 0.002306968 0.036022019 0.99598181 -0.072349906
1109584905.6604 0.99745011 -0.074620262 0.0022575269 0.036130201 0.0023282412 0.036356047 0.99571788 -0.072977722
1119581132.0755 0.99736375 -0.075579762 0.0022902498 0.036455344 0.002328279 0.036696747 0.99550128 -0.073332697
1129577358.4906 0.99726838 -0.076277286 0.0023364238 0.03681761 0.0023607742 0.037077393 0.99543595 -0.073735476
1139573584.9057 0.9969126 -0.07718569 0.0023456169 0.037139993 0.0024274411 0.037391476 0.99549353 -0.074415714
1149569811.3208 0.99687165 -0.078026295 0.0024166624 0.037480474 0.0024780408 0.03771117 0.99562305 -0.075167716
1159566037.7358 0.99669528 -0.078718692 0.0024427883 0.03779361 0.0024995878 0.038005948 0.99571323 -0.076129526
1169562264.1509 0.99653125 -0.079381555 0.0024301037 0.038072612 0.0025484096 0.038346894 0.99554896 -0.076905727
1179558490.566 0.99650627 -0.080220275 0.0024378349 0.038446706 0.0025609119 0.038718775 0.99545336 -0.077682868
1189554716.9811 0.9964664 -0.080942959 0.0025175884 0.038794219 0.0026061852 0.039053477 0.99514914 -0.078196019
1199550943.3962 0.99637473 -0.081716835 0.0025453251 0.039153032 0.0026710946 0.039369132 0.99500489 -0.07859835
1209547169.8113 0.99625516 -0.08265999 0.0025676629 0.039475307 0.0026797419 0.0396901 0.99495792 -0.079000771
1219543396.2264 0.99610204 -0.083375245 0.0026523112 0.039852273 0.0027458197 0.040063977 0.99493301 -0.079367131
1229539622.6415 0.99578929 -0.084175825 0.0027260724 0.040164217 0.0027629398 0.040401861 0.99514389 -0.080079496
1239535849.0566 0.99554145 -0.08486706 0.0027809814 0.040448662 0.002865281 0.040702462 0.99522412 -0.080918878
1249532075.4717 0.99523205 -0.08553984 0.0028164668 0.040783081 0.0029561142 0.040975086 0.99505359 -0.081674933
1259528301.8868 0.99510968 -0.08601439 0.0028658416 0.041102249 0.0030009933 0.041324575 0.99484104 -0.082541555
1269524528.3019 0.99494123 -0.086748958 0.002930928 0.041422237 0.0030675009 0.041611802 0.99467385 -0.083301634
1279520754.717 0.99454522 -0.087452352 0.0029690114 0.041705277 0.0031066649 0.041886318 0.99433988 -0.083748512
1289516981.1321 0.99450696 -0.088297635 0.0030300152 0.041998073 0.0031419219 0.042187374 0.99440795 -0.08427453
1299513207.5472 0.99409842 -0.089134902 0.003023617 0.042314041 0.0031274315 0.042521365 0.9945665 -0.084734738
1309509433.9623 0.99368435 -0.089811191 0.0030071363 0.042614575 0.0031622918 0.042818408 0.99467182 -0.085408315
1319505660.3774 0.99334276 -0.090551525 0.0030347696 0.042940862 0.0031364728 0.043126356 0.99466121 -0.086071447
1329501886.7925 0.99303889 -0.091245741 0.0030618366 0.043257073 0.0032125618 0.04344891 0.99468291 -0.087009132
1339498113.2075 0.99277675 -0.091656625 0.0030540461 0.043593969 0.0031995373 0.043792058 0.99430311 -0.087731838
1349494339.6226 0.99259901 -0.092274494 0.0030462453 0.043918643 0.0031817514 0.044083428 0.99397629 -0.088286012
1359490566.0377 0.9924072 -0.092807263 0.0030860864 0.044283137 0.0031974986 0.044443723 0.99374616 -0.088766694
1369486792.4528 0.99229479 -0.093344897 0.0030815359 0.044665642 0.0032123383 0.044792607 0.99350411 -0.089317471
1379483018.8679 0.99200016 -0.093911201 0.003102601 0.044989157 0.0031701832 0.045139372 0.99355406 -0.089612484
1389479245.283 0.9916836 -0.094444305 0.0031525288 0.045393668 0.0032399539 0.045531165 0.99353445 -0.090264976
1399475471.6981 0.99125743 -0.094874859 0.0031426214 0.045724295 0.0032493006 0.045874044 0.99369258 -0.090980977
1409471698.1132 0.99097586 -0.095229521 0.0031800091 0.046102755 0.0033058247 0.046239108 0.99373668 -0.091757827
1419467924.5283 0.99081212 -0.095521122 0.0032160673 0.046464566 0.0033305716 0.046641309 0.99361461 -0.092443407
1429464150.9434 0.99073112 -0.096006066 0.0032626037 0.046880744 0.003359925 0.047044992 0.99346256 -0.093027592
1439460377.3585 0.99086154 -0.096499279 0.0033414122 0.047292519 0.0033947621 0.047438011 0.99320447 -0.093448073
1449456603.7736 0.99084389 -0.096978456 0.0034706164 0.047713298 0.0035053268 0.047855686 0.99310184 -0.093718559
1459452830.1887 0.99086058 -0.097597212 0.0035862047 0.048066564 0.0036365427 0.048243411 0.99319446 -0.094031662
1469449056.6038 0.99090922 -0.098314285 0.0037744818 0.048466351 0.0037651798 0.04862377 0.99344015 -0.094681293
1479445283.0189 0.99070996 -0.098863736 0.0038761541 0.048715539 0.0038976753 0.048897732 0.99352223 -0.095509551
1489441509.434 0.99069834 -0.099381447 0.0040016863 0.049052395 0.0040199645 0.049184702 0.99336398 -0.096422523
1499437735.8491 0.99051988 -0.099813312 0.0041046515 0.049329381 0.0041213315 0.049470976 0.99327505 -0.097199261
1509433962.2642 0.99053931 -0.10029316 0.0041982192 0.049592312 0.0041911276 0.049729843 0.99316621 -0.097951263
1519430188.6792 0.99058336 -0.10078034 0.0042510238 0.049873441 0.0042766482 0.050027557 0.99302578 -0.098502278
1529426415.0943 0.99053007 -0.10152891 0.0043058693 0.050097011 0.0043216348 0.050312757 0.99291539 -0.098915905
1539422641.5094 0.9906109 -0.10224957 0.0043620579 0.050434582 0.0043790787 0.050601073 0.99299812 -0.099448353
1549418867.9245 0.9904713 -0.1030874 0.0044609699 0.050700955 0.0044078706 0.050907351 0.9932254 -0.10016613
1559415094.3396 0.99032629 -0.10364544 0.0044576749 0.050983109 0.0044666771 0.051158648 0.99331433 -0.10079658
1569411320.7547 0.99027431 -0.10450332 0.0044995695 0.051245641 0.004484429 0.051465351 0.99329031 -0.10159233
1579407547.1698 0.9901709 -0.10497265 0.0045092721 0.051536072 0.0045295823 0.051777698 0.99291915 -0.10247301
1589403773.5849 0.99006975 -0.10557106 0.0045477487 0.051837433 0.0045032892 0.052074354 0.99277735 -0.10313269
1599400000 0.99009609 -0.10591674 0.0045417268 0.052092936 0.0045119915 0.052347641 0.99225795 -0.10359859
1609396226.4151 0.9899779 -0.10664667 0.0044933334 0.052439384 0.0044875126 0.05267692 0.99213284 -0.10407355
1619392452.8302 0.9900136 -0.10726637 0.0045424886 0.052784715 0.0045359787 0.052998245 0.99210703 -0.10449982
1629388679.2453 0.9897325 -0.10793546 0.0045122448 0.053137574 0.0044973474 0.05336386 0.99229091 -0.10503983
1639384905.6604 0.98956317 -0.10866856 0.0045423605 0.053466909 0.004542348 0.053751502 0.9925437 -0.1059232
1649381132.0755 0.9894256 -0.10929129 0.0045683254 0.053829141 0.0045438986 0.054088995 0.99253148 -0.10685816
1659377358.4906 0.98923457 -0.11004582 0.004590027 0.05419001 0.0045642629 0.054479141 0.99251902 -0.10768846
1669373584.9057 0.98911679 -0.1104748 0.0046118293 0.054593712 0.0046625235 0.05485687 0.99219847 -0.10836519
1679369811.3208 0.98923844 -0.11122492 0.004649831 0.054973237 0.0046416679 0.055213969 0.99200565 -0.10888299
1689366037.7358 0.98925698 -0.1117982 0.0047398619 0.055303395 0.0046662167 0.055595353 0.99179071 -0.10918698
1699362264.1509 0.98933721 -0.11229238 0.0047396244 0.055710074 0.0047536688 0.055960711 0.99202693 -0.10958309
1709358490.566 0.98921949 -0.11303852 0.0048103258 0.056054883 0.0047653429 0.056374621 0.99206388 -0.11015962
1719354716.9811 0.98891652 -0.11363065 0.0048911739 0.056451201 0.0048505664 0.056732483 0.99207151 -0.11085579
