!Keysight Technologies,N5222B,MY61253708,A.15.00.15
!Date: Wednesday, June 19, 2024 08:40:36
!Correction: S11(C  2-Port  ) 
!S21(C  2-Port  ) 
!S12(C  2-Port  ) 
!S22(C  2-Port  ) 
!S2P File: Measurements: S11, S21, S12, S22:
# Hz S  RI   R 50
10000000 0.99857938 -0.0023393631 0.00010303635 0.00042042186 -0.00017446358 0.00016826106 0.99873 -0.00131464
19996226.415094 0.99908125 -0.002296716 -6.8747817e-005 0.00095606933 -8.337092e-005 0.00090670882 0.99923134 -0.0022577345
29992452.830189 0.99965501 -0.0028959513 -3.174576e-005 0.0014182362 5.9824e-005 0.0014250635 0.9994992 -0.002944231
39988679.245283 1.0000799 -0.0035918802 1.1368349e-005 0.0018701309 4.0902014e-005 0.0018424473 0.99967247 -0.0037025064
49984905.660377 1.0001472 -0.0044582486 6.362237e-005 0.0023035228 3.1869975e-005 0.0022989088 0.99972349 -0.0043401122
59981132.075472 1.0002286 -0.005330652 5.6752004e-005 0.0027272138 5.9509184e-006 0.0027443995 0.9996736 -0.0049625635
69977358.490566 1.0000107 -0.0060033519 8.6351502e-006 0.0031993387 5.0459661e-005 0.0031704225 0.99953401 -0.0055421088
79973584.90566 0.9998225 -0.0066467822 4.6526664e-005 0.0036278493 4.2044208e-005 0.0036314582 0.99934173 -0.006182164
89969811.320755 0.99977523 -0.0070780218 4.4770073e-005 0.004133123 5.7064113e-005 0.0040742839 0.99941593 -0.0066334307
99966037.735849 0.99989039 -0.0078317374 6.7963148e-005 0.0045649037 3.8114609e-005 0.0045123128 0.99944431 -0.0075045824
109962264.15094 0.99995506 -0.0088734925 7.4824551e-005 0.0050235181 4.7050882e-005 0.0049783955 0.99948305 -0.0084721148
119958490.56604 0.99999189 -0.010021359 6.7158137e-005 0.0054768496 7.6549593e-005 0.0054148394 0.99953115 -0.0095241964
129954716.98113 0.9999578 -0.011198133 8.4282132e-005 0.005926305 9.2551811e-005 0.005873384 0.99949253 -0.010554194
139950943.39623 0.99986303 -0.012147823 9.4956718e-005 0.0063792616 0.00010698478 0.0063192677 0.99942309 -0.011431264
149947169.81132 0.99970317 -0.012940556 9.4546005e-005 0.0068616988 0.00010837195 0.0067628156 0.99933362 -0.012120008
159943396.22642 0.99966502 -0.013525665 0.00013590581 0.0072781509 0.0001127813 0.0072216731 0.9994542 -0.01269266
169939622.64151 0.99974054 -0.014006637 0.00014802214 0.007751361 0.00014835154 0.0076885861 0.99951917 -0.013192318
179935849.0566 0.99970704 -0.01445502 0.00016043824 0.0081683267 0.00014607655 0.0081466502 0.99949718 -0.013766408
189932075.4717 0.99978137 -0.015259564 0.00019979943 0.008673626 0.00017481111 0.0086052846 0.99962622 -0.014475524
199928301.88679 0.99979222 -0.01626265 0.00022344827 0.0091104917 0.00019957474 0.0090473751 0.99948364 -0.015515476
209924528.30189 0.99958813 -0.017115653 0.00021915266 0.0095628761 0.00021390314 0.0095013119 0.99925941 -0.016355425
219920754.71698 0.99943483 -0.018187582 0.00025391346 0.010010121 0.00025899475 0.0099088335 0.99907982 -0.017227918
229916981.13208 0.9991883 -0.019135177 0.0002542194 0.010449628 0.0002686209 0.010390984 0.99890202 -0.018129706
239913207.54717 0.99900389 -0.019882355 0.00027820023 0.010913235 0.00026314732 0.01084414 0.99890196 -0.0188636
249909433.96226 0.99913013 -0.020657301 0.00029592216 0.011356425 0.00030361861 0.011283556 0.99906433 -0.019645452
259905660.37736 0.99920535 -0.021368533 0.00028886553 0.01177764 0.000342126 0.011764662 0.99917692 -0.020323753
269901886.79245 0.99945921 -0.022059754 0.00032069115 0.012286728 0.00032078638 0.01217326 0.99961418 -0.021155089
279898113.20755 0.99958932 -0.02284503 0.00039736181 0.012709592 0.00032197149 0.012615313 0.99946147 -0.021967381
289894339.62264 0.99950868 -0.023748904 0.00039459951 0.013175178 0.00038486952 0.01307887 0.99936926 -0.022835344
299890566.03774 0.99943215 -0.024477959 0.00046684081 0.013658163 0.00038815802 0.01347087 0.99904245 -0.023473442
309886792.45283 0.99899125 -0.025253102 0.00046305603 0.014091797 0.00044720026 0.013939336 0.99890912 -0.024109825
319883018.86792 0.99884462 -0.025989264 0.00044133468 0.014541591 0.00048221648 0.014451609 0.99888313 -0.024627745
329879245.28302 0.99887067 -0.026724368 0.00047940807 0.014935011 0.00049163541 0.014842926 0.99896252 -0.025454313
339875471.69811 0.99884307 -0.027530722 0.0005070772 0.015392561 0.0005166406 0.015312261 0.99886918 -0.026385978
349871698.11321 0.99900663 -0.028488159 0.00059373304 0.015877003 0.00054190774 0.015753202 0.99900901 -0.027432948
359867924.5283 0.99887359 -0.029469013 0.00058046356 0.016289078 0.00057113171 0.016195998 0.99892443 -0.028516233
369864150.9434 0.9990555 -0.030466855 0.0006046514 0.016781963 0.00065392582 0.016663961 0.99899483 -0.029344231
379860377.35849 0.99898684 -0.031263396 0.00067361002 0.017237762 0.00063502812 0.017104227 0.99887943 -0.030163407
389856603.77358 0.99878716 -0.031894416 0.00071215909 0.017656473 0.0006788196 0.017534798 0.99877727 -0.030732155
399852830.18868 0.99866533 -0.032557845 0.00075384695 0.018147388 0.00072296197 0.017993247 0.99880433 -0.031268328
409849056.60377 0.99861187 -0.033214264 0.00081963092 0.018567272 0.00073097309 0.018445525 0.99888402 -0.031806186
419845283.01887 0.99853975 -0.033768058 0.00079470361 0.019046795 0.00078855641 0.01891847 0.99884701 -0.032479346
429841509.43396 0.99852395 -0.03457132 0.00084188581 0.019495765 0.00083701592 0.019361161 0.99897075 -0.033379078
439837735.84906 0.9984861 -0.035587728 0.00091767707 0.019937519 0.00094148237 0.019780757 0.99878609 -0.034522995
449833962.26415 0.99857634 -0.03640756 0.00090974662 0.020316964 0.00089814095 0.020167608 0.99844128 -0.035346836
459830188.67925 0.99832034 -0.037450939 0.00094896555 0.020769812 0.00092192832 0.020615581 0.9982338 -0.036298394
469826415.09434 0.99826485 -0.038352251 0.00097874319 0.021264171 0.00089193927 0.021081572 0.99799132 -0.036990762
479822641.50943 0.9981395 -0.039055638 0.0010021483 0.021729264 0.00094301603 0.021592006 0.99802572 -0.037586145
489818867.92453 0.99819499 -0.03974548 0.0010740757 0.022148147 0.0010525314 0.022045793 0.99830991 -0.038283259
499815094.33962 0.99823117 -0.040344 0.0010923892 0.022589404 0.0010495977 0.022479087 0.99863636 -0.038964689
509811320.75472 0.99843454 -0.040863633 0.0011019035 0.023050351 0.0011073942 0.022861451 0.99871564 -0.039951529
519807547.16981 0.99838072 -0.041685313 0.0011986038 0.023514727 0.0010484988 0.02331922 0.9987666 -0.040875405
529803773.58491 0.99819863 -0.042475134 0.0012103012 0.023980528 0.001176809 0.023812123 0.99841738 -0.041580766
539800000 0.99830317 -0.043293327 0.0012229865 0.024392234 0.0012500316 0.024258193 0.99812627 -0.042398781
549796226.41509 0.99800831 -0.044270545 0.0012552515 0.024871349 0.0012611384 0.024686171 0.99792188 -0.042965651
559792452.83019 0.99770331 -0.04513827 0.0013214778 0.025295697 0.0012949873 0.025128491 0.99782801 -0.043642461
569788679.24528 0.99754065 -0.045887232 0.0013961443 0.025772076 0.0013174964 0.025568973 0.99789083 -0.044444054
579784905.66038 0.99756515 -0.046661399 0.0014171212 0.026241308 0.0013946244 0.026050802 0.99805808 -0.045283146
589781132.07547 0.99765188 -0.047371656 0.0014559934 0.026662923 0.0014480045 0.026516024 0.99813938 -0.046362996
599777358.49057 0.99782521 -0.048164606 0.0015371656 0.027143059 0.0015326114 0.026964126 0.9981699 -0.047273278
609773584.90566 0.99790168 -0.049069397 0.0015868919 0.027606495 0.0015741445 0.027409073 0.99799728 -0.048277751
619769811.32075 0.99792504 -0.049807817 0.0017358856 0.027996514 0.0017132778 0.027850013 0.99786234 -0.04887256
629766037.73585 0.99773932 -0.05054301 0.0017583277 0.028423155 0.0017603794 0.028187186 0.99766773 -0.049382687
639762264.15094 0.99745768 -0.051368877 0.0018182872 0.028852776 0.0017460403 0.028628884 0.99747115 -0.04994683
649758490.56604 0.99738836 -0.052031338 0.0018436708 0.029254258 0.0017825197 0.029060062 0.99748909 -0.050531417
659754716.98113 0.99710315 -0.052723169 0.0018364554 0.029734883 0.0017916355 0.029529952 0.99751288 -0.051205575
669750943.39623 0.99711972 -0.053265631 0.0018698284 0.030215705 0.0018313555 0.030027106 0.99765813 -0.052135795
679747169.81132 0.99710613 -0.054191258 0.001939576 0.030661318 0.0018763258 0.03046193 0.9975239 -0.053293765
689743396.22642 0.99726486 -0.055127352 0.0020033009 0.031093158 0.0019807043 0.030921329 0.99728417 -0.054338723
699739622.64151 0.99746168 -0.056125551 0.0021114154 0.031555176 0.0020316644 0.031350613 0.99725175 -0.055177659
709735849.0566 0.99740577 -0.057034925 0.00216722 0.031972196 0.0020791618 0.031757325 0.99698228 -0.055932172
719732075.4717 0.99724507 -0.057867587 0.0021985807 0.032431506 0.002150733 0.032216143 0.99705505 -0.056579947
729728301.88679 0.99716353 -0.058561951 0.0022762148 0.032833327 0.0021907566 0.032644328 0.99705124 -0.05711633
739724528.30189 0.99688423 -0.059282318 0.0023471406 0.033320155 0.0022638477 0.033073615 0.99726641 -0.057893515
749720754.71698 0.99679655 -0.059881806 0.0024021738 0.033697974 0.0023456058 0.033543378 0.99716407 -0.058689639
759716981.13208 0.99673402 -0.060473293 0.0024480987 0.034147255 0.0023967037 0.033933755 0.99710143 -0.059553921
769713207.54717 0.99669695 -0.061261415 0.002498325 0.03460557 0.0024736095 0.034394935 0.99676895 -0.060419858
779709433.96226 0.9968611 -0.062066756 0.0025600353 0.035061918 0.0024973883 0.034825318 0.99651951 -0.061229967
789705660.37736 0.99663353 -0.063152432 0.002647534 0.035501573 0.0025482681 0.035224304 0.9962554 -0.062035769
799701886.79245 0.99665064 -0.06409353 0.0027301051 0.035899453 0.0026590079 0.035695534 0.99613941 -0.062730104
809698113.20755 0.99654162 -0.064855039 0.0027464139 0.036315594 0.0026922575 0.03611147 0.99616641 -0.063306734
819694339.62264 0.99634647 -0.065622643 0.0027833097 0.036726996 0.0027231677 0.036533494 0.99632776 -0.06402418
829690566.03774 0.99626231 -0.0663234 0.0028786361 0.03720985 0.0027742963 0.036963023 0.99665487 -0.064983219
839686792.45283 0.9964031 -0.066766471 0.0028865505 0.037630916 0.0028267838 0.037427284 0.99657226 -0.065988898
849683018.86792 0.99647236 -0.067571752 0.0029691991 0.038112782 0.0028710677 0.037857432 0.99645913 -0.066841155
859679245.28302 0.9963671 -0.068463147 0.0030509476 0.03853124 0.0029892735 0.038325842 0.99607092 -0.067558736
869675471.69811 0.99627274 -0.069325268 0.003120074 0.038938329 0.0030293297 0.038761202 0.99566746 -0.068210095
879671698.11321 0.99613422 -0.070163697 0.003198734 0.039388396 0.0030869364 0.0391565 0.99559772 -0.068764552
889667924.5283 0.99590814 -0.071110696 0.0032665869 0.039834972 0.0031679934 0.039617058 0.99546015 -0.069399476
899664150.9434 0.99561715 -0.071965486 0.0033457149 0.040285125 0.0032543559 0.040055681 0.99548721 -0.070152849
909660377.35849 0.99558097 -0.072762415 0.0034375209 0.040640868 0.0033257967 0.040417593 0.99557239 -0.071124628
919656603.77358 0.99563181 -0.073505729 0.0034507476 0.041108314 0.0033555999 0.040849086 0.99556959 -0.072164863
929652830.18868 0.99569327 -0.074434638 0.0035281219 0.041486084 0.0034104623 0.041280434 0.99541312 -0.073173046
939649056.60377 0.99579138 -0.075165361 0.0035585109 0.041909415 0.003485742 0.041685387 0.99521613 -0.074050963
949645283.01887 0.99567574 -0.076057903 0.0035565081 0.042364277 0.003464289 0.042139027 0.99498898 -0.074581996
959641509.43396 0.9956938 -0.076889515 0.0036395937 0.042827994 0.0035473183 0.042629633 0.99483156 -0.075158954
969637735.84906 0.99549186 -0.077633023 0.0037147515 0.043281451 0.0036223326 0.04308366 0.9948684 -0.075633466
979633962.26415 0.99524254 -0.078471243 0.0038054278 0.043720827 0.0036944351 0.043490235 0.99486291 -0.076380797
989630188.67925 0.99526691 -0.079116732 0.0038413862 0.044153951 0.0037593255 0.04397456 0.99497557 -0.07714051
999626415.09434 0.99537849 -0.079891711 0.0039273649 0.044583675 0.0038338546 0.04439937 0.99487746 -0.078172058
1009622641.5094 0.99530262 -0.080688134 0.0039486652 0.045052812 0.0039045867 0.044877525 0.99470395 -0.079121083
1019618867.9245 0.99530864 -0.081702918 0.0040884423 0.045516141 0.0040045073 0.045262266 0.99433315 -0.080108985
1029615094.3396 0.99531978 -0.082818985 0.0041564051 0.045939732 0.0041055921 0.045722008 0.99394047 -0.080823928
1039611320.7547 0.9953382 -0.083773166 0.0042636283 0.046351153 0.0041864477 0.046121288 0.99383348 -0.081626147
1049607547.1698 0.99501503 -0.084811278 0.0043303682 0.046720743 0.0042557074 0.046586376 0.99385315 -0.082323268
1059603773.5849 0.9948653 -0.085528493 0.0044110212 0.047177229 0.0043122042 0.046964474 0.99375784 -0.082992136
1069600000 0.99466115 -0.086264729 0.004447734 0.047580719 0.0043833144 0.04736523 0.99393666 -0.083822995
1079596226.4151 0.99452394 -0.086989939 0.0044742036 0.047997579 0.0044477144 0.047788426 0.99386138 -0.08465416
1089592452.8302 0.994488 -0.087657154 0.0045810947 0.048454806 0.0045114737 0.048225671 0.99367112 -0.085476324
1099588679.2453 0.99448276 -0.088491261 0.0045965407 0.048900664 0.0045645442 0.048659343 0.99328429 -0.086183459
1109584905.6604 0.99464613 -0.089432031 0.0046956073 0.049326055 0.0046218317 0.049137563 0.9929601 -0.086771131
1119581132.0755 0.99450332 -0.090572149 0.0047196941 0.049796369 0.0046859877 0.049603987 0.99279922 -0.087325059
1129577358.4906 0.99424529 -0.09157154 0.0047885757 0.050288782 0.004736051 0.050029904 0.99267852 -0.087916911
1139573584.9057 0.99395013 -0.09258464 0.0048859939 0.05067892 0.0048694033 0.0504645 0.99274969 -0.088674009
1149569811.3208 0.99382573 -0.093577594 0.0050073471 0.051144365 0.0049757315 0.05089628 0.99288255 -0.089636832
1159566037.7358 0.99351579 -0.094283342 0.0050669834 0.051572032 0.0050440468 0.05132186 0.99287349 -0.090744704
1169562264.1509 0.99343163 -0.095066994 0.0051521529 0.051951095 0.0050794315 0.051720627 0.99268866 -0.091715038
1179558490.566 0.99324399 -0.095923103 0.0051646372 0.0524427 0.0051627792 0.052206971 0.99244428 -0.092396311
1189554716.9811 0.99321347 -0.096615404 0.0052681835 0.052863609 0.0052719815 0.052631713 0.99216902 -0.093049288
1199550943.3962 0.99311936 -0.097590089 0.0052992683 0.053334087 0.0053210594 0.053081602 0.9919576 -0.093519688
1209547169.8113 0.99292314 -0.09856993 0.0054050954 0.053773761 0.0053694164 0.053488284 0.99186337 -0.093964934
1219543396.2264 0.99258298 -0.099557333 0.0055089314 0.054271169 0.0054756403 0.053973317 0.99192399 -0.09447632
1229539622.6415 0.99223113 -0.10053176 0.0056149345 0.054685213 0.0056190845 0.054410316 0.99199283 -0.095291227
1239535849.0566 0.99201852 -0.1012685 0.0056868251 0.055094484 0.0057003312 0.054851815 0.99208289 -0.096358329
1249532075.4717 0.99161935 -0.1022006 0.0057924697 0.055525944 0.0058312919 0.055201843 0.99181932 -0.097317785
1259528301.8868 0.99142182 -0.10280758 0.0059081037 0.055981778 0.0059281923 0.055636644 0.99142492 -0.098386109
1269524528.3019 0.99119753 -0.10361362 0.006036289 0.056406651 0.0060315151 0.056042522 0.99121046 -0.099154919
1279520754.717 0.99073464 -0.10445812 0.0061234087 0.05677598 0.0061046742 0.056422591 0.99083799 -0.099764325
1289516981.1321 0.99068528 -0.10535958 0.0061847661 0.057175484 0.0061622765 0.05680104 0.99091882 -0.10027829
1299513207.5472 0.99022722 -0.10623938 0.0062553938 0.057605211 0.006273387 0.057236373 0.99093592 -0.10073894
1309509433.9623 0.98969465 -0.10710347 0.006310137 0.057986986 0.006259501 0.057624668 0.99107045 -0.10150908
1319505660.3774 0.98927587 -0.10788554 0.0063544372 0.058464952 0.0063480213 0.058094725 0.99103254 -0.10229953
1329501886.7925 0.98892683 -0.10851169 0.0063864458 0.058869053 0.0063975472 0.058495775 0.9909873 -0.10342628
1339498113.2075 0.98863834 -0.10924381 0.0064667203 0.059246633 0.0064575151 0.058882326 0.99052668 -0.10415393
1349494339.6226 0.98840123 -0.10994359 0.0065089855 0.05976719 0.0064604878 0.059321024 0.99010956 -0.10495765
1359490566.0377 0.9882772 -0.11069587 0.006543085 0.060211398 0.0065411124 0.059773732 0.98989284 -0.10555887
1369486792.4528 0.98797959 -0.11134779 0.0066099074 0.06070764 0.0065851603 0.060225993 0.98966932 -0.10614014
1379483018.8679 0.98769403 -0.11206335 0.0066884272 0.061148044 0.0066296873 0.060657453 0.9895696 -0.10652285
1389479245.283 0.98725593 -0.11265349 0.0068027861 0.061657052 0.006731417 0.06118793 0.98953342 -0.10742155
1399475471.6981 0.98674262 -0.1131179 0.0068719927 0.062062506 0.0067876559 0.061622679 0.98972052 -0.10817662
1409471698.1132 0.98637557 -0.11349937 0.0069499509 0.062577792 0.006848522 0.062099073 0.98971844 -0.10907305
1419467924.5283 0.98621237 -0.11396199 0.0070119482 0.063016638 0.0069407038 0.062568717 0.98945659 -0.10986787
1429464150.9434 0.9859848 -0.11439919 0.0070570111 0.063553825 0.0069819298 0.063056313 0.98922318 -0.11049113
1439460377.3585 0.98613721 -0.11497392 0.0072095832 0.064090617 0.0070938691 0.063606456 0.98899156 -0.1109248
1449456603.7736 0.9860934 -0.11563283 0.007347269 0.064579345 0.0072060842 0.064094283 0.98880267 -0.11135955
1459452830.1887 0.98605871 -0.11649188 0.0075391494 0.065077573 0.0073732045 0.064548165 0.9889071 -0.11182073
1469449056.6038 0.98605388 -0.11735213 0.007782599 0.065485224 0.0075886268 0.065097943 0.98905325 -0.11262658
1479445283.0189 0.98587406 -0.11810318 0.0079450896 0.065922238 0.0077461526 0.065461472 0.98914713 -0.11368312
1489441509.434 0.98573339 -0.11869755 0.0081098322 0.066336468 0.0079037007 0.065880045 0.98891735 -0.11463192
1499437735.8491 0.98538136 -0.11912733 0.008245077 0.066690087 0.0080637634 0.066241182 0.98885977 -0.11552879
1509433962.2642 0.98543763 -0.1196292 0.0083950656 0.067065656 0.0082339365 0.066583946 0.98853409 -0.11633397
1519430188.6792 0.98548532 -0.12029222 0.0084896795 0.067443192 0.0082707573 0.066995546 0.98839134 -0.11697075
1529426415.0943 0.98549795 -0.12100834 0.0085747205 0.067836322 0.008367965 0.067392632 0.98825282 -0.11749181
1539422641.5094 0.98543882 -0.12196109 0.0086904457 0.068257473 0.0084542856 0.067785181 0.98831993 -0.11806116
1549418867.9245 0.98520517 -0.1228479 0.0087986002 0.068680637 0.0085566845 0.068217926 0.98851347 -0.11890148
1559415094.3396 0.98503876 -0.12369266 0.0089098383 0.069038488 0.0086634513 0.068628848 0.98862004 -0.11968318
1569411320.7547 0.98487747 -0.12459327 0.0090291984 0.069386251 0.0087827463 0.068967924 0.98838621 -0.12062275
1579407547.1698 0.98466039 -0.12526819 0.0090923896 0.069770463 0.0088094641 0.069375135 0.98799616 -0.12157367
1589403773.5849 0.98460847 -0.1259096 0.0091313031 0.070129216 0.0088801645 0.069747895 0.98761511 -0.12243479
1599400000 0.98454618 -0.12647977 0.0091819521 0.070570543 0.00891128 0.070132442 0.98727691 -0.122982
1609396226.4151 0.98447621 -0.12726027 0.0092077749 0.07101851 0.0089001423 0.070542887 0.98697841 -0.12356438
1619392452.8302 0.98446286 -0.12794796 0.0092440061 0.071432479 0.0090008061 0.071034342 0.98699033 -0.12415621
1629388679.2453 0.98411214 -0.12881717 0.0093310587 0.071913756 0.0090007987 0.071516864 0.98711884 -0.12475115
1639384905.6604 0.98380268 -0.12951827 0.0093585486 0.072396465 0.0091376482 0.072035514 0.98740333 -0.12572902
1649381132.0755 0.98350531 -0.1302774 0.0094596185 0.072855301 0.0091991927 0.072496109 0.98737657 -0.12682319
1659377358.4906 0.98331332 -0.1312013 0.0095089767 0.073387049 0.0092741381 0.072963804 0.98715913 -0.1277568
1669373584.9057 0.98324311 -0.13177565 0.0096350079 0.073854081 0.0093178162 0.07345698 0.98686326 -0.12858874
1679369811.3208 0.98324728 -0.13260609 0.0097380485 0.074335769 0.0094618835 0.073953182 0.98648119 -0.12920773
1689366037.7358 0.98311758 -0.13334301 0.0098565258 0.074816719 0.0095376447 0.074419856 0.98628116 -0.12952557
1699362264.1509 0.98321396 -0.1341183 0.010002241 0.075302526 0.0097171348 0.074974909 0.98638725 -0.13007811
1709358490.566 0.98301178 -0.13485178 0.010140222 0.07578811 0.009820288 0.075410888 0.98637336 -0.13078758
1719354716.9811 0.98252785 -0.13552672 0.010265399 0.076208256 0.0099739246 0.07588134 0.98638439 -0.13153496
1729350943.3962 0.9821828 -0.13619864 0.010406898 0.076682054 0.010151809 0.076337501 0.98624665 -0.13261968
1739347169.8113 0.98203135 -0.13655156 0.010609802 0.077143133 0.010365075 0.076800443 0.9862293 -0.1335559
