!Keysight Technologies,N5222B,MY61253708,A.15.00.15
!Date: Wednesday, June 19, 2024 09:05:54
!Correction: S11(C  2-Port  ) 
!S21(C  2-Port  ) 
!S12(C  2-Port  ) 
!S22(C  2-Port  ) 
!S2P File: Measurements: S11, S21, S12, S22:
# Hz S  RI   R 50
10000000 0.99876738 -0.0021390319 -0.00017520123 0.00041165561 4.4558197e-005 0.00041396249 0.9982698 -0.0010606647
19996226.415094 0.99930704 -0.0020143092 2.2253633e-005 0.00069527247 -7.8917568e-005 0.0007712231 0.99931848 -0.0021498203
29992452.830189 0.99981272 -0.0025455058 5.176643e-005 0.0010241014 1.4108635e-005 0.0010341641 0.99960899 -0.0026614666
39988679.245283 1.0001329 -0.0030635148 1.4252189e-005 0.0013839235 5.4656994e-006 0.001382094 0.99971718 -0.003213793
49984905.660377 1.0001791 -0.0038120747 1.1287688e-005 0.001816769 4.0797808e-005 0.0017476499 0.99983263 -0.0037630498
59981132.075472 1.0003401 -0.0046821535 3.3562712e-005 0.0021385211 -1.3013254e-005 0.0021596029 0.99970162 -0.0042461753
69977358.490566 1.0000666 -0.0052026585 3.022272e-005 0.0024048828 3.3529457e-005 0.0024713497 0.99959946 -0.004831057
79973584.90566 0.99982357 -0.0058058202 -1.2642122e-005 0.0028207565 2.5646645e-005 0.0028091634 0.99936056 -0.0053761303
89969811.320755 0.9998188 -0.0059649944 2.9295101e-005 0.0031389119 2.5883783e-005 0.0031611025 0.99952114 -0.005689621
99966037.735849 1.0001178 -0.0067099333 1.6078062e-005 0.0034678304 1.8308056e-006 0.0035106798 0.99963421 -0.006501317
109962264.15094 1.0001066 -0.0076694936 2.6300317e-005 0.0038221178 3.0636555e-005 0.0038559064 0.99956322 -0.007344231
119958490.56604 1.0001051 -0.0086878836 4.9549155e-005 0.0041914564 3.3807941e-005 0.0042422637 0.99964833 -0.0082364678
129954716.98113 1.0000468 -0.0097123384 6.1024097e-005 0.0045308741 5.0469651e-005 0.004567422 0.99961901 -0.0092121959
139950943.39623 0.99997997 -0.010597173 5.0135655e-005 0.0048989938 5.292031e-005 0.0049272906 0.99950373 -0.0099760368
149947169.81132 0.99981588 -0.011257857 6.0989987e-005 0.0052442048 6.2723178e-005 0.0052682762 0.99946386 -0.010605186
159943396.22642 0.99976152 -0.011826038 5.290797e-005 0.0055783438 7.0954673e-005 0.0056235441 0.99954897 -0.011071563
169939622.64151 0.99976724 -0.012153283 7.0011476e-005 0.0059536844 6.9168746e-005 0.0059681609 0.99962687 -0.011497706
179935849.0566 0.99987549 -0.012413293 7.4777636e-005 0.0062717055 0.00010050822 0.0063311597 0.99954718 -0.01191771
189932075.4717 0.99996495 -0.013215005 8.3692372e-005 0.0066145016 9.9096447e-005 0.0066495584 0.99972636 -0.012491375
199928301.88679 0.99993765 -0.014113277 0.00010571198 0.006961355 9.7293407e-005 0.0070268363 0.9996255 -0.013424784
209924528.30189 0.99961638 -0.014793485 0.00013321824 0.0073316218 0.00012925291 0.0073782196 0.99940068 -0.014203116
219920754.71698 0.99963242 -0.015656173 0.00010275003 0.007642624 0.00011867587 0.007743502 0.99925005 -0.01493302
229916981.13208 0.99939537 -0.016629159 0.00012681959 0.0080163181 0.00014436129 0.0080909859 0.9991582 -0.015729278
239913207.54717 0.99930733 -0.017227853 0.00013008539 0.0083652576 0.00015938138 0.0084237959 0.99910092 -0.016422436
249909433.96226 0.99933785 -0.017885834 0.00017139059 0.0087294709 0.00017414149 0.0087629724 0.99924606 -0.017074823
259905660.37736 0.99952441 -0.018558115 0.00010660337 0.0090145189 0.0001463769 0.0091305226 0.99940288 -0.017743766
269901886.79245 0.99959344 -0.019075528 0.00021090824 0.0094147669 0.00020967121 0.0094936276 0.99976778 -0.018420383
279898113.20755 0.99969959 -0.019894138 0.00018193945 0.0097469371 0.00020589516 0.0098105967 0.99969041 -0.019200206
289894339.62264 0.99972695 -0.020799369 0.00025886856 0.010063112 0.00020838669 0.010225609 0.99956834 -0.019953191
299890566.03774 0.9995867 -0.021207094 0.00025163591 0.010457069 0.00026950054 0.010489441 0.99930245 -0.020479172
309886792.45283 0.99931777 -0.021762401 0.00026874698 0.010808058 0.00024188776 0.010888533 0.99920553 -0.020951249
319883018.86792 0.99929297 -0.02240929 0.00026356103 0.011150492 0.00026701717 0.011257823 0.99921948 -0.021427244
329879245.28302 0.99925554 -0.023169696 0.00027990714 0.011523177 0.00032005226 0.011576666 0.99918389 -0.022204548
339875471.69811 0.99914283 -0.023895398 0.000327694 0.011835431 0.00026750471 0.011937128 0.99920672 -0.022991821
349871698.11321 0.99927628 -0.024775982 0.00032620132 0.012186921 0.00027863518 0.012306074 0.99926805 -0.023927242
359867924.5283 0.99930584 -0.02559489 0.00036440417 0.012547953 0.00031522149 0.012582473 0.99923581 -0.024788469
369864150.9434 0.99946249 -0.026421636 0.00035996595 0.012860924 0.00033671292 0.012966555 0.99922186 -0.025579721
379860377.35849 0.99934667 -0.027161255 0.0003743507 0.013248923 0.00034673465 0.013329004 0.99908596 -0.026318267
389856603.77358 0.99917704 -0.027744502 0.00038176728 0.013599552 0.00037543522 0.013683286 0.99908793 -0.026794106
399852830.18868 0.99898243 -0.028275847 0.00040885806 0.013966247 0.00041608559 0.014010835 0.9991768 -0.027225465
409849056.60377 0.99897534 -0.02883845 0.00045573598 0.014274725 0.00040567628 0.014344243 0.99924517 -0.027655473
419845283.01887 0.99900693 -0.029128402 0.00045626611 0.014615519 0.00046634441 0.014760306 0.99921155 -0.028280437
429841509.43396 0.99903643 -0.02989611 0.00049235439 0.014963874 0.00042479206 0.015090987 0.99945623 -0.0290609
439837735.84906 0.99891895 -0.030945376 0.00049897877 0.015307123 0.00053109869 0.015399116 0.99922347 -0.030102551
449833962.26415 0.9988929 -0.031690776 0.00050891377 0.015645649 0.00052591739 0.015716473 0.99886143 -0.030908555
459830188.67925 0.99875224 -0.032491267 0.00050888676 0.015984468 0.00051396107 0.016122535 0.99873722 -0.031677753
469826415.09434 0.99875498 -0.033342898 0.00051787775 0.016349681 0.00052249571 0.016444588 0.99848801 -0.03237173
479822641.50943 0.99865192 -0.033937313 0.00055946293 0.016710879 0.00055511692 0.016814567 0.99855208 -0.032799087
489818867.92453 0.99880767 -0.03446269 0.00058448967 0.017044879 0.00061563263 0.017185921 0.99886549 -0.033382267
499815094.33962 0.99882299 -0.034967273 0.00062562386 0.01740595 0.00062721036 0.017545622 0.99911934 -0.034029365
509811320.75472 0.99892986 -0.035524167 0.00061867625 0.017717216 0.00063001539 0.017858895 0.99921966 -0.034947161
519807547.16981 0.99887931 -0.036172777 0.00066175312 0.018062748 0.000667335 0.018209783 0.99916899 -0.035645157
529803773.58491 0.99884665 -0.036793292 0.00065764412 0.018431919 0.00068176445 0.018514186 0.99889672 -0.036319852
539800000 0.99879384 -0.037501052 0.00067469128 0.018821869 0.00071702595 0.018910369 0.99878514 -0.037016138
549796226.41509 0.99871862 -0.038395584 0.00072515476 0.019132521 0.00076412922 0.019245388 0.99853879 -0.037559748
559792452.83019 0.99846101 -0.039190352 0.00077287946 0.019456916 0.00075802859 0.019657342 0.99847889 -0.038119256
569788679.24528 0.99833763 -0.03984952 0.00074494444 0.019838406 0.00079614297 0.019959358 0.99858886 -0.038771421
579784905.66038 0.99824649 -0.040452205 0.00079986372 0.020164877 0.00078740157 0.020326322 0.99865544 -0.039555587
589781132.07547 0.99834234 -0.041060835 0.00086718518 0.02051395 0.00081155729 0.020670978 0.99883866 -0.040565491
599777358.49057 0.99854517 -0.041806549 0.00088080671 0.020891521 0.00090095494 0.021020312 0.99886614 -0.041370839
609773584.90566 0.99864423 -0.042510115 0.00094996154 0.021222416 0.00096307433 0.021383975 0.99869579 -0.042190827
619769811.32075 0.99871927 -0.043316096 0.00094382092 0.021549016 0.00096158171 0.021735407 0.99859297 -0.042662561
629766037.73585 0.9985925 -0.043871045 0.0010060957 0.021866089 0.001010214 0.022025505 0.99836224 -0.043187827
639762264.15094 0.99840027 -0.044588 0.0010260663 0.022177495 0.0010409064 0.022347903 0.99822176 -0.043759704
649758490.56604 0.99825305 -0.045120582 0.0010558269 0.022557605 0.0010170657 0.02268848 0.99826032 -0.044174224
659754716.98113 0.99803454 -0.045702904 0.0010182485 0.022875641 0.0010372261 0.023053408 0.99837387 -0.044828117
669750943.39623 0.99799085 -0.046251684 0.0010479405 0.023231464 0.0010673068 0.023416402 0.99844074 -0.045638442
679747169.81132 0.99804503 -0.047063444 0.0010880061 0.023622476 0.0011382269 0.023792533 0.99838704 -0.046611361
689743396.22642 0.99825859 -0.047873497 0.0011456478 0.02396531 0.0011700494 0.024152381 0.99817538 -0.047552377
699739622.64151 0.99836755 -0.048631072 0.0011696089 0.02430998 0.0011875648 0.024468264 0.99811292 -0.048302323
709735849.0566 0.99835008 -0.049592227 0.00125109 0.024633829 0.0012595427 0.024822254 0.99788159 -0.04894378
719732075.4717 0.99824411 -0.050346673 0.0013043527 0.024955831 0.0012937421 0.025140319 0.99793154 -0.049521476
729728301.88679 0.99804407 -0.050904244 0.0013083341 0.025283905 0.0013452331 0.025508886 0.99793977 -0.049968064
739724528.30189 0.99796855 -0.051476896 0.0013470878 0.02562505 0.0013157749 0.025837537 0.99820834 -0.05068858
749720754.71698 0.99786806 -0.052025229 0.0014113802 0.025968125 0.0013799015 0.02620136 0.99813795 -0.051385388
759716981.13208 0.99792159 -0.052556217 0.0014389493 0.02630692 0.0014402308 0.026533429 0.99815583 -0.052132279
769713207.54717 0.99786377 -0.053245455 0.0014422573 0.026648328 0.0014526024 0.026861571 0.99790525 -0.052949637
779709433.96226 0.99801672 -0.053930044 0.001486558 0.027014079 0.0014969896 0.0272322 0.99764234 -0.053553931
789705660.37736 0.99787742 -0.054873705 0.0015472425 0.027332608 0.0015215268 0.02754976 0.99740207 -0.054273397
799701886.79245 0.99779987 -0.05572477 0.0015877727 0.027667619 0.0015580449 0.027884744 0.99721777 -0.054961443
809698113.20755 0.99778521 -0.056379676 0.0016090777 0.027998906 0.0015911264 0.028187318 0.99733752 -0.055424824
819694339.62264 0.99759489 -0.057050556 0.0016353116 0.028312303 0.0016188398 0.02854549 0.9975059 -0.056034535
829690566.03774 0.99752092 -0.057575017 0.0016661491 0.028681446 0.0016633701 0.028922126 0.9976961 -0.056966126
839686792.45283 0.99765277 -0.058089346 0.0016758507 0.029035507 0.0017078519 0.029229263 0.99779743 -0.057828039
849683018.86792 0.99781555 -0.058771223 0.0017450913 0.029363951 0.0017336018 0.029586993 0.9976657 -0.058569431
859679245.28302 0.99776781 -0.059470922 0.0017699469 0.029712683 0.001763395 0.029929802 0.99737513 -0.059208244
869675471.69811 0.9976604 -0.060283393 0.0018106299 0.030064154 0.0018043658 0.030315977 0.99701929 -0.059792995
879671698.11321 0.99753326 -0.060966603 0.0018534833 0.030367743 0.0018361164 0.030610226 0.99697465 -0.060204227
889667924.5283 0.99730515 -0.061796486 0.0019049039 0.030705212 0.0018659756 0.030913746 0.996889 -0.060739577
899664150.9434 0.99717689 -0.062551707 0.0019118534 0.031012669 0.0019047428 0.031274915 0.99690086 -0.061384827
909660377.35849 0.99714297 -0.063274741 0.0019281874 0.031382851 0.0019434453 0.031624295 0.99703324 -0.062289327
919656603.77358 0.99719274 -0.06396465 0.0019697044 0.031705119 0.0019860785 0.031941023 0.9970274 -0.063212812
929652830.18868 0.99726987 -0.064746678 0.0020115152 0.032000117 0.0020093285 0.032313436 0.99685085 -0.0641644
939649056.60377 0.99747235 -0.065303236 0.0020083683 0.032366741 0.0020199195 0.032632355 0.99672687 -0.064924002
949645283.01887 0.9973982 -0.066309974 0.0020467378 0.032734245 0.0020404896 0.032985497 0.99648529 -0.06547194
959641509.43396 0.99733633 -0.066884816 0.0020584622 0.033092789 0.0020728139 0.03333113 0.99637139 -0.066001922
969637735.84906 0.99718428 -0.067696601 0.0021042861 0.03342022 0.002115516 0.033730939 0.99640948 -0.066286206
979633962.26415 0.99702084 -0.068399079 0.0022050168 0.033754963 0.0021984316 0.034062147 0.9964053 -0.06699919
989630188.67925 0.99701709 -0.068873256 0.0022124182 0.034113362 0.0022034422 0.034398679 0.99657696 -0.067658246
999626415.09434 0.9970448 -0.069572747 0.0021991488 0.034447379 0.0022481661 0.034728359 0.99650687 -0.068554938
1009622641.5094 0.99716443 -0.070210949 0.002259816 0.034802869 0.0022862591 0.035089653 0.99633944 -0.069483995
1019618867.9245 0.99718827 -0.071154088 0.0023303647 0.035122611 0.0023789094 0.035452623 0.99612087 -0.070270285
1029615094.3396 0.99719155 -0.072151393 0.0024162382 0.035467412 0.0024265349 0.035745371 0.99572325 -0.070894569
1039611320.7547 0.99721056 -0.073042184 0.0024366435 0.035805322 0.0024504326 0.036055684 0.99565053 -0.071543992
1049607547.1698 0.99705368 -0.073987596 0.0024671704 0.036123093 0.0024923962 0.036412455 0.99564016 -0.072185613
1059603773.5849 0.99680841 -0.074654132 0.0024811989 0.036401361 0.0025248984 0.036738951 0.99562085 -0.072785735
1069600000 0.99655175 -0.075309902 0.0025074761 0.036731884 0.0025645606 0.037051331 0.9957819 -0.073429048
1079596226.4151 0.99651563 -0.075823314 0.0024967194 0.037073866 0.0025882297 0.037419766 0.99578846 -0.074260995
1089592452.8302 0.99657494 -0.076550752 0.0025513321 0.037419282 0.0026250603 0.037736565 0.99569035 -0.074973971
1099588679.2453 0.99660695 -0.077254295 0.0025804508 0.037787829 0.0026254747 0.038081966 0.99532974 -0.075668186
1109584905.6604 0.99677753 -0.078089222 0.0026002331 0.038146041 0.0026522335 0.038432524 0.99503285 -0.07618098
1119581132.0755 0.99672264 -0.079131544 0.0026189233 0.038484473 0.0026829229 0.038795654 0.99489564 -0.076679699
1129577358.4906 0.99653661 -0.079954654 0.0026481301 0.038867112 0.0027292967 0.039198041 0.99480253 -0.07714051
1139573584.9057 0.99634987 -0.080866158 0.0027295295 0.039227709 0.0027918164 0.03953702 0.99483824 -0.077832162
1149569811.3208 0.99614996 -0.08166381 0.0027827183 0.039555643 0.002868318 0.039895363 0.99496239 -0.078610018
1159566037.7358 0.99583793 -0.082393825 0.0028267633 0.039869893 0.0028961729 0.040204547 0.99512917 -0.079664081
1169562264.1509 0.99568504 -0.083010703 0.0028289612 0.040174149 0.0028922744 0.040520616 0.99491549 -0.080519408
1179558490.566 0.99567574 -0.083820939 0.0028606316 0.040605862 0.0029612996 0.040954005 0.99471962 -0.081188411
1189554716.9811 0.99570781 -0.084504575 0.0029039467 0.040925853 0.0030043786 0.041254636 0.99441129 -0.081658989
1199550943.3962 0.99565309 -0.085446119 0.0029268991 0.041297298 0.0030699652 0.041585706 0.99425578 -0.082124233
1209547169.8113 0.99539077 -0.086393058 0.0029970938 0.041660629 0.0031302264 0.041940007 0.9942354 -0.082492247
1219543396.2264 0.99522227 -0.087173976 0.003053349 0.042023189 0.0031615342 0.042344127 0.99424881 -0.082871914
1229539622.6415 0.9950062 -0.087974817 0.0031182151 0.042372257 0.0032429062 0.042683244 0.99438995 -0.083658129
1239535849.0566 0.99460429 -0.088674515 0.0031974399 0.042706251 0.0033224188 0.043038629 0.99448144 -0.08453688
1249532075.4717 0.99429172 -0.08948189 0.0032525633 0.043024987 0.003382666 0.043364823 0.99434662 -0.085453063
1259528301.8868 0.99410629 -0.089969158 0.0033015516 0.043375194 0.0034340043 0.043666773 0.99402565 -0.086317599
1269524528.3019 0.99395919 -0.090722889 0.0034037791 0.043689955 0.0035206862 0.043987319 0.99380392 -0.087040722
1279520754.717 0.99364036 -0.091417894 0.0034276897 0.044002913 0.0035649778 0.044297483 0.99354553 -0.087587312
1289516981.1321 0.9934926 -0.09231931 0.0034325505 0.044311453 0.0035814075 0.044588674 0.99358714 -0.088014781
1299513207.5472 0.99316096 -0.093124717 0.0034744553 0.044632304 0.0036005117 0.044914749 0.99372333 -0.088412225
1309509433.9623 0.99273646 -0.093848273 0.0034815669 0.044948988 0.0036197165 0.045236941 0.99380708 -0.089192301
1319505660.3774 0.99226218 -0.094555527 0.0034956755 0.045291569 0.0036443062 0.045568205 0.99390465 -0.089779615
1329501886.7925 0.99199128 -0.095217794 0.003518464 0.045617893 0.00365665 0.04591566 0.99382651 -0.090898842
1339498113.2075 0.99170637 -0.095759928 0.0035428042 0.045974791 0.0036966978 0.046231657 0.99344468 -0.091570556
1349494339.6226 0.99150056 -0.096431412 0.0035451953 0.046342909 0.0036553941 0.046609256 0.99304038 -0.092165962
1359490566.0377 0.99142528 -0.096934378 0.0035336763 0.046710059 0.0036948863 0.046953507 0.99292684 -0.0927293
1369486792.4528 0.99121106 -0.09755829 0.0035684742 0.04711758 0.0037349313 0.047330424 0.9925667 -0.093190014
1379483018.8679 0.99089068 -0.098144874 0.003607204 0.047499705 0.0036929632 0.047683839 0.99271643 -0.093598559
1389479245.283 0.99047798 -0.098655254 0.003692314 0.047882989 0.003781179 0.048084155 0.99260384 -0.094304323
1399475471.6981 0.99007362 -0.099056989 0.003663769 0.048223414 0.003746191 0.048464648 0.99281609 -0.094964981
1409471698.1132 0.9896906 -0.09941934 0.0037022524 0.048585918 0.0037977491 0.048872814 0.99279803 -0.095876738
1419467924.5283 0.98958695 -0.099736899 0.0037639122 0.048978891 0.0038409457 0.049244121 0.99258 -0.096568793
1429464150.9434 0.98944449 -0.10014975 0.0038009435 0.049414579 0.003892336 0.049652211 0.99252194 -0.097089976
1439460377.3585 0.98962802 -0.1006328 0.0038711019 0.04988008 0.0039694477 0.050088331 0.99224412 -0.097458348
1449456603.7736 0.9895848 -0.10127316 0.0040238732 0.0502792 0.0040633865 0.050518397 0.99204832 -0.097793773
1459452830.1887 0.98961234 -0.10195282 0.0041247364 0.050725669 0.0041795317 0.050952621 0.99224401 -0.098149806
1469449056.6038 0.98969507 -0.10264209 0.0043425942 0.051064573 0.0043552611 0.051305287 0.99243915 -0.098819852
1479445283.0189 0.98956478 -0.10333587 0.0044339681 0.051362384 0.0044400827 0.05161804 0.99258763 -0.099792123
1489441509.434 0.9893291 -0.10380942 0.0045768134 0.05172582 0.0045782141 0.051944505 0.99227548 -0.10069269
1499437735.8491 0.98915488 -0.10415041 0.0046740826 0.051949151 0.0046804585 0.052208468 0.99220461 -0.10144877
1509433962.2642 0.98929477 -0.10465513 0.0048006289 0.052276608 0.0048021516 0.052496497 0.99202609 -0.10231581
1519430188.6792 0.98922861 -0.10517627 0.0048543829 0.052560918 0.004891295 0.052823536 0.99192035 -0.10279787
1529426415.0943 0.98918486 -0.10595644 0.0048939586 0.052866299 0.0049106274 0.053155333 0.99181622 -0.10321155
1539422641.5094 0.98931867 -0.10665022 0.0049900985 0.053148694 0.0049774349 0.053438075 0.99182451 -0.10373766
1549418867.9245 0.98909223 -0.1075355 0.0050526327 0.053473081 0.0050481893 0.053689003 0.99206316 -0.10445416
1559415094.3396 0.98895729 -0.10823298 0.0050771758 0.053755306 0.0050584208 0.05403541 0.99221718 -0.10519522
1569411320.7547 0.98885363 -0.10906057 0.0051511889 0.054040425 0.0051711854 0.054338433 0.99216133 -0.10596831
1579407547.1698 0.98875237 -0.10959166 0.0051708487 0.054320727 0.0051630335 0.054656275 0.99181467 -0.10679889
1589403773.5849 0.98860466 -0.11010998 0.0051499233 0.054642759 0.0051880945 0.054961093 0.99155653 -0.1076158
1599400000 0.98870558 -0.11056665 0.0051558521 0.054953743 0.0051748361 0.055313651 0.99108416 -0.10803616
1609396226.4151 0.98866075 -0.11125116 0.005185565 0.055297196 0.0051732101 0.055597693 0.99089032 -0.10856991
1619392452.8302 0.98856479 -0.11195508 0.0052444208 0.05568653 0.0051452145 0.055950779 0.99090075 -0.10909826
1629388679.2453 0.98837382 -0.11263311 0.0052248817 0.056021519 0.0051799733 0.05634623 0.99122036 -0.10962135
1639384905.6604 0.98813754 -0.11325917 0.0052002277 0.056382909 0.0052061793 0.056781217 0.99133003 -0.11038841
1649381132.0755 0.98787344 -0.1139513 0.0052742306 0.05676125 0.0052273348 0.05711665 0.99139422 -0.11138827
1659377358.4906 0.98775911 -0.11471489 0.0053035375 0.057141211 0.0052862391 0.057520464 0.99133027 -0.1122984
1669373584.9057 0.9876278 -0.11521357 0.0053389575 0.057547472 0.0052967789 0.057927798 0.99103397 -0.11293327
1679369811.3208 0.98779726 -0.11583976 0.0053512938 0.057948459 0.0053354297 0.05831328 0.99076092 -0.11350396
1689366037.7358 0.9877553 -0.11651984 0.005412098 0.058369949 0.0054268669 0.058694057 0.99061131 -0.11375764
1699362264.1509 0.98792076 -0.11716016 0.0055025071 0.058741771 0.005496705 0.059093501 0.99085879 -0.11433785
1709358490.566 0.98769128 -0.11788875 0.0055413181 0.059097607 0.0055500055 0.059494141 0.99077761 -0.11479838
1719354716.9811 0.98746288 -0.11853412 0.0056118593 0.059500877 0.0055858251 0.059894059 0.99082768 -0.11558247
1729350943.3962 0.98708332 -0.11911702 0.0056925435 0.0598915 0.0057458952 0.060296714 0.99076819 -0.11641869
