!Keysight Technologies,N5222B,MY61253708,A.15.00.15
!Date: Wednesday, June 19, 2024 08:58:30
!Correction: S11(C  2-Port  ) 
!S21(C  2-Port  ) 
!S12(C  2-Port  ) 
!S22(C  2-Port  ) 
!S2P File: Measurements: S11, S21, S12, S22:
# Hz S  RI   R 50
10000000 0.99869847 -0.002137363 0.00015786395 0.00045115052 -9.5600553e-005 0.00039114116 0.99885094 -0.00074848533
19996226.415094 0.9992497 -0.0020830631 2.7683156e-005 0.00065272197 0.00017170591 0.00062689191 0.99924421 -0.0021600723
29992452.830189 0.99990451 -0.002597183 -2.6392954e-005 0.0010518633 5.5076962e-006 0.0010939855 0.99958068 -0.0026803315
39988679.245283 1.0000823 -0.0031515956 4.5195207e-005 0.0014164118 -2.8099952e-005 0.0014548772 0.99963188 -0.0032762736
49984905.660377 1.0002273 -0.0039597452 -2.9750925e-005 0.0017938993 3.2866141e-005 0.0018144232 0.99980152 -0.0038697124
59981132.075472 1.0002848 -0.004734695 1.4111749e-005 0.0021298868 -4.0861196e-006 0.0021558753 0.9997586 -0.0043520033
69977358.490566 1.0001105 -0.0053137764 2.1433625e-005 0.002455855 7.7698147e-005 0.0025136806 0.99964201 -0.0049026757
79973584.90566 0.99987894 -0.005870223 4.540768e-005 0.0028926022 8.7922672e-006 0.002863769 0.9993183 -0.0054416656
89969811.320755 0.99986589 -0.0060916543 6.4825872e-006 0.0032095378 1.4694873e-005 0.003223327 0.99951541 -0.0058246851
99966037.735849 1.0000451 -0.0068265945 5.0912786e-005 0.0035868157 2.507848e-005 0.0036025564 0.99954259 -0.0066030473
109962264.15094 1.0001138 -0.0078189075 5.4151751e-005 0.0039504725 7.842551e-006 0.0039334064 0.99955761 -0.0074597597
119958490.56604 1.0001295 -0.0088409781 2.5022309e-005 0.0042785611 5.0444389e-005 0.0043233926 0.99958885 -0.008402437
129954716.98113 1.0000893 -0.009886831 6.3368934e-005 0.0046599214 4.9219117e-005 0.0046755672 0.99958599 -0.0093627572
139950943.39623 0.99997723 -0.010753224 4.3414097e-005 0.0050242688 4.3215725e-005 0.0050310977 0.99949455 -0.010125088
149947169.81132 0.99982584 -0.011464596 6.744964e-005 0.0053631188 5.477597e-005 0.0053816065 0.99943858 -0.010762721
159943396.22642 0.99983096 -0.011965662 7.4768206e-005 0.005712904 6.8160938e-005 0.005756408 0.99951202 -0.011230618
169939622.64151 0.99983555 -0.012343518 7.0317765e-005 0.0060708937 7.1936694e-005 0.0061122966 0.99956411 -0.011684172
179935849.0566 0.99989218 -0.012636632 7.4286712e-005 0.0064274701 7.8301178e-005 0.0064939135 0.9995566 -0.012085974
189932075.4717 0.9999786 -0.013406008 8.8250265e-005 0.0067975437 0.00010888302 0.0068284166 0.99969113 -0.012711495
199928301.88679 0.99998397 -0.014326036 9.5390016e-005 0.007144927 0.00010582339 0.0071915621 0.99957567 -0.013655186
209924528.30189 0.99965477 -0.014979735 9.4358111e-005 0.0074948566 0.00011526945 0.0075665903 0.99935943 -0.014426842
219920754.71698 0.99972343 -0.01597935 0.00014645117 0.0078794546 0.0001529234 0.0079123788 0.99924839 -0.015160352
229916981.13208 0.99940622 -0.016862988 0.00014827447 0.0081964573 0.0001259055 0.0082449103 0.99910051 -0.015928656
239913207.54717 0.99931854 -0.017481605 0.00016965871 0.0085635921 0.00016710396 0.0086284736 0.99908203 -0.016647961
249909433.96226 0.99932396 -0.018164724 0.00016264967 0.0089287488 0.00017774734 0.0089879921 0.99921042 -0.017329574
259905660.37736 0.99945247 -0.018834531 0.00019523036 0.0092084939 0.00015712157 0.0092698121 0.9993875 -0.017943084
269901886.79245 0.99971408 -0.01939027 0.00020405231 0.0096650999 0.00017146836 0.0097092353 0.9997279 -0.018713132
279898113.20755 0.99965221 -0.02020441 0.00020125066 0.0099801058 0.00023416709 0.010003868 0.99962389 -0.019403473
289894339.62264 0.99956822 -0.020957738 0.00024585146 0.010320527 0.0002428242 0.010403368 0.9995091 -0.020188957
299890566.03774 0.99961805 -0.02162081 0.00025183428 0.010687349 0.00021895627 0.010764956 0.99921131 -0.020723253
309886792.45283 0.9992739 -0.02202148 0.00025804434 0.011061237 0.00019675691 0.011158098 0.99905688 -0.02115678
319883018.86792 0.9992764 -0.0227772 0.00022206688 0.011406226 0.00030017411 0.011490226 0.99911278 -0.021730721
329879245.28302 0.99917388 -0.023503453 0.00030033104 0.011758023 0.00029410608 0.011864593 0.99925536 -0.02241531
339875471.69811 0.99905378 -0.024285391 0.00030209101 0.012158892 0.00026105542 0.012173128 0.99923116 -0.023259059
349871698.11321 0.99925822 -0.025117785 0.0003260572 0.012411208 0.00032188836 0.012586121 0.99925709 -0.02416423
359867924.5283 0.99917698 -0.025935113 0.00035863556 0.012835338 0.00035851914 0.012954385 0.99921513 -0.025196463
369864150.9434 0.99949187 -0.026769817 0.00036979187 0.013166735 0.00038182712 0.013275933 0.99924958 -0.025971621
379860377.35849 0.99931407 -0.027603462 0.00038735964 0.013528336 0.00038146321 0.013662878 0.9991048 -0.026654914
389856603.77358 0.99920696 -0.028085649 0.0004457566 0.013918006 0.00042027747 0.013964396 0.99908471 -0.027098358
399852830.18868 0.99902487 -0.028684735 0.0004217634 0.014256767 0.00045076618 0.014331813 0.99916553 -0.027605951
409849056.60377 0.99906701 -0.029158214 0.00048026428 0.014583083 0.00044323463 0.014698547 0.99911338 -0.028040279
419845283.01887 0.99903762 -0.029586405 0.00045989081 0.014975305 0.00047063362 0.01505594 0.99919242 -0.028646439
429841509.43396 0.99908423 -0.030338258 0.00048675388 0.015323701 0.00047112769 0.01541754 0.99941182 -0.029441714
439837735.84906 0.9989996 -0.031263024 0.00052438769 0.015673319 0.00053752307 0.015793551 0.99918592 -0.030475512
449833962.26415 0.99885434 -0.032141536 0.00054616854 0.015986618 0.00052480912 0.016139261 0.99884796 -0.031297207
459830188.67925 0.99872631 -0.032997489 0.0005321959 0.016344801 0.00050126947 0.016475033 0.99863589 -0.032169312
469826415.09434 0.99872804 -0.033871889 0.00057850266 0.016727563 0.0005518999 0.016836833 0.99842143 -0.03277567
479822641.50943 0.99870032 -0.034465544 0.00058372761 0.017092217 0.00057153939 0.017179053 0.99851781 -0.033266202
489818867.92453 0.99866903 -0.034962952 0.00062820315 0.017444709 0.0006301282 0.017561488 0.99877775 -0.033817381
499815094.33962 0.99883014 -0.035537422 0.00064246869 0.017775541 0.00062383246 0.017940056 0.99907142 -0.034512579
509811320.75472 0.99896061 -0.03595832 0.00064958516 0.018103132 0.00069447176 0.018220216 0.99920827 -0.035372451
519807547.16981 0.99881262 -0.036547184 0.00067450618 0.018482365 0.0007071048 0.018603005 0.99920917 -0.036136031
529803773.58491 0.99888456 -0.037267715 0.00070195738 0.01883737 0.00071312394 0.018962786 0.99890012 -0.036838681
539800000 0.9987964 -0.038099453 0.00073133083 0.019220795 0.00073198788 0.019394167 0.9986555 -0.037565365
549796226.41509 0.99859661 -0.038915515 0.00076821959 0.019569267 0.00077230623 0.01969579 0.99841833 -0.03803426
559792452.83019 0.99837339 -0.03966096 0.00077726599 0.019914476 0.00075298175 0.020037374 0.99835795 -0.038534641
569788679.24528 0.99825037 -0.040426582 0.00080792373 0.020285659 0.00082745356 0.020409087 0.99851739 -0.039357036
579784905.66038 0.99815232 -0.041031189 0.00086691137 0.020676434 0.00084372656 0.0208111 0.99862224 -0.040060483
589781132.07547 0.99829841 -0.041659415 0.00089518633 0.020995138 0.0008874191 0.021145491 0.99872255 -0.041045815
599777358.49057 0.99849266 -0.042351753 0.0008738609 0.021368802 0.00091983471 0.021549415 0.99881542 -0.041811109
609773584.90566 0.99869436 -0.043174304 0.00098554511 0.021763675 0.00097581343 0.021858364 0.99858528 -0.042761799
619769811.32075 0.99870288 -0.043890119 0.0010448601 0.022079539 0.001021577 0.022213688 0.99846363 -0.043330699
629766037.73585 0.99844503 -0.0444929 0.0010598013 0.022388324 0.0010926863 0.022540286 0.99835479 -0.04382214
639762264.15094 0.99825007 -0.045222282 0.0011002987 0.022751519 0.001065542 0.02288083 0.99804771 -0.044338718
649758490.56604 0.99812871 -0.045785055 0.0010633776 0.023064621 0.0010915208 0.02322297 0.99825883 -0.044724256
659754716.98113 0.99796915 -0.046343952 0.0011109812 0.023469629 0.0011094753 0.023564717 0.99831814 -0.045385242
669750943.39623 0.99795115 -0.046901762 0.0010959278 0.023815751 0.0011131866 0.02399406 0.99837649 -0.046176553
679747169.81132 0.99801302 -0.04764713 0.0011722749 0.024185041 0.0012016387 0.024339255 0.99828482 -0.047162436
689743396.22642 0.99819803 -0.048471004 0.0012298375 0.024511985 0.0012042644 0.024711786 0.99808288 -0.048181117
699739622.64151 0.99830347 -0.04938224 0.0012417966 0.024879619 0.0012477385 0.025061015 0.99799776 -0.048876345
709735849.0566 0.99828249 -0.050297551 0.001286642 0.025249723 0.0012952599 0.025393035 0.99776351 -0.049493849
719732075.4717 0.99811143 -0.051033437 0.0013300879 0.02550347 0.001351092 0.025720945 0.99785405 -0.050126255
729728301.88679 0.99795568 -0.051534146 0.0013795421 0.025904302 0.0013742335 0.026078608 0.99793983 -0.050545067
739724528.30189 0.99788427 -0.052130878 0.0014232243 0.026243607 0.0014258227 0.026414219 0.99807411 -0.05127427
749720754.71698 0.99782729 -0.052731469 0.0014564367 0.026577853 0.0014550234 0.026782464 0.99807447 -0.052012369
759716981.13208 0.99786222 -0.053209811 0.0015176889 0.026919749 0.0014956761 0.02713763 0.99804533 -0.052810282
769713207.54717 0.9977473 -0.053970873 0.0015317416 0.027259007 0.0015473692 0.027464207 0.99777663 -0.053563803
779709433.96226 0.9979583 -0.054679621 0.0015427188 0.027624384 0.0015827107 0.027844641 0.9975816 -0.054233752
789705660.37736 0.99779844 -0.055626988 0.0016105697 0.027994331 0.0015826933 0.028126005 0.99728948 -0.055015147
799701886.79245 0.99778569 -0.056474537 0.0016298573 0.028314929 0.0016398169 0.028508447 0.9971931 -0.055553228
809698113.20755 0.99771768 -0.057155594 0.0016405005 0.028617447 0.001661954 0.028859597 0.99725896 -0.056093633
819694339.62264 0.99751484 -0.057774246 0.0017020511 0.02896042 0.0016847947 0.029234055 0.99739295 -0.056710899
829690566.03774 0.99750167 -0.058389217 0.0017250758 0.029356608 0.0017309189 0.029564731 0.99760377 -0.057621568
839686792.45283 0.99759287 -0.058896273 0.0017497735 0.029681209 0.0017637322 0.029885598 0.99760568 -0.058464557
849683018.86792 0.99766397 -0.05949939 0.0018100836 0.030025735 0.0018079651 0.030247549 0.99753815 -0.059297644
859679245.28302 0.99767238 -0.060307831 0.0018267827 0.030390695 0.0018309867 0.030635413 0.99728483 -0.059992224
869675471.69811 0.99752867 -0.061137646 0.001898515 0.030752501 0.0018832181 0.030978257 0.99690664 -0.060474992
879671698.11321 0.99747515 -0.061834496 0.001937606 0.031075494 0.0019712551 0.03130652 0.99684042 -0.060903344
889667924.5283 0.99729371 -0.062677115 0.0019440856 0.03139976 0.0019589607 0.031664599 0.9967382 -0.061502725
899664150.9434 0.99700534 -0.06342116 0.0020025652 0.031753309 0.0020130947 0.031990055 0.99682081 -0.062184155
909660377.35849 0.99702162 -0.064255685 0.0020177886 0.03210327 0.0020489567 0.032341115 0.99685788 -0.063007563
919656603.77358 0.99715781 -0.064824685 0.0020712814 0.03245084 0.0020957948 0.032691404 0.99691206 -0.064028189
929652830.18868 0.99718577 -0.065543413 0.0020941179 0.032784149 0.0021050498 0.033025276 0.99675816 -0.064966261
939649056.60377 0.99730724 -0.066287339 0.0021172212 0.033105887 0.0021445211 0.03335356 0.99664706 -0.065691739
949645283.01887 0.99729651 -0.067125931 0.0020915898 0.033453122 0.0020853025 0.03372689 0.99630642 -0.066201329
959641509.43396 0.99723774 -0.067848116 0.0021355506 0.033844002 0.0021459805 0.034104045 0.99623644 -0.066797525
969637735.84906 0.99710488 -0.068593055 0.0022133524 0.034229267 0.0022189356 0.034489408 0.99625862 -0.067109734
979633962.26415 0.99684751 -0.069330163 0.0022842993 0.034523215 0.0023133564 0.034782872 0.99628586 -0.067858271
989630188.67925 0.9968766 -0.069885761 0.0023297351 0.034908 0.0023126053 0.035171501 0.99646574 -0.06850782
999626415.09434 0.99692839 -0.070582211 0.0023287684 0.035245799 0.0023573861 0.035533182 0.99635983 -0.069343418
1009622641.5094 0.99686003 -0.071114495 0.0023724586 0.035607982 0.0024392512 0.035897706 0.99625707 -0.070207357
1019618867.9245 0.99691689 -0.072098672 0.0024412554 0.035963997 0.0024813344 0.036247462 0.99594647 -0.071218327
1029615094.3396 0.9969728 -0.07309705 0.002503654 0.03630811 0.0025453214 0.036572099 0.99554062 -0.071775407
1039611320.7547 0.99699527 -0.07391277 0.002580585 0.036630381 0.0025854101 0.036932744 0.99551284 -0.072459549
1049607547.1698 0.99688512 -0.074937135 0.0026152097 0.036936387 0.0026295311 0.037221748 0.99551743 -0.073030688
1059603773.5849 0.99670535 -0.075574994 0.0026181974 0.037238564 0.0026504518 0.037565064 0.99554873 -0.073660851
1069600000 0.99646252 -0.076283932 0.0026154481 0.037597004 0.0026678909 0.037901759 0.99562573 -0.074305624
1079596226.4151 0.99638987 -0.076912686 0.0026197564 0.037944827 0.0026867422 0.038239185 0.99561256 -0.075097278
1089592452.8302 0.99642092 -0.07752943 0.002702604 0.038308233 0.0027586753 0.038587421 0.99553329 -0.075906128
1099588679.2453 0.99656242 -0.07826978 0.0026956163 0.038642555 0.0027643573 0.038957402 0.99514467 -0.076514155
1109584905.6604 0.99655533 -0.079126954 0.0027293665 0.039006248 0.0028272597 0.039327819 0.99492532 -0.07711415
1119581132.0755 0.99654198 -0.080194898 0.0027735019 0.039411914 0.0028094263 0.039709382 0.99476188 -0.077573039
1129577358.4906 0.99635738 -0.080959558 0.0028238036 0.039793067 0.0028771497 0.040095333 0.99452448 -0.078077912
1139573584.9057 0.99606407 -0.081922799 0.0028631352 0.040111762 0.0029410608 0.040425874 0.99467111 -0.078727394
1149569811.3208 0.99593818 -0.082839437 0.0029234127 0.040449828 0.0030119021 0.040758912 0.99480146 -0.079504572
1159566037.7358 0.99573976 -0.083536178 0.0029986147 0.040791795 0.0030789524 0.041101627 0.99484539 -0.080567479
1169562264.1509 0.9956578 -0.084176302 0.0029961057 0.041139551 0.0030777436 0.041459009 0.99468076 -0.081421107
1179558490.566 0.99548352 -0.084900677 0.0029942824 0.041496906 0.0031036648 0.041855916 0.9945873 -0.08212246
1189554716.9811 0.99552476 -0.08559218 0.0030587511 0.041871823 0.0032038298 0.0421932 0.99427193 -0.082692057
1199550943.3962 0.99545592 -0.086452246 0.0030810311 0.042244539 0.0032287315 0.042521942 0.99404019 -0.083090216
1209547169.8113 0.99525756 -0.087438732 0.0031503374 0.042608544 0.0032533063 0.042887866 0.9940626 -0.083428577
1219543396.2264 0.99504864 -0.0883395 0.0032093409 0.042984236 0.0033060899 0.043298587 0.99404901 -0.083913967
1229539622.6415 0.99477625 -0.089183241 0.0033012945 0.043347776 0.0033974703 0.0436377 0.99423909 -0.084649533
1239535849.0566 0.99442852 -0.089816868 0.0033235354 0.043648295 0.0034717293 0.043974217 0.99428254 -0.085549831
1249532075.4717 0.994075 -0.090564817 0.0034197182 0.044013474 0.0035839197 0.044277709 0.99405259 -0.086475708
1259528301.8868 0.99398816 -0.091065913 0.0034638196 0.044365615 0.0035932343 0.044648547 0.99377948 -0.087357074
1269524528.3019 0.99377769 -0.091810405 0.0035598222 0.044699501 0.0036942996 0.044970032 0.99357843 -0.088066369
1279520754.717 0.9934448 -0.092520028 0.0036116741 0.045022581 0.003717056 0.045263965 0.99335903 -0.088621393
1289516981.1321 0.99323469 -0.093450099 0.0036238991 0.045308769 0.0037641535 0.045575976 0.99336934 -0.089103401
1299513207.5472 0.99288172 -0.094313979 0.003661301 0.045651838 0.0038067382 0.045909684 0.99346697 -0.08950001
1309509433.9623 0.99238843 -0.094994158 0.0036767162 0.045962032 0.0038060714 0.046247486 0.99357337 -0.090246499
1319505660.3774 0.99195051 -0.095778495 0.0036666971 0.046352003 0.0038298853 0.046599302 0.99359298 -0.090912268
1329501886.7925 0.9916603 -0.096383989 0.0036899839 0.046683967 0.0038455259 0.046965022 0.99354625 -0.091892302
1339498113.2075 0.99143314 -0.096921057 0.0037412923 0.04701012 0.0038504517 0.047244333 0.9931196 -0.092687517
1349494339.6226 0.99126107 -0.097596049 0.0037367386 0.047353487 0.0038400544 0.047650788 0.99276364 -0.093340911
1359490566.0377 0.99118567 -0.098163456 0.0037436225 0.047772057 0.0038943551 0.048020031 0.99252999 -0.093820661
1369486792.4528 0.99095446 -0.098779291 0.0037642345 0.048188843 0.0039007217 0.048358925 0.99232072 -0.094272763
1379483018.8679 0.99066204 -0.099380493 0.0037978298 0.048538841 0.0038797713 0.048763789 0.99236512 -0.094694979
1389479245.283 0.99026692 -0.099921942 0.0038569998 0.048941165 0.0039785523 0.049143039 0.99235368 -0.095374703
1399475471.6981 0.98983669 -0.10039535 0.0038818344 0.049331114 0.0039700344 0.049531855 0.9925108 -0.096120805
1409471698.1132 0.98958218 -0.10069839 0.0039176363 0.049700521 0.0040224604 0.049956739 0.99248707 -0.096963897
1419467924.5283 0.98938859 -0.1009897 0.0039542206 0.050110005 0.0040327953 0.050347794 0.99229747 -0.097673982
1429464150.9434 0.98917979 -0.10138467 0.0040047355 0.050518859 0.0040989611 0.050781555 0.99214935 -0.098238051
1439460377.3585 0.98935837 -0.10190691 0.004104672 0.051025603 0.0042014094 0.051206961 0.99199551 -0.098598644
1449456603.7736 0.98939908 -0.10251023 0.0041920142 0.051432457 0.0042325817 0.051664133 0.99184263 -0.098983094
1459452830.1887 0.9894042 -0.10328767 0.0043472275 0.051837981 0.0043882113 0.052078031 0.99191463 -0.099258006
1469449056.6038 0.98936927 -0.10402387 0.0045222212 0.052233126 0.0045787059 0.052446321 0.99211955 -0.09997955
1479445283.0189 0.98918474 -0.10466188 0.0046487115 0.05249688 0.0047010798 0.052742597 0.99224651 -0.10091615
1489441509.434 0.98908091 -0.10518214 0.0047926474 0.052858688 0.0048149973 0.053081721 0.99205768 -0.10183421
1499437735.8491 0.98890442 -0.10555425 0.004921224 0.05313278 0.0049571656 0.053392939 0.99189067 -0.10275015
1509433962.2642 0.98889804 -0.10594111 0.0050251363 0.053434219 0.0050247051 0.053714454 0.99173439 -0.10350928
1519430188.6792 0.98896027 -0.10657376 0.0050849691 0.053705961 0.0051223543 0.053999666 0.99159884 -0.10409856
1529426415.0943 0.98898053 -0.1071966 0.0051520579 0.054009244 0.0051644146 0.054276474 0.99149728 -0.10443905
1539422641.5094 0.98896515 -0.10809585 0.0052137636 0.05436952 0.0052182521 0.054595754 0.99158752 -0.10492166
1549418867.9245 0.98881394 -0.10897037 0.0052982289 0.054628707 0.0052676946 0.054916602 0.9918232 -0.10575564
1559415094.3396 0.98872048 -0.10959697 0.0053525809 0.054961577 0.0053449273 0.055258416 0.99194646 -0.10635293
1569411320.7547 0.98856634 -0.11050618 0.0053903991 0.055236381 0.0053762682 0.055557739 0.99177825 -0.10721329
1579407547.1698 0.98845524 -0.11096375 0.0054415474 0.055567112 0.0054068323 0.055853285 0.9914847 -0.10805529
1589403773.5849 0.98841894 -0.11158004 0.0054363515 0.055855528 0.0054208171 0.056196462 0.99119282 -0.1088115
1599400000 0.98830271 -0.11204445 0.005411705 0.056200653 0.0054501239 0.056536812 0.99082595 -0.10937414
1609396226.4151 0.98830706 -0.11272585 0.0054153972 0.056557532 0.0054369299 0.056867454 0.99064755 -0.10985702
1619392452.8302 0.98831069 -0.1133042 0.0054666586 0.056911435 0.005440075 0.057228126 0.99054724 -0.1103687
1629388679.2453 0.98811626 -0.11410853 0.0054633375 0.057253826 0.0054110214 0.057618327 0.99083638 -0.11085403
1639384905.6604 0.98781645 -0.11477596 0.00553999 0.05762136 0.0054435949 0.05806211 0.99104798 -0.111829
1649381132.0755 0.9876157 -0.11541581 0.0055354219 0.058025934 0.0054732691 0.058406159 0.99097317 -0.11275944
1659377358.4906 0.98742247 -0.11622843 0.0055212658 0.058446892 0.00554098 0.058797926 0.99104309 -0.11360496
1669373584.9057 0.9873606 -0.11667954 0.0056119561 0.058830164 0.0055796448 0.059182413 0.99059469 -0.11435416
1679369811.3208 0.98733419 -0.11736374 0.0056251772 0.05921904 0.0056364425 0.059545878 0.99038333 -0.11478719
1689366037.7358 0.98740578 -0.11809069 0.0057286341 0.059613772 0.0056784097 0.060013179 0.99029505 -0.11508033
1699362264.1509 0.98754334 -0.1187278 0.0057773283 0.059996471 0.0057125334 0.060448982 0.99045265 -0.11569987
1709358490.566 0.98742872 -0.11945276 0.0058757057 0.060446911 0.0058233803 0.060801219 0.99032241 -0.11619578
1719354716.9811 0.9870621 -0.12004137 0.0059387535 0.060812183 0.0058933776 0.061211925 0.99043757 -0.116979
1729350943.3962 0.98671216 -0.12067881 0.0060144048 0.06120358 0.0059693195 0.061603166 0.9904846 -0.11784652
