!Keysight Technologies,N5222B,MY61253708,A.15.00.15
!Date: Wednesday, June 19, 2024 08:51:42
!Correction: S11(C  2-Port  ) 
!S21(C  2-Port  ) 
!S12(C  2-Port  ) 
!S22(C  2-Port  ) 
!S2P File: Measurements: S11, S21, S12, S22:
# Hz S  RI   R 50
10000000 0.9985165 -0.0023964942 -0.00016524256 0.00030009227 -6.6375069e-005 0.00018303943 0.99864542 -0.00061407685
19996226.415094 0.99898672 -0.0019544065 -0.00012459836 0.00087390502 1.8893799e-005 0.00065405288 0.99920309 -0.0020893216
29992452.830189 0.99965614 -0.002517879 4.4399349e-005 0.0010486013 7.0004666e-005 0.0011458794 0.99957556 -0.002797991
39988679.245283 1.0000393 -0.0031595677 5.4821474e-005 0.0014924024 4.6682879e-005 0.0014860544 0.99968153 -0.0033139437
49984905.660377 1.000154 -0.004026711 -2.6717316e-008 0.0018468471 3.6178913e-005 0.0018703998 0.99974668 -0.0038795769
59981132.075472 1.000295 -0.0048166513 2.6112248e-005 0.0021966025 4.1917665e-005 0.0022292004 0.99970055 -0.0044160485
69977358.490566 1.0000849 -0.0053827744 2.372326e-005 0.0026058936 -2.5170004e-005 0.002553825 0.99959433 -0.0049396139
79973584.90566 0.99981111 -0.0059710145 9.1559486e-006 0.0029595261 2.2797147e-005 0.0029171037 0.99938452 -0.0055514574
89969811.320755 0.99978727 -0.0062377453 2.9628281e-005 0.0032868204 2.5076908e-005 0.0032929494 0.99951333 -0.005869627
99966037.735849 0.99997258 -0.0069285184 1.0751071e-005 0.0036497135 3.5975128e-005 0.0036739449 0.99957091 -0.0066714734
109962264.15094 1.0000051 -0.0078949034 5.8372389e-005 0.0040132832 3.6275655e-005 0.0040785326 0.99957848 -0.0075348318
119958490.56604 1.0000831 -0.0089637637 3.2402575e-005 0.0044067381 3.1256815e-005 0.0044122436 0.99962384 -0.0084948242
129954716.98113 0.99998343 -0.010063022 5.265302e-005 0.0047644605 6.6135428e-005 0.0047822623 0.99958098 -0.00946334
139950943.39623 0.99994326 -0.010897474 5.488687e-005 0.0051119081 7.1588584e-005 0.0051656524 0.99951589 -0.010229111
149947169.81132 0.99977827 -0.011575222 7.222197e-005 0.0054754261 5.4663746e-005 0.0055231084 0.99945545 -0.010865033
159943396.22642 0.99975592 -0.012151748 6.6855224e-005 0.0058713933 7.5129792e-005 0.0059030466 0.9995445 -0.01136151
169939622.64151 0.99977249 -0.012532823 8.6668995e-005 0.0062273345 6.5083441e-005 0.006281314 0.99960655 -0.011810042
179935849.0566 0.99980903 -0.012823284 7.633213e-005 0.0065508005 0.0001127664 0.0066329157 0.99952954 -0.012251556
189932075.4717 0.99993855 -0.013624758 6.5794215e-005 0.0069641778 9.5453812e-005 0.0069880737 0.99972391 -0.012901962
199928301.88679 0.99986094 -0.014529258 0.00010309741 0.0073383274 0.00011531753 0.0073635485 0.9996044 -0.013799191
209924528.30189 0.99961561 -0.015275434 0.00012900156 0.0077023841 0.00013999862 0.007726097 0.99936724 -0.014611468
219920754.71698 0.99959826 -0.016193151 0.00012919493 0.0080523361 0.00013868976 0.0080988249 0.99919593 -0.015355915
229916981.13208 0.99927759 -0.017124474 0.0001607521 0.0084183887 0.00014380831 0.0084797964 0.99906015 -0.0161542
239913207.54717 0.99916446 -0.017750926 0.00016066484 0.008772511 0.00016807152 0.008824571 0.99906409 -0.016828924
249909433.96226 0.99925554 -0.018460512 0.00016516633 0.0091389259 0.00017647399 0.0091975704 0.99919564 -0.017545134
259905660.37736 0.99937361 -0.019059837 0.00022223685 0.0095290933 0.00021695392 0.0095618553 0.9993239 -0.018114358
269901886.79245 0.99947441 -0.019695953 0.00023569935 0.0098764952 0.00017526513 0.0098992307 0.99970955 -0.018840179
279898113.20755 0.99976999 -0.020480365 0.00024444936 0.010190384 0.00024268986 0.010345582 0.99956679 -0.01964429
289894339.62264 0.99965012 -0.021285713 0.00025956286 0.010636875 0.0002219053 0.010669621 0.99947959 -0.020422339
299890566.03774 0.9994908 -0.021853656 0.0002664607 0.010950832 0.00022699102 0.011066278 0.99924773 -0.02091831
309886792.45283 0.99928927 -0.022547059 0.00022233184 0.011340013 0.00032522331 0.01144618 0.999044 -0.021441452
319883018.86792 0.99911439 -0.023123026 0.00032760948 0.011714471 0.0002969401 0.011755427 0.99914765 -0.021959424
329879245.28302 0.99910814 -0.023796469 0.00026083598 0.012060987 0.00032998296 0.01213789 0.99922323 -0.022697717
339875471.69811 0.99900693 -0.024557561 0.00033600559 0.012447878 0.00029288768 0.012544715 0.99913979 -0.023606546
349871698.11321 0.99922681 -0.025500327 0.00034453766 0.012801354 0.00037773885 0.01287466 0.99915767 -0.024508119
359867924.5283 0.99915838 -0.026368618 0.00032273913 0.01320141 0.0003573643 0.01326734 0.99916422 -0.025464475
369864150.9434 0.99939764 -0.027166754 0.00036556763 0.013485728 0.00040284661 0.013612083 0.99918842 -0.026253313
379860377.35849 0.99922138 -0.027979508 0.00039277808 0.013908593 0.0004075726 0.013951064 0.99913174 -0.026910812
389856603.77358 0.99912429 -0.02847138 0.00040943502 0.01426067 0.00045844913 0.014361842 0.99909914 -0.02746439
399852830.18868 0.99896085 -0.029095829 0.00044983719 0.014632391 0.00042622304 0.014684605 0.99912757 -0.027939409
409849056.60377 0.99892175 -0.029588887 0.0004790739 0.014989419 0.00045892195 0.015084877 0.99916059 -0.028369293
419845283.01887 0.99891293 -0.030071795 0.00051683001 0.015330892 0.00048599439 0.015464622 0.99918693 -0.029032081
429841509.43396 0.99898827 -0.030683726 0.00051324116 0.015729371 0.00051251287 0.015798733 0.99926817 -0.029821575
439837735.84906 0.99895769 -0.031721249 0.00055427663 0.016083471 0.00059285411 0.016145891 0.99911362 -0.030836031
449833962.26415 0.99885857 -0.032605618 0.00056663109 0.016391871 0.0005464796 0.01647827 0.9987548 -0.031682193
459830188.67925 0.99875408 -0.033402056 0.00054442696 0.016762996 0.0005793646 0.016857628 0.99856198 -0.032485843
469826415.09434 0.99870551 -0.034272015 0.00056639547 0.017182745 0.00058537209 0.017244071 0.99835432 -0.033103228
479822641.50943 0.9985919 -0.034926124 0.00064399862 0.017521385 0.00061832042 0.01763661 0.99837315 -0.033617206
489818867.92453 0.99864095 -0.035588324 0.00064393599 0.017890498 0.0006464608 0.017992454 0.99869311 -0.034175694
499815094.33962 0.99874038 -0.036161602 0.00067894487 0.01824409 0.00065834913 0.018360795 0.99903953 -0.034771681
509811320.75472 0.9988448 -0.036527 0.00070038601 0.018598076 0.00073214329 0.018748077 0.9992013 -0.035643935
519807547.16981 0.99886531 -0.037176102 0.00077380333 0.0189799 0.00073590782 0.019066963 0.99911392 -0.0365192
529803773.58491 0.99872577 -0.037841797 0.00071570277 0.019258188 0.00071826018 0.019449625 0.99883842 -0.037171125
539800000 0.99869823 -0.038656443 0.00074073812 0.019687837 0.00076433574 0.019810569 0.99856728 -0.037898988
549796226.41509 0.99845546 -0.039534748 0.00079944637 0.020067273 0.00082655856 0.020196499 0.99844635 -0.038386375
559792452.83019 0.99827719 -0.04029882 0.00083610136 0.020422919 0.00081372727 0.020550229 0.99818462 -0.038917124
569788679.24528 0.99810475 -0.04105854 0.00084652985 0.020838277 0.00086568622 0.020948235 0.99845362 -0.039743245
579784905.66038 0.99808824 -0.041660592 0.00089833769 0.021172531 0.00086388015 0.021307232 0.99859899 -0.040437348
589781132.07547 0.99828649 -0.042348921 0.0009218445 0.021552419 0.00089126918 0.021687243 0.99867672 -0.041377604
599777358.49057 0.9984585 -0.042962819 0.00096378848 0.021890927 0.00096826162 0.022065341 0.99870384 -0.042196602
609773584.90566 0.99855173 -0.04383846 0.0010084978 0.022302495 0.00099679595 0.022412866 0.99855953 -0.043149613
619769811.32075 0.99855536 -0.044569194 0.0010633878 0.022616962 0.0011171522 0.022816759 0.9983995 -0.043723851
629766037.73585 0.99836892 -0.045193881 0.001127176 0.022943981 0.0011438122 0.023077708 0.99826092 -0.044267356
639762264.15094 0.99818188 -0.045814261 0.0011433652 0.023289107 0.0011650943 0.023422234 0.99810588 -0.044733629
649758490.56604 0.99799931 -0.046512336 0.0011532474 0.023631245 0.0011385861 0.023775766 0.99813712 -0.045194954
659754716.98113 0.99781466 -0.046960622 0.0011888426 0.024036137 0.0011234349 0.024181843 0.99828196 -0.045813203
669750943.39623 0.99778199 -0.047569662 0.0011816518 0.024373041 0.0011742022 0.024568979 0.99831229 -0.046667963
679747169.81132 0.99788731 -0.048350178 0.0012057207 0.024760343 0.0012256885 0.024921943 0.99823272 -0.047692362
689743396.22642 0.99805534 -0.049208045 0.0012669535 0.025124392 0.0012602303 0.025314219 0.99806774 -0.048618615
699739622.64151 0.99821103 -0.050050586 0.0013186792 0.025460102 0.0012913607 0.025653549 0.99796712 -0.049421519
709735849.0566 0.99816346 -0.050965108 0.0013806436 0.025842614 0.0013791795 0.02601886 0.99779558 -0.050025664
719732075.4717 0.9980157 -0.051810324 0.0013897633 0.026209375 0.0014115237 0.026354227 0.9978106 -0.050610006
729728301.88679 0.99790633 -0.05222249 0.001459023 0.026553169 0.0014146799 0.026714804 0.99784338 -0.051121771
739724528.30189 0.99783015 -0.052928716 0.0015092427 0.026903771 0.0014960463 0.027072046 0.99808264 -0.051819056
749720754.71698 0.99763298 -0.053445905 0.0015534074 0.027243434 0.0015375903 0.027449641 0.99807161 -0.052517742
759716981.13208 0.99771321 -0.053968608 0.0015507918 0.027592566 0.0015684301 0.027793847 0.99793214 -0.053376228
769713207.54717 0.99761516 -0.05477795 0.0015814826 0.027970517 0.0015924806 0.028150955 0.99770415 -0.054150522
779709433.96226 0.99780607 -0.055432945 0.0016483857 0.028328102 0.0016328404 0.02852547 0.99744076 -0.054815665
789705660.37736 0.9976126 -0.056407869 0.0016822834 0.028661 0.0016781045 0.028820757 0.99715877 -0.055526108
799701886.79245 0.9976629 -0.057321221 0.0017531682 0.029019587 0.0017185556 0.029196545 0.99704599 -0.056208879
809698113.20755 0.99752259 -0.057904884 0.0017767986 0.029355094 0.0017278302 0.029580822 0.99711365 -0.056629449
819694339.62264 0.99738449 -0.058612347 0.0017913072 0.029719941 0.0017680563 0.029945182 0.99725264 -0.057334989
829690566.03774 0.99737048 -0.059235632 0.00179704 0.030062659 0.0018478679 0.030290624 0.99753869 -0.058261782
839686792.45283 0.99741191 -0.059703559 0.0018452564 0.030436959 0.0018478297 0.030634129 0.99756974 -0.059125215
849683018.86792 0.99753839 -0.060332984 0.0018924987 0.030813921 0.0019002205 0.031019147 0.99746072 -0.059924312
859679245.28302 0.99752355 -0.061113179 0.0019268505 0.031155024 0.001927739 0.031348005 0.9971813 -0.060583472
869675471.69811 0.9974823 -0.061991543 0.0019979505 0.031533044 0.0019648746 0.031719331 0.99680948 -0.061179072
879671698.11321 0.99726588 -0.062722437 0.002054197 0.031873446 0.0020341659 0.032089967 0.99675769 -0.06155904
889667924.5283 0.9970566 -0.063527912 0.0020648306 0.032202296 0.0020749252 0.032417625 0.99655908 -0.062133819
899664150.9434 0.99690282 -0.064369768 0.0021023853 0.032525148 0.0021184003 0.032764919 0.99664617 -0.062784374
909660377.35849 0.99680215 -0.065064535 0.0021494604 0.032879502 0.0020990814 0.033156421 0.99678814 -0.0637144
919656603.77358 0.99701053 -0.065774232 0.0021528509 0.033257753 0.0022038589 0.033517811 0.99680287 -0.064676017
929652830.18868 0.99698472 -0.066504061 0.0022049136 0.03360692 0.0022058785 0.033826523 0.99661517 -0.065597296
939649056.60377 0.99720299 -0.067193329 0.0022388157 0.033916868 0.0022335593 0.034195896 0.99642926 -0.066396117
949645283.01887 0.99708074 -0.068118311 0.0022168253 0.034329869 0.002263417 0.034541663 0.99623513 -0.066958286
959641509.43396 0.99695593 -0.068794221 0.0022684243 0.03469912 0.0023108711 0.034949664 0.99616247 -0.067480356
969637735.84906 0.99692142 -0.069543004 0.0023184167 0.03509412 0.0022952361 0.035324231 0.99622226 -0.067798406
979633962.26415 0.99671859 -0.070249632 0.0023898068 0.035404947 0.0024006143 0.035683855 0.99613488 -0.068515882
989630188.67925 0.99677932 -0.07084462 0.0024413103 0.035770573 0.0024519218 0.036059037 0.99631268 -0.069186449
999626415.09434 0.99677432 -0.071457952 0.0024597682 0.036141571 0.002479488 0.036424354 0.99628067 -0.070049316
1009622641.5094 0.99676669 -0.072136924 0.0024684984 0.036493089 0.0025259489 0.036765493 0.99601156 -0.070957303
1019618867.9245 0.99685007 -0.073125705 0.0025622253 0.036890384 0.0025972701 0.037134517 0.99574637 -0.071894407
1029615094.3396 0.99685049 -0.074079901 0.0026334673 0.037219673 0.0026670564 0.037480935 0.9953776 -0.072489202
1039611320.7547 0.99684274 -0.075083524 0.0027007703 0.037524313 0.0026891027 0.037825804 0.99536169 -0.073156089
1049607547.1698 0.99667841 -0.076032728 0.0027432656 0.037896097 0.0027486654 0.038148284 0.99533635 -0.073778212
1059603773.5849 0.99654806 -0.076674819 0.0027493434 0.038198408 0.0027750181 0.038507801 0.99534583 -0.074376315
1069600000 0.99624741 -0.077343374 0.0027821064 0.038508177 0.0028354861 0.038854845 0.99552643 -0.075124472
1079596226.4151 0.99619895 -0.077945635 0.0027872929 0.038890921 0.0028750952 0.039202645 0.99544078 -0.075928316
1089592452.8302 0.99622411 -0.078584433 0.0028416878 0.03925325 0.0028808275 0.039565504 0.99534428 -0.076652199
1099588679.2453 0.99631178 -0.079325438 0.0028582625 0.039617762 0.0029187351 0.039880514 0.99495775 -0.077298701
1109584905.6604 0.99637169 -0.080234677 0.0028773639 0.039993174 0.0029689725 0.040295184 0.99473697 -0.077937275
1119581132.0755 0.99631113 -0.081213355 0.0029128981 0.040364157 0.0029964475 0.040673271 0.99453008 -0.078388892
1129577358.4906 0.99618244 -0.082129806 0.0029866379 0.040749229 0.003033841 0.041088853 0.99443507 -0.078810185
1139573584.9057 0.99588555 -0.083083332 0.0030241422 0.041120291 0.0030810917 0.041420359 0.99446964 -0.079603076
1149569811.3208 0.99569619 -0.083967991 0.0031045156 0.041479483 0.0031709089 0.041778833 0.99463272 -0.080402493
1159566037.7358 0.99552071 -0.084601671 0.0031396877 0.04181052 0.0032298286 0.042098485 0.99473673 -0.081495523
1169562264.1509 0.9952749 -0.085308313 0.0031362977 0.042144723 0.0032405071 0.042477295 0.99451208 -0.082268745
1179558490.566 0.99526876 -0.086046949 0.0031765494 0.042571314 0.0032759225 0.042846534 0.99439955 -0.082965404
1189554716.9811 0.9952929 -0.0867562 0.003207366 0.042906154 0.0033533657 0.043233924 0.99410903 -0.083508223
1199550943.3962 0.99525273 -0.087631404 0.0032669324 0.043310925 0.003407266 0.043571446 0.9938432 -0.083954751
1209547169.8113 0.9950344 -0.088582501 0.0033170329 0.043657888 0.0034203893 0.043967143 0.9937861 -0.084274873
1219543396.2264 0.99475461 -0.089454055 0.0033982848 0.04407654 0.0034974343 0.044352453 0.99389285 -0.084702983
1229539622.6415 0.99452657 -0.090330422 0.0034945551 0.0444148 0.0035646986 0.044718359 0.99403965 -0.085486561
1239535849.0566 0.99421036 -0.091090351 0.0035212869 0.044765733 0.0037039313 0.045049556 0.99400604 -0.086436331
1249532075.4717 0.99388665 -0.091750145 0.0035703706 0.045098297 0.0037440362 0.045392998 0.99393326 -0.087371804
1259528301.8868 0.99374831 -0.092307657 0.0036413539 0.045451555 0.0037910882 0.045736216 0.99364769 -0.08826974
1269524528.3019 0.99360001 -0.093031257 0.0037599336 0.045793146 0.0038833972 0.046060856 0.99339265 -0.088982344
1279520754.717 0.99317569 -0.093845874 0.0038032979 0.046098482 0.0039583421 0.046366636 0.99313337 -0.089612119
1289516981.1321 0.99301445 -0.094654858 0.003851491 0.046422545 0.00395256 0.046671785 0.99311292 -0.089986563
1299513207.5472 0.99270058 -0.095577806 0.0038604289 0.046766795 0.0039878767 0.047060493 0.99324358 -0.090428561
1309509433.9623 0.9922452 -0.096264377 0.0038555227 0.047122624 0.0040152324 0.047389932 0.9933576 -0.091129288
1319505660.3774 0.99179608 -0.097004905 0.0038973512 0.047503158 0.0040088277 0.047717731 0.99339008 -0.091822505
1329501886.7925 0.99150079 -0.097716242 0.0039290972 0.047831196 0.0040637664 0.04805924 0.9933728 -0.092862338
1339498113.2075 0.99113029 -0.098283023 0.0039575221 0.048169497 0.0041201655 0.048425142 0.9928872 -0.09355557
1349494339.6226 0.990955 -0.098868869 0.0039220154 0.048558362 0.0040694559 0.04878984 0.992544 -0.094240718
1359490566.0377 0.99090672 -0.09959361 0.0039694831 0.048971169 0.004098013 0.049171537 0.99220908 -0.094845265
1369486792.4528 0.99067557 -0.10015506 0.0039732661 0.049346246 0.0041196402 0.049532399 0.99204463 -0.095337451
1379483018.8679 0.99041528 -0.10077398 0.0040419502 0.049738001 0.0041312482 0.049935188 0.99214065 -0.09563297
1389479245.283 0.99002934 -0.10128736 0.0040711723 0.050141271 0.0041814819 0.050375212 0.99204797 -0.096451819
1399475471.6981 0.98952413 -0.10164085 0.0040947869 0.050503489 0.00422756 0.050773602 0.99230278 -0.097113311
1409471698.1132 0.98929471 -0.10205709 0.0041712169 0.050906714 0.0042768163 0.051143751 0.99231678 -0.097981125
1419467924.5283 0.98904711 -0.10232037 0.0041801268 0.051316373 0.0042909123 0.051568892 0.99203646 -0.098652184
1429464150.9434 0.9888984 -0.10278833 0.0042747725 0.05176957 0.0043201484 0.051964715 0.99202472 -0.099249542
1439460377.3585 0.9891187 -0.10329945 0.0043418854 0.052261893 0.004399539 0.052444093 0.99169219 -0.099537611
1449456603.7736 0.98904848 -0.10384007 0.004456942 0.05263041 0.0045220936 0.052871078 0.99153244 -0.099954754
1459452830.1887 0.98916268 -0.10464156 0.0045945998 0.053118534 0.0045970734 0.053326294 0.99164093 -0.10028875
1469449056.6038 0.98899156 -0.10548574 0.0047834944 0.05348973 0.0047727861 0.053701371 0.99186969 -0.10104412
1479445283.0189 0.98891586 -0.10606433 0.0049082218 0.053799659 0.0049669072 0.054069024 0.99193496 -0.10206111
1489441509.434 0.98875523 -0.10656786 0.0050435252 0.054105677 0.0050771683 0.054385688 0.99181879 -0.10289091
1499437735.8491 0.98849136 -0.10692269 0.0051687006 0.054429457 0.0052034408 0.054672614 0.99170363 -0.103753
1509433962.2642 0.98856711 -0.10745881 0.0052868025 0.054722331 0.0052911718 0.054993786 0.99143374 -0.10447729
1519430188.6792 0.98863912 -0.10799649 0.0053639878 0.055026006 0.0053622369 0.055289909 0.99125326 -0.10510871
1529426415.0943 0.98859918 -0.10865569 0.0053969529 0.05535014 0.0054311082 0.055622034 0.99131238 -0.10553041
1539422641.5094 0.98867005 -0.10950546 0.0055190972 0.055694293 0.0054690372 0.055963807 0.99128675 -0.1060025
1549418867.9245 0.98849773 -0.1103972 0.0055626659 0.055979811 0.0055217259 0.056222815 0.99148113 -0.10678631
1559415094.3396 0.98836601 -0.11117333 0.0056248084 0.056322396 0.0056096148 0.056593582 0.99161756 -0.10751915
1569411320.7547 0.98821831 -0.11200768 0.0056712423 0.056593873 0.0056028226 0.056909434 0.99150401 -0.10830182
1579407547.1698 0.98806357 -0.11255107 0.0057077911 0.056916561 0.0056921449 0.057202116 0.99116588 -0.10925992
1589403773.5849 0.98804045 -0.1130603 0.0057220217 0.057192996 0.0057271495 0.05752226 0.99094379 -0.10994565
1599400000 0.98801607 -0.11351565 0.0057074539 0.057559859 0.0057217628 0.057834759 0.99046779 -0.11047891
1609396226.4151 0.98794723 -0.11423782 0.0057230797 0.057990327 0.0056991391 0.05826664 0.99042374 -0.11099944
1619392452.8302 0.98794401 -0.11488083 0.005749248 0.058279969 0.0057364516 0.058586515 0.99024224 -0.11149162
1629388679.2453 0.98767102 -0.11562842 0.0057930015 0.058684062 0.0057542436 0.059012644 0.99057341 -0.1120396
1639384905.6604 0.98743647 -0.1163138 0.0058053909 0.059053928 0.0057523926 0.059395108 0.99070883 -0.11295567
1649381132.0755 0.98724276 -0.11705574 0.0058483016 0.059450384 0.0058566332 0.059812281 0.99069673 -0.11393061
1659377358.4906 0.9869715 -0.11782011 0.0058768429 0.059867352 0.0058369152 0.060233206 0.99064916 -0.11479425
1669373584.9057 0.98695475 -0.1183058 0.0058920351 0.060249433 0.0059071314 0.060645238 0.99033219 -0.11545963
1679369811.3208 0.98700404 -0.11901829 0.0059739724 0.060699292 0.0059583392 0.061039049 0.99010396 -0.116162
1689366037.7358 0.98684335 -0.11972633 0.006054176 0.061124858 0.0060159098 0.06145101 0.98984337 -0.11640564
1699362264.1509 0.9870981 -0.12036945 0.0061001061 0.06146929 0.0060648564 0.061866194 0.99015146 -0.116816
1709358490.566 0.98700869 -0.12109786 0.0061747935 0.061884969 0.0061552748 0.06229379 0.99005944 -0.11747174
1719354716.9811 0.98661745 -0.12173983 0.0062773675 0.062314913 0.0062645022 0.062711455 0.99004382 -0.11824271
1729350943.3962 0.98630452 -0.1223225 0.0063867792 0.062684365 0.0063211042 0.063113697 0.99015069 -0.11911136
