!Keysight Technologies,N5222B,MY61253708,A.15.00.15
!Date: Wednesday, June 19, 2024 09:29:21
!Correction: S11(C  2-Port  ) 
!S21(C  2-Port  ) 
!S12(C  2-Port  ) 
!S22(C  2-Port  ) 
!S2P File: Measurements: S11, S21, S12, S22:
# Hz S  RI   R 50
10000000 0.9986769 -0.0024909079 4.9688475e-005 0.0005720497 4.1988562e-005 0.00031182956 0.99807757 -0.0011275411
19996226.415094 0.99900711 -0.002171874 4.1612366e-005 0.00068773353 0.00011312406 0.00075805071 0.99906397 -0.0023018122
29992452.830189 0.99977034 -0.0024131536 -4.4509565e-005 0.0009000561 3.8790138e-005 0.0010302038 0.99949068 -0.0027141273
39988679.245283 1.0000741 -0.0030262917 -3.2931828e-005 0.0013334271 4.1350286e-005 0.0013800593 0.99964881 -0.0031046867
49984905.660377 1.0001523 -0.0036926568 2.1049636e-006 0.0016603598 -2.7763657e-005 0.0016763799 0.99974573 -0.0036676824
59981132.075472 1.0003603 -0.0045750439 5.0550036e-005 0.0020154363 5.7559228e-006 0.0020209798 0.99973494 -0.0042585135
69977358.490566 1.0001241 -0.0051327869 5.9330861e-005 0.0023550433 -1.5309968e-005 0.0023566815 0.99962193 -0.0048749
79973584.90566 0.99988389 -0.0057516694 1.0885182e-005 0.0026577127 2.9803719e-005 0.0026813596 0.99931782 -0.0053165555
89969811.320755 0.99987268 -0.0059016943 1.9322149e-005 0.0030368068 3.4017139e-005 0.0030317937 0.99951881 -0.0056034923
99966037.735849 1.000091 -0.0066891462 1.6251463e-005 0.003337089 5.1395793e-005 0.0033749661 0.99959242 -0.0064477772
109962264.15094 1.0001291 -0.0075783581 4.0733838e-005 0.0036654167 4.8723014e-005 0.0037108599 0.99958444 -0.0072584897
119958490.56604 1.0001627 -0.0085173547 4.0303334e-005 0.0040109521 6.2697218e-005 0.0040476192 0.99965084 -0.00813362
129954716.98113 1.0000806 -0.0094849169 5.5644312e-005 0.004353221 4.9974769e-005 0.0043812729 0.99961615 -0.0090234876
139950943.39623 1.0000151 -0.01031396 4.1134073e-005 0.0046669585 5.0259041e-005 0.0047096405 0.99951595 -0.0097687747
149947169.81132 0.9998824 -0.010995805 5.4012984e-005 0.0050385762 5.3673051e-005 0.0050543873 0.99947613 -0.010385901
159943396.22642 0.99987209 -0.011538535 7.6539116e-005 0.0053688535 5.8033271e-005 0.0053966139 0.99956834 -0.010834217
169939622.64151 0.99986666 -0.011927463 8.3862629e-005 0.0057011289 6.5924716e-005 0.0057333787 0.99960274 -0.01127965
179935849.0566 0.99994177 -0.012192041 0.00010450708 0.0060006431 5.2439864e-005 0.0061024162 0.99955904 -0.011687249
189932075.4717 0.9999876 -0.012966782 0.00010442524 0.0063760811 0.00010395213 0.0063952943 0.99970639 -0.012258232
199928301.88679 0.99996072 -0.013790458 9.1100228e-005 0.0067298207 7.5369608e-005 0.0067358394 0.99959177 -0.01308623
209924528.30189 0.99977493 -0.01440537 0.00012634951 0.0070401635 0.00010259263 0.0071054292 0.99933451 -0.013852984
219920754.71698 0.99973154 -0.01524052 0.00010466832 0.0073631341 0.00010704296 0.0074196933 0.9992767 -0.01455754
229916981.13208 0.99955511 -0.016110867 0.00011835084 0.0077022277 0.00012605521 0.0077613117 0.99920082 -0.015369058
239913207.54717 0.99945664 -0.016789377 0.00015240118 0.008022665 0.00011805362 0.0080888066 0.9991436 -0.016033323
249909433.96226 0.99947625 -0.017447144 0.00012784265 0.0083512757 0.0001597018 0.0084216204 0.99923909 -0.016690373
259905660.37736 0.99952972 -0.017942935 0.00014216173 0.0086978432 0.00014135055 0.0087489616 0.99939871 -0.017226249
269901886.79245 0.99982607 -0.018647745 0.00021506834 0.0090649547 0.00012007833 0.0091112712 0.99977291 -0.01795584
279898113.20755 0.99962598 -0.019381925 0.00023078057 0.0093840025 0.00015564286 0.0094777234 0.9996351 -0.018702164
289894339.62264 0.99976075 -0.020127177 0.00017587095 0.0097513348 0.00022503128 0.0097894752 0.99955916 -0.019478768
299890566.03774 0.99966431 -0.020716429 0.00020854012 0.010010955 0.00018036924 0.010152815 0.9993329 -0.01995647
309886792.45283 0.99942982 -0.021167547 0.00024117972 0.010336838 0.0001870048 0.010471104 0.99912536 -0.020340443
319883018.86792 0.99952209 -0.021800876 0.00025964761 0.010735162 0.00026983535 0.010805523 0.99923337 -0.020893455
329879245.28302 0.99948812 -0.022688061 0.00029182807 0.011028188 0.00022064243 0.011156023 0.9993329 -0.021631539
339875471.69811 0.99942797 -0.023288846 0.00029997341 0.011371865 0.00028250436 0.011462171 0.99931926 -0.022426926
349871698.11321 0.99949813 -0.024149835 0.00026916876 0.011717808 0.00029058917 0.011820889 0.99933004 -0.023377329
359867924.5283 0.99931705 -0.02497223 0.00029069977 0.012038262 0.00026076054 0.012136502 0.99930215 -0.024263144
369864150.9434 0.99956745 -0.025750041 0.00029446743 0.012346537 0.0003348852 0.01243242 0.99933904 -0.024956077
379860377.35849 0.99946868 -0.026352614 0.0003439826 0.012705557 0.00032819528 0.01280461 0.99920452 -0.025612906
389856603.77358 0.99938583 -0.026990563 0.00039704051 0.013031496 0.00036873389 0.013135545 0.99914891 -0.026099384
399852830.18868 0.9992038 -0.02769205 0.00038636988 0.013354694 0.00037358748 0.013474586 0.99924815 -0.02652356
409849056.60377 0.99910736 -0.028115872 0.00038636403 0.013695827 0.00037387203 0.013771373 0.99928403 -0.026955783
419845283.01887 0.99910074 -0.028477997 0.00041649165 0.014057191 0.00041850004 0.014146416 0.99925977 -0.027572334
429841509.43396 0.99921107 -0.029212743 0.00043960707 0.014354483 0.00042810384 0.014493698 0.99950457 -0.028327554
439837735.84906 0.99912691 -0.029992461 0.00042672816 0.014671537 0.00046083087 0.01480481 0.99926519 -0.029327273
449833962.26415 0.99893999 -0.030904412 0.00043415744 0.015008523 0.00049518887 0.01515119 0.99896222 -0.030181527
459830188.67925 0.99885046 -0.03164649 0.00046649761 0.015337661 0.0004872703 0.015497999 0.99876815 -0.030905366
469826415.09434 0.99885768 -0.032402337 0.00047810143 0.015680157 0.00050856778 0.015812743 0.99850148 -0.031484485
479822641.50943 0.99873257 -0.0330377 0.00050063874 0.016041491 0.00052153552 0.016199466 0.99853736 -0.032028593
489818867.92453 0.99886006 -0.033441871 0.00054723443 0.016353659 0.00055802101 0.016502267 0.99879229 -0.032535225
499815094.33962 0.99886906 -0.034105599 0.00060198177 0.016690267 0.00057788705 0.016817695 0.99914896 -0.033178538
509811320.75472 0.99894279 -0.034487247 0.00056419789 0.017066382 0.00053643947 0.017144037 0.99922532 -0.033984564
519807547.16981 0.99895531 -0.035030812 0.00064932043 0.017360171 0.00055755395 0.017479373 0.99920493 -0.034749568
529803773.58491 0.99886012 -0.035661846 0.00055798795 0.017650671 0.00064072013 0.017809194 0.99900794 -0.035387844
539800000 0.99895561 -0.036406904 0.00061677466 0.017983593 0.00068071601 0.018218996 0.99876636 -0.035949126
549796226.41509 0.99868381 -0.037136972 0.0006472813 0.018364878 0.00065264106 0.018516595 0.9985863 -0.036513686
559792452.83019 0.99859202 -0.038012862 0.00069744512 0.018681407 0.00065267365 0.018870369 0.99853015 -0.037020743
569788679.24528 0.99845463 -0.038616061 0.00070422888 0.01900143 0.00071210507 0.019206299 0.9986878 -0.037804931
579784905.66038 0.99839365 -0.039207123 0.00075419981 0.019352697 0.00069633988 0.019540295 0.99882948 -0.038550384
589781132.07547 0.99850988 -0.039854616 0.00082539674 0.019675909 0.00074362382 0.01984583 0.99887657 -0.039425403
599777358.49057 0.99872833 -0.040505767 0.00081099849 0.020037794 0.00082271732 0.020210281 0.99885428 -0.04023236
609773584.90566 0.99877763 -0.041186631 0.000833511 0.020394355 0.00086487946 0.020493841 0.99871016 -0.041112863
619769811.32075 0.99887419 -0.041997641 0.00083344663 0.020674087 0.0009013419 0.020862604 0.99865949 -0.041633308
629766037.73585 0.99872673 -0.042572021 0.00092043728 0.020986756 0.00092662312 0.021180555 0.99847227 -0.042170465
639762264.15094 0.99851704 -0.043211088 0.00094687496 0.021325745 0.00091201719 0.021526443 0.99830711 -0.042582721
649758490.56604 0.99843031 -0.043747395 0.0009321454 0.021630354 0.00091971084 0.021867787 0.99838817 -0.043059096
659754716.98113 0.99825096 -0.044376582 0.00095936097 0.021972287 0.00094583631 0.022176921 0.99836546 -0.043647677
669750943.39623 0.99832827 -0.044816226 0.00093635265 0.022345321 0.00093385298 0.022542223 0.99847096 -0.044423103
679747169.81132 0.99834377 -0.045611262 0.0010394662 0.022679305 0.0010307615 0.022843186 0.99842101 -0.045390584
689743396.22642 0.99843585 -0.046450555 0.0010705721 0.023015274 0.0010851659 0.023228979 0.99828243 -0.046351761
699739622.64151 0.99851996 -0.047201842 0.0010954747 0.023362625 0.0011082571 0.023507517 0.99822056 -0.046967268
709735849.0566 0.99858165 -0.048041582 0.0011472789 0.023681657 0.0011606371 0.02387136 0.99796522 -0.047657609
719732075.4717 0.99844629 -0.048803657 0.001160142 0.023966536 0.0011841701 0.024164833 0.9980135 -0.048265159
729728301.88679 0.99831343 -0.049366266 0.0012044804 0.024289446 0.0012277495 0.024545334 0.99809313 -0.048667639
739724528.30189 0.99821424 -0.050012842 0.0012441268 0.024613608 0.0012269714 0.024842197 0.99833119 -0.049338385
749720754.71698 0.99808735 -0.050508678 0.0012501418 0.024936745 0.0012965151 0.025171125 0.99826741 -0.05001995
759716981.13208 0.99812865 -0.051016361 0.0012767585 0.025280913 0.0013064798 0.025512625 0.99827969 -0.050805271
769713207.54717 0.9980638 -0.051739424 0.001324608 0.025599966 0.0013532424 0.025805671 0.99798352 -0.051499426
779709433.96226 0.99809414 -0.052438024 0.0013486285 0.025958033 0.0013504289 0.026197603 0.99773365 -0.052155104
789705660.37736 0.99801183 -0.053329289 0.0013994118 0.026270628 0.0014112238 0.026492918 0.99756014 -0.052926093
799701886.79245 0.99808049 -0.054131001 0.0014323816 0.026580993 0.0014229948 0.026832994 0.99743223 -0.053451061
809698113.20755 0.99796045 -0.054729626 0.0014291313 0.026899554 0.0014368617 0.027146891 0.99748951 -0.053936154
819694339.62264 0.99780959 -0.055361837 0.0014894283 0.027229164 0.0014670747 0.027471187 0.99761593 -0.054564118
829690566.03774 0.99786657 -0.056011826 0.0014873594 0.027510643 0.0015232833 0.027789153 0.99780357 -0.055431783
839686792.45283 0.9978379 -0.056450456 0.0015204195 0.027856663 0.0015745512 0.028098645 0.99784946 -0.056285828
849683018.86792 0.99799359 -0.05706919 0.0015838209 0.028198229 0.0015966594 0.02847076 0.9978072 -0.0570191
859679245.28302 0.99796313 -0.0578188 0.0016127434 0.028538179 0.0016125198 0.028811291 0.99744546 -0.057696611
869675471.69811 0.99779463 -0.058591783 0.0016408302 0.028874012 0.0016569234 0.029098222 0.99709058 -0.058165759
879671698.11321 0.99786705 -0.059102744 0.001680592 0.029158469 0.0017236252 0.029428894 0.99714249 -0.058685336
889667924.5283 0.99758852 -0.060065746 0.0016920697 0.029453013 0.0017368691 0.029737575 0.99702376 -0.059128046
899664150.9434 0.99742013 -0.060820073 0.0017390884 0.029830294 0.001767721 0.03010801 0.99706864 -0.059747577
909660377.35849 0.9974038 -0.061416179 0.001777512 0.030102918 0.0017794385 0.030385751 0.99718821 -0.060651287
919656603.77358 0.99747962 -0.06207566 0.0017526993 0.030450476 0.0018120026 0.030749852 0.99721432 -0.061545745
929652830.18868 0.99752915 -0.062823355 0.0018275976 0.03078657 0.0018423386 0.031056486 0.99703789 -0.06245926
939649056.60377 0.99761134 -0.063435435 0.0018171612 0.031086333 0.0018402347 0.031383097 0.99689001 -0.063162088
949645283.01887 0.99763674 -0.064339943 0.0018244084 0.031433124 0.0018630399 0.031697068 0.99665129 -0.063734882
959641509.43396 0.99760991 -0.064958513 0.0018603746 0.03179346 0.0018827096 0.032070622 0.99658203 -0.06429261
969637735.84906 0.99742544 -0.065713197 0.0018943399 0.032145869 0.0019546924 0.032424722 0.99656653 -0.064523578
979633962.26415 0.99731135 -0.066475421 0.001982786 0.032449886 0.0020021326 0.032745291 0.99662864 -0.065245248
989630188.67925 0.99741739 -0.066889793 0.0020350311 0.032755245 0.0020137997 0.033063151 0.99679708 -0.065795928
999626415.09434 0.99734807 -0.067541838 0.0020502741 0.033088215 0.002082102 0.033407934 0.99674368 -0.066665024
1009622641.5094 0.99740249 -0.068213478 0.0020824717 0.033409189 0.0021167304 0.033750832 0.99659032 -0.067556724
1019618867.9245 0.99754983 -0.069026589 0.0021195845 0.03374188 0.002178099 0.034078266 0.99633688 -0.068437919
1029615094.3396 0.99751538 -0.069975466 0.0021817116 0.03406471 0.0022414513 0.034366842 0.99595803 -0.068955898
1039611320.7547 0.99754173 -0.070816666 0.002232926 0.034376837 0.0022374289 0.034690395 0.99589103 -0.069594324
1049607547.1698 0.99738884 -0.071784906 0.0022326317 0.034698684 0.0022789976 0.034976259 0.9958536 -0.070243642
1059603773.5849 0.99721336 -0.072442323 0.00229936 0.034976963 0.0023175208 0.035322066 0.99588186 -0.070796043
1069600000 0.99705315 -0.073076546 0.0022763461 0.035278801 0.0023140237 0.035619166 0.99604046 -0.071480006
1079596226.4151 0.9969579 -0.073698588 0.0022829785 0.03561493 0.0023420849 0.035989437 0.99607289 -0.072297752
1089592452.8302 0.99699259 -0.074353307 0.0023477189 0.035955675 0.0023870934 0.036315858 0.99598444 -0.07297945
1099588679.2453 0.99703491 -0.075078607 0.0023401417 0.036272511 0.0024184976 0.036620542 0.99566114 -0.073635519
1109584905.6604 0.99715298 -0.075859755 0.0023613321 0.036630187 0.0024429811 0.037003905 0.99544489 -0.07419467
1119581132.0755 0.99717641 -0.076939836 0.0023992229 0.036948923 0.0024549146 0.037335381 0.99519342 -0.074651867
1129577358.4906 0.99690068 -0.077601522 0.0023903083 0.037343398 0.002503965 0.037685469 0.99513161 -0.075038522
1139573584.9057 0.99670589 -0.078532964 0.0024567302 0.037666921 0.0025295401 0.037999604 0.99512607 -0.075728834
1149569811.3208 0.99659657 -0.079345651 0.0025136047 0.037977908 0.0026282798 0.03836298 0.99531227 -0.076517031
1159566037.7358 0.99637055 -0.080019772 0.0025375681 0.038287632 0.0026402418 0.038677551 0.99536932 -0.077527672
1169562264.1509 0.99618971 -0.080650389 0.0025661401 0.038612355 0.0026669186 0.039014205 0.99524581 -0.078340441
1179558490.566 0.9961893 -0.081480563 0.002574038 0.038992558 0.0026909444 0.039366711 0.99507213 -0.07905823
1189554716.9811 0.9961952 -0.082172036 0.0026026005 0.039347414 0.0027296366 0.03969999 0.99488109 -0.079583973
1199550943.3962 0.99610877 -0.08297655 0.0026460961 0.039680906 0.0027871132 0.040021501 0.99468231 -0.079971611
1209547169.8113 0.99597055 -0.083904356 0.002696244 0.040039644 0.0028144903 0.040368434 0.99457186 -0.080303133
1219543396.2264 0.9957124 -0.084715039 0.0027339864 0.040391207 0.0028707059 0.040760126 0.99463952 -0.080685213
1229539622.6415 0.99542248 -0.085540682 0.0028162804 0.040738665 0.0029747505 0.041061714 0.99475127 -0.081386805
1239535849.0566 0.99518347 -0.086218983 0.0028960919 0.041038267 0.003060326 0.04139623 0.99490863 -0.082377225
1249532075.4717 0.99496233 -0.086903736 0.0029557035 0.041353215 0.0030784465 0.041680671 0.99470836 -0.083158158
1259528301.8868 0.99469042 -0.087435871 0.0029740594 0.041651811 0.003122583 0.042021506 0.99445868 -0.084076643
1269524528.3019 0.99454504 -0.088096529 0.0030819569 0.04201556 0.0032207314 0.042349972 0.99427587 -0.084747702
1279520754.717 0.99415672 -0.088844232 0.0031068732 0.042274088 0.0032591007 0.042599961 0.99393767 -0.085320629
1289516981.1321 0.99412942 -0.089675397 0.0031082435 0.042538118 0.0032635732 0.042896044 0.99403775 -0.085756749
1299513207.5472 0.9937135 -0.090533555 0.0031605456 0.04287779 0.0032701585 0.043255731 0.99414253 -0.086135209
1309509433.9623 0.9932723 -0.091220126 0.0031489702 0.043193124 0.0032939753 0.043521471 0.99417675 -0.086855993
1319505660.3774 0.99279624 -0.091969475 0.0031497097 0.043538328 0.0033294996 0.043845005 0.9942621 -0.087504804
1329501886.7925 0.99261844 -0.092577487 0.0031668674 0.04384746 0.0033368431 0.04419779 0.9943279 -0.088441461
1339498113.2075 0.99229598 -0.0931319 0.0032081539 0.044196196 0.0033582412 0.044488899 0.99388856 -0.089160681
1349494339.6226 0.99210763 -0.093648657 0.0031951996 0.044530861 0.0033271066 0.044822749 0.99348986 -0.089752465
1359490566.0377 0.99197447 -0.094331563 0.0032121949 0.044889361 0.0033435617 0.04523655 0.9933027 -0.090320826
1369486792.4528 0.99176937 -0.094831973 0.003181967 0.045250822 0.0033611441 0.045557484 0.99307966 -0.090781122
1379483018.8679 0.99149948 -0.095419809 0.0032405043 0.045638029 0.003363935 0.045859031 0.99308956 -0.091140091
1389479245.283 0.99116057 -0.095866859 0.0032787435 0.045986176 0.0034235511 0.046295188 0.99310404 -0.091822356
1399475471.6981 0.99081516 -0.096322149 0.003284527 0.04636275 0.0034099724 0.046619937 0.99324703 -0.09249419
1409471698.1132 0.99043244 -0.096656457 0.0033625218 0.046739522 0.0034828149 0.047036409 0.99329019 -0.093335733
1419467924.5283 0.99028748 -0.096939325 0.0033686189 0.047100592 0.0034663593 0.047422752 0.99309015 -0.094005078
1429464150.9434 0.99018204 -0.097323716 0.0033868551 0.047509637 0.0034781694 0.047807515 0.99301827 -0.094548106
1439460377.3585 0.99031025 -0.097762346 0.003497472 0.04796521 0.0035564778 0.04824106 0.99272037 -0.094914243
1449456603.7736 0.9903304 -0.09826529 0.003576736 0.048382334 0.0036861757 0.048606884 0.99257761 -0.095346957
1459452830.1887 0.99028873 -0.099147409 0.0037291124 0.048745953 0.0038503427 0.049058445 0.99265581 -0.095621228
1469449056.6038 0.99034607 -0.099850237 0.0038928324 0.049083654 0.0039666798 0.049374159 0.99296778 -0.096314132
1479445283.0189 0.99019319 -0.10044621 0.0040532993 0.049384966 0.0040895082 0.049684491 0.99306059 -0.097194821
1489441509.434 0.99014789 -0.10087213 0.0041862205 0.049701981 0.004202798 0.049992651 0.99289089 -0.098063737
1499437735.8491 0.99000686 -0.10117024 0.0042605679 0.049976055 0.0042889807 0.050270077 0.99284571 -0.098888248
1509433962.2642 0.98993033 -0.1016597 0.0043391036 0.050225485 0.00435891 0.050584983 0.9926371 -0.099593043
1519430188.6792 0.99013013 -0.10219181 0.0044126995 0.050540701 0.0044497754 0.050823994 0.99247992 -0.10013402
1529426415.0943 0.99002236 -0.10291046 0.0044870917 0.050823804 0.0045188945 0.051134966 0.99239516 -0.10052267
1539422641.5094 0.99012005 -0.10375885 0.0045416607 0.051140428 0.0045662946 0.051457871 0.99246264 -0.10099522
1549418867.9245 0.98997498 -0.10446262 0.0046012104 0.051394597 0.00459994 0.051731706 0.99271095 -0.10176
1559415094.3396 0.98977184 -0.10524434 0.0046628192 0.051685948 0.0046375971 0.052024543 0.99273181 -0.10243568
1569411320.7547 0.98968917 -0.10592307 0.0047011804 0.05200376 0.0047051562 0.052268602 0.99271882 -0.10323635
1579407547.1698 0.9895342 -0.10645105 0.0046821726 0.052269198 0.004698738 0.052620005 0.99238914 -0.10409488
1589403773.5849 0.98951381 -0.10702449 0.004693158 0.052531525 0.0047160704 0.052911106 0.99205834 -0.10479277
1599400000 0.98942381 -0.10748196 0.0047006952 0.052805658 0.0047032703 0.053222377 0.99179304 -0.10522285
1609396226.4151 0.98951477 -0.10816391 0.0047289096 0.053176142 0.0046909661 0.053556573 0.99158537 -0.10577922
1619392452.8302 0.98938704 -0.10876602 0.004742777 0.053498082 0.0047201924 0.053851336 0.99146414 -0.10626847
1629388679.2453 0.98924053 -0.10945398 0.0047422182 0.053853016 0.0047352519 0.054221593 0.99176741 -0.10678053
1639384905.6604 0.98899543 -0.11010869 0.0047630509 0.054218117 0.0047351583 0.05461948 0.99198961 -0.10759327
1649381132.0755 0.98871243 -0.11070788 0.0047187191 0.054525591 0.0047443137 0.054988772 0.99204755 -0.1085259
1659377358.4906 0.98864126 -0.11154124 0.0047474597 0.054959692 0.0047384556 0.055384487 0.99195933 -0.10937369
1669373584.9057 0.98860317 -0.11201275 0.0047940104 0.055324163 0.0047842907 0.055759668 0.99169195 -0.11005168
1679369811.3208 0.98860955 -0.11266553 0.0048691155 0.055713437 0.0048559327 0.056142744 0.9914906 -0.11056539
1689366037.7358 0.98859692 -0.11333042 0.0048977025 0.056060854 0.0048816036 0.056508947 0.99122649 -0.11084914
1699362264.1509 0.98877305 -0.11388546 0.0049584601 0.056420207 0.0049785962 0.056947969 0.99145269 -0.11123101
1709358490.566 0.98859531 -0.11459684 0.0049878024 0.056802843 0.004992513 0.057299852 0.99145746 -0.11184603
1719354716.9811 0.98831737 -0.11525333 0.0050889645 0.057155129 0.0050928481 0.057630241 0.99152398 -0.11258349
1729350943.3962 0.98807204 -0.11581782 0.0051128324 0.057617441 0.0051615275 0.05807662 0.99161184 -0.11352271
