!Keysight Technologies,N5222B,MY61253708,A.15.00.15
!Date: Wednesday, June 19, 2024 09:28:44
!Correction: S11(C  2-Port  ) 
!S21(C  2-Port  ) 
!S12(C  2-Port  ) 
!S22(C  2-Port  ) 
!S2P File: Measurements: S11, S21, S12, S22:
# Hz S  RI   R 50
10000000 0.99873817 -0.0024669766 -6.0956379e-005 0.00032803358 -4.3169595e-005 0.00053438923 0.99864501 -0.00094774365
19996226.415094 0.99895006 -0.0023578107 -6.0336752e-005 0.00064166449 -9.3880924e-005 0.00065365626 0.99911392 -0.0024291277
29992452.830189 0.99978256 -0.0024894476 5.7750498e-005 0.0010429496 -1.6391801e-005 0.00094636733 0.99938107 -0.0027005672
39988679.245283 0.9999699 -0.0030293316 -6.1730098e-006 0.0013000482 -1.0470394e-006 0.0013272187 0.99964172 -0.0030606687
49984905.660377 1.0001184 -0.0036936402 -1.0479242e-005 0.0016866875 1.3053301e-005 0.0017156379 0.99973446 -0.0036910176
59981132.075472 1.0002649 -0.0046147108 8.0332393e-007 0.0019775156 2.3062341e-005 0.0020520401 0.99976778 -0.0042253733
69977358.490566 1.0000635 -0.0052320901 -1.5571932e-006 0.0023345146 -3.0073716e-006 0.0023879809 0.99963331 -0.0047678761
79973584.90566 0.99987316 -0.0057981908 8.4894709e-006 0.0026584964 3.7312275e-005 0.0026552512 0.99933064 -0.0052770078
89969811.320755 0.99988818 -0.0059587657 2.3469795e-005 0.0030418849 -3.1815143e-005 0.0030138064 0.999497 -0.0055524111
99966037.735849 1.0000618 -0.0067289472 4.5848952e-005 0.0033188958 -7.4485433e-006 0.0033495144 0.99956417 -0.0063188076
109962264.15094 1.0000646 -0.0076129884 3.358518e-005 0.0036707239 3.6553247e-005 0.0037085887 0.99959463 -0.007173121
119958490.56604 1.0001296 -0.0085506439 4.8017944e-005 0.0040100869 2.9922812e-005 0.0040355814 0.99959016 -0.0080453455
129954716.98113 1.0000471 -0.0095325112 4.4109998e-005 0.0043548206 4.6516419e-005 0.0044000242 0.99960655 -0.0089433789
139950943.39623 0.99997866 -0.010362422 3.0833791e-005 0.0046741343 3.4282319e-005 0.0047325813 0.99953657 -0.0097066313
149947169.81132 0.99985403 -0.010997593 4.1653868e-005 0.0050322455 6.7622401e-005 0.0050447136 0.99945974 -0.010260284
159943396.22642 0.99980795 -0.011535972 7.7354023e-005 0.0053570643 5.3582015e-005 0.0053990465 0.99956405 -0.010736495
169939622.64151 0.99984813 -0.011939257 5.4365431e-005 0.0056947544 6.7186891e-005 0.0057175644 0.99963474 -0.011165433
179935849.0566 0.99989814 -0.012279034 0.00010090997 0.006025447 7.8807701e-005 0.0060705096 0.99958849 -0.011565149
189932075.4717 0.99995089 -0.013007671 8.9650741e-005 0.0063772188 0.00012034224 0.0064189439 0.99976957 -0.012149334
199928301.88679 0.99988568 -0.01387161 0.00010204501 0.006677818 0.00010918046 0.0067530596 0.99968463 -0.01304996
209924528.30189 0.99967092 -0.014419019 9.5865573e-005 0.0070278393 0.00010550627 0.0070949146 0.99941897 -0.013775066
219920754.71698 0.999668 -0.015285224 0.00013352768 0.0073688524 8.824328e-005 0.0074016722 0.99925917 -0.014425546
229916981.13208 0.999475 -0.016180933 0.0001456684 0.0076904278 0.00012880284 0.0077478322 0.99922061 -0.01518178
239913207.54717 0.99935597 -0.016824713 0.00013237639 0.0079947514 0.00012987341 0.0080868741 0.99920374 -0.015894203
249909433.96226 0.99943042 -0.01748237 0.00014778762 0.0083696721 0.00014608144 0.0084239477 0.99929976 -0.016539961
259905660.37736 0.99956596 -0.018049091 0.00016319379 0.0086524207 0.00018573413 0.0087926174 0.99944878 -0.017067254
269901886.79245 0.99974835 -0.018859982 0.00017291051 0.0089978259 0.00019605923 0.0090762898 0.99976432 -0.017740592
279898113.20755 0.9998458 -0.019383341 0.00023240689 0.0094260713 0.00015530153 0.0094181243 0.99959552 -0.018562973
289894339.62264 0.99960482 -0.020166308 0.00014278479 0.009692993 0.00021767942 0.0097933291 0.99957806 -0.019300967
299890566.03774 0.99960607 -0.020748645 0.00024441117 0.0099891769 0.00021970109 0.010107019 0.99930501 -0.019737601
309886792.45283 0.9993661 -0.021230668 0.00023741199 0.010377083 0.00020676805 0.010475081 0.99923342 -0.020180978
319883018.86792 0.99940693 -0.021929801 0.00024796557 0.010674925 0.00024786452 0.010794485 0.99937809 -0.02063182
329879245.28302 0.99936128 -0.022603899 0.00027724355 0.010974012 0.00028165383 0.011116495 0.99941164 -0.021425456
339875471.69811 0.99933708 -0.02345559 0.00024577684 0.01137229 0.00022700545 0.011446604 0.99934077 -0.02230344
349871698.11321 0.99947751 -0.024190813 0.00025671162 0.011643223 0.00025922875 0.011803372 0.99944097 -0.023260981
359867924.5283 0.99925268 -0.024856389 0.00027900515 0.011997813 0.00027375435 0.012143511 0.99938643 -0.024111241
369864150.9434 0.99946201 -0.025794357 0.00031381845 0.012306272 0.00031949976 0.012476757 0.99934644 -0.024797171
379860377.35849 0.99943703 -0.026433408 0.00031938567 0.012711756 0.00037540984 0.012809678 0.99930459 -0.025553837
389856603.77358 0.9993521 -0.027031898 0.00033891853 0.0130015 0.00039893482 0.013142513 0.99921525 -0.025977582
399852830.18868 0.99909425 -0.027657032 0.00035827747 0.013315918 0.00036539696 0.013451105 0.99929869 -0.026389599
409849056.60377 0.99919224 -0.028055362 0.00039868712 0.013652343 0.00037355625 0.013802828 0.99920541 -0.026915723
419845283.01887 0.99913788 -0.028566867 0.00039605983 0.014039725 0.00040667644 0.014173495 0.99923825 -0.027405709
429841509.43396 0.99922514 -0.029176682 0.00042113848 0.014351453 0.00044546416 0.01446292 0.99939507 -0.028220683
439837735.84906 0.9990418 -0.03007938 0.00044101221 0.014653774 0.00045188621 0.014789161 0.99912333 -0.029125631
449833962.26415 0.99907422 -0.030825227 0.00046247384 0.014995429 0.00049126102 0.015097429 0.99875283 -0.029997468
459830188.67925 0.99885809 -0.03170523 0.00043099932 0.015289291 0.00046569342 0.015456794 0.99860811 -0.030732632
469826415.09434 0.99883056 -0.032462716 0.00045658741 0.015667612 0.00046741124 0.015819635 0.99836397 -0.031282246
479822641.50943 0.99875736 -0.033054598 0.00053471141 0.015985196 0.00049813022 0.016151955 0.99838805 -0.031740718
489818867.92453 0.9989022 -0.033534557 0.00056957593 0.016334437 0.00056615612 0.016484262 0.99870843 -0.032229185
499815094.33962 0.99891186 -0.034301877 0.00058601983 0.01667612 0.00056874054 0.016810693 0.99905109 -0.032757998
509811320.75472 0.99901336 -0.034666613 0.00060806813 0.017019248 0.00057033228 0.017158123 0.99915457 -0.033617929
519807547.16981 0.99897003 -0.035173565 0.00060789799 0.017341921 0.0005895528 0.017454838 0.99912238 -0.034422249
529803773.58491 0.99891812 -0.035755396 0.00060599577 0.017635928 0.00062585343 0.017798826 0.9987756 -0.034980565
539800000 0.9988603 -0.036480978 0.00063137407 0.018026479 0.00062258309 0.018167838 0.9986732 -0.03562735
549796226.41509 0.99879932 -0.037524611 0.00061393017 0.018362984 0.00067921868 0.018481338 0.99851406 -0.036132604
559792452.83019 0.99859244 -0.038128465 0.00066897459 0.018682275 0.00067063328 0.018777791 0.9984166 -0.036590099
569788679.24528 0.99850148 -0.038780183 0.00066631101 0.019045036 0.0006846441 0.019155677 0.99862039 -0.037359327
579784905.66038 0.99838406 -0.039371461 0.00074688543 0.019388743 0.0007173128 0.019514926 0.99876112 -0.038094446
589781132.07547 0.99855864 -0.040024757 0.00078778248 0.019693801 0.00077239797 0.019867575 0.99893266 -0.038948476
599777358.49057 0.99863708 -0.040665239 0.00079919584 0.020026095 0.00079320557 0.020189498 0.99891466 -0.039797932
609773584.90566 0.99876267 -0.041357782 0.00082269998 0.020366272 0.00082955998 0.02051636 0.99868745 -0.040626816
619769811.32075 0.99889916 -0.042144269 0.00085926894 0.020646291 0.00089557189 0.020811692 0.99870002 -0.041205317
629766037.73585 0.99868357 -0.042785108 0.00088969618 0.020954862 0.00090756174 0.021165026 0.99847966 -0.041667312
639762264.15094 0.99851203 -0.043364614 0.00087693287 0.021313354 0.00091021345 0.021482468 0.9983837 -0.042162284
649758490.56604 0.99839538 -0.043941349 0.00093243457 0.021640657 0.00093735382 0.021807775 0.99846303 -0.042626858
659754716.98113 0.99825978 -0.044487119 0.00096742436 0.021966241 0.00095221028 0.02218456 0.99853259 -0.043163329
669750943.39623 0.99827182 -0.045005679 0.00096316217 0.022287806 0.00096847164 0.022563746 0.99856251 -0.043980181
679747169.81132 0.9982813 -0.045824461 0.0010370762 0.022661358 0.0010173896 0.0228261 0.99858385 -0.044964753
689743396.22642 0.99838722 -0.046624184 0.0010445472 0.022955135 0.0010611871 0.02318256 0.99833071 -0.045833975
699739622.64151 0.9984374 -0.047346354 0.0010886751 0.023317894 0.0011032568 0.023524988 0.9982847 -0.046550155
709735849.0566 0.99848109 -0.04831633 0.001143558 0.023640191 0.0011339628 0.02384402 0.99805588 -0.047185294
719732075.4717 0.99837291 -0.048944801 0.0011556544 0.023976557 0.0011748541 0.024139609 0.99811673 -0.047806203
729728301.88679 0.99828732 -0.049506962 0.0011908934 0.024285302 0.0012168214 0.024516281 0.99815071 -0.048306108
739724528.30189 0.99820065 -0.050166279 0.001232388 0.024608927 0.0012403028 0.024824558 0.99831587 -0.048899248
749720754.71698 0.99809271 -0.050686255 0.0012682178 0.024927376 0.0012702146 0.025148517 0.99834967 -0.049602374
759716981.13208 0.99820983 -0.051182032 0.0013056314 0.02523119 0.0012594517 0.025458567 0.99827421 -0.050383836
769713207.54717 0.99805534 -0.051907271 0.0013122978 0.025570476 0.0013440419 0.025798945 0.99806505 -0.051082313
779709433.96226 0.9981603 -0.052485589 0.0013483969 0.025916316 0.0013413456 0.026130216 0.99779928 -0.051779073
789705660.37736 0.99813259 -0.053367406 0.0013983576 0.026227912 0.0014009345 0.026432242 0.99755704 -0.05244121
799701886.79245 0.99808586 -0.054208577 0.0014458029 0.026536034 0.0014217393 0.026777837 0.9973985 -0.053027958
809698113.20755 0.99798304 -0.054839671 0.0014441109 0.02685987 0.0014438566 0.027085837 0.99749851 -0.05348517
819694339.62264 0.99783206 -0.055523366 0.0014650249 0.027194789 0.0014598779 0.027420746 0.99751842 -0.054145217
829690566.03774 0.99780995 -0.056087613 0.0015051132 0.027508182 0.0015141573 0.027754355 0.99783921 -0.054992557
839686792.45283 0.99787551 -0.056549102 0.0015189862 0.027834581 0.0015755724 0.02809504 0.99784994 -0.055814505
849683018.86792 0.99794251 -0.057275668 0.0015626606 0.0282028 0.0015885169 0.028430987 0.99777436 -0.056533732
859679245.28302 0.99796945 -0.057958663 0.0015783701 0.028494377 0.001575226 0.028741758 0.99741828 -0.057180852
869675471.69811 0.99791175 -0.058680624 0.0016504088 0.028847322 0.0016780002 0.029080983 0.99712145 -0.057665408
879671698.11321 0.99783045 -0.059362333 0.0017008767 0.029129516 0.0017013277 0.029381424 0.99711889 -0.058185548
889667924.5283 0.99763185 -0.060179949 0.0017165998 0.02943529 0.0017421972 0.029724017 0.99695009 -0.058644831
899664150.9434 0.99741429 -0.06088838 0.001736166 0.029747115 0.0017350465 0.03004114 0.99703234 -0.059275419
909660377.35849 0.99753416 -0.061567694 0.0017661294 0.030072015 0.0017445353 0.030350653 0.99717253 -0.060196966
919656603.77358 0.99760884 -0.062222138 0.0017695171 0.03042637 0.0017939252 0.030696781 0.99720788 -0.060998723
929652830.18868 0.99753964 -0.063034505 0.0018269634 0.030704804 0.0018256493 0.030985471 0.9969694 -0.061918527
939649056.60377 0.9977001 -0.063640028 0.0018185014 0.031050943 0.0018498739 0.031306829 0.99686635 -0.062644631
949645283.01887 0.99763381 -0.064478874 0.0018074041 0.031404655 0.0018601466 0.031655941 0.99664444 -0.063184261
959641509.43396 0.99758589 -0.065136611 0.0018432373 0.031762075 0.0018954286 0.032011099 0.9965837 -0.063617826
969637735.84906 0.99747276 -0.065864533 0.0019114977 0.032119863 0.0019391291 0.032386303 0.99658322 -0.064008236
979633962.26415 0.99727386 -0.066583782 0.0019760972 0.032379352 0.0019590906 0.032719955 0.99662673 -0.064645454
989630188.67925 0.99738216 -0.067175776 0.0020022839 0.032729216 0.0020404346 0.033061095 0.99681586 -0.065220684
999626415.09434 0.9973532 -0.067725718 0.0020542284 0.033016048 0.0020553172 0.033344053 0.9967764 -0.066124707
1009622641.5094 0.99744183 -0.068394855 0.0020433273 0.033384278 0.0021090871 0.033732131 0.99661177 -0.066973701
1019618867.9245 0.99750096 -0.069184378 0.0021206671 0.033738006 0.0021648123 0.034031019 0.99632794 -0.067806289
1029615094.3396 0.99745595 -0.070180893 0.0021802224 0.034040682 0.0021932516 0.034340005 0.99594617 -0.068398625
1039611320.7547 0.99747312 -0.07104218 0.0022095824 0.034330212 0.0022091232 0.034648687 0.99586594 -0.069044769
1049607547.1698 0.99735272 -0.071979903 0.0022257632 0.034641124 0.0022693076 0.034987934 0.99586195 -0.069652513
1059603773.5849 0.99726588 -0.072606325 0.0022502178 0.034944162 0.0023034131 0.035298377 0.99585432 -0.070125133
1069600000 0.99706006 -0.073270679 0.0022547832 0.035242818 0.0023164675 0.035623118 0.99613988 -0.070931196
1079596226.4151 0.99702042 -0.073884703 0.0022800053 0.035577305 0.002355888 0.035954323 0.99607933 -0.071663722
1089592452.8302 0.99703437 -0.074588567 0.0022835415 0.035909902 0.0023816489 0.036253549 0.99604052 -0.072449237
1099588679.2453 0.9970932 -0.075291246 0.0023055822 0.036261573 0.0023687575 0.036604356 0.99569148 -0.07302323
1109584905.6604 0.99714202 -0.07605961 0.0023216307 0.03659185 0.0023914762 0.036937509 0.99546623 -0.073613897
1119581132.0755 0.9971621 -0.076986328 0.0023354627 0.036938149 0.002447844 0.037277117 0.99525398 -0.074010968
1129577358.4906 0.99691939 -0.077741295 0.0023946241 0.03730119 0.0024752524 0.037663419 0.99514914 -0.074434221
1139573584.9057 0.99674737 -0.078711271 0.0024372656 0.037625663 0.0025239307 0.037981596 0.99524117 -0.075196832
1149569811.3208 0.99662656 -0.07959938 0.0025014351 0.037962466 0.002587737 0.038309999 0.99533224 -0.075933591
1159566037.7358 0.99649698 -0.08026126 0.002556093 0.038268249 0.0026203543 0.038609751 0.99549639 -0.076881289
1169562264.1509 0.99621546 -0.080813706 0.0025731251 0.038585544 0.0026515648 0.038955767 0.99523997 -0.077678621
1179558490.566 0.99627316 -0.081644095 0.0025471505 0.038919263 0.0026507229 0.039321005 0.9951607 -0.078379855
1189554716.9811 0.9961946 -0.082368016 0.0026087305 0.039306592 0.0027434174 0.039646134 0.99487793 -0.07891503
1199550943.3962 0.99612349 -0.083244681 0.0026572477 0.039634574 0.0027586501 0.039967429 0.99467695 -0.079269499
1209547169.8113 0.99594283 -0.084096432 0.0027126456 0.039955895 0.0028018914 0.04030773 0.99460626 -0.079740614
1219543396.2264 0.99571681 -0.084970698 0.0027512228 0.040353216 0.0028697066 0.04071328 0.99468881 -0.080099151
1229539622.6415 0.99545491 -0.085803181 0.0028080344 0.040652253 0.0029202662 0.041042849 0.99484921 -0.080784947
1239535849.0566 0.99526036 -0.086411208 0.0028962083 0.040980078 0.0030198926 0.041342732 0.99490964 -0.081698328
1249532075.4717 0.99494404 -0.08707501 0.0029267627 0.041299615 0.003077327 0.041635118 0.994789 -0.082578406
1259528301.8868 0.99468398 -0.087611884 0.0029962379 0.04162579 0.0031063836 0.041989811 0.99452966 -0.083397269
1269524528.3019 0.99452734 -0.088368058 0.0030440055 0.041942928 0.0031694695 0.042286482 0.99427986 -0.08403638
1279520754.717 0.99414718 -0.089077346 0.003123356 0.042212028 0.0032466722 0.042521425 0.9940291 -0.08462619
1289516981.1321 0.99411798 -0.089917809 0.0031230431 0.042526513 0.0032670889 0.042879287 0.99410397 -0.085045248
1299513207.5472 0.99365938 -0.090688467 0.0031001903 0.042842187 0.0032382142 0.043169051 0.99425304 -0.085440576
1309509433.9623 0.99326956 -0.091441929 0.0031432183 0.043156028 0.003293979 0.043468464 0.99427205 -0.086158648
1319505660.3774 0.99292868 -0.09214285 0.0031404365 0.043493029 0.0032865461 0.043811817 0.99433774 -0.086816803
1329501886.7925 0.99263626 -0.092852205 0.0031778552 0.043805752 0.003323039 0.044127375 0.99434268 -0.08772859
1339498113.2075 0.99232948 -0.093358219 0.0031757941 0.044140056 0.0033261683 0.044444427 0.99392068 -0.088434011
1349494339.6226 0.99213374 -0.093902901 0.0031820913 0.044470504 0.0033310833 0.044777598 0.99351925 -0.089111656
1359490566.0377 0.99203801 -0.094535142 0.0031880848 0.044845626 0.0033213533 0.045153491 0.993384 -0.089654684
1369486792.4528 0.99183106 -0.09497717 0.0032337764 0.045219246 0.0033332473 0.045518376 0.993168 -0.090082884
1379483018.8679 0.99160326 -0.09558066 0.0032370149 0.045594111 0.0033717614 0.045847293 0.99321723 -0.090381309
1389479245.283 0.9912641 -0.096089631 0.0032872222 0.045987193 0.0033870898 0.046206024 0.99318534 -0.091043919
1399475471.6981 0.99089634 -0.096554011 0.0032598395 0.046339951 0.003390735 0.046604834 0.9933418 -0.091786683
1409471698.1132 0.99058568 -0.096838847 0.0033173554 0.046684708 0.003445043 0.04698661 0.99337476 -0.092560701
1419467924.5283 0.99022329 -0.097166002 0.0033368301 0.047055848 0.0034455303 0.047350455 0.99317801 -0.093270957
1429464150.9434 0.99021327 -0.097602457 0.0033519808 0.047478117 0.0035257488 0.047767818 0.9930191 -0.093814909
1439460377.3585 0.99033988 -0.098025084 0.0035470054 0.047905713 0.0035474375 0.048167557 0.99284023 -0.094187289
1449456603.7736 0.99035764 -0.098627001 0.0036177449 0.048322685 0.0036426317 0.048545573 0.99267644 -0.094567776
1459452830.1887 0.99027634 -0.099311382 0.0037244558 0.048702799 0.0037943963 0.04898937 0.99288225 -0.094880432
1469449056.6038 0.990264 -0.10003221 0.0039007021 0.049038466 0.0039151916 0.049335212 0.99307519 -0.095519036
1479445283.0189 0.99022126 -0.10063319 0.0040078564 0.049314186 0.004069753 0.049662266 0.99308789 -0.096408114
1489441509.434 0.99006879 -0.10118613 0.0041591655 0.049648862 0.0041615013 0.049943052 0.99295074 -0.097196698
1499437735.8491 0.98988813 -0.10142177 0.0042421073 0.049927332 0.0043118242 0.050241202 0.99290615 -0.098012596
1509433962.2642 0.99000281 -0.10199861 0.0043366756 0.050206181 0.0043930179 0.050534386 0.99272382 -0.098758414
1519430188.6792 0.99005514 -0.1024859 0.0043596402 0.050454136 0.0044536591 0.050804958 0.99258614 -0.099476963
1529426415.0943 0.98999673 -0.10318705 0.0044715535 0.050745472 0.0045049079 0.051078878 0.99250615 -0.099826038
1539422641.5094 0.99006253 -0.10397016 0.0045172567 0.051077336 0.0045044809 0.051360462 0.99253756 -0.10025109
1549418867.9245 0.9898743 -0.1047546 0.0045740437 0.051338974 0.0046124849 0.051670913 0.99277365 -0.10098742
1559415094.3396 0.98970568 -0.10552186 0.0046261642 0.051614523 0.0046124011 0.051965419 0.99290961 -0.10164171
1569411320.7547 0.98970926 -0.10622729 0.0046744328 0.051909491 0.0046462528 0.052272372 0.99284011 -0.10242033
1579407547.1698 0.98955768 -0.10677831 0.0046753753 0.052185562 0.0046986672 0.052547261 0.99255985 -0.10332856
1589403773.5849 0.98948681 -0.1073482 0.0046970472 0.052492559 0.004730843 0.052859176 0.9923206 -0.10404721
1599400000 0.98948264 -0.10775355 0.0046603512 0.052786298 0.0047309343 0.053155139 0.99190485 -0.1044451
1609396226.4151 0.98947918 -0.1084094 0.004680221 0.053134169 0.0046849777 0.053491589 0.99172062 -0.10496581
1619392452.8302 0.98945582 -0.10903308 0.0047020838 0.0534169 0.0046992265 0.053801131 0.99172378 -0.10543358
1629388679.2453 0.98921025 -0.10971436 0.0047184899 0.053821821 0.0046999045 0.054190781 0.99197042 -0.10594636
1639384905.6604 0.98893279 -0.1104089 0.0047532017 0.054148145 0.0047092307 0.054563314 0.99217051 -0.10681026
1649381132.0755 0.98869014 -0.11102712 0.004734667 0.05448639 0.004740417 0.054920398 0.99218434 -0.10766932
1659377358.4906 0.98859358 -0.1118364 0.0047760364 0.054895572 0.0047202203 0.055300824 0.9921298 -0.10861167
1669373584.9057 0.98851907 -0.1121917 0.0047622086 0.055259045 0.0048041916 0.055682953 0.99184436 -0.10931181
1679369811.3208 0.98859984 -0.11291882 0.0048371032 0.055672608 0.0048485184 0.05605017 0.99161464 -0.10978818
1689366037.7358 0.98852801 -0.11358711 0.0048899874 0.056016095 0.0048840772 0.056448013 0.99146378 -0.1100792
1699362264.1509 0.98871934 -0.11413564 0.0049349843 0.056376137 0.004943002 0.056845661 0.9915818 -0.11060672
1709358490.566 0.98852223 -0.11491397 0.0049977722 0.056746885 0.0049975347 0.057215311 0.99165422 -0.11109203
1719354716.9811 0.98833156 -0.1154331 0.0050532538 0.057147332 0.00505157 0.057634018 0.99168682 -0.11172885
