!Keysight Technologies,N5222B,MY61253708,A.15.00.15
!Date: Wednesday, June 19, 2024 10:23:23
!Correction: S11(C  2-Port  ) 
!S21(C  2-Port  ) 
!S12(C  2-Port  ) 
!S22(C  2-Port  ) 
!S2P File: Measurements: S11, S21, S12, S22:
# Hz S  RI   R 50
10000000 0.99846041 -0.0030784011 -0.00029565912 0.00032601727 3.3231248e-005 0.00026949422 0.99871314 -0.0014664829
19996226.415094 0.99991339 -0.0024380386 2.7748698e-005 0.00057652895 6.4091291e-006 0.00072419492 1.0001414 -0.002263993
29992452.830189 0.99960792 -0.0024740994 -1.1315249e-005 0.00093215273 8.3498016e-006 0.0010024616 0.99948931 -0.0026697218
39988679.245283 1.0000669 -0.0029955059 2.7618997e-005 0.0013388088 1.2346747e-005 0.0013460502 0.99972171 -0.0030993819
49984905.660377 1.0002482 -0.0036694705 -7.3916744e-006 0.0016333559 -1.0825868e-005 0.0016212264 0.9998647 -0.0036297143
59981132.075472 1.0003893 -0.0044989884 6.1848317e-005 0.001928177 7.2600087e-006 0.0019740406 0.99991208 -0.0041333437
69977358.490566 1.0002095 -0.0051126126 2.8039492e-005 0.0023064818 5.2880678e-006 0.0022885257 0.99972975 -0.0046433564
79973584.90566 0.99988961 -0.0056486428 1.6128062e-005 0.0026185368 8.432311e-006 0.0026048906 0.99937218 -0.0051087737
89969811.320755 0.99985886 -0.0056597292 8.6263753e-008 0.002934319 -2.0995154e-005 0.0029291571 0.99963927 -0.0053019822
99966037.735849 1.0001389 -0.0063762814 1.3299345e-005 0.0032659944 1.8822378e-005 0.0032511197 0.9997353 -0.0060922652
109962264.15094 1.0001603 -0.0073217899 2.7802133e-005 0.0036059024 7.776136e-006 0.0035978861 0.9997521 -0.006881848
119958490.56604 1.0002183 -0.008189559 1.4908961e-005 0.0039128656 2.8664013e-005 0.003913444 0.99980319 -0.0076934099
129954716.98113 1.0001459 -0.009167105 3.7615886e-005 0.0042364425 2.8492883e-005 0.0042287549 0.99979198 -0.0086013973
139950943.39623 1.0000644 -0.0099603962 3.7030026e-005 0.0045481054 2.3276734e-005 0.0045650816 0.9997052 -0.0093067437
149947169.81132 0.99994445 -0.010613114 5.5556884e-005 0.004882968 4.7275098e-005 0.0048803147 0.99963748 -0.0098744333
159943396.22642 0.99987388 -0.011186451 6.2167877e-005 0.0052087158 4.1594263e-005 0.0052196756 0.99971187 -0.010326266
169939622.64151 0.99983937 -0.011521161 6.9715723e-005 0.0055477647 5.8564183e-005 0.0055511156 0.99973822 -0.01074031
179935849.0566 0.99989873 -0.011759222 8.3325314e-005 0.0058719087 6.041897e-005 0.0058841333 0.99965978 -0.011107445
189932075.4717 1.0000842 -0.012572736 8.9553418e-005 0.0061910306 0.00010949699 0.0061944118 0.99991214 -0.011663646
199928301.88679 0.99995208 -0.013338953 9.831693e-005 0.0064955293 0.00010640523 0.0065234322 0.99978495 -0.012542278
209924528.30189 0.99968457 -0.013912529 8.9326873e-005 0.0068655652 0.00010333513 0.0068241726 0.99953759 -0.013235897
219920754.71698 0.99987984 -0.014662325 0.00010743691 0.007160672 0.0001015903 0.0071758702 0.9994266 -0.013809949
229916981.13208 0.99970227 -0.015576005 0.00011411775 0.0074590677 9.9506695e-005 0.007505469 0.99939698 -0.01458028
239913207.54717 0.99952394 -0.016266659 0.00011586567 0.007815415 0.00013092499 0.0078333169 0.99939805 -0.015270248
249909433.96226 0.99956787 -0.016841352 0.00012791203 0.008148808 0.00011465326 0.0081542972 0.99949455 -0.015865058
259905660.37736 0.99957412 -0.017452478 0.00013688067 0.0084520336 0.00017294381 0.0084784338 0.9997164 -0.016388923
269901886.79245 0.99990213 -0.018039748 0.00014107651 0.0087879598 0.000144116 0.0087677082 0.99998611 -0.017073125
279898113.20755 0.99990815 -0.018778995 0.0001879707 0.0091558732 0.00016462919 0.0091421241 0.99984902 -0.017815128
289894339.62264 0.99993289 -0.019521505 0.00018764427 0.0093842037 0.00017216476 0.0094380062 0.99978906 -0.018603027
299890566.03774 0.99979115 -0.02003479 0.00018635578 0.0097242752 0.00018885359 0.0098041557 0.99954557 -0.01904878
309886792.45283 0.99958611 -0.020595357 0.00018259161 0.010112008 0.00021816621 0.010119348 0.99947542 -0.019387096
319883018.86792 0.99957681 -0.021134675 0.00019059051 0.010417392 0.00018624961 0.010450223 0.99959582 -0.019860178
329879245.28302 0.9995085 -0.02194187 0.00023740344 0.01069944 0.00022060471 0.010747138 0.99975508 -0.020739645
339875471.69811 0.9994356 -0.022606842 0.00028305163 0.011034796 0.00019269285 0.011071059 0.99962795 -0.021506473
349871698.11321 0.99968916 -0.023537993 0.00027956907 0.011397123 0.00024345657 0.0114161 0.99972939 -0.022363186
359867924.5283 0.99949074 -0.024217218 0.00026338734 0.011706667 0.00024876883 0.011745328 0.99971801 -0.02331382
369864150.9434 0.99969846 -0.02507773 0.00027074222 0.012054543 0.00028740475 0.012107376 0.99969178 -0.02403897
379860377.35849 0.99951577 -0.02573429 0.00032114633 0.012355957 0.00034034858 0.012373244 0.99946076 -0.024739578
389856603.77358 0.99943209 -0.026324421 0.00032910611 0.012718963 0.00033473037 0.012693144 0.99950701 -0.025183111
399852830.18868 0.99933624 -0.026953697 0.00035085576 0.01300084 0.00036307471 0.013009754 0.99954855 -0.025758803
409849056.60377 0.99916184 -0.027339447 0.0003934956 0.013345075 0.00035387019 0.013354259 0.9994216 -0.026285898
419845283.01887 0.99918294 -0.027859926 0.00038013887 0.013663271 0.00037218304 0.013647038 0.99937427 -0.026745766
429841509.43396 0.99924123 -0.028440386 0.00040599471 0.013965628 0.00039676763 0.014008813 0.99954069 -0.027534992
439837735.84906 0.99910229 -0.029397875 0.00042452931 0.014338034 0.00042800885 0.014333172 0.99917793 -0.028564841
449833962.26415 0.99897242 -0.030206561 0.00039349264 0.014592648 0.00043305289 0.014623159 0.99876833 -0.029307604
459830188.67925 0.99876428 -0.0307796 0.00041519618 0.014921792 0.00040452136 0.014947615 0.99851334 -0.030002296
469826415.09434 0.99872744 -0.031621635 0.00047450652 0.015262883 0.0004216861 0.015273944 0.99823141 -0.030456245
479822641.50943 0.99869311 -0.032106265 0.00050613203 0.015598006 0.00046874001 0.015648384 0.99815744 -0.030824699
489818867.92453 0.99871778 -0.032542229 0.00049412251 0.015928617 0.00051552849 0.015949555 0.99849844 -0.031164348
499815094.33962 0.99878478 -0.033182412 0.00054343697 0.016241049 0.00054870127 0.016271042 0.99873579 -0.031706363
509811320.75472 0.99884599 -0.033596393 0.00058751093 0.016547751 0.00050903793 0.016568165 0.99890554 -0.032457314
519807547.16981 0.99881691 -0.034052044 0.00054448703 0.01688152 0.00054294104 0.016920827 0.99889678 -0.033140808
529803773.58491 0.99882579 -0.034660369 0.00057324441 0.017170304 0.0005575493 0.017250709 0.99866891 -0.033684313
539800000 0.99891353 -0.035258561 0.00056360941 0.017534325 0.00059381919 0.017581299 0.99857044 -0.034277409
549796226.41509 0.99877232 -0.036139339 0.00063310796 0.017815702 0.000652052 0.017889407 0.99844247 -0.034680009
559792452.83019 0.9985714 -0.036856681 0.00066079572 0.018207084 0.00064816512 0.01819041 0.99838442 -0.035149813
569788679.24528 0.99836713 -0.037548155 0.00066540483 0.018501574 0.00064900983 0.018527744 0.99861372 -0.035863429
579784905.66038 0.99848002 -0.03805317 0.00067316147 0.018825948 0.00070243422 0.018844357 0.99877107 -0.036513433
589781132.07547 0.99855888 -0.038696796 0.0007493021 0.019137144 0.00070601609 0.019178545 0.99887711 -0.037428319
599777358.49057 0.99867731 -0.039323747 0.00076784566 0.019460347 0.00074477494 0.019526757 0.99894065 -0.038198441
609773584.90566 0.99890852 -0.040064629 0.00075885572 0.01980493 0.00075280329 0.019853184 0.99880791 -0.039037928
619769811.32075 0.99885917 -0.040782183 0.00079633016 0.020145401 0.00080402475 0.020161923 0.9987039 -0.039581805
629766037.73585 0.99880379 -0.041389972 0.00081585813 0.020469373 0.00085302535 0.020495925 0.99863255 -0.040044636
639762264.15094 0.99863672 -0.042014584 0.00085602212 0.020756684 0.00084170722 0.0207892 0.99852741 -0.04051134
649758490.56604 0.99845046 -0.042615414 0.00088276248 0.021059191 0.00084484182 0.021118179 0.99866086 -0.040918991
659754716.98113 0.99835825 -0.043112487 0.00087543949 0.021379288 0.00087698083 0.021421636 0.99874139 -0.041523367
669750943.39623 0.99832141 -0.043499589 0.00085533084 0.02177131 0.00086591346 0.021790326 0.99881548 -0.0422993
679747169.81132 0.99840486 -0.044336848 0.0009534522 0.022087151 0.00092761731 0.022137459 0.99880874 -0.043245837
689743396.22642 0.99861288 -0.045128286 0.00098380633 0.022403868 0.0009802375 0.022455195 0.99862504 -0.044181436
699739622.64151 0.99870044 -0.045958847 0.0010393029 0.022726854 0.0010397499 0.022779677 0.99855971 -0.04495424
709735849.0566 0.99864221 -0.046819404 0.0010656564 0.023008242 0.0010825041 0.023042947 0.99829251 -0.045575872
719732075.4717 0.99852109 -0.047465235 0.0010935138 0.023330851 0.0010923035 0.023382565 0.99836504 -0.046130538
729728301.88679 0.99851316 -0.048051089 0.0010869438 0.023632981 0.0011129966 0.0236899 0.99843013 -0.046579123
739724528.30189 0.99828553 -0.048680916 0.0011204062 0.023956187 0.0011506989 0.024015294 0.99860561 -0.047262669
749720754.71698 0.99821872 -0.049226061 0.0011708937 0.024268772 0.0011826474 0.024344182 0.99862784 -0.048046783
759716981.13208 0.99826372 -0.049731404 0.0012243474 0.024594273 0.0012323875 0.024641287 0.99858546 -0.048807651
769713207.54717 0.99818957 -0.050452024 0.0012297323 0.024909452 0.0012273202 0.024964416 0.99826884 -0.049516231
779709433.96226 0.99840844 -0.051057916 0.001287534 0.025214888 0.0012680314 0.025274929 0.99804646 -0.050120991
789705660.37736 0.99823266 -0.05196619 0.0012946883 0.025570689 0.0013263887 0.025597099 0.99777818 -0.050869554
799701886.79245 0.99814123 -0.052772254 0.0013353657 0.025868136 0.0013111969 0.025894871 0.99759924 -0.051439136
809698113.20755 0.99804342 -0.053310156 0.0013534809 0.026161863 0.0013375008 0.026233014 0.99761832 -0.051820189
819694339.62264 0.99794036 -0.053976744 0.0013952227 0.026492622 0.0013560727 0.026595782 0.99774212 -0.052468777
829690566.03774 0.99785447 -0.054538488 0.0014068261 0.026806176 0.0014272081 0.026858985 0.99793279 -0.05327329
839686792.45283 0.99788374 -0.054915249 0.0014488115 0.027119774 0.0014295126 0.027189296 0.9980436 -0.054076999
849683018.86792 0.9980188 -0.055608973 0.0014488453 0.02746496 0.0014867641 0.027502762 0.99788892 -0.054869041
859679245.28302 0.99803442 -0.056231081 0.001493345 0.02774721 0.0015066788 0.027828392 0.99758321 -0.055455089
869675471.69811 0.99793667 -0.057067603 0.0015492095 0.028048309 0.0015533268 0.028155062 0.99717629 -0.055877537
879671698.11321 0.99789965 -0.057672471 0.0015937185 0.0283687 0.0015889234 0.028450778 0.9971956 -0.056387365
889667924.5283 0.99767268 -0.058470905 0.0016019931 0.02865814 0.0016114824 0.02873629 0.99703366 -0.056762159
899664150.9434 0.99751353 -0.059146225 0.0016243961 0.028974552 0.0016311454 0.029044479 0.99710965 -0.057384431
909660377.35849 0.99759018 -0.059783831 0.0016730572 0.029287325 0.0016396898 0.029383151 0.99723756 -0.058257923
919656603.77358 0.99761039 -0.060471714 0.0016640327 0.029631317 0.0016653463 0.029688232 0.99725491 -0.059082344
929652830.18868 0.99758971 -0.06116879 0.0016774498 0.029936569 0.001706575 0.030008186 0.99710584 -0.05995059
939649056.60377 0.99782467 -0.061793923 0.001702792 0.030220054 0.0016858261 0.030339923 0.99697751 -0.060571551
949645283.01887 0.99773729 -0.062594026 0.0016986436 0.030556872 0.0017013476 0.030631879 0.99672365 -0.061111387
959641509.43396 0.99766201 -0.063273698 0.0017305063 0.030932756 0.0017383564 0.030992195 0.99667513 -0.06163463
969637735.84906 0.99755704 -0.063943177 0.0017939238 0.031292871 0.0017900588 0.031339843 0.99672604 -0.061911613
979633962.26415 0.99740559 -0.064694673 0.0018323774 0.031578232 0.0018414112 0.031644892 0.99673915 -0.062552102
989630188.67925 0.99744171 -0.065164566 0.0018719481 0.031873241 0.0018839072 0.031974476 0.99693787 -0.063122362
999626415.09434 0.99753618 -0.065809965 0.0018775547 0.032193027 0.0018991996 0.032322414 0.99680424 -0.063950121
1009622641.5094 0.99753982 -0.06640017 0.0019312571 0.032534458 0.0019574976 0.032630414 0.9966979 -0.064715683
1019618867.9245 0.99762052 -0.067267016 0.0019775117 0.032874297 0.0020015589 0.03294161 0.99653292 -0.065601334
1029615094.3396 0.99766779 -0.068098843 0.0020303288 0.033136062 0.0020334283 0.033243325 0.9961201 -0.066176832
1039611320.7547 0.99765193 -0.068973422 0.002060025 0.033459693 0.0020837178 0.033538584 0.99610269 -0.066810071
1049607547.1698 0.9975996 -0.069852732 0.0021074752 0.03375873 0.0020930739 0.03382748 0.99611497 -0.067353994
1059603773.5849 0.99736446 -0.070534289 0.0021054707 0.034011707 0.0021089176 0.034132786 0.99614578 -0.067833424
1069600000 0.99722099 -0.071156204 0.0020989683 0.034325026 0.0021547684 0.034454137 0.99629855 -0.068550706
1079596226.4151 0.99724489 -0.071810029 0.0021216194 0.034666128 0.0021606768 0.034776878 0.99633759 -0.069290645
1089592452.8302 0.99718189 -0.072393119 0.0021583224 0.035003062 0.0021610437 0.035074301 0.9962734 -0.070048094
1099588679.2453 0.99726379 -0.073095411 0.0021701548 0.03533566 0.0021971054 0.035401441 0.99598598 -0.070651799
1109584905.6604 0.99736744 -0.07389535 0.0022090692 0.035632096 0.0022418937 0.035766657 0.99569476 -0.071244031
1119581132.0755 0.9974066 -0.074897707 0.0022004251 0.035985425 0.0022259285 0.036097918 0.99552649 -0.071673572
1129577358.4906 0.99721533 -0.075568199 0.0022472125 0.03633653 0.0022835154 0.036464322 0.99547213 -0.072063684
1139573584.9057 0.99692649 -0.07648775 0.0022724196 0.036642995 0.0023365812 0.036795225 0.9955864 -0.072759092
1149569811.3208 0.99686086 -0.077294998 0.0023628322 0.03697785 0.0023825653 0.037091881 0.99568462 -0.073516317
1159566037.7358 0.99665201 -0.078010708 0.0023731757 0.037271056 0.0024135122 0.037366878 0.99580908 -0.074490398
1169562264.1509 0.99655104 -0.078577667 0.0023941249 0.037588008 0.0024469849 0.037671309 0.99565578 -0.075272292
1179558490.566 0.99644589 -0.079408407 0.0024068074 0.037942406 0.0024535817 0.038074441 0.99548215 -0.075873464
1189554716.9811 0.99645931 -0.080079526 0.0024231533 0.038319632 0.002507478 0.038395088 0.99523914 -0.076485217
1199550943.3962 0.99639034 -0.08084774 0.0024658516 0.038626272 0.0025457311 0.038712949 0.99505591 -0.076858819
1209547169.8113 0.99624193 -0.081734687 0.0025170548 0.038939819 0.0025770515 0.039008379 0.99496102 -0.07716766
1219543396.2264 0.99601388 -0.082557291 0.0025403332 0.039307911 0.0026117368 0.039386664 0.99504697 -0.077596322
1229539622.6415 0.99574673 -0.083351493 0.0026285667 0.039625671 0.0027147252 0.039693955 0.99514973 -0.0782215
1239535849.0566 0.99557322 -0.083979666 0.0026902827 0.039913569 0.0027409485 0.040012907 0.99531764 -0.079220146
1249532075.4717 0.99520701 -0.084662095 0.002737331 0.040242705 0.0028215756 0.040347897 0.99514592 -0.079984814
1259528301.8868 0.99509609 -0.085167766 0.0027654395 0.040543348 0.0028554332 0.040630355 0.99489903 -0.080797911
1269524528.3019 0.99493474 -0.085855186 0.0028509349 0.040850658 0.0029427689 0.040925138 0.99468511 -0.081514955
1279520754.717 0.99464583 -0.086649023 0.0029132413 0.041136194 0.0030061998 0.041167721 0.99441659 -0.082034707
1289516981.1321 0.99447858 -0.087428778 0.0029144464 0.041409303 0.0030028354 0.04148531 0.99445724 -0.082477659
1299513207.5472 0.99420786 -0.088250071 0.0029154737 0.0417477 0.0029950719 0.041804694 0.99461496 -0.082863331
1309509433.9623 0.9936983 -0.088970199 0.0029382901 0.042024821 0.0030262144 0.042100061 0.99473077 -0.083578154
1319505660.3774 0.99341083 -0.0896357 0.0029240921 0.042377971 0.0030431366 0.042409904 0.99478424 -0.084153473
1329501886.7925 0.99313891 -0.090297222 0.0029691048 0.042698395 0.0030695312 0.042708714 0.99480212 -0.085124254
1339498113.2075 0.99288535 -0.090814322 0.0029721167 0.043036044 0.0030511953 0.04302454 0.99437702 -0.085793555
1349494339.6226 0.99263364 -0.091367327 0.0029523033 0.043357279 0.0030345321 0.043385133 0.99397904 -0.086403407
1359490566.0377 0.99266577 -0.091937482 0.0029740874 0.043701023 0.0030343737 0.043702714 0.99381983 -0.08693409
1369486792.4528 0.99246675 -0.09252575 0.0029943604 0.044048745 0.0030590566 0.044049591 0.99367595 -0.087395191
1379483018.8679 0.99212378 -0.093071401 0.0030018934 0.044398855 0.0030663693 0.044374038 0.99373692 -0.087791599
1389479245.283 0.99179393 -0.093548208 0.0030332822 0.044758037 0.0031062998 0.044760872 0.99366736 -0.088432431
1399475471.6981 0.99146056 -0.093930602 0.0030535813 0.045101158 0.0031099468 0.045117415 0.99382877 -0.089088529
1409471698.1132 0.99112058 -0.094335914 0.0030966182 0.045506489 0.0031282024 0.045493014 0.99387789 -0.089890242
1419467924.5283 0.9909445 -0.094619215 0.0031094169 0.045865551 0.0031403601 0.045851059 0.99370575 -0.090555012
1429464150.9434 0.99074388 -0.09510836 0.0031434204 0.046250299 0.0031816941 0.046243697 0.9935776 -0.09114036
1439460377.3585 0.9909963 -0.095515847 0.0032393141 0.046683207 0.0032328162 0.046666302 0.99332744 -0.091452077
1449456603.7736 0.99097157 -0.096129358 0.0033279462 0.047097553 0.0033564335 0.047069617 0.99332339 -0.091809005
1459452830.1887 0.99104214 -0.096796572 0.0034642443 0.04749044 0.0034851152 0.047466792 0.99342203 -0.092161298
1469449056.6038 0.99102437 -0.09750548 0.003615059 0.047825437 0.0036343094 0.047807589 0.99363911 -0.092774481
1479445283.0189 0.99086916 -0.098105758 0.0037409016 0.048088782 0.0037401409 0.048093379 0.99371707 -0.093666352
1489441509.434 0.99084353 -0.098594695 0.0038915854 0.048377059 0.0038624555 0.048402153 0.99358982 -0.094468206
1499437735.8491 0.99057567 -0.098916084 0.0039632842 0.048659004 0.0039811544 0.048664361 0.99341697 -0.095347345
1509433962.2642 0.99060386 -0.099434271 0.0040690731 0.048933685 0.0040348233 0.048943564 0.99333221 -0.096141532
1519430188.6792 0.99077511 -0.099986911 0.0041322242 0.049182434 0.004132811 0.049196593 0.99321675 -0.096549302
1529426415.0943 0.99067783 -0.10060567 0.0041551944 0.04950292 0.0041499175 0.049496293 0.99313915 -0.097072035
1539422641.5094 0.99070668 -0.10140908 0.004236734 0.049760919 0.0041913637 0.049773306 0.9932254 -0.097461462
1549418867.9245 0.99050128 -0.10223657 0.0042966977 0.050042562 0.004242056 0.050055049 0.99345183 -0.098172724
1559415094.3396 0.99041945 -0.10284168 0.0043330602 0.050345719 0.0043102521 0.050352104 0.99359369 -0.098844439
1569411320.7547 0.9902457 -0.1037132 0.004352455 0.050593976 0.004324791 0.050609495 0.99346298 -0.099756688
1579407547.1698 0.99013186 -0.10415752 0.0044109635 0.050845083 0.0043442841 0.05090268 0.993164 -0.10047174
1589403773.5849 0.99008459 -0.10464132 0.0043922924 0.051137596 0.0043630749 0.051196527 0.99300909 -0.10121664
1599400000 0.99015945 -0.10512373 0.0043896912 0.05146369 0.0043613976 0.051494785 0.99253857 -0.10165873
1609396226.4151 0.99004078 -0.1057549 0.0043653091 0.051763669 0.0043225395 0.051775038 0.99235123 -0.10218032
1619392452.8302 0.98999536 -0.10639212 0.0043810029 0.052094273 0.0043514483 0.052107535 0.99233615 -0.1025764
1629388679.2453 0.98982322 -0.10708699 0.0043960623 0.052418724 0.0043297876 0.052492652 0.99250388 -0.10305908
1639384905.6604 0.98970526 -0.10768159 0.0043856464 0.052787125 0.0043555135 0.052862242 0.99287117 -0.10388632
1649381132.0755 0.98940015 -0.10839748 0.0044542365 0.053110424 0.004374532 0.053183742 0.99286157 -0.10482752
1659377358.4906 0.98926502 -0.10913828 0.0044436995 0.05350437 0.0044093784 0.053579293 0.99272913 -0.10567108
1669373584.9057 0.98919547 -0.10955764 0.0044629844 0.053887744 0.0044236756 0.05391499 0.99238062 -0.10636794
1679369811.3208 0.9892537 -0.11022726 0.0045231525 0.054227192 0.0044724857 0.054315224 0.99226654 -0.10687545
1689366037.7358 0.98916888 -0.1108456 0.0045666713 0.054597244 0.0044607185 0.0546856 0.99210107 -0.10715801
1699362264.1509 0.98940974 -0.11141482 0.0045992266 0.05496509 0.0045379745 0.055063497 0.99230301 -0.10759518
1709358490.566 0.9893499 -0.11207445 0.004618099 0.055292647 0.0045980914 0.055409525 0.99226964 -0.10812278
1719354716.9811 0.98894227 -0.11265346 0.0047234055 0.055676006 0.0046176799 0.055764534 0.99239969 -0.1088571
