!Keysight Technologies,N5222B,MY61253708,A.15.00.15
!Date: Wednesday, June 19, 2024 10:05:16
!Correction: S11(C  2-Port  ) 
!S21(C  2-Port  ) 
!S12(C  2-Port  ) 
!S22(C  2-Port  ) 
!S2P File: Measurements: S11, S21, S12, S22:
# Hz S  RI   R 50
10000000 0.99851918 -0.0028161108 2.9373168e-005 0.00014277709 -0.00020814592 0.0004894546 0.99860328 -0.0019382238
19996226.415094 1.0001992 -0.0027576089 -1.9503495e-005 0.00058913644 1.0755233e-005 0.00071394048 1.0003233 -0.0025413632
29992452.830189 0.99969608 -0.0024879873 6.0371036e-005 0.0010181468 2.2069784e-005 0.0010129859 0.99938196 -0.0025722384
39988679.245283 1.000066 -0.0029647797 4.3850698e-005 0.0013308616 1.4177684e-005 0.0013487351 0.99969649 -0.0030285865
49984905.660377 1.0002462 -0.003607899 5.823205e-005 0.0016837351 4.0080573e-005 0.001654902 0.99988782 -0.0036382973
59981132.075472 1.0004679 -0.0045247972 4.7649548e-005 0.0019466557 1.314882e-005 0.001983864 0.99988663 -0.0041831434
69977358.490566 1.0002364 -0.00504959 1.1115881e-006 0.0022879986 -8.227049e-006 0.0023075067 0.99975222 -0.0047939196
79973584.90566 1.0000354 -0.0056776106 7.912633e-006 0.0026197913 3.5646721e-005 0.0026083118 0.99940717 -0.0052389503
89969811.320755 0.9999975 -0.0057519078 3.5064179e-005 0.0029469552 2.4026143e-005 0.002970296 0.99963784 -0.0054772496
99966037.735849 1.0002598 -0.006444484 2.3302797e-005 0.0032697737 9.2793489e-006 0.00330277 0.99969739 -0.0062584728
109962264.15094 1.0002394 -0.0073634088 1.9012659e-005 0.0036270947 2.1476939e-005 0.0036442673 0.99967992 -0.00704965
119958490.56604 1.0002564 -0.0082370937 3.4308527e-005 0.0039221141 2.573221e-005 0.0039364547 0.99973744 -0.0078882575
129954716.98113 1.0002083 -0.0092121959 2.9597897e-005 0.004262181 4.4538174e-005 0.0042671594 0.99970651 -0.0087811649
139950943.39623 1.0001063 -0.0099517982 4.1082676e-005 0.0045926184 4.9145485e-005 0.004617061 0.99963301 -0.0095048323
149947169.81132 1.0000284 -0.010652065 5.0425064e-005 0.0049010599 3.8298778e-005 0.0049187224 0.99958146 -0.010119259
159943396.22642 0.99996585 -0.011217177 4.1796826e-005 0.0052474788 4.9298629e-005 0.0052716495 0.9996587 -0.010601163
169939622.64151 0.99997437 -0.011634335 6.212329e-005 0.0055879024 6.4989203e-005 0.0056181136 0.99971002 -0.011048526
179935849.0566 0.99998558 -0.011853009 7.1503688e-005 0.005898491 6.9190981e-005 0.0059463838 0.9996109 -0.011446923
189932075.4717 1.0001367 -0.012619823 9.2739705e-005 0.0062116203 9.680842e-005 0.0062727239 0.99983215 -0.011951238
199928301.88679 1.0000778 -0.013480186 0.00011867529 0.0065507903 9.5007825e-005 0.0065886392 0.99970067 -0.012798101
209924528.30189 0.99982315 -0.014012307 0.00010583224 0.0068944306 9.5284078e-005 0.0069049448 0.99946427 -0.013502643
219920754.71698 0.99997234 -0.014805496 0.00010804599 0.0072298311 0.00012840843 0.0072643859 0.99944675 -0.014029026
229916981.13208 0.99974561 -0.015712112 0.00012155413 0.0075508831 0.000113633 0.007588685 0.99943352 -0.014882088
239913207.54717 0.99965018 -0.016327811 0.00013607471 0.0078458413 0.00012858785 0.0078848982 0.99937546 -0.015617561
249909433.96226 0.99965858 -0.016920567 0.00013255002 0.0082034357 0.00015295809 0.0082228035 0.99943018 -0.01623863
259905660.37736 0.99979544 -0.017536879 0.0001822738 0.008491355 0.00015189452 0.0085404143 0.99966288 -0.01677534
269901886.79245 0.99997586 -0.01819104 0.00015002664 0.0088508278 0.00014160655 0.0088989222 0.99999589 -0.017499253
279898113.20755 0.99995792 -0.018824399 0.00020085392 0.0091732452 0.00012077717 0.0092583457 0.99978167 -0.018234402
289894339.62264 0.99986804 -0.019560933 0.00022009108 0.0094986018 0.00021226984 0.00954739 0.99977374 -0.019019425
299890566.03774 0.99986136 -0.020073146 0.00020059478 0.0098028444 0.00019518938 0.0098443637 0.99937952 -0.019405365
309886792.45283 0.99964708 -0.020583242 0.00024154451 0.010139225 0.00019916357 0.010169022 0.99935067 -0.019858308
319883018.86792 0.99971139 -0.021291018 0.00020661857 0.010533168 0.00022968277 0.010555591 0.99948454 -0.020348579
329879245.28302 0.99977803 -0.022065222 0.00021734089 0.010800905 0.0002328204 0.010870367 0.99958622 -0.021141857
339875471.69811 0.99968773 -0.022717729 0.00025206443 0.011153294 0.00026197615 0.011196311 0.99954712 -0.021908328
349871698.11321 0.9998408 -0.023635358 0.00026987121 0.011461755 0.00026284042 0.011506943 0.99950594 -0.022843748
359867924.5283 0.99960113 -0.024410069 0.00026091514 0.011797923 0.00027642399 0.011827718 0.99943238 -0.023657531
369864150.9434 0.9998076 -0.025179535 0.00034161285 0.012117155 0.00030551734 0.012218936 0.99942005 -0.024369657
379860377.35849 0.99958259 -0.025936544 0.00028084777 0.012433296 0.00032769865 0.012504959 0.99931693 -0.025092304
389856603.77358 0.99957967 -0.026429325 0.00034916913 0.012774497 0.00032886025 0.012821751 0.99937308 -0.025468826
399852830.18868 0.99943841 -0.027097255 0.00037659658 0.013097772 0.00035504112 0.013136842 0.99939126 -0.025997847
409849056.60377 0.99930924 -0.027572613 0.0003734513 0.013434691 0.00037960251 0.013492219 0.99942321 -0.026463164
419845283.01887 0.99924803 -0.027966678 0.00036664307 0.013719609 0.00039173523 0.013823932 0.99940121 -0.027016759
429841509.43396 0.99928331 -0.02870062 0.00040368363 0.014086589 0.00041328184 0.01415303 0.9995454 -0.027779162
439837735.84906 0.99916869 -0.029562369 0.00042435736 0.014382668 0.00042007421 0.014472255 0.99936587 -0.028750524
449833962.26415 0.99900901 -0.030278355 0.00041805813 0.014693953 0.00043180352 0.014790371 0.99901623 -0.029503137
459830188.67925 0.99885619 -0.030986488 0.00044426275 0.015037322 0.00043581426 0.015097152 0.99877906 -0.030205905
469826415.09434 0.99875706 -0.031711221 0.00045839837 0.015407585 0.00043168291 0.01546025 0.9985342 -0.030747473
479822641.50943 0.99877155 -0.032210238 0.00045679673 0.015698409 0.00050616823 0.015800688 0.99860668 -0.031219579
489818867.92453 0.99882054 -0.032761008 0.00050282013 0.016028367 0.00054539181 0.016108595 0.99889684 -0.031735331
499815094.33962 0.99890387 -0.033312559 0.00052036019 0.016389396 0.00055725966 0.016435891 0.99913454 -0.03235358
509811320.75472 0.9989121 -0.033731274 0.00058913394 0.016689498 0.00055690325 0.016728139 0.99926353 -0.033115834
519807547.16981 0.99891561 -0.034286141 0.00059140939 0.017004371 0.00056280009 0.017077005 0.99920201 -0.033879876
529803773.58491 0.99885559 -0.034749866 0.00057513546 0.017297307 0.00059640687 0.017417369 0.99899173 -0.03445968
539800000 0.99896085 -0.035500288 0.0005891968 0.0176346 0.00061836326 0.017736882 0.99892551 -0.035043478
549796226.41509 0.99879235 -0.036266655 0.00061593158 0.017984094 0.000663538 0.018083656 0.99874878 -0.035565197
559792452.83019 0.99872863 -0.036940753 0.00064037275 0.018336743 0.00063901674 0.018445205 0.99867779 -0.036095351
569788679.24528 0.99857557 -0.037536412 0.00063778646 0.018637793 0.00068059936 0.01875495 0.99882495 -0.03681314
579784905.66038 0.99854416 -0.038153082 0.00069140573 0.018973827 0.00071158446 0.019066893 0.9989447 -0.037559018
589781132.07547 0.99869269 -0.038815379 0.00072791334 0.019326009 0.00071648788 0.019399775 0.99897039 -0.038377792
599777358.49057 0.99870944 -0.039417922 0.0007431861 0.019631604 0.00076697022 0.019715566 0.99901414 -0.039136708
609773584.90566 0.9988665 -0.040198892 0.00082059857 0.019981958 0.00077014358 0.020038437 0.99886882 -0.039970193
619769811.32075 0.99892777 -0.040897131 0.00084961113 0.020290034 0.0008396199 0.020351183 0.9987995 -0.040548116
629766037.73585 0.9988907 -0.041488081 0.00082591083 0.020599291 0.00089504942 0.020670785 0.99864322 -0.041070461
639762264.15094 0.99874616 -0.04219155 0.00086840242 0.020872571 0.00088427193 0.021010032 0.99852842 -0.041563183
649758490.56604 0.99860924 -0.042737499 0.00088316901 0.021239867 0.00090678455 0.021317217 0.99862063 -0.042008698
659754716.98113 0.99855733 -0.043264121 0.00090061687 0.02156955 0.00088940468 0.021656137 0.99868596 -0.04254055
669750943.39623 0.99854958 -0.04376024 0.00090028159 0.021888625 0.00092054298 0.021989698 0.99871475 -0.043299019
679747169.81132 0.99850428 -0.044522882 0.00095020793 0.022220714 0.00096361525 0.022341624 0.99870199 -0.044190876
689743396.22642 0.99868369 -0.045310736 0.0010024719 0.022551335 0.00098759495 0.022675592 0.99855286 -0.045212686
699739622.64151 0.99874198 -0.046162099 0.0010516038 0.022904245 0.0010418426 0.022997461 0.99846524 -0.045809954
709735849.0566 0.99872601 -0.046980232 0.0010861116 0.023203282 0.0010946488 0.023264147 0.99823624 -0.04645697
719732075.4717 0.99866074 -0.047683775 0.0011094962 0.023501532 0.0011253916 0.023612954 0.99830639 -0.047040105
729728301.88679 0.99862772 -0.048328221 0.0011700355 0.023807036 0.001144181 0.023946363 0.99837983 -0.04752475
739724528.30189 0.99843138 -0.048870847 0.001192308 0.024118258 0.0011533136 0.024246374 0.99847186 -0.04818286
749720754.71698 0.99835479 -0.049420506 0.0011831676 0.024442863 0.0012088255 0.024575999 0.99850911 -0.048925325
759716981.13208 0.99842036 -0.049947232 0.0012260526 0.024763869 0.0012168437 0.024905071 0.99847507 -0.049665987
769713207.54717 0.99832237 -0.050627917 0.0012254706 0.025104348 0.0012709806 0.025211062 0.99817204 -0.050308943
779709433.96226 0.99852967 -0.051222268 0.0012760098 0.025436351 0.0012949667 0.025533989 0.99803352 -0.0510213
789705660.37736 0.99833691 -0.052114516 0.0013171472 0.025732649 0.001340257 0.025881015 0.99777913 -0.051704109
799701886.79245 0.99831748 -0.052889317 0.0013639741 0.026021428 0.0013331864 0.026200736 0.99765801 -0.052225083
809698113.20755 0.99824947 -0.053495213 0.0013745381 0.026361266 0.0013768922 0.02652178 0.99764746 -0.052664086
819694339.62264 0.99799615 -0.054185092 0.0013995757 0.026661316 0.001391015 0.026809374 0.99775857 -0.053332359
829690566.03774 0.99799597 -0.054782718 0.0014333567 0.026970234 0.0014406573 0.027098265 0.99806535 -0.054129779
839686792.45283 0.99800348 -0.055226386 0.0014756722 0.027325662 0.0014790781 0.027426509 0.99805588 -0.054919511
849683018.86792 0.99811715 -0.055899464 0.0014743097 0.027622268 0.0014946889 0.027783187 0.99796635 -0.055710718
859679245.28302 0.99815488 -0.056565821 0.0015231501 0.027968124 0.0015454618 0.028120583 0.99767542 -0.056315154
869675471.69811 0.99803227 -0.057306528 0.0015702834 0.028284799 0.0015719822 0.028431371 0.99738961 -0.056843162
879671698.11321 0.99801219 -0.057837874 0.0015975279 0.028579516 0.0016219991 0.028747328 0.9973771 -0.057295166
889667924.5283 0.99785572 -0.058759898 0.0016294196 0.028885705 0.0016338825 0.029044064 0.99722695 -0.057736129
899664150.9434 0.997697 -0.059396088 0.0016408181 0.029200323 0.0016655419 0.029347751 0.99727273 -0.058345705
909660377.35849 0.99767786 -0.0600418 0.0016765292 0.029527849 0.0016752058 0.029687844 0.99745852 -0.059272885
919656603.77358 0.99769998 -0.060650885 0.0016965512 0.02987949 0.0016825129 0.030003376 0.99742764 -0.060069665
929652830.18868 0.99769473 -0.061340868 0.0017061615 0.030127417 0.0017367201 0.030316591 0.99729991 -0.06093201
939649056.60377 0.99791431 -0.062030196 0.0017147018 0.030471236 0.0017354693 0.030638866 0.9971081 -0.061609149
949645283.01887 0.99784225 -0.062784486 0.0017236097 0.030817881 0.0017274335 0.030975312 0.99686444 -0.06222368
959641509.43396 0.9977746 -0.063508689 0.0017305044 0.031149518 0.0017644959 0.031311475 0.99686474 -0.062734604
969637735.84906 0.99774486 -0.064206898 0.0018200437 0.031477917 0.001838821 0.031661615 0.99685895 -0.063090771
979633962.26415 0.99755967 -0.064928234 0.0018878046 0.031822775 0.0018690769 0.031960472 0.99684 -0.063729167
989630188.67925 0.99763787 -0.065444231 0.0019106073 0.032120455 0.0019033086 0.032293342 0.99704838 -0.064311653
999626415.09434 0.99769139 -0.066113114 0.0019150013 0.032415107 0.0019439068 0.032626107 0.99700487 -0.065124929
1009622641.5094 0.99767494 -0.066626579 0.0019531576 0.032765701 0.0019926904 0.032966889 0.99692404 -0.065946892
1019618867.9245 0.99776256 -0.067519858 0.0020199106 0.033101447 0.0020524315 0.033259511 0.9966352 -0.066804498
1029615094.3396 0.9977482 -0.068406463 0.0020464053 0.033385493 0.0021104049 0.0335696 0.99626422 -0.067281097
1039611320.7547 0.99774849 -0.06924057 0.002096599 0.033702698 0.0021140436 0.033870768 0.99621558 -0.068018436
1049607547.1698 0.99765533 -0.070137009 0.0021344211 0.033995572 0.0021391674 0.034187347 0.99624354 -0.068594597
1059603773.5849 0.99756402 -0.070711702 0.0021615066 0.034281045 0.0021997625 0.034472708 0.99618894 -0.06904614
1069600000 0.99729478 -0.071476907 0.0021386454 0.034589346 0.0021866234 0.034808353 0.99638844 -0.069814622
1079596226.4151 0.99728489 -0.072093286 0.0021596304 0.034911957 0.0022239783 0.035123199 0.99636078 -0.070595533
1089592452.8302 0.99736565 -0.072778016 0.0021958956 0.035243373 0.0022252128 0.035428282 0.99628454 -0.071292758
1099588679.2453 0.9974196 -0.07344082 0.0021961089 0.035595268 0.0022443291 0.035797372 0.99601144 -0.071873665
1109584905.6604 0.99754262 -0.074199334 0.002220422 0.035908896 0.0022773091 0.036113761 0.99576086 -0.072487265
1119581132.0755 0.99751484 -0.075128406 0.0022401609 0.036273718 0.0023019752 0.036466576 0.99567038 -0.072888806
1129577358.4906 0.99734765 -0.075854808 0.0022845306 0.036587235 0.0023694802 0.036806885 0.99542129 -0.073284388
1139573584.9057 0.99709427 -0.076738179 0.0023169639 0.036924168 0.0024121646 0.037168402 0.99562937 -0.074008822
1149569811.3208 0.99694335 -0.077599697 0.002400341 0.037270568 0.0024211928 0.037452385 0.99571776 -0.074684009
1159566037.7358 0.9967925 -0.0782682 0.0024178671 0.037534818 0.0024626767 0.037772391 0.99579769 -0.075685024
1169562264.1509 0.99657285 -0.078917474 0.0024163984 0.037830941 0.0024951212 0.038115535 0.99564999 -0.076470017
1179558490.566 0.99660301 -0.079729006 0.0024335484 0.038216777 0.0025116261 0.038469303 0.99555033 -0.077192016
1189554716.9811 0.99661809 -0.080426842 0.0024809018 0.038552791 0.002558005 0.038750991 0.9952631 -0.077747792
1199550943.3962 0.99653 -0.081285268 0.0025082566 0.038895421 0.0025888737 0.039111368 0.99504805 -0.078171194
1209547169.8113 0.99639356 -0.082152605 0.0025659073 0.039246887 0.0026060948 0.039433241 0.99502331 -0.078490987
1219543396.2264 0.99607855 -0.082929239 0.0026206053 0.039589807 0.0027104868 0.039770734 0.99508756 -0.078895807
1229539622.6415 0.99586731 -0.083698303 0.0026612375 0.039917715 0.0027657654 0.040125947 0.99518335 -0.079532713
1239535849.0566 0.99562347 -0.084353745 0.0027186628 0.040219434 0.0028436715 0.040434442 0.99531817 -0.080392569
1249532075.4717 0.99535489 -0.085040554 0.0027500126 0.040505696 0.0028976295 0.040734511 0.99517906 -0.081264332
1259528301.8868 0.99518073 -0.085523427 0.0028088428 0.040834915 0.0029710699 0.041056767 0.99496746 -0.082110196
1269524528.3019 0.99498177 -0.086218774 0.0028791726 0.041186392 0.0030157715 0.041336939 0.99472558 -0.082784861
1279520754.717 0.99470592 -0.086956806 0.0029485421 0.041457105 0.0030636187 0.041614354 0.99453586 -0.083313651
1289516981.1321 0.99455988 -0.087783575 0.0029480346 0.04175793 0.003059187 0.041912131 0.99457192 -0.083755434
1299513207.5472 0.99419928 -0.088626802 0.0029672533 0.042062454 0.0030862335 0.042219944 0.99465203 -0.084184438
1309509433.9623 0.99379754 -0.089347124 0.0029864889 0.042359617 0.0030833306 0.042501964 0.9947843 -0.084941387
1319505660.3774 0.99347985 -0.090043291 0.0029775612 0.042665582 0.0031151772 0.042808313 0.99475127 -0.085575595
1329501886.7925 0.99318016 -0.090783179 0.0029996298 0.043004826 0.003142504 0.043161385 0.99482644 -0.086469293
1339498113.2075 0.99292701 -0.091164589 0.003019603 0.043332011 0.0031252364 0.043469097 0.99436206 -0.08722502
1349494339.6226 0.99274522 -0.091759816 0.0030012261 0.043667536 0.0031410237 0.043793071 0.99403733 -0.087756306
1359490566.0377 0.99272746 -0.092317015 0.0030183922 0.043998882 0.0031297151 0.044165552 0.99389493 -0.08826381
1369486792.4528 0.99241328 -0.092782795 0.0030416613 0.044389293 0.0031329785 0.04452581 0.99370021 -0.088712782
1379483018.8679 0.99215949 -0.093382299 0.0030316645 0.044741046 0.0031277156 0.044858031 0.99368036 -0.08910422
1389479245.283 0.9918561 -0.093937188 0.0030924287 0.04510935 0.0031614676 0.045220129 0.99365723 -0.089655519
1399475471.6981 0.99147797 -0.094312936 0.0030939616 0.045467369 0.0031580515 0.045558657 0.9938724 -0.090449035
1409471698.1132 0.99120754 -0.094704583 0.0031661063 0.045847703 0.0032282663 0.045940969 0.99389541 -0.091262616
1419467924.5283 0.99103254 -0.095065147 0.0031759227 0.046221308 0.0032463809 0.046326272 0.993581 -0.091925591
1429464150.9434 0.99080551 -0.095484495 0.0032223184 0.046572704 0.0032819789 0.046701625 0.99357158 -0.092558354
1439460377.3585 0.99100327 -0.095927581 0.0032799831 0.047060244 0.0033515226 0.047139864 0.99336946 -0.092883125
1449456603.7736 0.99098182 -0.096476048 0.0033839475 0.047401275 0.0034319237 0.047517195 0.9932453 -0.093164578
1459452830.1887 0.99103123 -0.097146273 0.0035225321 0.047819555 0.0035532117 0.047940433 0.99335694 -0.093517154
1469449056.6038 0.99109375 -0.097805291 0.0037195571 0.048129249 0.0037157601 0.048285693 0.99359703 -0.094139248
1479445283.0189 0.99090445 -0.098385647 0.0037845082 0.04843339 0.0038349112 0.048589438 0.99370474 -0.094996117
1489441509.434 0.99083424 -0.098837137 0.00391501 0.048745759 0.0039765965 0.048880272 0.99355763 -0.095845282
1499437735.8491 0.99066961 -0.099152893 0.0040281136 0.04902361 0.0040519144 0.049158942 0.99344146 -0.096639782
1509433962.2642 0.99072182 -0.09971872 0.0040969974 0.049281865 0.0041120043 0.049426332 0.99326986 -0.097376235
1519430188.6792 0.99076891 -0.10030699 0.0041786358 0.049556248 0.0042074937 0.049672462 0.99314642 -0.097904235
1529426415.0943 0.99069202 -0.1009725 0.0042662825 0.049838342 0.0042716619 0.049973492 0.99294788 -0.098382741
1539422641.5094 0.99073213 -0.10181924 0.0043354561 0.050137434 0.0042891875 0.050280809 0.9930653 -0.098962978
1549418867.9245 0.99055266 -0.10254516 0.0044006854 0.050372757 0.0043148203 0.050539296 0.99336809 -0.099689841
1559415094.3396 0.99044895 -0.10318005 0.0044123381 0.050712354 0.0044121053 0.050870478 0.99343622 -0.10030368
1569411320.7547 0.99036276 -0.10395043 0.0044610379 0.050963458 0.0044452073 0.051101636 0.99343586 -0.10108478
1579407547.1698 0.99034899 -0.10445145 0.0044850619 0.051244166 0.0044269208 0.05142872 0.99308825 -0.10192773
1589403773.5849 0.99025863 -0.10491067 0.004461769 0.051520698 0.0044393241 0.051712863 0.99292237 -0.10256389
1599400000 0.99024284 -0.10543436 0.0044615511 0.051815894 0.0044418089 0.051988363 0.99250782 -0.10291123
1609396226.4151 0.99020332 -0.10612817 0.0044442825 0.052165423 0.0044009546 0.052294392 0.99235272 -0.10352354
1619392452.8302 0.99022478 -0.10672593 0.0044568814 0.052477017 0.0044295266 0.052636862 0.99228275 -0.10403487
1629388679.2453 0.98991168 -0.10741898 0.004455993 0.052810401 0.0044372883 0.053015374 0.99248916 -0.1045078
1639384905.6604 0.9897691 -0.10803998 0.004505943 0.053168863 0.0044098329 0.053363834 0.99267268 -0.10529677
1649381132.0755 0.9895438 -0.10867867 0.0044926889 0.05349201 0.004457118 0.053745799 0.99269837 -0.10621348
1659377358.4906 0.98942757 -0.10951647 0.0045235027 0.053888954 0.0045026969 0.054112077 0.99266428 -0.10704064
1669373584.9057 0.98936135 -0.10991514 0.0045512733 0.054278195 0.0045272936 0.054490842 0.99229032 -0.10774785
1679369811.3208 0.98935884 -0.11062804 0.0046028616 0.054587219 0.0045865104 0.054840975 0.99210763 -0.10827598
1689366037.7358 0.98934007 -0.11124629 0.0046093483 0.054975744 0.0045892 0.055210855 0.99196947 -0.10858539
1699362264.1509 0.98951072 -0.11183089 0.004707206 0.055382058 0.0046634441 0.055642053 0.99217504 -0.10906139
1709358490.566 0.98938942 -0.1124922 0.0047729863 0.055725392 0.0046691718 0.055975225 0.99217033 -0.10955767
1719354716.9811 0.98909605 -0.11301211 0.0047858711 0.056061365 0.0047675166 0.056352425 0.99223626 -0.11020157
1729350943.3962 0.98883796 -0.11364055 0.0048784912 0.056466792 0.004840225 0.056756392 0.99220496 -0.11099416
