!Keysight Technologies,N5222B,MY61253708,A.15.00.15
!Date: Wednesday, June 19, 2024 10:07:17
!Correction: S11(C  2-Port  ) 
!S21(C  2-Port  ) 
!S12(C  2-Port  ) 
!S22(C  2-Port  ) 
!S2P File: Measurements: S11, S21, S12, S22:
# Hz S  RI   R 50
10000000 0.99859387 -0.003277719 -0.00022187253 0.0003834407 -0.00017847729 0.00019420769 0.99859685 -0.0016973019
19996226.415094 1.0002537 -0.0026156008 -3.0059571e-005 0.0007804645 0.0001158333 0.00066772616 1.0004712 -0.0025387108
29992452.830189 0.99982524 -0.0024701655 0.0001057054 0.00096297619 1.8512161e-005 0.0010184111 0.99952704 -0.0026352704
39988679.245283 1.0000278 -0.0029407293 -3.8049184e-006 0.0013145235 1.4291611e-005 0.0013607052 0.99969453 -0.0030333698
49984905.660377 1.000183 -0.0036057234 1.0899152e-005 0.0016487089 -4.713831e-006 0.0016595657 0.99990094 -0.0035457909
59981132.075472 1.000386 -0.0045327544 4.6310597e-006 0.0019967109 3.5513483e-005 0.0019419723 0.99992651 -0.0041332245
69977358.490566 1.0002223 -0.0051570777 2.9133727e-005 0.0022744325 3.1878008e-005 0.0023074909 0.99979365 -0.004709987
79973584.90566 0.99995148 -0.0057165325 1.8173479e-005 0.0026396969 5.4467469e-005 0.0026473929 0.99944335 -0.0051583052
89969811.320755 0.99996924 -0.0058365762 3.9975625e-005 0.002947655 8.3053019e-006 0.0029661469 0.99968863 -0.005356133
99966037.735849 1.0002301 -0.0065425038 3.1076081e-005 0.0032918258 2.036721e-005 0.0033004081 0.99976414 -0.0061841607
109962264.15094 1.0002291 -0.0074301809 1.7987913e-005 0.0035833861 4.9262308e-005 0.0036256027 0.99976176 -0.0069545209
119958490.56604 1.0002642 -0.0083209574 3.397977e-005 0.003957293 1.7764396e-005 0.0039452631 0.99978554 -0.0077826977
129954716.98113 1.0002041 -0.0092715621 4.4178916e-005 0.004260187 3.897713e-005 0.0042805355 0.99976611 -0.0086551607
139950943.39623 1.0001093 -0.010016914 2.4144741e-005 0.0045831478 4.5982742e-005 0.0046102656 0.99970078 -0.0093944315
149947169.81132 0.9999879 -0.010745853 3.6133686e-005 0.0049233567 3.7224498e-005 0.0049365298 0.9996466 -0.0099645555
159943396.22642 0.99997729 -0.011293471 4.3240376e-005 0.0052489261 5.1992014e-005 0.0052563753 0.99971569 -0.010458708
169939622.64151 0.9998877 -0.01168859 5.47159e-005 0.005575635 6.6425768e-005 0.0055935588 0.99976367 -0.01088918
179935849.0566 0.99999523 -0.011949241 5.8482168e-005 0.0058981874 7.883599e-005 0.0059107458 0.99966931 -0.011266232
189932075.4717 1.0001025 -0.012738526 8.5031148e-005 0.0062047737 9.8659191e-005 0.0062452806 0.99993014 -0.011796325
199928301.88679 0.99998665 -0.013578296 9.2784176e-005 0.0065414179 0.00010288169 0.0065731052 0.99976176 -0.012673974
209924528.30189 0.99979877 -0.014065742 0.00010548858 0.0069042859 0.0001111544 0.0068897624 0.9995349 -0.013352334
219920754.71698 0.9999702 -0.014912575 0.00010827626 0.007215742 0.00011911406 0.0072563766 0.99947071 -0.013960004
229916981.13208 0.99976701 -0.015772849 0.00014805375 0.0075411592 0.00011000759 0.0075742202 0.9994837 -0.014691502
239913207.54717 0.99964488 -0.016427319 0.00012645325 0.0078471899 0.00011424541 0.0078977291 0.9994173 -0.015408652
249909433.96226 0.99963486 -0.017081261 0.00014262903 0.008156063 0.00013834168 0.0081913034 0.999479 -0.016061753
259905660.37736 0.99967992 -0.017682463 0.00016807998 0.0084984973 0.00014427211 0.0085719824 0.99962455 -0.01664874
269901886.79245 0.99983376 -0.018329188 0.0001419842 0.0088189188 0.00020130596 0.0088701779 0.99998122 -0.017277643
279898113.20755 0.99989063 -0.018968344 0.00019676914 0.0091670332 0.00016702013 0.0091943704 0.99984992 -0.017989263
289894339.62264 0.99986678 -0.019649833 0.00022315746 0.0094865318 0.00016966602 0.0095589003 0.99975884 -0.018715143
299890566.03774 0.99981493 -0.020207822 0.00021215598 0.0098009538 0.00022514793 0.0098484363 0.99955159 -0.019159913
309886792.45283 0.99958354 -0.020760447 0.00018373341 0.010128837 0.00022440992 0.01018226 0.99948663 -0.019591875
319883018.86792 0.99968803 -0.021430224 0.00020214589 0.010483058 0.00019434374 0.010551082 0.99962533 -0.020126373
329879245.28302 0.99977773 -0.022114694 0.0002632197 0.010790046 0.00021872064 0.01084425 0.99968618 -0.020859092
339875471.69811 0.99958891 -0.022836246 0.00026064808 0.011111692 0.00024712074 0.011197743 0.99960572 -0.021780826
349871698.11321 0.99973786 -0.023661613 0.00026075775 0.011436229 0.0002907759 0.011485158 0.99963564 -0.022609502
359867924.5283 0.99949324 -0.024481028 0.00028026477 0.011767883 0.00029820669 0.011843262 0.99955928 -0.023491949
369864150.9434 0.99968803 -0.025285125 0.00029834453 0.012062835 0.00028431672 0.012171679 0.99959111 -0.02415216
379860377.35849 0.99957299 -0.025898919 0.00030151848 0.012452939 0.00031285756 0.012491442 0.99953091 -0.024895385
389856603.77358 0.99954438 -0.026471943 0.00035157893 0.01276845 0.00033655344 0.012827224 0.99950141 -0.025391519
399852830.18868 0.99932945 -0.027101517 0.00032344414 0.013076009 0.00035488699 0.013115399 0.99951524 -0.025915116
409849056.60377 0.99927109 -0.027599048 0.00037184835 0.013371489 0.0003738876 0.01345212 0.99947405 -0.026470058
419845283.01887 0.99929833 -0.027979583 0.00040608458 0.013724321 0.00038159126 0.013816187 0.99936056 -0.026933819
429841509.43396 0.9993608 -0.028661102 0.00039528543 0.014059029 0.00038425764 0.014094502 0.9995659 -0.027697414
439837735.84906 0.99924886 -0.029560313 0.00041700364 0.014370949 0.00041511375 0.014438697 0.9992578 -0.028632313
449833962.26415 0.99909604 -0.030310124 0.00044686114 0.014679202 0.00045231404 0.014730189 0.99890685 -0.029450625
459830188.67925 0.99896693 -0.031005651 0.0004569497 0.015008695 0.00045022508 0.015078269 0.99863791 -0.030125201
469826415.09434 0.99894494 -0.031742692 0.00046166033 0.015346615 0.00043965131 0.015416517 0.99836284 -0.030577719
479822641.50943 0.99877405 -0.032250948 0.00046722079 0.015666191 0.00048210775 0.015757093 0.99837857 -0.030991115
489818867.92453 0.99891925 -0.032861024 0.00051279319 0.016004678 0.00053867418 0.01607999 0.99867046 -0.031481177
499815094.33962 0.99896371 -0.033511132 0.00050760666 0.016325854 0.0005439776 0.016403031 0.99894404 -0.03203398
509811320.75472 0.99900001 -0.033799876 0.00055211369 0.016634941 0.00051909743 0.016708396 0.99905545 -0.032728046
519807547.16981 0.99896538 -0.034493446 0.00054381229 0.016985783 0.00055303844 0.017055968 0.99903286 -0.033418328
529803773.58491 0.998963 -0.034983456 0.00058372971 0.017265566 0.00058203004 0.017383095 0.99878323 -0.033908218
539800000 0.99904633 -0.03561987 0.00059434911 0.017622016 0.00059403107 0.017687997 0.99871367 -0.034604192
549796226.41509 0.99891728 -0.036484689 0.00056531513 0.017939171 0.00064008217 0.018052336 0.99858284 -0.034993023
559792452.83019 0.99875784 -0.037165523 0.00064218789 0.018243913 0.00064523797 0.018363604 0.99859995 -0.035537153
569788679.24528 0.99855429 -0.037789255 0.00070532318 0.018623721 0.00066759298 0.018690929 0.998712 -0.036307156
579784905.66038 0.99853742 -0.0383863 0.00069641031 0.018950431 0.00069036707 0.019042965 0.99883586 -0.036935546
589781132.07547 0.99868524 -0.039015114 0.00074520893 0.01930338 0.00069766771 0.019355208 0.99893475 -0.037887335
599777358.49057 0.99881017 -0.039664835 0.00076592807 0.019603493 0.00074368902 0.019715011 0.9989872 -0.038549572
609773584.90566 0.99893063 -0.040426735 0.00078618038 0.019904777 0.00081502943 0.020026421 0.99885374 -0.039442509
619769811.32075 0.99904484 -0.041071117 0.00083590811 0.020237284 0.00081163179 0.020331044 0.9988029 -0.039979666
629766037.73585 0.99892569 -0.041767567 0.00085499045 0.020557512 0.00087065063 0.020639563 0.99864972 -0.040423959
639762264.15094 0.99877334 -0.042381197 0.00086247711 0.020871744 0.0008327486 0.020983594 0.99851799 -0.040889472
649758490.56604 0.99876255 -0.042982146 0.00091013778 0.021164544 0.00090407534 0.021251043 0.99868834 -0.041436225
659754716.98113 0.99852937 -0.043527782 0.00087272096 0.021505063 0.00084508676 0.021615259 0.99867177 -0.041953593
669750943.39623 0.99845243 -0.043977588 0.00090517243 0.021867979 0.00090928189 0.021965418 0.99883109 -0.042748123
679747169.81132 0.99851161 -0.044697769 0.00091177505 0.022189798 0.00094145408 0.022313813 0.99874461 -0.043672919
689743396.22642 0.99864817 -0.04555729 0.0010134839 0.022529673 0.00098477025 0.022633117 0.99864125 -0.044562519
699739622.64151 0.99877292 -0.046332598 0.0010058237 0.022841886 0.0010565342 0.022936486 0.99859262 -0.045247972
709735849.0566 0.99873084 -0.04719983 0.0011016071 0.023136858 0.0010591127 0.023249056 0.99833512 -0.046014741
719732075.4717 0.9986546 -0.047822237 0.0011190516 0.023435755 0.0011292519 0.02357625 0.99839264 -0.046585947
729728301.88679 0.9984889 -0.048492074 0.0011140825 0.023767961 0.0011238763 0.023886397 0.99844307 -0.047017634
739724528.30189 0.99841994 -0.049084499 0.0011784248 0.024105538 0.0011481899 0.024224916 0.9985646 -0.047720969
749720754.71698 0.99831748 -0.049629301 0.0011859932 0.024421042 0.0011754981 0.024556655 0.99859297 -0.048378363
759716981.13208 0.99840039 -0.05014801 0.001193732 0.024720062 0.0012044068 0.024845436 0.99858618 -0.049145997
769713207.54717 0.99831772 -0.050834894 0.0012243073 0.025053807 0.0012629637 0.025155375 0.99821228 -0.049829423
779709433.96226 0.99848461 -0.051484361 0.0012936707 0.025353096 0.0012544703 0.025496498 0.99801916 -0.050497383
789705660.37736 0.99833965 -0.052270681 0.0013106754 0.025690109 0.0013053622 0.025802776 0.99781489 -0.051198542
799701886.79245 0.99825746 -0.0531106 0.0013482403 0.026002109 0.0013416801 0.026124686 0.9977389 -0.051667213
809698113.20755 0.99819088 -0.053637639 0.0013675538 0.026315246 0.0013827879 0.026439771 0.99766713 -0.052180022
819694339.62264 0.99800915 -0.054292977 0.0014066575 0.026618529 0.0013856231 0.026771104 0.99775487 -0.052809805
829690566.03774 0.99803746 -0.054969162 0.0014481517 0.026935494 0.001435793 0.027105596 0.99798739 -0.053646237
839686792.45283 0.99802589 -0.055422157 0.0014375593 0.027282428 0.0014459067 0.027404487 0.99802285 -0.054460287
849683018.86792 0.99819821 -0.056041509 0.0014664936 0.027596839 0.0014912414 0.027720414 0.99785393 -0.055221327
859679245.28302 0.99816179 -0.056761861 0.0014765607 0.027926527 0.0015107822 0.028066821 0.9976244 -0.055788428
869675471.69811 0.998155 -0.057538956 0.0015626727 0.028241113 0.0015635891 0.028361369 0.99731857 -0.056270093
879671698.11321 0.99807221 -0.058111787 0.0015951286 0.02854408 0.001599805 0.028679201 0.9972977 -0.056756701
889667924.5283 0.9978233 -0.058891952 0.0016196314 0.028856169 0.0016272664 0.029004904 0.99717122 -0.057207167
899664150.9434 0.99775326 -0.059531122 0.0016263695 0.029148776 0.0016598403 0.029338945 0.9971627 -0.057803243
909660377.35849 0.99774176 -0.060169756 0.0016329433 0.029465992 0.0016594818 0.02962335 0.99735314 -0.058574483
919656603.77358 0.99774981 -0.060892165 0.0016974509 0.029790286 0.0017047417 0.029943263 0.99731058 -0.059500322
929652830.18868 0.99779534 -0.061627686 0.001734592 0.030091103 0.0017344607 0.030274747 0.99720514 -0.060258895
939649056.60377 0.99793828 -0.06226632 0.0017117355 0.030386787 0.0017261375 0.03056783 0.99705243 -0.061012864
949645283.01887 0.99787825 -0.063031316 0.0016950857 0.030761445 0.0017465302 0.030914173 0.99679065 -0.06160266
959641509.43396 0.99783248 -0.063719541 0.0017320281 0.031082667 0.0017572381 0.031287581 0.99673796 -0.062062114
969637735.84906 0.99776971 -0.064455569 0.0018070238 0.031466432 0.0018310891 0.031615958 0.99681473 -0.062428355
979633962.26415 0.99753785 -0.065233581 0.0018707821 0.031730801 0.0018858828 0.031922482 0.99687833 -0.063021354
989630188.67925 0.99763697 -0.065709561 0.0018948345 0.03204599 0.001900333 0.032241471 0.99696666 -0.063624591
999626415.09434 0.99773121 -0.0662826 0.0019359076 0.032362707 0.0019252896 0.032548424 0.99688458 -0.064456463
1009622641.5094 0.99766564 -0.066922158 0.0019616024 0.03272862 0.0019685524 0.032883268 0.9968335 -0.065243676
1019618867.9245 0.99774969 -0.06775707 0.0020070844 0.03300973 0.0020155101 0.033193678 0.99656552 -0.066060841
1029615094.3396 0.99772596 -0.068630338 0.0020571966 0.033320021 0.0020957496 0.033494286 0.99623549 -0.066610038
1039611320.7547 0.99783355 -0.069447726 0.0021060463 0.033630464 0.0021192757 0.03380651 0.99620175 -0.067212135
1049607547.1698 0.99764013 -0.070312075 0.002123286 0.033917956 0.0021181849 0.034151953 0.99623066 -0.067815214
1059603773.5849 0.99763054 -0.071012974 0.002140224 0.034213681 0.0021447157 0.034421209 0.99618387 -0.068406969
1069600000 0.99738783 -0.071674109 0.002133131 0.034544237 0.0021902965 0.034746405 0.99632305 -0.06909731
1079596226.4151 0.99735123 -0.072357044 0.0021588742 0.034863543 0.002188866 0.035078797 0.99635881 -0.069865964
1089592452.8302 0.99739361 -0.073032498 0.0021723108 0.035200533 0.002217399 0.035370138 0.99634922 -0.070591569
1099588679.2453 0.99744511 -0.073671818 0.0022047237 0.035529591 0.0022409987 0.035724144 0.99602932 -0.071186066
1109584905.6604 0.99754757 -0.074459016 0.002205953 0.035822481 0.0022606654 0.036050025 0.99575478 -0.071833685
1119581132.0755 0.99750948 -0.075393796 0.0022237739 0.036179744 0.0022663521 0.036368378 0.9956013 -0.072152212
1129577358.4906 0.99745989 -0.076187998 0.0022572335 0.036522031 0.0023064483 0.036757294 0.99556327 -0.072572768
1139573584.9057 0.9971059 -0.077053994 0.0023200279 0.036869183 0.0023844792 0.037077501 0.99559253 -0.073267907
1149569811.3208 0.99700052 -0.077817798 0.0023724984 0.037160821 0.0024219886 0.037384927 0.99570471 -0.073974095
1159566037.7358 0.99675977 -0.078513831 0.0023985989 0.037478752 0.0024768962 0.037672058 0.9957664 -0.074992537
1169562264.1509 0.99666131 -0.079188377 0.0024082717 0.0377701 0.0024753585 0.038016103 0.99560118 -0.075753748
1179558490.566 0.99661869 -0.079970375 0.0024182193 0.038151477 0.0025128387 0.038368277 0.99554986 -0.076521605
1189554716.9811 0.99660069 -0.080695391 0.0024719536 0.038502786 0.0025671795 0.038705979 0.99529427 -0.076980919
1199550943.3962 0.99654508 -0.081569791 0.0024900511 0.038859017 0.0025891513 0.039019205 0.99507928 -0.077477247
1209547169.8113 0.99640703 -0.082394108 0.0025365856 0.039138764 0.0026312489 0.039345387 0.99497092 -0.077800378
1219543396.2264 0.99613118 -0.083119601 0.002570563 0.039544232 0.002682399 0.039705154 0.9951154 -0.078085929
1229539622.6415 0.99595851 -0.083921313 0.0026647262 0.039839942 0.0027558208 0.040058538 0.99521852 -0.07878831
1239535849.0566 0.99565899 -0.084577143 0.0027076118 0.040144317 0.0028224234 0.040354088 0.99529433 -0.079716951
1249532075.4717 0.99539369 -0.085263997 0.0027594012 0.040463842 0.0028782287 0.040628366 0.99516791 -0.080471493
1259528301.8868 0.99518263 -0.08575657 0.0028009359 0.040766567 0.0029377192 0.040986273 0.99489963 -0.0813573
1269524528.3019 0.99502897 -0.08649227 0.0028759167 0.041077353 0.0030172961 0.041271959 0.99474996 -0.081993014
1279520754.717 0.99471253 -0.087254308 0.0029209598 0.041389804 0.0030426881 0.041527856 0.9944936 -0.082612261
1289516981.1321 0.99454534 -0.088074595 0.0029308377 0.041694142 0.0030693831 0.041834377 0.99457091 -0.082965642
1299513207.5472 0.99422348 -0.088935137 0.0029509235 0.041962642 0.0030590519 0.042142265 0.99460399 -0.083379954
1309509433.9623 0.99383998 -0.089571059 0.0029601678 0.042269349 0.003096859 0.042446196 0.99473947 -0.084099784
1319505660.3774 0.99354929 -0.090340286 0.0029653218 0.042615015 0.0030810609 0.042751491 0.99482381 -0.084779516
1329501886.7925 0.99320847 -0.090936095 0.0029918943 0.04294068 0.0031215772 0.043069873 0.99477518 -0.085668892
1339498113.2075 0.99295777 -0.091478735 0.0030282177 0.043275788 0.0031195581 0.043389101 0.99442184 -0.086418092
1349494339.6226 0.99283516 -0.092066005 0.0029673716 0.04359189 0.0030984106 0.043748878 0.99402702 -0.086976573
1359490566.0377 0.99268442 -0.092555255 0.0029936545 0.043952689 0.0031107385 0.04409802 0.99383307 -0.087487608
1369486792.4528 0.99247921 -0.0930987 0.0030180663 0.044311076 0.0031332271 0.044441033 0.99371803 -0.087901384
1379483018.8679 0.99222332 -0.093638629 0.0030370462 0.044662714 0.0031075242 0.044761602 0.99365568 -0.08824496
1389479245.283 0.9919734 -0.094176739 0.0030905753 0.045024633 0.0031842794 0.045158323 0.99375945 -0.088971913
1399475471.6981 0.99148685 -0.094603688 0.0030800402 0.045385748 0.0031743478 0.045489892 0.99388885 -0.089632064
1409471698.1132 0.99121332 -0.095037736 0.0031341882 0.045770429 0.0031898958 0.045873735 0.9939096 -0.090452448
1419467924.5283 0.99101722 -0.095370442 0.0031607421 0.046119586 0.0032254551 0.04621581 0.99367487 -0.091162235
1429464150.9434 0.99088454 -0.095770091 0.0031847022 0.04650721 0.0032513831 0.046630278 0.99362481 -0.091708928
1439460377.3585 0.99103522 -0.09626241 0.0032721395 0.046963982 0.003343801 0.047034059 0.99337357 -0.092060193
1449456603.7736 0.99102473 -0.096774593 0.0033935942 0.04736875 0.003463231 0.047424003 0.99321806 -0.09236221
1459452830.1887 0.99106443 -0.097449452 0.0035252627 0.047756877 0.0035514291 0.047834683 0.99343336 -0.092678607
1469449056.6038 0.99105489 -0.098044932 0.0036507417 0.048065692 0.0037132083 0.048199203 0.99367189 -0.093309551
1479445283.0189 0.99086708 -0.098660007 0.0037803329 0.048329942 0.003818234 0.048461635 0.99369574 -0.094217241
1489441509.434 0.9908458 -0.099155128 0.0039286632 0.04866223 0.0039345492 0.048777625 0.99363136 -0.094982088
1499437735.8491 0.99068606 -0.099549681 0.0040630959 0.04891444 0.0040396135 0.049035482 0.99353617 -0.095867574
1509433962.2642 0.99076223 -0.10002579 0.0041336762 0.049187332 0.0041257297 0.049299672 0.9933238 -0.096576408
1519430188.6792 0.990834 -0.10055235 0.0041780677 0.049453072 0.0041730497 0.049596436 0.99317908 -0.097102672
1529426415.0943 0.99072957 -0.1012876 0.0042225998 0.049736895 0.0042005144 0.049874704 0.99305886 -0.097564101
1539422641.5094 0.99078178 -0.10209482 0.0042767306 0.050015971 0.0043143812 0.050185848 0.99318409 -0.098024614
1549418867.9245 0.99053836 -0.10284072 0.0043810224 0.050321143 0.0043396438 0.050450597 0.99347454 -0.098723426
1559415094.3396 0.99054551 -0.10349843 0.0044156406 0.050601546 0.0043942798 0.05077067 0.99354756 -0.099387616
1569411320.7547 0.99041528 -0.10421543 0.0044387337 0.050885171 0.0043984549 0.05102713 0.99340779 -0.10026796
1579407547.1698 0.99036044 -0.10468131 0.0044252784 0.051143214 0.0044409698 0.051310137 0.99312532 -0.10101978
1589403773.5849 0.99022603 -0.10526049 0.004449429 0.051432021 0.0044108294 0.051612757 0.99293983 -0.10171989
1599400000 0.9902069 -0.10570669 0.0044607399 0.051728956 0.0044197636 0.051875062 0.99256349 -0.10215336
1609396226.4151 0.9901529 -0.10635988 0.0043996209 0.052051138 0.0043981597 0.052232496 0.99244016 -0.1026628
1619392452.8302 0.99016476 -0.10695159 0.0044525452 0.052415736 0.0044141952 0.052546412 0.99237335 -0.10313448
1629388679.2453 0.98990852 -0.10772219 0.0044596083 0.052720595 0.0043897349 0.052911729 0.99251181 -0.10360354
1639384905.6604 0.98978835 -0.10826358 0.0044584153 0.053059321 0.0044196006 0.05329559 0.99274808 -0.10450067
1649381132.0755 0.98957765 -0.10895121 0.0045135655 0.05340967 0.004459776 0.05365175 0.99274826 -0.10540575
1659377358.4906 0.98936009 -0.10973546 0.0044415295 0.053746045 0.0044969339 0.054000471 0.99270582 -0.1062603
1669373584.9057 0.98940307 -0.11017599 0.0045401067 0.054195493 0.0044869124 0.054356948 0.99248081 -0.10691348
1679369811.3208 0.9893747 -0.11086911 0.0045659775 0.054528799 0.0045290822 0.054762699 0.99226391 -0.10746574
1689366037.7358 0.9892658 -0.11148128 0.0046130847 0.054902576 0.0045542661 0.055123359 0.99207425 -0.10777277
1699362264.1509 0.98953646 -0.11216389 0.0046707531 0.055263624 0.0046412768 0.055490848 0.99230748 -0.10818708
1709358490.566 0.98940843 -0.11268228 0.0047173789 0.055625975 0.0046613393 0.055907831 0.99221748 -0.1087191
1719354716.9811 0.98908085 -0.11333114 0.0047523491 0.055973016 0.0047216769 0.056228176 0.99234915 -0.1094853
1729350943.3962 0.9888587 -0.11386013 0.0048220269 0.056354597 0.0047799852 0.056629695 0.99235308 -0.11029333
