!Keysight Technologies,N5222B,MY61253708,A.15.00.15
!Date: Wednesday, June 19, 2024 09:39:50
!Correction: S11(C  2-Port  ) 
!S21(C  2-Port  ) 
!S12(C  2-Port  ) 
!S22(C  2-Port  ) 
!S2P File: Measurements: S11, S21, S12, S22:
# Hz S  RI   R 50
10000000 0.99862003 -0.0026259422 -0.0001098733 0.00028620777 7.6034441e-005 -6.636262e-005 0.99876225 -0.0010797679
19996226.415094 0.99862528 -0.0028017461 2.2165099e-005 0.00074819056 -2.981443e-005 0.00068356132 0.9988693 -0.0028102398
29992452.830189 0.99964428 -0.0025027394 2.0769425e-005 0.0010408703 4.212925e-006 0.00099894393 0.99942786 -0.0026780069
39988679.245283 1.0000207 -0.0029898584 -3.0847004e-006 0.0013249617 5.8501166e-005 0.0012847756 0.99968553 -0.0031366199
49984905.660377 1.0000432 -0.0037127733 -9.7521115e-007 0.0016612289 -8.7919761e-006 0.0016840168 0.99985051 -0.0036479831
59981132.075472 1.0003146 -0.004625082 8.1751321e-005 0.0019892459 1.9547355e-005 0.0020368618 0.99988824 -0.0042257309
69977358.490566 1.0001174 -0.0051310454 1.4824145e-006 0.002291447 1.1173524e-005 0.0023147874 0.99975497 -0.0047577862
79973584.90566 0.99983442 -0.0057464838 -3.2972777e-005 0.0026661567 2.6281923e-005 0.0026576917 0.99941033 -0.0052210093
89969811.320755 0.99980563 -0.0058989823 4.5537483e-005 0.0029780511 1.6114092e-005 0.0030111945 0.9996053 -0.0054634511
99966037.735849 1.0000455 -0.0066658407 2.3520552e-005 0.0033293541 -4.0344894e-006 0.0033309949 0.99970412 -0.0062874705
109962264.15094 1.0000492 -0.0075102746 4.5523106e-005 0.0036421337 3.0235795e-005 0.0036902602 0.99967301 -0.007094577
119958490.56604 1.0001113 -0.0084400475 3.7273043e-005 0.0039900895 4.6906527e-005 0.0040005455 0.9997375 -0.0079608858
129954716.98113 1.0000626 -0.0094101727 2.488785e-005 0.0043181512 9.607058e-006 0.004354903 0.99967492 -0.0088327527
139950943.39623 0.9999944 -0.010241479 4.5203764e-005 0.0046376204 5.0468065e-005 0.0046902276 0.99962139 -0.0095448904
149947169.81132 0.99986053 -0.010901451 4.81389e-005 0.0049678506 3.838609e-005 0.0050020246 0.99957669 -0.010186404
159943396.22642 0.99981481 -0.011427373 7.4141659e-005 0.0053085797 3.9518112e-005 0.0053541209 0.99965215 -0.010652602
169939622.64151 0.99983317 -0.011852711 6.0294522e-005 0.0056421869 5.8409758e-005 0.0056865127 0.99970275 -0.011096828
179935849.0566 0.99986088 -0.012155741 6.161083e-005 0.0059592226 7.5493008e-005 0.0060174721 0.99961352 -0.011466801
189932075.4717 0.99994993 -0.012877077 0.00010807952 0.0062950342 6.5189553e-005 0.0063765766 0.99982858 -0.012008578
199928301.88679 0.99992561 -0.013682097 6.4489897e-005 0.0066343769 8.3770487e-005 0.0067021511 0.99971074 -0.012893587
209924528.30189 0.99968404 -0.014226541 0.0001063362 0.0069504813 9.6209464e-005 0.007022548 0.99950588 -0.0135912
219920754.71698 0.99976182 -0.01510483 0.00013198447 0.0072882739 0.0001161187 0.0073552332 0.9993872 -0.014263719
229916981.13208 0.99956065 -0.015999913 0.00012427825 0.0076075983 0.00010211533 0.0076909801 0.99930996 -0.015012592
239913207.54717 0.99937117 -0.016625296 0.00015002047 0.0079361824 0.00013099996 0.0080319205 0.99923623 -0.015699126
249909433.96226 0.9994638 -0.017308086 0.00013685389 0.0082879178 0.00015844684 0.0083385538 0.99938595 -0.016330987
259905660.37736 0.9994989 -0.017909795 0.0001321286 0.0085659809 0.00018021418 0.0087006409 0.99956429 -0.016958058
269901886.79245 0.99961978 -0.018464893 0.00017247419 0.0089428723 0.00014943315 0.009038303 0.99989992 -0.017599359
279898113.20755 0.99976873 -0.019205391 0.00011839415 0.0093026441 0.00017386512 0.0093353093 0.99976879 -0.018345371
289894339.62264 0.99974519 -0.019981325 0.00020242762 0.0095971972 0.00016474258 0.0096970145 0.99969482 -0.01904428
299890566.03774 0.99962842 -0.020502448 0.00020139618 0.0099097416 0.00021584914 0.0099982228 0.99950039 -0.019536048
309886792.45283 0.99954146 -0.020988099 0.00020886667 0.010229947 0.00019822479 0.010356981 0.99923646 -0.020031437
319883018.86792 0.99943984 -0.021607339 0.00021473365 0.010582486 0.00022603758 0.010698366 0.9994536 -0.020489573
329879245.28302 0.99945629 -0.022500068 0.00024172151 0.010913102 0.00022236304 0.011000373 0.99951124 -0.021253198
339875471.69811 0.9992907 -0.023157828 0.00023617491 0.011272283 0.00025406911 0.011346309 0.99944717 -0.022098161
349871698.11321 0.99952799 -0.023962617 0.00030413014 0.011560708 0.000278675 0.011701743 0.99942607 -0.022982866
359867924.5283 0.99935365 -0.024775445 0.00031842524 0.011905391 0.00028323848 0.012003951 0.99941695 -0.023804635
369864150.9434 0.99954689 -0.025501698 0.00030165445 0.012235938 0.00030996371 0.012354667 0.99947399 -0.024552286
379860377.35849 0.99943101 -0.026318073 0.00032029138 0.012574815 0.00034202356 0.012671603 0.99936318 -0.025295645
389856603.77358 0.99934113 -0.026874751 0.0003568856 0.012893133 0.00034422334 0.013030416 0.99934888 -0.025756359
399852830.18868 0.99918741 -0.027428478 0.00032079732 0.013206556 0.00036795717 0.013322663 0.99938381 -0.026225656
409849056.60377 0.99916774 -0.027843352 0.00038485299 0.013536091 0.00035303354 0.013660002 0.99933165 -0.02669069
419845283.01887 0.99913317 -0.028255492 0.00035513192 0.013896499 0.00038972031 0.014022638 0.99929166 -0.027267337
429841509.43396 0.99925727 -0.028978974 0.00041350815 0.014184538 0.00039085792 0.014328372 0.99951071 -0.027989537
439837735.84906 0.99904227 -0.029858723 0.00044624123 0.014568327 0.00046091469 0.014702481 0.99931586 -0.029003128
449833962.26415 0.99907994 -0.030701458 0.00045942282 0.01485797 0.0004771119 0.014985332 0.99885702 -0.029770672
459830188.67925 0.99893594 -0.031363755 0.00043133041 0.015199376 0.00046007056 0.015315253 0.99866354 -0.030474752
469826415.09434 0.99885523 -0.03213203 0.00045504281 0.01553808 0.00047555752 0.015686033 0.99843812 -0.030972928
479822641.50943 0.99870408 -0.032791331 0.00048859557 0.015888827 0.00047837896 0.016008439 0.99836874 -0.031352654
489818867.92453 0.99885666 -0.033277035 0.00051176175 0.016200265 0.00056624133 0.016349716 0.99872196 -0.031935155
499815094.33962 0.99908364 -0.033887386 0.00054256571 0.016535256 0.00057643931 0.016665816 0.99900639 -0.032519072
509811320.75472 0.99894249 -0.034419984 0.00053074304 0.016853763 0.00058438629 0.017008612 0.99912417 -0.033353657
519807547.16981 0.99900293 -0.034908116 0.00055353856 0.017163884 0.00058778096 0.017318711 0.99915153 -0.034072131
529803773.58491 0.99891806 -0.035462856 0.0005873125 0.017544236 0.00059680454 0.017686067 0.99886215 -0.034567863
539800000 0.99906534 -0.036238953 0.00062253186 0.017859783 0.00058217114 0.018038828 0.99875492 -0.035312265
549796226.41509 0.99887061 -0.036998034 0.00066095311 0.018194258 0.00062780874 0.018295726 0.99863619 -0.035701632
559792452.83019 0.99863493 -0.03776896 0.00067281444 0.018499263 0.00066966843 0.018672846 0.9984889 -0.036232084
569788679.24528 0.99852771 -0.038418531 0.00067344774 0.01881095 0.00071461825 0.019009169 0.99870306 -0.036956072
579784905.66038 0.99841398 -0.038924247 0.00074617739 0.019158604 0.00073485274 0.019336024 0.99881798 -0.037683986
589781132.07547 0.99857485 -0.039640188 0.00073672459 0.01951674 0.00077584106 0.019648947 0.99890757 -0.038579822
599777358.49057 0.99866825 -0.040261716 0.00076815486 0.0198268 0.00078460295 0.020006377 0.99898684 -0.039400339
609773584.90566 0.99886501 -0.041052118 0.00083451602 0.020165997 0.00081730913 0.020354267 0.99880093 -0.040221445
619769811.32075 0.99889827 -0.04174456 0.00086072879 0.020470198 0.00087043643 0.020692781 0.99878395 -0.040758431
629766037.73585 0.99873877 -0.042381495 0.00085824821 0.020754419 0.00087396521 0.02097033 0.9985944 -0.041291505
639762264.15094 0.99859804 -0.042998537 0.00088227168 0.021089112 0.00086452835 0.02128998 0.99840188 -0.041711181
649758490.56604 0.99843621 -0.043653622 0.00091170194 0.021436529 0.0009225565 0.021666933 0.99848247 -0.042121455
659754716.98113 0.99824542 -0.044215232 0.00093174167 0.021773569 0.00091031194 0.0219869 0.99861085 -0.042720377
669750943.39623 0.99833268 -0.04461512 0.000958574 0.022119034 0.00096508162 0.022359313 0.9986707 -0.043533087
679747169.81132 0.9982807 -0.04541707 0.00098405185 0.022468692 0.00096573401 0.022650233 0.99866539 -0.044480123
689743396.22642 0.99849743 -0.04621911 0.0010649124 0.022802493 0.0010221461 0.023032352 0.99844855 -0.04540205
699739622.64151 0.99857193 -0.046966642 0.0010395497 0.023089256 0.001057338 0.023323283 0.99835122 -0.046091169
709735849.0566 0.99854094 -0.047836207 0.0011555651 0.02345784 0.0011352941 0.023634849 0.99816126 -0.046802111
719732075.4717 0.99839532 -0.048449308 0.0011365986 0.023779228 0.0011520376 0.023958262 0.99824154 -0.047378719
729728301.88679 0.99834037 -0.049182832 0.0011777002 0.024051487 0.0011670161 0.024288643 0.99830383 -0.047813296
739724528.30189 0.99820358 -0.049754664 0.0011802195 0.024374736 0.001222366 0.024599118 0.99838305 -0.048512757
749720754.71698 0.99812514 -0.050236657 0.0012520528 0.024714382 0.0012520934 0.024924073 0.99840593 -0.04920426
759716981.13208 0.99819994 -0.050758719 0.0012593921 0.025019012 0.0012476817 0.025289081 0.99835992 -0.049985111
769713207.54717 0.99808258 -0.051450491 0.0013057971 0.025371995 0.0012917072 0.025582526 0.99817109 -0.050654233
779709433.96226 0.99831921 -0.052100334 0.0013207005 0.025676081 0.0013066117 0.025913334 0.99791825 -0.051278636
789705660.37736 0.99815655 -0.052972287 0.0013623787 0.026001157 0.0013883188 0.02623022 0.99772787 -0.052042454
799701886.79245 0.99804479 -0.053785026 0.0014019115 0.026322521 0.001378281 0.026572354 0.99753582 -0.052605242
809698113.20755 0.99807882 -0.054377869 0.0014129144 0.026645394 0.0014099923 0.026872385 0.99757951 -0.052996248
819694339.62264 0.99789518 -0.055102408 0.0014512083 0.026942499 0.0014447067 0.027220208 0.99770886 -0.053634882
829690566.03774 0.99792838 -0.055668056 0.0014722161 0.027256951 0.0014873883 0.02754763 0.99790269 -0.054514796
839686792.45283 0.99792957 -0.056055576 0.0014851261 0.027589181 0.0015319241 0.027883127 0.99797124 -0.055357456
849683018.86792 0.99798781 -0.056775838 0.0015500234 0.027908549 0.0015432879 0.028199868 0.99782443 -0.056070194
859679245.28302 0.99805355 -0.057503432 0.0015990222 0.028241195 0.0015757382 0.028508089 0.99753171 -0.056677997
869675471.69811 0.99793512 -0.058286071 0.0016347123 0.028581263 0.0016093953 0.028808832 0.99723089 -0.05716601
879671698.11321 0.99790001 -0.058921032 0.001658316 0.028892592 0.0016691424 0.029162921 0.99718398 -0.057616826
889667924.5283 0.99776804 -0.059715688 0.0016568769 0.029187735 0.0016915072 0.02944101 0.9970296 -0.058107615
899664150.9434 0.99756205 -0.060444504 0.0016939752 0.029522888 0.0017107269 0.029824458 0.99712473 -0.058695495
909660377.35849 0.99755478 -0.061088681 0.0017120102 0.02983534 0.0017512278 0.030099388 0.99726331 -0.059597299
919656603.77358 0.99762172 -0.061719924 0.0017616674 0.030152377 0.0017834324 0.030430034 0.99730182 -0.060508057
929652830.18868 0.99758315 -0.06252557 0.0017442601 0.030470319 0.0017969515 0.030755449 0.99712467 -0.061359823
939649056.60377 0.99777091 -0.063067198 0.001756005 0.030763429 0.0017807866 0.031065656 0.99703318 -0.062067628
949645283.01887 0.99772561 -0.0638863 0.00174733 0.031131506 0.001799746 0.031403255 0.99671125 -0.06256333
959641509.43396 0.99765027 -0.064648628 0.0018208483 0.031473264 0.0018700743 0.031806417 0.99669605 -0.063113809
969637735.84906 0.99756157 -0.065333068 0.0018565292 0.031807825 0.0018947646 0.032140657 0.99667031 -0.063465565
979633962.26415 0.99736303 -0.066042215 0.0019466607 0.032141253 0.0019258931 0.032422904 0.99674439 -0.064133979
989630188.67925 0.9974494 -0.066580713 0.0019390155 0.032453142 0.0019986536 0.032800492 0.99691635 -0.064722449
999626415.09434 0.99747074 -0.067209989 0.0019907365 0.032760318 0.0020112759 0.03310528 0.99693036 -0.06553629
1009622641.5094 0.99752027 -0.067835361 0.0020233383 0.033108637 0.0020359121 0.033455096 0.99672103 -0.06638746
1019618867.9245 0.99762338 -0.068626106 0.0020372341 0.033448268 0.0021198923 0.033750623 0.99640572 -0.067162082
1029615094.3396 0.99758649 -0.069612324 0.0021174271 0.033748634 0.002171536 0.034071915 0.99612641 -0.067753792
1039611320.7547 0.99761665 -0.070427418 0.002155127 0.034063924 0.0021953378 0.034343313 0.99603587 -0.068378001
1049607547.1698 0.99746728 -0.071402118 0.0021958679 0.034353945 0.0022112129 0.034700438 0.99609286 -0.068959907
1059603773.5849 0.99739563 -0.072120249 0.002191267 0.034628063 0.0022342149 0.035004023 0.99604511 -0.069570392
1069600000 0.9972136 -0.072763741 0.0022191303 0.034978088 0.0022686208 0.03530762 0.99627364 -0.070237547
1079596226.4151 0.99712002 -0.073375449 0.0022342056 0.035263605 0.0022908212 0.035618868 0.99624503 -0.070962645
1089592452.8302 0.9971298 -0.074041009 0.0022358103 0.035601631 0.0023092795 0.035979483 0.99616337 -0.071790248
1099588679.2453 0.99720705 -0.074603498 0.002254473 0.035897367 0.0023238491 0.036307521 0.99586481 -0.072406977
1109584905.6604 0.99725479 -0.075492099 0.0023106132 0.036269322 0.0023613991 0.036636926 0.99553663 -0.072935462
1119581132.0755 0.99724424 -0.076465741 0.0022945669 0.036622357 0.0023893933 0.036976743 0.99546909 -0.0732916
1129577358.4906 0.99716997 -0.077204376 0.0023580212 0.03700158 0.002423225 0.037354514 0.99528784 -0.073811054
1139573584.9057 0.99682224 -0.078063548 0.0023810547 0.037298776 0.0024817465 0.037676837 0.99541718 -0.074485511
1149569811.3208 0.99669522 -0.078969881 0.0024239456 0.037646066 0.0025352207 0.038012486 0.99553639 -0.075198852
1159566037.7358 0.99654961 -0.079641253 0.0024935827 0.03791751 0.0025813244 0.038284756 0.99564576 -0.076198161
1169562264.1509 0.99631763 -0.080233306 0.0024686381 0.038246796 0.0025638286 0.038612142 0.99539018 -0.077007025
1179558490.566 0.9963342 -0.080965072 0.0025022081 0.038582679 0.0026214088 0.038996555 0.99531192 -0.077698961
1189554716.9811 0.9962849 -0.081802458 0.0025569405 0.038961332 0.0026564626 0.039335236 0.99505681 -0.078299224
1199550943.3962 0.99623752 -0.08258146 0.0026020724 0.039317846 0.0027172789 0.039669648 0.99489808 -0.078614116
1209547169.8113 0.9960863 -0.083479539 0.0026208125 0.039642479 0.0027581761 0.039998766 0.99478412 -0.078952387
1219543396.2264 0.99591589 -0.084300458 0.0026891744 0.039992381 0.0027834377 0.040379532 0.99483061 -0.079398334
1229539622.6415 0.9956575 -0.08517462 0.0027372241 0.040331081 0.0028738342 0.04070878 0.99497193 -0.080053359
1239535849.0566 0.99541175 -0.08575815 0.0028370358 0.040617958 0.0029483316 0.041026864 0.99509257 -0.080988854
1249532075.4717 0.99501693 -0.086400747 0.0028343541 0.040957633 0.0029994808 0.041318703 0.99492908 -0.081769019
1259528301.8868 0.99485755 -0.086938351 0.0029287506 0.041294459 0.0030718111 0.041622732 0.99466163 -0.082692981
1269524528.3019 0.99471641 -0.08768183 0.0029722564 0.04160063 0.003096275 0.041930903 0.99447405 -0.083307773
1279520754.717 0.99439365 -0.088391759 0.0030254656 0.041867599 0.003164134 0.042205691 0.99420184 -0.083864629
1289516981.1321 0.9942168 -0.089220107 0.0030772239 0.04217951 0.0031697806 0.042523518 0.99429363 -0.084314018
1299513207.5472 0.99395263 -0.090004027 0.0030438732 0.04247627 0.0031703617 0.042812042 0.99435139 -0.084659576
1309509433.9623 0.9934448 -0.09079212 0.0030773375 0.042780384 0.0032120058 0.043111369 0.99457729 -0.085471004
1319505660.3774 0.99307609 -0.091526821 0.0030696206 0.043151665 0.0032201661 0.043442328 0.99452639 -0.08600527
1329501886.7925 0.99288964 -0.092173994 0.0030723251 0.043445677 0.0032602344 0.043759707 0.99450266 -0.087040097
1339498113.2075 0.99251616 -0.092716306 0.0031395815 0.043744843 0.0032493556 0.044077352 0.99422985 -0.087758929
1349494339.6226 0.99234051 -0.093269482 0.0030996474 0.044110429 0.0032370472 0.044426631 0.99375772 -0.08836475
1359490566.0377 0.99229115 -0.093844384 0.003111545 0.044481412 0.003241403 0.044752672 0.99358571 -0.088896871
1369486792.4528 0.99202234 -0.094334215 0.0031417459 0.044836219 0.0032394473 0.045134854 0.99338067 -0.089252174
1379483018.8679 0.99167615 -0.094875358 0.0031465008 0.045206849 0.0032753805 0.045487236 0.99344039 -0.089611471
1389479245.283 0.99141824 -0.095400214 0.0031961687 0.045573507 0.0033182316 0.045857731 0.99337828 -0.090393305
1399475471.6981 0.99107736 -0.095750183 0.0031980406 0.04590131 0.0033019111 0.046211038 0.99358124 -0.091008961
1409471698.1132 0.99073404 -0.096182436 0.0032477076 0.046281025 0.003353934 0.04662269 0.99359846 -0.091911525
1419467924.5283 0.99057847 -0.096524149 0.0032545738 0.046705138 0.0033786381 0.046942912 0.99343789 -0.092529178
1429464150.9434 0.99041444 -0.096958429 0.0033184588 0.047088288 0.0034180451 0.047351662 0.99329996 -0.093054086
1439460377.3585 0.99049389 -0.097390682 0.0033927485 0.047490492 0.0034785438 0.047820337 0.99310255 -0.093435064
1449456603.7736 0.99049813 -0.097937673 0.0035115322 0.047898911 0.0035652108 0.048171993 0.99293631 -0.093756661
1459452830.1887 0.99052566 -0.098599643 0.0036711339 0.048304394 0.0037040189 0.048595577 0.99302816 -0.094092578
1469449056.6038 0.99055785 -0.099308074 0.0037981402 0.048621111 0.0038353559 0.048921458 0.99326807 -0.094767034
1479445283.0189 0.9904595 -0.099872574 0.003895751 0.048924383 0.0039509772 0.049212415 0.99339712 -0.095599912
1489441509.434 0.99033689 -0.10040295 0.0040278267 0.04922647 0.0041204784 0.049550466 0.9933393 -0.096452326
1499437735.8491 0.99014848 -0.10071725 0.0041374043 0.049515568 0.0041718837 0.049820151 0.99316609 -0.097360998
1509433962.2642 0.99015158 -0.10127492 0.0042205565 0.049788836 0.0042559439 0.050117079 0.99304581 -0.098061725
1519430188.6792 0.99021399 -0.10181355 0.0043356083 0.050050385 0.0043303464 0.050356582 0.99283928 -0.098584265
1529426415.0943 0.99012983 -0.10249481 0.0043681916 0.050336454 0.0044307001 0.050648198 0.99275976 -0.099014819
1539422641.5094 0.99028194 -0.10329461 0.0044174474 0.050679229 0.0044325097 0.051006187 0.99281371 -0.099385038
1549418867.9245 0.99012017 -0.10405338 0.0044763591 0.050909333 0.0045241788 0.051273208 0.99308562 -0.10016303
1559415094.3396 0.98994517 -0.10474333 0.0045513641 0.05121249 0.0045145787 0.051555812 0.99324644 -0.10082701
1569411320.7547 0.98987007 -0.10543746 0.0045577427 0.051444106 0.0045816498 0.051859051 0.99313009 -0.10167703
1579407547.1698 0.98982167 -0.10595855 0.0045650015 0.05172924 0.0045853737 0.052120656 0.99272132 -0.10245752
1589403773.5849 0.98976612 -0.10656211 0.0045891162 0.052053034 0.0046028234 0.05239141 0.99259895 -0.10319093
1599400000 0.98972809 -0.10705256 0.0045810034 0.052350584 0.0045962194 0.052711014 0.99221295 -0.1037105
1609396226.4151 0.98970753 -0.10773474 0.0045865392 0.052696113 0.0045708138 0.053058203 0.99203265 -0.10414247
1619392452.8302 0.98965645 -0.10822001 0.0046062712 0.053003885 0.0046063252 0.05338788 0.99198341 -0.10453838
1629388679.2453 0.98943228 -0.1089932 0.0045924895 0.05333415 0.0045912918 0.053758156 0.99221557 -0.10510272
1639384905.6604 0.98912996 -0.10955063 0.0046196757 0.05371042 0.0045928871 0.054153975 0.99245852 -0.10589036
1649381132.0755 0.98901832 -0.11033165 0.0046196766 0.054063998 0.0046422556 0.054510783 0.99242675 -0.10690421
1659377358.4906 0.98886013 -0.11118752 0.0046267994 0.054431442 0.0046541207 0.054900691 0.99237102 -0.10774493
1669373584.9057 0.98874497 -0.11152983 0.0046639889 0.054827128 0.0046902532 0.055238303 0.992109 -0.10842493
1679369811.3208 0.9888134 -0.1121577 0.0047759172 0.055200476 0.0047094272 0.055616707 0.9918893 -0.10896939
1689366037.7358 0.98881614 -0.11283275 0.0047709048 0.055558655 0.0047629289 0.056000754 0.99179852 -0.10924813
1699362264.1509 0.98891729 -0.11338212 0.0048320414 0.05592408 0.004809075 0.05640113 0.99192685 -0.10958979
1709358490.566 0.98882258 -0.11399993 0.0048752446 0.056283254 0.0048575243 0.056793068 0.99197185 -0.11023764
1719354716.9811 0.98850548 -0.11463377 0.0049187802 0.056648619 0.0049382038 0.05714234 0.99205208 -0.11085925
