!Keysight Technologies,N5222B,MY61253708,A.15.00.15
!Date: Wednesday, June 19, 2024 10:22:43
!Correction: S11(C  2-Port  ) 
!S21(C  2-Port  ) 
!S12(C  2-Port  ) 
!S22(C  2-Port  ) 
!S2P File: Measurements: S11, S21, S12, S22:
# Hz S  RI   R 50
10000000 0.9985218 -0.0030637383 -4.4324959e-005 0.00020649889 2.7094648e-006 0.00052053825 0.99845189 -0.0018985569
19996226.415094 1.0000834 -0.0024082661 3.9027334e-005 0.00071527169 -2.14178e-005 0.00062041765 0.99997395 -0.002376914
29992452.830189 0.99977106 -0.0025043488 5.0687231e-006 0.0009740378 3.172303e-005 0.0010189046 0.99929947 -0.0026887953
39988679.245283 1.000057 -0.003026247 -1.1349301e-005 0.0013461049 -2.7952119e-005 0.0013075673 0.99966937 -0.0030543357
49984905.660377 1.0002469 -0.0036545694 1.0347983e-005 0.0016471735 1.7003797e-005 0.0016087722 0.99985397 -0.0036470294
59981132.075472 1.0003852 -0.0044595897 1.262204e-005 0.0019597106 4.4347253e-006 0.001986786 0.99986833 -0.0041705668
69977358.490566 1.0001969 -0.0050532874 2.6716352e-005 0.0022878135 -5.7817306e-007 0.0022508227 0.99968463 -0.0047939196
79973584.90566 0.99984014 -0.0056046247 2.6314519e-005 0.0026026638 1.9341474e-005 0.0026082853 0.99932277 -0.0052554607
89969811.320755 0.99993867 -0.0056769848 3.3786404e-005 0.0029201021 1.2996607e-006 0.0029362985 0.99959779 -0.0054380298
99966037.735849 1.000223 -0.00637196 3.4811848e-005 0.0032920223 2.1839165e-005 0.0032758834 0.99966502 -0.0061680675
109962264.15094 1.0002264 -0.0072586536 4.2762142e-005 0.0036085369 2.5266723e-005 0.0036192851 0.99966413 -0.006966576
119958490.56604 1.0002598 -0.0081861913 1.7727027e-005 0.0038921158 2.9030722e-005 0.0039255549 0.99971485 -0.007799238
129954716.98113 1.0002179 -0.0091376007 3.745209e-005 0.0042399326 5.6811841e-005 0.0042464817 0.99970388 -0.0086937249
139950943.39623 1.0001158 -0.009907132 3.1999356e-005 0.0045698485 5.3535347e-005 0.004566771 0.99962473 -0.0094459467
149947169.81132 0.9999848 -0.010582268 5.0242292e-005 0.0049047568 4.291907e-005 0.0049165562 0.99956805 -0.010026813
159943396.22642 0.99996817 -0.011124372 6.241235e-005 0.0052499324 4.8025278e-005 0.0052254014 0.99958873 -0.010471851
169939622.64151 0.99991369 -0.011486918 8.0082216e-005 0.0055427477 5.3397263e-005 0.005568739 0.99963295 -0.010919236
179935849.0566 1.0000088 -0.011665642 8.1190141e-005 0.0058744093 5.8326288e-005 0.0059036887 0.99949378 -0.01129964
189932075.4717 1.0000945 -0.012547821 9.5381634e-005 0.0061867386 0.00010062801 0.006216398 0.99977744 -0.01182735
199928301.88679 1.000005 -0.013384163 8.9792185e-005 0.0065319906 8.1093633e-005 0.0065434789 0.99969441 -0.012682736
209924528.30189 0.99978256 -0.013908073 0.00011163275 0.0068364698 9.0345391e-005 0.0068478608 0.99944037 -0.013365671
219920754.71698 0.99996543 -0.014701843 0.00011036941 0.0071784211 0.00012063701 0.0071924394 0.99936807 -0.013935268
229916981.13208 0.9997021 -0.015596718 0.00010385271 0.0075122388 0.00010381336 0.0075111915 0.99935603 -0.014754474
239913207.54717 0.99958932 -0.016176933 0.00012129157 0.0078178691 0.00012004374 0.0078406082 0.99928075 -0.015457269
249909433.96226 0.99961466 -0.016836405 0.00013531442 0.0081684394 0.00014085299 0.008178547 0.99933058 -0.016029507
259905660.37736 0.99966216 -0.017417371 0.00016813865 0.0084991921 0.00014837133 0.0084904674 0.99957871 -0.016575783
269901886.79245 0.99984956 -0.017996982 0.00018655451 0.0088287368 0.0001714651 0.0088032447 0.99992496 -0.017303079
279898113.20755 0.99987119 -0.018651634 0.000248492 0.0091867605 0.00019022543 0.0091843903 0.99984288 -0.018081143
289894339.62264 0.99986118 -0.019418836 0.00019587949 0.0094815679 0.00015002023 0.0095269904 0.99963665 -0.018816739
299890566.03774 0.99982136 -0.019924432 0.0002004758 0.0097658895 0.00015916442 0.0098063573 0.9994061 -0.019266814
309886792.45283 0.99958295 -0.020467632 0.00019695703 0.010108576 0.00020315422 0.010132466 0.99929494 -0.019666128
319883018.86792 0.99977517 -0.021016032 0.0002230145 0.010457147 0.0002328204 0.010478164 0.99948847 -0.020104229
329879245.28302 0.99967098 -0.021955192 0.00026062876 0.010784984 0.00022527436 0.010767736 0.99954826 -0.020920962
339875471.69811 0.99966478 -0.022590995 0.00027894729 0.011082285 0.0002328197 0.011149308 0.99946773 -0.021693297
349871698.11321 0.99972308 -0.023432732 0.0002641438 0.011445744 0.00028480054 0.011442693 0.99955285 -0.02260527
359867924.5283 0.99963284 -0.024194747 0.00027740374 0.0117626 0.00027932506 0.011758534 0.99946219 -0.023531526
369864150.9434 0.99975175 -0.025045902 0.00031399541 0.01206232 0.0003066028 0.012123401 0.99938732 -0.024219185
379860377.35849 0.99970657 -0.025710896 0.00031594583 0.012424799 0.00030902424 0.012411212 0.99937564 -0.024842709
389856603.77358 0.99960744 -0.026365906 0.00035726884 0.012757463 0.00033204677 0.012734579 0.99928057 -0.025285244
399852830.18868 0.99936813 -0.026997119 0.0003435174 0.013033134 0.00031572999 0.013043405 0.99938589 -0.025767237
409849056.60377 0.99927545 -0.027430033 0.00032724536 0.013359586 0.00035507031 0.013397972 0.99936759 -0.026298238
419845283.01887 0.9992215 -0.027858049 0.0003629229 0.013696079 0.0003539715 0.013693612 0.99932134 -0.026885211
429841509.43396 0.99931538 -0.028439432 0.00041210558 0.014008635 0.0003670631 0.014020088 0.9995169 -0.027628392
439837735.84906 0.99921679 -0.029410541 0.00042870303 0.014355791 0.00043712137 0.014355776 0.99929518 -0.028573707
449833962.26415 0.99895573 -0.030273408 0.00046120817 0.014646567 0.00042098854 0.014650037 0.99884492 -0.029321015
459830188.67925 0.99873817 -0.030872524 0.00044686068 0.01498339 0.00043672742 0.0149778 0.99861848 -0.030013323
469826415.09434 0.99860144 -0.031612784 0.0004702732 0.015329418 0.00044664787 0.015338354 0.99839115 -0.03054443
479822641.50943 0.99854714 -0.032040149 0.00047487463 0.015622136 0.00048906659 0.015689865 0.99851179 -0.03091675
489818867.92453 0.99863929 -0.032519758 0.00048633572 0.015953956 0.00053399755 0.015989486 0.99875706 -0.031482279
499815094.33962 0.99869382 -0.033039987 0.00053493306 0.016284591 0.0005653738 0.01632596 0.99901146 -0.031998843
509811320.75472 0.99875426 -0.033390552 0.00058995781 0.016617265 0.0005513659 0.016622579 0.99916005 -0.032797638
519807547.16981 0.99870837 -0.033939213 0.00058663823 0.016903877 0.00060927123 0.016960999 0.99914616 -0.03350693
529803773.58491 0.99879241 -0.034503818 0.00057030842 0.017229808 0.00054577179 0.017264577 0.9988817 -0.034083992
539800000 0.99884224 -0.035223797 0.00063115847 0.017575521 0.00059174257 0.017628545 0.99882168 -0.034752741
549796226.41509 0.99867254 -0.035999894 0.00063393172 0.017878819 0.00054688426 0.017951654 0.99866951 -0.035180867
559792452.83019 0.99847299 -0.036699563 0.00064640306 0.018207483 0.00066003297 0.018248595 0.99858177 -0.03575328
569788679.24528 0.99836516 -0.037275851 0.0006627962 0.018570818 0.00066252984 0.018572267 0.99873543 -0.036418825
579784905.66038 0.99840999 -0.037816502 0.00071395375 0.01891608 0.00068011193 0.018888276 0.99884951 -0.03712751
589781132.07547 0.99859464 -0.038459301 0.0007314682 0.019203411 0.00072154589 0.019230945 0.99894351 -0.037965059
599777358.49057 0.99870324 -0.039072067 0.00075065624 0.019542666 0.0007409947 0.019610349 0.99898857 -0.038805246
609773584.90566 0.99888808 -0.039761562 0.00077922572 0.019868834 0.000764834 0.019872224 0.99887872 -0.039616421
619769811.32075 0.998954 -0.040476114 0.0008421978 0.020159408 0.00082418183 0.02021263 0.9988063 -0.040124804
629766037.73585 0.99881053 -0.041162759 0.0008695554 0.020480426 0.00085470825 0.020510683 0.99858677 -0.04067421
639762264.15094 0.99862444 -0.041803256 0.00088631129 0.020841561 0.00084059569 0.020860417 0.99847353 -0.041150033
649758490.56604 0.99854732 -0.042383388 0.00087330258 0.021099739 0.0008743233 0.021149637 0.99855524 -0.041558757
659754716.98113 0.99853098 -0.04283157 0.00088121276 0.021470103 0.00088410079 0.021499697 0.99864703 -0.042151541
669750943.39623 0.99844718 -0.043314636 0.00089631649 0.021804821 0.00087183341 0.02182156 0.99876714 -0.042893708
679747169.81132 0.9984597 -0.044169903 0.00094548531 0.022144197 0.0009707649 0.022199648 0.99870706 -0.043833822
689743396.22642 0.99865627 -0.044980705 0.0009844983 0.022478763 0.00099297892 0.022502435 0.99854612 -0.044802547
699739622.64151 0.99872601 -0.045743108 0.001003922 0.022793684 0.001022676 0.022834701 0.99844944 -0.045481324
709735849.0566 0.99877012 -0.046607926 0.0010722575 0.023092825 0.0010707256 0.02313412 0.99823201 -0.046045057
719732075.4717 0.9985857 -0.047367781 0.0011094101 0.023398392 0.0010964437 0.023432905 0.99826133 -0.046639025
729728301.88679 0.99858844 -0.047953069 0.0011151629 0.023697153 0.001121413 0.023774231 0.99829227 -0.047071785
739724528.30189 0.998375 -0.048540831 0.0011704257 0.02403133 0.0011172323 0.024069097 0.99846894 -0.047813877
749720754.71698 0.99833697 -0.049034104 0.0012038248 0.024345351 0.0012158919 0.024393218 0.99847758 -0.048496112
759716981.13208 0.99835962 -0.049559712 0.0012188423 0.024658795 0.0012058895 0.024707705 0.99844623 -0.049223602
769713207.54717 0.99821311 -0.050295681 0.001237846 0.024955977 0.0012679249 0.02502092 0.99823982 -0.049953282
779709433.96226 0.99846405 -0.050915036 0.0012733861 0.025274951 0.0012749271 0.025339268 0.99802446 -0.050584894
789705660.37736 0.99829149 -0.051782221 0.0013178475 0.025620259 0.0012887465 0.025677081 0.99767578 -0.051275641
799701886.79245 0.99820268 -0.052647442 0.001359581 0.025923066 0.0013133567 0.025988054 0.99759072 -0.051800162
809698113.20755 0.99804753 -0.053200841 0.001348251 0.026246769 0.001345648 0.026293799 0.99766856 -0.052270308
819694339.62264 0.99789172 -0.053867191 0.0013993201 0.026555492 0.001371942 0.026614504 0.99770677 -0.052875102
829690566.03774 0.997926 -0.054337025 0.0014239103 0.026888266 0.0014072154 0.026939221 0.99797082 -0.05377689
839686792.45283 0.99790931 -0.054836899 0.0014306721 0.02716893 0.0014431304 0.027223166 0.99803376 -0.054548323
849683018.86792 0.99803072 -0.055501841 0.0014536739 0.027524235 0.0014800373 0.027577536 0.99795592 -0.055281326
859679245.28302 0.99799728 -0.056136012 0.0015344815 0.027802484 0.0015172847 0.027893402 0.9976263 -0.055904865
869675471.69811 0.99794978 -0.056914151 0.0015659854 0.028166674 0.0015403526 0.028194424 0.99728066 -0.056374818
879671698.11321 0.99787974 -0.057518557 0.0015800288 0.028474219 0.0015821091 0.028504178 0.99728101 -0.056830503
889667924.5283 0.99757385 -0.05837968 0.001601791 0.028742565 0.0016159471 0.028813947 0.99715626 -0.057314336
899664150.9434 0.99747074 -0.058924645 0.0016166344 0.029064557 0.0016250862 0.029114477 0.99719709 -0.057902366
909660377.35849 0.9975512 -0.059636086 0.0016418523 0.029381761 0.0016417126 0.029459177 0.99733704 -0.058795884
919656603.77358 0.99758029 -0.060284331 0.0016711373 0.029725255 0.0016828487 0.029789025 0.99734521 -0.059653252
929652830.18868 0.99755549 -0.060973436 0.0016950173 0.030006787 0.0017218236 0.030075178 0.99720275 -0.060455054
939649056.60377 0.99779481 -0.061486959 0.0017086351 0.030310413 0.001699659 0.030383497 0.99705464 -0.061180353
949645283.01887 0.99768543 -0.062408321 0.0017023687 0.030660426 0.0017091249 0.030728091 0.99684393 -0.061703373
959641509.43396 0.99771225 -0.063038975 0.001762215 0.031015601 0.0017403373 0.031062774 0.99679226 -0.062173247
969637735.84906 0.99753606 -0.063715309 0.0017930372 0.031362109 0.0017922157 0.03142859 0.99678874 -0.062571347
979633962.26415 0.99739528 -0.064465687 0.0018687781 0.031666469 0.0018355523 0.031742599 0.99685436 -0.063125908
989630188.67925 0.99742627 -0.064955771 0.0018958319 0.031959198 0.0018861825 0.032050818 0.99696267 -0.063765824
999626415.09434 0.99748111 -0.065562785 0.0018937448 0.032284174 0.0019073598 0.032395303 0.99697769 -0.064591259
1009622641.5094 0.99751437 -0.066139236 0.0019466272 0.032612171 0.001960672 0.032703549 0.9967941 -0.06542258
1019618867.9245 0.99759799 -0.066967279 0.0019844477 0.032912847 0.0020243991 0.033026744 0.99660558 -0.066199332
1029615094.3396 0.99764282 -0.067878515 0.0020550685 0.033254709 0.0020604301 0.033307232 0.99622238 -0.066804796
1039611320.7547 0.99762672 -0.068785846 0.0020654714 0.033552606 0.0021010432 0.033612531 0.99621558 -0.067457527
1049607547.1698 0.99750626 -0.069617659 0.0021297096 0.033833284 0.0021021119 0.033923145 0.99619257 -0.067974254
1059603773.5849 0.99737251 -0.070288897 0.0021460941 0.034123491 0.0021313643 0.034226108 0.99620169 -0.068515122
1069600000 0.99724066 -0.070930094 0.0021459414 0.034437358 0.0021396456 0.034542158 0.99635547 -0.069198877
1079596226.4151 0.99717379 -0.071523599 0.0021232725 0.034762684 0.0021673832 0.034862339 0.99637151 -0.070020013
1089592452.8302 0.99717492 -0.072195798 0.0021643313 0.035107531 0.0022116769 0.035185035 0.99632418 -0.0707874
1099588679.2453 0.99727648 -0.072840244 0.0021635722 0.035417896 0.0022114497 0.035480306 0.99592113 -0.071365476
1109584905.6604 0.99737197 -0.07366164 0.0022144765 0.035762705 0.0022431118 0.035819944 0.99575758 -0.071862623
1119581132.0755 0.99732083 -0.074596882 0.0022183862 0.036080986 0.0022707777 0.036195934 0.99558538 -0.072301447
1129577358.4906 0.99721742 -0.075297982 0.0022432934 0.036433913 0.0023243036 0.036527328 0.99546695 -0.072753966
1139573584.9057 0.99694592 -0.076217353 0.002280009 0.036743879 0.0023484286 0.036861546 0.99553722 -0.07339099
1149569811.3208 0.99684691 -0.077095181 0.0023740346 0.037087366 0.0023969235 0.037148818 0.99567294 -0.074138202
1159566037.7358 0.99665546 -0.077733338 0.0023813713 0.037403621 0.0024403352 0.037466578 0.99581695 -0.075082839
1169562264.1509 0.99654919 -0.078359932 0.0023962185 0.037671253 0.002451105 0.037793644 0.99563539 -0.075940341
1179558490.566 0.99643052 -0.07911101 0.0023890247 0.038073204 0.0024629701 0.03816656 0.99545228 -0.076583952
1189554716.9811 0.99640518 -0.079810262 0.0024078032 0.038360309 0.0025217738 0.038496878 0.99525869 -0.077191114
1199550943.3962 0.99637884 -0.08065474 0.002480315 0.038716301 0.002588423 0.038810357 0.99507475 -0.077575773
1209547169.8113 0.99622834 -0.081560582 0.0025180019 0.039065674 0.0026139654 0.039130785 0.99495792 -0.07789284
1219543396.2264 0.99605632 -0.082320258 0.002584144 0.039425217 0.0026273299 0.039489593 0.99503618 -0.078294948
1229539622.6415 0.99574888 -0.083102882 0.0026584808 0.039725669 0.0027396176 0.039830904 0.99524677 -0.07900694
1239535849.0566 0.99556255 -0.083766639 0.0027052416 0.0400155 0.0027997596 0.040103447 0.99531043 -0.079832375
1249532075.4717 0.99519408 -0.084433995 0.002757007 0.040347565 0.0028586022 0.040403195 0.99512821 -0.080689549
1259528301.8868 0.99505013 -0.084924698 0.0027789641 0.04065606 0.0028966852 0.040725611 0.99495697 -0.081512392
1269524528.3019 0.99492037 -0.085661203 0.0028438419 0.04097617 0.0029671304 0.041021351 0.99475569 -0.082213879
1279520754.717 0.99458927 -0.086337753 0.0029114701 0.041259173 0.0029944493 0.041291896 0.99445176 -0.082694314
1289516981.1321 0.99451089 -0.087192863 0.0029155016 0.041553915 0.0030098287 0.041564975 0.99451929 -0.08311227
1299513207.5472 0.99414968 -0.088052124 0.0029202346 0.041857228 0.0030199215 0.041899934 0.99461967 -0.083488792
1309509433.9623 0.99373037 -0.088685796 0.0029421551 0.042162139 0.0030607441 0.042180784 0.99475837 -0.084327072
1319505660.3774 0.99339235 -0.089400202 0.0029545296 0.042492487 0.0030247578 0.042533066 0.99476606 -0.084901214
1329501886.7925 0.99312609 -0.090040058 0.0029773358 0.042816244 0.0030590687 0.04282371 0.99476624 -0.085837901
1339498113.2075 0.99281198 -0.090560019 0.0029872935 0.043109063 0.0030829301 0.043138184 0.99436694 -0.086547166
1349494339.6226 0.99269688 -0.091188468 0.0029604072 0.043483697 0.0030722534 0.043452583 0.99405718 -0.087169707
1359490566.0377 0.99261296 -0.091619134 0.0029600002 0.043819781 0.0030671097 0.043815345 0.99392402 -0.087706089
1369486792.4528 0.9923932 -0.092277169 0.00299876 0.044154897 0.003055349 0.044154234 0.99373066 -0.088137716
1379483018.8679 0.99215609 -0.09284582 0.0030198782 0.044521976 0.00306795 0.044502567 0.99372411 -0.088422008
1389479245.283 0.99180752 -0.093355477 0.0030622259 0.044912003 0.0030921288 0.044882312 0.99369669 -0.089106917
1399475471.6981 0.99141669 -0.093694508 0.0030508209 0.04525039 0.0031215698 0.045225833 0.99389827 -0.089740098
1409471698.1132 0.99105471 -0.094174452 0.0031229795 0.045619465 0.0031475516 0.045599252 0.99389362 -0.090646319
1419467924.5283 0.9909035 -0.094455391 0.0031507481 0.045966215 0.0031580487 0.04599116 0.99372733 -0.091248244
1429464150.9434 0.99082148 -0.094895184 0.0031400267 0.046381034 0.0031999908 0.046350963 0.99358213 -0.091823518
1439460377.3585 0.99094242 -0.09531045 0.0032419069 0.046820156 0.0032866355 0.046794433 0.99337023 -0.092215747
1449456603.7736 0.99103743 -0.095938683 0.0033616815 0.047223486 0.0033749547 0.047178682 0.99327379 -0.092497513
1459452830.1887 0.99092543 -0.096474707 0.0034851674 0.047600798 0.0035121851 0.047582615 0.99336231 -0.092807651
1469449056.6038 0.99099159 -0.097315282 0.0036652144 0.047951244 0.0036565503 0.047922973 0.99361515 -0.093521476
1479445283.0189 0.99083811 -0.097816408 0.0037472723 0.048198402 0.0037664492 0.048237666 0.99368727 -0.094351672
1489441509.434 0.99082565 -0.09837544 0.0038736872 0.048533857 0.0038890596 0.048500568 0.99357045 -0.095279336
1499437735.8491 0.99068677 -0.098678142 0.0040224306 0.04877694 0.0039565656 0.048752032 0.99348897 -0.096061051
1509433962.2642 0.99061382 -0.099148624 0.0040728147 0.049083397 0.0040846858 0.049030788 0.9932186 -0.096822649
1519430188.6792 0.99064761 -0.099627227 0.0041997246 0.049305219 0.0041322988 0.049296796 0.99313235 -0.097360253
1529426415.0943 0.99070358 -0.10036525 0.0041843969 0.049608815 0.0041513816 0.049604475 0.99304807 -0.097752333
1539422641.5094 0.99060088 -0.10115372 0.0042526806 0.049894203 0.0042299633 0.049871631 0.99311018 -0.098204494
1549418867.9245 0.99056649 -0.10198453 0.0043401746 0.050191861 0.0042759525 0.050168451 0.99336833 -0.098925188
1559415094.3396 0.99039555 -0.10261431 0.0043469407 0.050451048 0.0042983163 0.050489068 0.99351966 -0.099541962
1569411320.7547 0.99027562 -0.10335809 0.004377271 0.050727926 0.0043730708 0.050753072 0.99340498 -0.10044451
1579407547.1698 0.99022794 -0.10389759 0.0044437558 0.050965402 0.0043855193 0.051031351 0.99303097 -0.10120092
1589403773.5849 0.99023271 -0.104413 0.0044288822 0.051270045 0.0043840017 0.051276937 0.99282295 -0.1019803
1599400000 0.99017102 -0.10487998 0.0044297269 0.051596254 0.0044065434 0.051605817 0.99239898 -0.10237524
1609396226.4151 0.99011284 -0.10548637 0.0044183005 0.051877853 0.0043664621 0.051882461 0.99232388 -0.10289751
1619392452.8302 0.99011141 -0.10611057 0.0044267625 0.052210912 0.0043626204 0.052266113 0.99221903 -0.10328028
1629388679.2453 0.98990345 -0.10685816 0.0044641569 0.052580018 0.0043653864 0.052602991 0.99248844 -0.10378936
1639384905.6604 0.98968881 -0.10748246 0.0044283918 0.052885529 0.004365087 0.052981321 0.99273586 -0.10467328
1649381132.0755 0.9894855 -0.10806701 0.0044528283 0.053264514 0.004363168 0.053304669 0.99274874 -0.1055136
1659377358.4906 0.98934615 -0.10892534 0.0044884831 0.053661328 0.0043865517 0.053672045 0.99259496 -0.10638717
1669373584.9057 0.9891755 -0.10932995 0.0044926582 0.053994112 0.004421392 0.054073378 0.99241894 -0.10703948
1679369811.3208 0.98931557 -0.10995889 0.0045170793 0.054341793 0.0044386396 0.054450437 0.99213457 -0.10756922
1689366037.7358 0.98925018 -0.11062098 0.0045635607 0.054738168 0.0044737589 0.054798465 0.99195611 -0.10785392
1699362264.1509 0.98949552 -0.11121349 0.0046246387 0.055102404 0.0045745652 0.055192389 0.99220711 -0.10830832
1709358490.566 0.98934913 -0.11186808 0.0046882322 0.055477366 0.0046284841 0.05554777 0.99221539 -0.10881883
1719354716.9811 0.98904896 -0.11245105 0.0047138333 0.055804554 0.0046381243 0.055907182 0.99227214 -0.10945874
1729350943.3962 0.98877335 -0.11306879 0.0047846921 0.056198508 0.0047004577 0.056304313 0.99226624 -0.11036348
