!Keysight Technologies,N5222B,MY61253708,A.15.00.15
!Date: Wednesday, June 19, 2024 09:12:04
!Correction: S11(C  2-Port  ) 
!S21(C  2-Port  ) 
!S12(C  2-Port  ) 
!S22(C  2-Port  ) 
!S2P File: Measurements: S11, S21, S12, S22:
# Hz S  RI   R 50
10000000 0.99889171 -0.0024611056 0.00010122986 0.00024908601 0.00011667454 0.0004112446 0.99855006 -0.0011338592
19996226.415094 0.99907398 -0.0020062625 -7.0211638e-005 0.00055129692 -6.7341287e-005 0.00066681311 0.99906182 -0.0020968914
29992452.830189 0.9997977 -0.0025143325 3.7553255e-006 0.0010109639 3.1964038e-005 0.0010634393 0.99949521 -0.0027207434
39988679.245283 1.0000837 -0.003132835 2.9832852e-005 0.0013391783 5.2709016e-005 0.0013773559 0.99962711 -0.0032114983
49984905.660377 1.0000937 -0.003836751 -5.010661e-005 0.0017971282 4.649529e-005 0.0016940252 0.99979389 -0.0037841201
59981132.075472 1.0002986 -0.0047533512 -3.4938566e-006 0.0020979613 1.4948717e-005 0.0020649079 0.99975306 -0.0043721199
69977358.490566 1.0001419 -0.0053014811 4.483766e-005 0.0023990236 1.6700087e-005 0.002452773 0.99959803 -0.0048928987
79973584.90566 0.99989861 -0.0058842003 -1.8167077e-005 0.0027581495 3.0976953e-006 0.0027734828 0.9993192 -0.0054244101
89969811.320755 0.99986798 -0.0060982704 3.0063209e-005 0.0030639023 4.2576925e-005 0.003112881 0.99951255 -0.0057314038
99966037.735849 1.0000987 -0.006829381 1.6648497e-005 0.0034564845 2.0180712e-005 0.0034501147 0.99957746 -0.0065030009
109962264.15094 1.0001497 -0.0077195317 6.3551299e-005 0.0037690538 4.4560526e-005 0.003802642 0.99955356 -0.0073414892
119958490.56604 1.000173 -0.008716464 1.2351433e-005 0.0041202237 4.670932e-005 0.0041450202 0.99959946 -0.0082982779
129954716.98113 1.0001389 -0.0097579062 6.3338201e-005 0.004484897 3.1428062e-005 0.0044916752 0.9995997 -0.009175241
139950943.39623 0.99999964 -0.010605088 1.7314771e-005 0.0048175352 4.465961e-005 0.004842204 0.99953002 -0.0099600945
149947169.81132 0.99987453 -0.011288583 6.00575e-005 0.0051592835 6.6060107e-005 0.0051946761 0.99945521 -0.010603666
159943396.22642 0.99982464 -0.011737466 6.973464e-005 0.0055032829 6.5953005e-005 0.0055248076 0.99951583 -0.011066377
169939622.64151 0.99982661 -0.012165785 6.0255174e-005 0.0058281464 7.2351715e-005 0.0058825128 0.99960607 -0.011479549
179935849.0566 0.99990749 -0.012417227 5.7495898e-005 0.0061880639 2.5260961e-005 0.0062312507 0.99948996 -0.011930794
189932075.4717 1.0000947 -0.013201386 0.00010051602 0.0065316549 9.3330862e-005 0.0065864818 0.99973905 -0.012513906
199928301.88679 0.99994546 -0.014072895 8.8938861e-005 0.0069011054 9.2391274e-005 0.0069223717 0.99964339 -0.013389796
209924528.30189 0.99972904 -0.014791653 0.00013009063 0.007204514 0.0001301443 0.0072706216 0.99933767 -0.014130697
219920754.71698 0.999789 -0.01569289 0.00014359551 0.007553319 0.00012990856 0.0076089231 0.99920434 -0.014856964
229916981.13208 0.99951279 -0.016508102 0.00012666848 0.0079289386 0.00011999439 0.0079611894 0.99909222 -0.015642315
239913207.54717 0.99930847 -0.017166266 0.00013490864 0.0082105557 0.00014295924 0.0083185378 0.99911773 -0.016362721
249909433.96226 0.99940664 -0.017819226 0.00015510735 0.008563769 0.00016161334 0.0086563099 0.99920052 -0.016975582
259905660.37736 0.9994483 -0.018540531 0.00013403594 0.0089188032 0.00020799274 0.0089396723 0.99944091 -0.017605007
269901886.79245 0.99970281 -0.01918298 0.00017377175 0.0092806919 0.0001584359 0.0093146013 0.99982083 -0.018375009
279898113.20755 0.99971926 -0.019785568 0.00020366628 0.0096176956 0.00018192502 0.0097208936 0.99958384 -0.019131646
289894339.62264 0.999726 -0.020556301 0.00023442181 0.010015827 0.00019112136 0.010055851 0.99949622 -0.019898176
299890566.03774 0.99966305 -0.021147817 0.00025996519 0.010298362 0.00019990955 0.0103509 0.99918699 -0.020305812
309886792.45283 0.99940914 -0.021737717 0.00023610832 0.010625547 0.00022340124 0.010744791 0.99913502 -0.020796545
319883018.86792 0.99939024 -0.022351652 0.00027035503 0.010985631 0.00022202544 0.011082925 0.99912953 -0.021262854
329879245.28302 0.99938774 -0.023097098 0.00026717456 0.011377095 0.00025224173 0.01144297 0.99923676 -0.022029489
339875471.69811 0.99924552 -0.023793295 0.00032850367 0.011672204 0.00030392094 0.011775926 0.99921834 -0.022851244
349871698.11321 0.99948508 -0.024746984 0.00031666597 0.012013437 0.00029451051 0.012090342 0.99927944 -0.023814321
359867924.5283 0.99934328 -0.025489628 0.00031044055 0.012361608 0.00032851147 0.012472422 0.99921548 -0.024778336
369864150.9434 0.99962127 -0.026394516 0.00034227967 0.012710918 0.00028573 0.012836929 0.99922532 -0.025434226
379860377.35849 0.99939436 -0.026954532 0.00037676399 0.0130338 0.000347425 0.013128189 0.99915045 -0.026082888
389856603.77358 0.999318 -0.02776733 0.00038799923 0.013361389 0.00038171187 0.013466166 0.99915826 -0.026575446
399852830.18868 0.9990952 -0.028199345 0.00040410599 0.013714151 0.0004152921 0.0137973 0.99914628 -0.02702117
409849056.60377 0.99910015 -0.028685536 0.00040223345 0.014042958 0.00041936184 0.014177324 0.99922764 -0.027509002
419845283.01887 0.99907517 -0.029091448 0.0004212074 0.014385705 0.00039580418 0.014497316 0.99926639 -0.028063923
429841509.43396 0.99919307 -0.029828936 0.00044463156 0.014768823 0.00043527549 0.014849949 0.99947965 -0.028885424
439837735.84906 0.99906546 -0.030636191 0.00051492313 0.015063851 0.0004876646 0.015188674 0.99922276 -0.029897898
449833962.26415 0.99892181 -0.031578988 0.00048907148 0.01539246 0.00050217286 0.015510466 0.99886596 -0.030766696
459830188.67925 0.99886727 -0.032250136 0.00048604002 0.015764778 0.00050816918 0.015869988 0.99868929 -0.031507283
469826415.09434 0.99878299 -0.033117741 0.00052490598 0.016101692 0.00053349324 0.016212223 0.9984355 -0.032085061
479822641.50943 0.99868995 -0.033683434 0.00054558553 0.016448528 0.0005116635 0.016548453 0.99850816 -0.032585613
489818867.92453 0.99876028 -0.034275234 0.00054549286 0.016813025 0.00058314484 0.016894478 0.99882245 -0.033138543
499815094.33962 0.99891818 -0.034841985 0.00059570698 0.017129794 0.00060782721 0.017280284 0.99905181 -0.033799857
509811320.75472 0.99896175 -0.035379939 0.00058185263 0.017465886 0.0006237838 0.017612228 0.99925488 -0.034622125
519807547.16981 0.99899989 -0.035881788 0.00061231479 0.017813671 0.00064708199 0.017933279 0.99919569 -0.035449803
529803773.58491 0.99880058 -0.036516517 0.00065963902 0.018158844 0.00066349562 0.018318482 0.99896598 -0.036111146
539800000 0.99891883 -0.037314117 0.0006755353 0.018496117 0.00068947487 0.018623453 0.99874532 -0.036728725
549796226.41509 0.99873632 -0.03825438 0.00070559327 0.018822245 0.00073743425 0.019022116 0.99858731 -0.037282348
559792452.83019 0.99847865 -0.038895428 0.0007640915 0.019191433 0.00073053688 0.019350817 0.99838662 -0.037818491
569788679.24528 0.9983288 -0.039637476 0.00076192385 0.019527385 0.00077131344 0.019669643 0.99857032 -0.038590282
579784905.66038 0.99830419 -0.040206261 0.00082481012 0.019899296 0.00074533513 0.02005527 0.99868119 -0.039304815
589781132.07547 0.99850571 -0.040887833 0.00076901168 0.020216925 0.00084776524 0.020431697 0.99880564 -0.040212661
599777358.49057 0.99861491 -0.041460335 0.00084409676 0.020557836 0.00085405726 0.02072824 0.99883151 -0.041056901
609773584.90566 0.99870098 -0.042283297 0.00087551581 0.020885849 0.00090793282 0.021078078 0.99865389 -0.041875444
619769811.32075 0.99880314 -0.042955846 0.0009362502 0.021231795 0.00095150666 0.021411475 0.99855757 -0.042442262
629766037.73585 0.99867511 -0.043602824 0.00098342355 0.021565007 0.00096556637 0.021713205 0.99837232 -0.042980582
639762264.15094 0.99837548 -0.044311091 0.00099167856 0.021846512 0.000993744 0.022054533 0.99816614 -0.043434232
649758490.56604 0.998308 -0.044891179 0.0010096575 0.022216329 0.0010098256 0.022384565 0.998276 -0.043865904
659754716.98113 0.99806732 -0.04533577 0.00098102447 0.022574065 0.0010252129 0.022772113 0.99836862 -0.044410944
669750943.39623 0.99818909 -0.045823365 0.00101237 0.022915144 0.001015502 0.023133123 0.99843585 -0.045294017
679747169.81132 0.99812973 -0.046626642 0.0010557291 0.023223488 0.0011013721 0.023456069 0.99832326 -0.046271756
689743396.22642 0.9982909 -0.04744637 0.0011390243 0.023611467 0.0011316733 0.023811547 0.99817806 -0.047209829
699739622.64151 0.99847257 -0.048321158 0.0011814637 0.023949323 0.0011888798 0.024140717 0.99809557 -0.047894776
709735849.0566 0.99841332 -0.049253434 0.0012511612 0.024279807 0.0012482796 0.024464134 0.99782407 -0.048552565
719732075.4717 0.9983198 -0.049998045 0.001233242 0.024653263 0.0012665712 0.024829272 0.99785841 -0.04914397
729728301.88679 0.99826431 -0.050525039 0.0012969403 0.024930304 0.0012918636 0.025112018 0.99793971 -0.049574256
739724528.30189 0.99805307 -0.051144138 0.0013256287 0.025275243 0.0012882682 0.025485594 0.99810988 -0.050271556
749720754.71698 0.99795306 -0.051642343 0.0013586218 0.025587745 0.0013848599 0.025819605 0.99814546 -0.050991848
759716981.13208 0.99798346 -0.052157521 0.001400698 0.025923047 0.0013902588 0.026114337 0.99816191 -0.051841646
769713207.54717 0.99792886 -0.052864879 0.0013939831 0.026262045 0.0014223205 0.026468994 0.99789315 -0.052539289
779709433.96226 0.99814159 -0.053621188 0.0014748928 0.026592221 0.0014521602 0.0268229 0.99767804 -0.05315375
789705660.37736 0.99793774 -0.054530293 0.0014911303 0.026942842 0.0014808327 0.027162202 0.99735808 -0.053926677
799701886.79245 0.99786097 -0.055302322 0.0015165694 0.027247377 0.0015255138 0.027485162 0.99731529 -0.054540634
809698113.20755 0.99786961 -0.055971786 0.001556108 0.027589204 0.0015068052 0.027808173 0.99728125 -0.05490157
819694339.62264 0.99768692 -0.05663383 0.0015864577 0.027938869 0.0015863013 0.028148295 0.99748313 -0.055610448
829690566.03774 0.99770415 -0.057246149 0.0016156137 0.028256923 0.001636724 0.028473698 0.99774879 -0.056507707
839686792.45283 0.99765593 -0.057626635 0.0016312888 0.028571948 0.0016214279 0.02884122 0.99780631 -0.057397544
849683018.86792 0.99787092 -0.058287762 0.0016529104 0.028924808 0.0016772272 0.029164901 0.99765599 -0.058187626
859679245.28302 0.99779284 -0.059064806 0.0017167032 0.02927275 0.0016890299 0.029508065 0.99746263 -0.058747351
869675471.69811 0.9976908 -0.059852451 0.0017476249 0.029614303 0.0017650677 0.029850829 0.99700361 -0.059394211
879671698.11321 0.99769884 -0.060574561 0.0018018542 0.029948689 0.0017726438 0.030161291 0.99701923 -0.059776612
889667924.5283 0.99743986 -0.061503142 0.0018412331 0.030258581 0.0018348321 0.030501466 0.99689746 -0.060322851
899664150.9434 0.99732578 -0.062100887 0.0018589962 0.030574515 0.0018584272 0.030856483 0.99692631 -0.06095922
909660377.35849 0.99729252 -0.062771678 0.0018752664 0.030934423 0.0018909201 0.031156514 0.99703884 -0.061887816
919656603.77358 0.99735069 -0.063538432 0.0019188691 0.031228315 0.0019100835 0.031513691 0.99709177 -0.062819108
929652830.18868 0.99738526 -0.064174622 0.0019373298 0.031540841 0.0019381037 0.031833548 0.99692237 -0.063728243
939649056.60377 0.99756944 -0.064802945 0.0019411901 0.03186734 0.0019925274 0.032172412 0.99672711 -0.064445347
949645283.01887 0.99747473 -0.065730602 0.0019623577 0.032222562 0.0019901663 0.032525342 0.99650669 -0.064995497
959641509.43396 0.99738288 -0.066391766 0.0019765692 0.032619718 0.0020027626 0.032880675 0.99644488 -0.06545639
969637735.84906 0.99731064 -0.067161858 0.0020375745 0.032968983 0.0020662518 0.033197731 0.99645221 -0.065873891
979633962.26415 0.99715352 -0.067943014 0.0021219281 0.033251554 0.0021182585 0.033550326 0.99644089 -0.066572979
989630188.67925 0.9971379 -0.068402946 0.0021304581 0.033598877 0.0021466622 0.033927616 0.99665922 -0.067146212
999626415.09434 0.99728274 -0.06914559 0.0021934267 0.033937551 0.0021908302 0.03426639 0.99658668 -0.06803903
1009622641.5094 0.99725324 -0.069741279 0.0022044536 0.034289792 0.0022544945 0.034604259 0.99640846 -0.06893681
1019618867.9245 0.99735361 -0.070564836 0.0022472749 0.034634151 0.0023177592 0.034926035 0.99608457 -0.069709763
1029615094.3396 0.99724662 -0.071539611 0.0023191124 0.034950651 0.0023619868 0.035242807 0.99578971 -0.070321918
1039611320.7547 0.99737912 -0.072454572 0.0023612827 0.035271041 0.0023758085 0.035563216 0.99570304 -0.071050018
1049607547.1698 0.99718195 -0.073380686 0.0023937125 0.03556123 0.0024322441 0.035892751 0.99565095 -0.071635239
1059603773.5849 0.99699891 -0.07408914 0.0024279086 0.035868283 0.0024641342 0.036224026 0.99564022 -0.072187543
1069600000 0.99681389 -0.074754775 0.0024286639 0.036192492 0.0024962388 0.036531251 0.99586678 -0.072884381
1079596226.4151 0.99672252 -0.075361244 0.0024508168 0.036542173 0.0024917871 0.036852058 0.99588567 -0.07370837
1089592452.8302 0.99677032 -0.076004386 0.0024996093 0.036913909 0.0025489256 0.037229866 0.99572611 -0.074457258
1099588679.2453 0.99681187 -0.076697052 0.0024850368 0.03722436 0.0025743376 0.037575364 0.99542737 -0.075072259
1109584905.6604 0.99689513 -0.077455923 0.0025138576 0.037562806 0.002590552 0.037899088 0.99515986 -0.075691313
1119581132.0755 0.99697691 -0.078536585 0.0025450503 0.037921447 0.0026194653 0.038263876 0.99496543 -0.076023757
1129577358.4906 0.99672163 -0.079352826 0.0025996976 0.038297616 0.0026683994 0.038624629 0.99483013 -0.076532364
1139573584.9057 0.9963994 -0.080217391 0.0026331628 0.038615089 0.0027000923 0.03899736 0.99493533 -0.077246875
1149569811.3208 0.99636936 -0.081124812 0.0027174337 0.038946975 0.0027956781 0.039314087 0.99505246 -0.078035973
1159566037.7358 0.99614066 -0.081767142 0.0027381573 0.039287388 0.0028129146 0.039652839 0.99517035 -0.079039007
1169562264.1509 0.99591559 -0.082393557 0.0027243756 0.039612204 0.0028408952 0.039971281 0.99495411 -0.079897732
1179558490.566 0.99593669 -0.083250821 0.0027607619 0.039968818 0.0028893112 0.040345639 0.99485934 -0.080582976
1189554716.9811 0.99582708 -0.083919972 0.0027989885 0.040330708 0.0029528514 0.040662989 0.99452871 -0.081112653
1199550943.3962 0.99588186 -0.084798247 0.0028456468 0.040693801 0.0029667895 0.041029956 0.99432218 -0.08153075
1209547169.8113 0.9955951 -0.085675448 0.0029111169 0.041042525 0.0030117277 0.041387007 0.99429977 -0.081927851
1219543396.2264 0.9953897 -0.086565897 0.0029650084 0.041404087 0.0030444553 0.041764691 0.99440211 -0.082260653
1229539622.6415 0.99506116 -0.087432891 0.0030307751 0.041755062 0.0031620599 0.042132601 0.99444342 -0.083034188
1239535849.0566 0.99480784 -0.088074297 0.0031056292 0.042063206 0.0032086475 0.042404428 0.99459755 -0.083973289
1249532075.4717 0.9945724 -0.088774495 0.0031530445 0.042401575 0.0033018722 0.042735841 0.9944303 -0.084838517
1259528301.8868 0.99433559 -0.089317381 0.0031698141 0.042742942 0.0033865739 0.043048017 0.99416065 -0.085708827
1269524528.3019 0.99413931 -0.090043694 0.0032831728 0.043066472 0.0033904314 0.043386932 0.99392974 -0.086315244
1279520754.717 0.99380606 -0.090800479 0.0032906518 0.043345798 0.0034572475 0.043635942 0.99359316 -0.08699102
1289516981.1321 0.9936409 -0.09160161 0.003332004 0.043651115 0.0034766709 0.043943338 0.99362141 -0.087415069
1299513207.5472 0.99330175 -0.092501879 0.003374327 0.043959182 0.0034858603 0.044277206 0.99380809 -0.087792188
1309509433.9623 0.99288487 -0.093149126 0.003378612 0.044282705 0.0035208156 0.044606097 0.99396241 -0.088460281
1319505660.3774 0.99250287 -0.093940765 0.0034042373 0.044653751 0.0035398072 0.044953566 0.99397439 -0.089156196
1329501886.7925 0.99216634 -0.094604701 0.0034206901 0.044964254 0.0035743341 0.04527365 0.99398637 -0.090150297
1339498113.2075 0.9918884 -0.095045686 0.0034138989 0.045323256 0.003574701 0.045597367 0.99352038 -0.090899259
1349494339.6226 0.9916591 -0.095729798 0.0034139617 0.04564495 0.0035389052 0.045963623 0.99308783 -0.091520555
1359490566.0377 0.99155223 -0.096282214 0.0034522098 0.045998342 0.0035561137 0.046297826 0.99296069 -0.092048913
1369486792.4528 0.99142772 -0.096864611 0.0034544729 0.046391208 0.003572071 0.046673194 0.99275929 -0.09249872
1379483018.8679 0.99113387 -0.097368985 0.0035131555 0.046793636 0.0035990514 0.04701519 0.99275273 -0.0928206
1389479245.283 0.99075711 -0.097953826 0.0035102181 0.047120269 0.0036295447 0.047409639 0.99265915 -0.093510538
1399475471.6981 0.99025846 -0.098293483 0.0034941602 0.047520287 0.0036574267 0.047774814 0.99288082 -0.094226867
1409471698.1132 0.98994827 -0.098700531 0.0035789814 0.047914784 0.0036902684 0.048167903 0.99293578 -0.09514226
1419467924.5283 0.98976743 -0.09895581 0.0036028353 0.048282351 0.0037321942 0.048579663 0.99278492 -0.095804632
1429464150.9434 0.98962903 -0.099389046 0.0036624391 0.048704937 0.0037594531 0.048960559 0.99259436 -0.096428782
1439460377.3585 0.98986828 -0.099887505 0.0037469594 0.049159173 0.0038439119 0.049415454 0.99234468 -0.096682891
1449456603.7736 0.98982155 -0.10042444 0.00386055 0.049567472 0.003926116 0.049813308 0.99222529 -0.097095147
1459452830.1887 0.9898299 -0.10124296 0.0039957892 0.049987551 0.0040441062 0.050215378 0.99232394 -0.097391576
1469449056.6038 0.98985237 -0.10189405 0.0041823024 0.050319046 0.0042231418 0.050573863 0.99259233 -0.098099411
1479445283.0189 0.98973721 -0.10257915 0.0043427283 0.050602436 0.0043495358 0.05089885 0.99267781 -0.099015474
1489441509.434 0.98964977 -0.10303599 0.0044155195 0.050938495 0.004459722 0.051229063 0.99251443 -0.099917114
1499437735.8491 0.98944324 -0.10339162 0.0045364592 0.051221527 0.0045776255 0.051481694 0.99236 -0.10076049
1509433962.2642 0.98939383 -0.10390648 0.0046241544 0.051488493 0.004641423 0.05183683 0.99220538 -0.10149539
1519430188.6792 0.98956072 -0.10441452 0.0047196094 0.051791549 0.004716672 0.052083872 0.99207348 -0.1020388
1529426415.0943 0.98952436 -0.10504258 0.0047672521 0.052074753 0.0047664288 0.052350141 0.99192584 -0.10245213
1539422641.5094 0.9895705 -0.10585234 0.0048227916 0.052403722 0.0048187887 0.052694514 0.99207067 -0.10295223
1549418867.9245 0.98931342 -0.10674198 0.0049033882 0.05269039 0.0049188985 0.052989766 0.99227107 -0.10375056
1559415094.3396 0.98929298 -0.10739088 0.0048889443 0.05298385 0.0049229059 0.053304344 0.99241877 -0.1043441
1569411320.7547 0.98911166 -0.10825667 0.0049913051 0.053213295 0.0049805967 0.053590413 0.99223661 -0.10519132
1579407547.1698 0.98910362 -0.10866286 0.0049817152 0.053550452 0.0050316136 0.053865194 0.99187112 -0.10598426
1589403773.5849 0.98895454 -0.10929072 0.0050450545 0.05388426 0.0050297733 0.054193899 0.99168676 -0.10671803
1599400000 0.9889071 -0.10975611 0.0050486997 0.05415595 0.0050082654 0.054515444 0.99123019 -0.10725859
1609396226.4151 0.98893869 -0.11038132 0.0050338572 0.05451332 0.0050303303 0.054839641 0.99116111 -0.10773108
1619392452.8302 0.98888767 -0.11100447 0.0050677657 0.054849535 0.0050061904 0.055176947 0.99107623 -0.10818794
1629388679.2453 0.98861748 -0.11174574 0.0050549544 0.05521553 0.0050515085 0.055578105 0.99130285 -0.10870677
1639384905.6604 0.98852271 -0.11245551 0.0050350842 0.055564754 0.0050237607 0.05595566 0.99157834 -0.10959779
1649381132.0755 0.98822403 -0.11310923 0.0050866343 0.055916861 0.0050725304 0.056322556 0.99157673 -0.11052594
1659377358.4906 0.98798501 -0.11389852 0.005088238 0.056291357 0.0051180292 0.05671823 0.99152708 -0.11145824
1669373584.9057 0.98802525 -0.11434948 0.0051689255 0.056693532 0.0051247231 0.057110313 0.99111849 -0.11212654
1679369811.3208 0.98809713 -0.11504799 0.0051748343 0.057108954 0.0051978994 0.057495344 0.99100608 -0.11266217
1689366037.7358 0.98792052 -0.11564025 0.0052529294 0.057470635 0.0052159652 0.057905771 0.99074972 -0.1129598
1699362264.1509 0.98822951 -0.1162643 0.0052885544 0.057845693 0.0053097475 0.058277875 0.99092847 -0.1134319
1709358490.566 0.98798305 -0.11694165 0.0053406786 0.058206193 0.0053351987 0.058689922 0.99097914 -0.11393513
1719354716.9811 0.98774189 -0.11758181 0.0054519791 0.05862122 0.0054152049 0.059053041 0.99105281 -0.11458302
1729350943.3962 0.98744178 -0.11819911 0.005526023 0.058990613 0.005519079 0.059481598 0.99107093 -0.1155318
