!Keysight Technologies,N5222B,MY61253708,A.15.00.15
!Date: Wednesday, June 19, 2024 10:15:20
!Correction: S11(C  2-Port  ) 
!S21(C  2-Port  ) 
!S12(C  2-Port  ) 
!S22(C  2-Port  ) 
!S2P File: Measurements: S11, S21, S12, S22:
# Hz S  RI   R 50
10000000 0.99857712 -0.0031879246 -0.00010929678 0.00022398426 0.0001958552 0.00031221588 0.99841595 -0.001570344
19996226.415094 0.9999429 -0.0024210215 1.362621e-005 0.00071107782 -1.2587145e-005 0.00062065921 1.0002947 -0.0024136603
29992452.830189 0.99972099 -0.002561748 3.1976058e-005 0.00094083074 -2.6059264e-005 0.00093855447 0.99941212 -0.0026611984
39988679.245283 1.0000612 -0.002969414 6.6057575e-005 0.0013352914 4.9077848e-005 0.0012647837 0.99976277 -0.0031221211
49984905.660377 1.0002128 -0.0036334097 1.4929916e-005 0.0016202594 3.6677811e-006 0.0016547472 0.99991828 -0.0035711229
59981132.075472 1.0004294 -0.0045140982 5.6054443e-005 0.0019171298 3.9663748e-005 0.001960004 0.99994528 -0.004159987
69977358.490566 1.0002733 -0.0051041581 -3.4120894e-006 0.002258522 3.7206668e-005 0.0022513382 0.99977762 -0.0047006439
79973584.90566 0.9999454 -0.0057182908 3.2394193e-005 0.0025806169 9.7790034e-006 0.0026140762 0.99942064 -0.005181253
89969811.320755 0.99995083 -0.0057869554 2.8654118e-005 0.0029429323 1.1460623e-005 0.0029445556 0.9997102 -0.0053855181
99966037.735849 1.0001847 -0.006531015 3.3019052e-005 0.0032619259 7.0926035e-006 0.0032937597 0.9997611 -0.0061580539
109962264.15094 1.0001992 -0.0073992759 5.8373262e-005 0.0035867917 2.91256e-005 0.0036159749 0.9997884 -0.0069369227
119958490.56604 1.0002344 -0.0082814693 9.5032156e-006 0.0039137271 4.4849352e-005 0.0039378013 0.9997716 -0.0077415705
129954716.98113 1.000182 -0.0091915429 2.9321527e-005 0.0042131967 4.5269611e-005 0.0042488063 0.99977434 -0.0086090565
139950943.39623 1.0001066 -0.010000933 4.6724424e-005 0.0045723664 4.7282258e-005 0.0045728241 0.99971163 -0.009333225
149947169.81132 0.99997365 -0.010676056 4.3181935e-005 0.0049101482 4.6448782e-005 0.0049083084 0.99966741 -0.0099228323
159943396.22642 0.99993104 -0.011207908 5.9691258e-005 0.0052242489 5.5916375e-005 0.0052461671 0.99975008 -0.010403752
169939622.64151 0.99990213 -0.011615753 5.8487523e-005 0.0055428701 6.3287036e-005 0.0055634659 0.99978513 -0.010854401
179935849.0566 0.99993706 -0.011911273 8.2048122e-005 0.0058807894 5.6329649e-005 0.0059158318 0.9996869 -0.011176348
189932075.4717 1.0000753 -0.012647718 6.450573e-005 0.0061972588 7.8533543e-005 0.0061997282 0.9998858 -0.011672258
199928301.88679 0.99997383 -0.013430148 6.6802721e-005 0.0065395529 0.00010693551 0.0065564997 0.99980944 -0.01259464
209924528.30189 0.99975365 -0.013920128 0.00010750361 0.0068537151 0.00010141928 0.0068807281 0.99956107 -0.013304979
219920754.71698 0.99992859 -0.014771819 0.0001113133 0.0071732122 9.5935306e-005 0.007202711 0.99947596 -0.013855606
229916981.13208 0.99974114 -0.015662789 0.0001292848 0.0074941074 0.00010002498 0.007536679 0.99950063 -0.014634758
239913207.54717 0.99958259 -0.016327452 0.00013317182 0.0078080571 0.00011962139 0.0078614205 0.99943435 -0.015366068
249909433.96226 0.99962044 -0.016898632 0.00015375647 0.0081399232 0.00012073526 0.0081805168 0.99952579 -0.01597321
259905660.37736 0.9997654 -0.017522097 0.0001521199 0.0084719267 0.00018216949 0.0085161626 0.99974954 -0.016481966
269901886.79245 0.99991232 -0.018217653 0.00015830167 0.0088141672 0.00018375635 0.008838065 1.0000329 -0.017143905
279898113.20755 0.99987912 -0.018865198 0.00016460312 0.0090812286 0.00016864412 0.0091551971 0.99985552 -0.017937139
289894339.62264 0.99984515 -0.019591898 0.00022318307 0.0094735725 0.00021669548 0.00949746 0.99979305 -0.018638551
299890566.03774 0.99985802 -0.020151377 0.00019771443 0.0097688772 0.00019709463 0.0097955819 0.99955285 -0.01907289
309886792.45283 0.99963611 -0.020638578 0.00022566709 0.010086409 0.00020622351 0.010132769 0.99947661 -0.019503683
319883018.86792 0.99970061 -0.021246165 0.00021603564 0.010471091 0.00025962293 0.010474483 0.99969161 -0.02002576
329879245.28302 0.9997859 -0.021981597 0.00025489414 0.010780406 0.00024000183 0.010780171 0.99971193 -0.020802408
339875471.69811 0.99946624 -0.022751302 0.00021182059 0.011055144 0.00027157366 0.011143534 0.99965948 -0.021627702
349871698.11321 0.99970388 -0.023614407 0.00028809905 0.011387607 0.0002673571 0.011441711 0.99969155 -0.022515744
359867924.5283 0.99953514 -0.024276376 0.00027030334 0.011732218 0.00027771574 0.01178809 0.99965501 -0.023427308
369864150.9434 0.9997263 -0.02513954 0.00029441412 0.012062291 0.00028796447 0.012100874 0.99960828 -0.024081826
379860377.35849 0.99951541 -0.025821894 0.00028605992 0.012361393 0.0002960884 0.012407412 0.99959743 -0.024831399
389856603.77358 0.99949014 -0.026405901 0.00032784184 0.012702543 0.00034267968 0.012717593 0.99950993 -0.025314003
399852830.18868 0.99928755 -0.026969433 0.0003319527 0.013026245 0.0003192001 0.013046924 0.9995932 -0.02586019
409849056.60377 0.99930429 -0.027501334 0.00034003649 0.013349897 0.00035462566 0.013381958 0.9994663 -0.026352605
419845283.01887 0.99928403 -0.027859718 0.000397861 0.013663049 0.00033788197 0.013753103 0.99941897 -0.02687782
429841509.43396 0.99931413 -0.028614312 0.00039337017 0.013997441 0.00038148416 0.014040653 0.99959296 -0.027659446
439837735.84906 0.99916315 -0.029524118 0.00040532881 0.014316609 0.00041301711 0.014378414 0.99928129 -0.028523579
449833962.26415 0.99905753 -0.030268699 0.00044165831 0.014633938 0.00042601163 0.014688585 0.99880862 -0.029344767
459830188.67925 0.99887848 -0.030893534 0.00042795716 0.014944066 0.00042968662 0.015019812 0.99861264 -0.029979289
469826415.09434 0.99881327 -0.031652957 0.00049818167 0.015292655 0.00045829685 0.015328426 0.99830741 -0.03049311
479822641.50943 0.99878138 -0.032161757 0.00049586792 0.015596351 0.00043679099 0.015703162 0.99834549 -0.030873194
489818867.92453 0.99886882 -0.032683313 0.00048237527 0.01596261 0.00052204495 0.016030781 0.9986316 -0.031329304
499815094.33962 0.99887323 -0.033284336 0.0005310406 0.016253565 0.00053085526 0.016343899 0.99881417 -0.031888336
509811320.75472 0.99898565 -0.033725701 0.00056608464 0.016553402 0.00054299051 0.016622944 0.99902016 -0.032597698
519807547.16981 0.99894893 -0.034211218 0.00061669759 0.016886065 0.00057306793 0.016952705 0.99896002 -0.033307552
529803773.58491 0.99892426 -0.034726739 0.00060079247 0.017221391 0.00056682527 0.017317075 0.99876487 -0.033754051
539800000 0.9990226 -0.035442337 0.00061717746 0.017534938 0.00057437387 0.017631441 0.99866736 -0.034388676
549796226.41509 0.99885112 -0.036305517 0.00061727967 0.017902741 0.0006052088 0.017979302 0.99857748 -0.034762919
559792452.83019 0.99874663 -0.037073582 0.00060909614 0.018204786 0.00064291805 0.018302936 0.9985224 -0.035288662
569788679.24528 0.99854046 -0.037685722 0.000676136 0.018528709 0.00067865336 0.018611468 0.9987644 -0.036066443
579784905.66038 0.99851966 -0.038181573 0.00069724186 0.018870294 0.00068501395 0.018942999 0.9988147 -0.036685973
589781132.07547 0.99862385 -0.038863659 0.00075143017 0.019184165 0.0006958656 0.01926508 0.99895161 -0.037617147
599777358.49057 0.99876392 -0.0395495 0.00077127106 0.019500863 0.00074341521 0.019629065 0.99898124 -0.038327157
609773584.90566 0.99882519 -0.040250443 0.00077232893 0.01985113 0.00078891055 0.019899178 0.99888563 -0.039180957
619769811.32075 0.99895072 -0.040954202 0.00080764573 0.020171428 0.00082432106 0.020280618 0.99881947 -0.039758444
629766037.73585 0.99879944 -0.041542113 0.00081895944 0.020488624 0.0008563986 0.020540336 0.99867958 -0.040240407
639762264.15094 0.99867052 -0.042189866 0.00086151832 0.020780593 0.00085479859 0.020882662 0.99853849 -0.04072915
649758490.56604 0.99864769 -0.042831019 0.00083612744 0.021078641 0.00087424275 0.021169011 0.99869734 -0.041137308
659754716.98113 0.99854708 -0.043259591 0.00087604206 0.021423317 0.00086258445 0.021503285 0.99871707 -0.041715652
669750943.39623 0.99849474 -0.043804824 0.00089334231 0.02175685 0.00085415272 0.021877676 0.99885869 -0.042524666
679747169.81132 0.99851936 -0.044510864 0.00096041453 0.022112824 0.0009666594 0.022190209 0.99881375 -0.043413721
689743396.22642 0.99864388 -0.045327306 0.00097746123 0.022430453 0.00098723732 0.022534484 0.99865574 -0.04432416
699739622.64151 0.99874032 -0.046096236 0.0010192292 0.022721816 0.0010519642 0.022852238 0.99859977 -0.044946313
709735849.0566 0.99874741 -0.046925485 0.0010704985 0.023056125 0.0010783839 0.023129096 0.99833888 -0.045704097
719732075.4717 0.99860936 -0.047586769 0.0010786685 0.023393746 0.0010906677 0.023495749 0.99840581 -0.046328962
729728301.88679 0.99850929 -0.048237711 0.0011071619 0.023711283 0.0011240281 0.023786474 0.99845445 -0.046774387
739724528.30189 0.99840069 -0.04884398 0.0011444213 0.024008192 0.0011435971 0.024121322 0.99865383 -0.047464326
749720754.71698 0.99833238 -0.049314767 0.0011763661 0.024281649 0.0011921939 0.02440995 0.99858844 -0.048147008
759716981.13208 0.99839962 -0.049879551 0.0012256708 0.024630655 0.0012007114 0.024744987 0.99860501 -0.048928112
769713207.54717 0.99831057 -0.050595284 0.0012443354 0.024942011 0.0012406129 0.025060117 0.99834782 -0.049667478
779709433.96226 0.99850392 -0.051252678 0.0012393465 0.025258508 0.001276607 0.025361804 0.99811268 -0.050273079
789705660.37736 0.99830306 -0.052074015 0.0013144948 0.025582742 0.001299738 0.025698785 0.99784458 -0.050948203
799701886.79245 0.99835217 -0.052864045 0.001311291 0.025918525 0.0013238601 0.02602206 0.99766862 -0.051540941
809698113.20755 0.99820727 -0.053415611 0.0013639883 0.026199818 0.0013366248 0.026311336 0.9977116 -0.052005246
819694339.62264 0.99804759 -0.054104298 0.001401939 0.026532587 0.001412842 0.026662506 0.99774581 -0.05263409
829690566.03774 0.99801689 -0.054674983 0.0014128098 0.026843587 0.0013884185 0.026977535 0.99800587 -0.053451896
839686792.45283 0.99804664 -0.055131525 0.0014361944 0.027168088 0.001480754 0.027272809 0.99802536 -0.054264903
849683018.86792 0.99819106 -0.055818096 0.0014587459 0.027486468 0.0014734243 0.027622189 0.9979254 -0.054970525
859679245.28302 0.99820471 -0.056524962 0.0015017297 0.027822653 0.0015065055 0.027913637 0.99764287 -0.05553925
869675471.69811 0.9980669 -0.057213843 0.001544632 0.028110333 0.0015559709 0.028251464 0.99731183 -0.056098461
879671698.11321 0.99799675 -0.057788704 0.0015807368 0.028430013 0.0015917269 0.028550657 0.99729598 -0.056501076
889667924.5283 0.99785465 -0.058670521 0.0016152654 0.028716061 0.0016058628 0.028848015 0.99711764 -0.057027549
899664150.9434 0.99767315 -0.059313148 0.0016232003 0.029044542 0.0016199276 0.029152848 0.99715805 -0.057506472
909660377.35849 0.99768287 -0.059936583 0.0016486715 0.029330047 0.001656061 0.029462932 0.99733806 -0.058349147
919656603.77358 0.9977026 -0.060607955 0.0016670539 0.029675357 0.00167864 0.029800216 0.99729478 -0.059215724
929652830.18868 0.99772859 -0.061312079 0.0017012171 0.029997116 0.0017097378 0.030105792 0.9971723 -0.060081631
939649056.60377 0.99792802 -0.061872989 0.0017064912 0.030283762 0.0017301254 0.030427024 0.99700391 -0.060790777
949645283.01887 0.99787772 -0.062764026 0.0016828009 0.030628094 0.0017052921 0.030754982 0.9967922 -0.061275307
959641509.43396 0.99781621 -0.063487381 0.0017160885 0.030974764 0.0017708531 0.031122554 0.99674892 -0.061746418
969637735.84906 0.9978075 -0.064175248 0.0017843517 0.031334836 0.0017972197 0.031476259 0.99679387 -0.062140465
979633962.26415 0.99756533 -0.064907372 0.0018506849 0.031599499 0.0018407896 0.031752229 0.99682736 -0.062824078
989630188.67925 0.997666 -0.065405995 0.0018992433 0.031952966 0.0018922351 0.032087319 0.99699152 -0.063349038
999626415.09434 0.99767506 -0.066087514 0.0019009542 0.03224051 0.0019061938 0.032410096 0.99698156 -0.064132243
1009622641.5094 0.99770194 -0.066632107 0.0019252077 0.032571524 0.0019651707 0.032734439 0.99675208 -0.064954564
1019618867.9245 0.99780053 -0.067424685 0.0020024581 0.032884251 0.0020041117 0.033058841 0.99654192 -0.065769404
1029615094.3396 0.99778473 -0.068294227 0.002042843 0.033209767 0.0020571118 0.03332682 0.99619007 -0.066328943
1039611320.7547 0.99779171 -0.069145769 0.0020728288 0.033504568 0.0020665694 0.033660129 0.99620962 -0.066947073
1049607547.1698 0.99766737 -0.070018612 0.0020846706 0.033794273 0.0021148818 0.033957645 0.99615669 -0.06752716
1059603773.5849 0.99755198 -0.070764095 0.002113631 0.034072507 0.0021156752 0.034278754 0.99618328 -0.068084359
1069600000 0.99734467 -0.071394861 0.0020850431 0.034375507 0.0021348866 0.034579895 0.99635088 -0.068800241
1079596226.4151 0.9973771 -0.072044738 0.0021539438 0.034719035 0.0021679327 0.034902357 0.99638242 -0.069516495
1089592452.8302 0.9973951 -0.072705984 0.0021574907 0.035061784 0.0022117412 0.035225544 0.9963153 -0.070242494
1099588679.2453 0.99743062 -0.073404163 0.0021829531 0.035391062 0.0022007655 0.035543781 0.99598688 -0.070866019
1109584905.6604 0.99757242 -0.074180841 0.0022113919 0.035714842 0.0022571059 0.035878509 0.99580365 -0.071417704
1119581132.0755 0.99755192 -0.075192824 0.0022229794 0.03603081 0.0022157673 0.036223896 0.99555045 -0.071820945
1129577358.4906 0.99736249 -0.075835288 0.0022548586 0.036378838 0.0023051351 0.036577836 0.99552375 -0.072262019
1139573584.9057 0.99712032 -0.076678634 0.0022867471 0.03671829 0.0023476575 0.036895983 0.99559391 -0.072908133
1149569811.3208 0.99701083 -0.077549458 0.0023642064 0.037021793 0.0024283896 0.037221584 0.99571294 -0.073633552
1159566037.7358 0.99680793 -0.078183144 0.0023926795 0.037358236 0.0024256678 0.037513293 0.99582589 -0.07466501
1169562264.1509 0.99673939 -0.078881115 0.0023894571 0.037656598 0.0024746824 0.03784949 0.99563658 -0.075404346
1179558490.566 0.9966349 -0.079718828 0.002391669 0.038010981 0.0024757222 0.03820705 0.99557984 -0.076186895
1189554716.9811 0.99661005 -0.080383956 0.0024408987 0.038350675 0.0025200732 0.038529728 0.99528855 -0.076726347
1199550943.3962 0.99661362 -0.081224412 0.0024691764 0.038687591 0.002559457 0.038864948 0.99513084 -0.077102095
1209547169.8113 0.99639779 -0.082108051 0.0025213091 0.03902708 0.0026056143 0.039174058 0.99503511 -0.077472255
1219543396.2264 0.99622643 -0.082853809 0.0025726724 0.039383065 0.0026525869 0.039514914 0.99508882 -0.077805623
1229539622.6415 0.99593139 -0.083622515 0.0026183948 0.039676461 0.0026979689 0.039882798 0.99525315 -0.078487337
1239535849.0566 0.99571961 -0.084257841 0.0026898636 0.039994657 0.0027927281 0.040166371 0.99527776 -0.079396844
1249532075.4717 0.99534333 -0.084926903 0.0027315104 0.040328126 0.0028517786 0.040473793 0.99516994 -0.080176465
1259528301.8868 0.99525416 -0.085409462 0.0027477741 0.040610459 0.0029009581 0.040780339 0.99496984 -0.080992222
1269524528.3019 0.99503607 -0.086191744 0.0028759977 0.040971577 0.0029705279 0.041061871 0.99473792 -0.081656933
1279520754.717 0.99475312 -0.086878255 0.002904471 0.041223612 0.0030162996 0.041344222 0.99451852 -0.082204863
1289516981.1321 0.99460566 -0.08772108 0.0028967373 0.041506838 0.0030179387 0.041622099 0.99450284 -0.082669258
1299513207.5472 0.99428117 -0.088581443 0.0029235613 0.041808743 0.0030412171 0.041928411 0.99462241 -0.083050996
1309509433.9623 0.99391729 -0.08929418 0.0029338384 0.042106282 0.003030397 0.042253379 0.99479181 -0.083807841
1319505660.3774 0.99350846 -0.08995387 0.0029384708 0.042454127 0.0030416697 0.042575631 0.99475592 -0.084394783
1329501886.7925 0.99328595 -0.090687156 0.0029628258 0.042755932 0.0030488223 0.042867996 0.99480319 -0.085317016
1339498113.2075 0.99296373 -0.091219962 0.0029895604 0.04309481 0.0030940333 0.043192185 0.99447036 -0.085994393
1349494339.6226 0.99275988 -0.091776066 0.0029921145 0.043430939 0.0030823587 0.043519814 0.9941268 -0.086624987
1359490566.0377 0.99277425 -0.092290103 0.0029576793 0.043803953 0.0030808561 0.043855667 0.99391997 -0.087125093
1369486792.4528 0.99257886 -0.092785448 0.0029693646 0.04411532 0.0030866936 0.044230245 0.99373019 -0.08759734
1379483018.8679 0.99220192 -0.093367219 0.0030358194 0.044465393 0.0030791529 0.04456877 0.99377751 -0.087858677
1389479245.283 0.99185693 -0.09388724 0.0030580014 0.04486737 0.0031314492 0.044940908 0.99375004 -0.088503897
1399475471.6981 0.99147135 -0.094239742 0.0030628815 0.045200724 0.0031417869 0.045283262 0.99390364 -0.089253038
1409471698.1132 0.99117261 -0.094703183 0.0030990704 0.045558866 0.0031879486 0.045673124 0.99394006 -0.090127662
1419467924.5283 0.99106169 -0.094972849 0.0031375168 0.045950234 0.0031847805 0.046028681 0.9937644 -0.090754926
1429464150.9434 0.99087399 -0.095384836 0.0031693187 0.04630506 0.0032717735 0.046398617 0.99364501 -0.091323674
1439460377.3585 0.99103475 -0.095895857 0.0032280246 0.046761084 0.0032868013 0.046843618 0.99343008 -0.091725767
1449456603.7736 0.9910723 -0.096482024 0.0033449549 0.047170099 0.0034047384 0.047226351 0.99328542 -0.092055798
1459452830.1887 0.99113315 -0.097007394 0.0034584161 0.047545262 0.0035010614 0.047625653 0.99343711 -0.09235847
1469449056.6038 0.99113333 -0.097699076 0.0036296509 0.047878958 0.0036465125 0.047984488 0.99370539 -0.092960745
1479445283.0189 0.99096841 -0.098289795 0.0037474527 0.048160769 0.003750596 0.048264187 0.99380243 -0.093821526
1489441509.434 0.99094439 -0.098792821 0.0038850196 0.048475794 0.003898073 0.04857409 0.99366754 -0.094641447
1499437735.8491 0.99077016 -0.099111408 0.0039812997 0.048719969 0.0040175989 0.048819307 0.99361682 -0.095437229
1509433962.2642 0.99067092 -0.099597342 0.0040846006 0.049007326 0.0040328712 0.049084708 0.99343592 -0.096217789
1519430188.6792 0.99086672 -0.10026297 0.0041288286 0.049275339 0.0041184649 0.049368892 0.99330211 -0.096768498
1529426415.0943 0.99078143 -0.10096413 0.0042010546 0.049549304 0.0042036995 0.049652845 0.99314535 -0.097193092
1539422641.5094 0.99082923 -0.10165626 0.0042359903 0.049861554 0.0042375075 0.049927603 0.99321026 -0.097628362
1549418867.9245 0.9906227 -0.10249661 0.0043009641 0.050118584 0.0042859465 0.05024736 0.99342453 -0.098350435
1559415094.3396 0.99059844 -0.10313857 0.0043643713 0.050385512 0.0043032728 0.050529875 0.99358702 -0.099024951
1569411320.7547 0.99043512 -0.10388102 0.0043796161 0.050666738 0.0043514576 0.050787114 0.99350291 -0.09983927
1579407547.1698 0.99032116 -0.10435297 0.0044015679 0.050936081 0.0044151465 0.051068153 0.99320769 -0.1006828
1589403773.5849 0.99026829 -0.10484102 0.0043917447 0.051243637 0.004393626 0.05134207 0.99294633 -0.10143861
1599400000 0.99025816 -0.10533711 0.0044129984 0.051535632 0.004349228 0.051660057 0.99270719 -0.10177416
1609396226.4151 0.99028748 -0.10595795 0.0043730782 0.051842023 0.0043464997 0.051958822 0.99240953 -0.10231871
1619392452.8302 0.9902221 -0.10659069 0.0043953601 0.052193373 0.0043456703 0.052305669 0.99237996 -0.10272297
1629388679.2453 0.99002123 -0.10727412 0.004431596 0.052532528 0.0043627508 0.05266403 0.99264032 -0.10327959
1639384905.6604 0.98982728 -0.10792781 0.0044286693 0.052835453 0.004377957 0.053041875 0.99292558 -0.10411798
1649381132.0755 0.98956591 -0.10867429 0.0044543445 0.053206015 0.0043980815 0.053398751 0.99287164 -0.10494718
1659377358.4906 0.98945987 -0.10938424 0.0044310037 0.053619217 0.0044156853 0.053755693 0.99283648 -0.10582593
1669373584.9057 0.98935091 -0.10985273 0.0044734492 0.053936191 0.0044486644 0.0541141 0.99249554 -0.10650739
1679369811.3208 0.9893896 -0.11049926 0.0045315493 0.054323852 0.004476551 0.054488856 0.9923358 -0.10704476
1689366037.7358 0.98940492 -0.11112162 0.0045717377 0.054687701 0.0045484751 0.054865055 0.99216646 -0.10745111
1699362264.1509 0.98956501 -0.11168954 0.0045970138 0.055060238 0.0045680329 0.055278011 0.99230856 -0.10779612
1709358490.566 0.9894166 -0.11237836 0.0046525821 0.055382308 0.0046230415 0.055623032 0.99241114 -0.10833997
1719354716.9811 0.98920697 -0.11290625 0.0047282837 0.055804707 0.004681034 0.055983968 0.99246103 -0.10904729
