!Keysight Technologies,N5222B,MY61253708,A.15.00.15
!Date: Wednesday, June 19, 2024 10:24:04
!Correction: S11(C  2-Port  ) 
!S21(C  2-Port  ) 
!S12(C  2-Port  ) 
!S22(C  2-Port  ) 
!S2P File: Measurements: S11, S21, S12, S22:
# Hz S  RI   R 50
10000000 0.99867588 -0.0030204952 -1.5000312e-005 -2.1583832e-005 0.00028760527 0.00025870695 0.9985019 -0.0021214187
19996226.415094 1.0000279 -0.0022787452 3.6667596e-005 0.00064040464 -0.00011797054 0.00073735177 1.000029 -0.0023567677
29992452.830189 0.99976623 -0.0024956465 2.5736925e-005 0.00096566562 -1.891877e-005 0.0009759895 0.99936652 -0.0026538372
39988679.245283 1.0000794 -0.0029748082 1.1885568e-005 0.0013627552 5.653072e-005 0.0012958022 0.99971402 -0.0030910522
49984905.660377 1.0002389 -0.003685087 -2.7090195e-005 0.0016329002 1.3840268e-005 0.0016369288 0.99989867 -0.0036410689
59981132.075472 1.0004179 -0.0044457912 1.7776329e-005 0.0019408223 -3.4098746e-005 0.0019685205 0.99988163 -0.0041978061
69977358.490566 1.0002592 -0.0050295256 5.3253898e-005 0.0022756585 -1.014326e-005 0.0023545465 0.99979013 -0.0047434047
79973584.90566 0.99994171 -0.0056089759 -7.2648982e-006 0.0026004799 2.603617e-005 0.0025991511 0.99935687 -0.005228579
89969811.320755 0.99989176 -0.0056448579 1.5746686e-005 0.0029072734 -4.4450862e-006 0.0029277811 0.99960339 -0.0053882897
99966037.735849 1.0001931 -0.0063786358 2.6469177e-005 0.0032517861 2.7486181e-005 0.0032969422 0.99972039 -0.0061640292
109962264.15094 1.0002413 -0.0072433203 4.6434172e-005 0.0035738682 3.7819147e-005 0.003603057 0.99972683 -0.0069707036
119958490.56604 1.0002302 -0.0081392229 3.5284553e-005 0.003918183 3.5995967e-005 0.0039249863 0.99976003 -0.0077989101
129954716.98113 1.0002017 -0.0091101229 5.4545002e-005 0.0042470847 1.9680127e-005 0.0042239008 0.99976897 -0.0086874962
139950943.39623 1.0001154 -0.0099003445 4.004626e-005 0.0045334673 3.2163342e-005 0.0045799129 0.99967337 -0.0094174016
149947169.81132 0.99996746 -0.010549098 4.8394082e-005 0.0048745959 6.1691273e-005 0.0048864917 0.99959081 -0.010008603
159943396.22642 0.99990517 -0.011078209 7.7778473e-005 0.0052225427 5.6889141e-005 0.0052268361 0.99965978 -0.010468841
169939622.64151 0.99989462 -0.011419736 5.2694115e-005 0.0055322684 6.1060302e-005 0.0055453479 0.99969894 -0.010893047
179935849.0566 0.99995822 -0.011692703 6.2818639e-005 0.0058697341 6.812741e-005 0.0058890563 0.99958181 -0.011243582
189932075.4717 1.0001199 -0.012413591 5.3766416e-005 0.0061639631 7.4563315e-005 0.0062020617 0.9997794 -0.011774212
199928301.88679 1.000047 -0.013356417 9.1171823e-005 0.0064720297 7.8366487e-005 0.0065202401 0.99968773 -0.012630373
209924528.30189 0.9997251 -0.013882458 0.00011708261 0.0068529923 9.8519027e-005 0.0068497974 0.99948275 -0.013291761
219920754.71698 0.99997097 -0.014678687 0.00010622269 0.0071507529 0.0001063603 0.0071804933 0.99944055 -0.013940036
229916981.13208 0.99969661 -0.015489221 0.00010628882 0.0074793985 0.00010540849 0.0074841026 0.99941415 -0.01474452
239913207.54717 0.99957454 -0.016149273 0.00011537268 0.0078018345 0.00012122121 0.0078300741 0.99934852 -0.015458908
249909433.96226 0.99960524 -0.016751975 0.00014237524 0.0081211934 0.00014591846 0.0081358096 0.99937141 -0.016008914
259905660.37736 0.99972188 -0.017327517 0.00013877405 0.0084783584 0.00012284797 0.0085043861 0.99969542 -0.016507655
269901886.79245 0.99993861 -0.018027037 0.0001729317 0.0087923277 0.00016995613 0.0087911943 1.0000035 -0.017243773
279898113.20755 1.0000137 -0.018654585 0.0001566126 0.0091098193 0.00014073891 0.0091106202 0.99986988 -0.01815562
289894339.62264 0.9999212 -0.019380569 0.00017920742 0.0094251838 0.00017038267 0.0094324015 0.99977952 -0.01881972
299890566.03774 0.99984401 -0.019929081 0.00018571783 0.0097356495 0.00018754648 0.0097675258 0.99946004 -0.019259006
309886792.45283 0.99961931 -0.020478204 0.00016483723 0.010082758 0.00021578313 0.010125527 0.99934447 -0.019656099
319883018.86792 0.9997313 -0.021020323 0.00018167356 0.010350619 0.00019336166 0.010432866 0.99948466 -0.020083725
329879245.28302 0.99978411 -0.021772444 0.00022612512 0.010737994 0.00023392495 0.010793857 0.99952054 -0.020839334
339875471.69811 0.99956125 -0.022539273 0.0002582689 0.011050448 0.00022755063 0.011067945 0.99952203 -0.02162613
349871698.11321 0.99975455 -0.023396343 0.00025144732 0.01136988 0.00025745854 0.011381236 0.99957746 -0.022589833
359867924.5283 0.9996413 -0.024196148 0.00029489351 0.011690781 0.00029845675 0.011778835 0.99947548 -0.023468345
369864150.9434 0.99973375 -0.024946481 0.00028103776 0.012019778 0.00030401535 0.012055156 0.99945098 -0.02421245
379860377.35849 0.99962443 -0.025699154 0.00031051645 0.012336893 0.00030141859 0.012385152 0.99940038 -0.024812222
389856603.77358 0.99958873 -0.026343793 0.00031165592 0.012675881 0.00033222465 0.012693372 0.99932718 -0.025232792
399852830.18868 0.99938971 -0.026939929 0.00033796625 0.012991386 0.00033543026 0.01299214 0.99942446 -0.025748223
409849056.60377 0.99923146 -0.027379196 0.00038476961 0.013323919 0.00036262223 0.013351004 0.99944741 -0.026275381
419845283.01887 0.99922872 -0.027846128 0.00035922229 0.013638623 0.00037664967 0.013688356 0.99937642 -0.026782781
429841509.43396 0.99923849 -0.028409451 0.00038465904 0.013971874 0.00043538678 0.013995541 0.99959314 -0.02757901
439837735.84906 0.99906087 -0.029265016 0.00041880435 0.014275309 0.00043144776 0.014328633 0.99924535 -0.028553024
449833962.26415 0.99893922 -0.030118704 0.0004338217 0.014613645 0.00042723212 0.014641448 0.99894279 -0.029302955
459830188.67925 0.9986707 -0.030790776 0.00043161493 0.014894135 0.00043203728 0.014944743 0.99864721 -0.030016303
469826415.09434 0.99862427 -0.031534076 0.00046522869 0.015265514 0.0004399512 0.015307072 0.99844569 -0.030519068
479822641.50943 0.99845684 -0.032027997 0.00048400357 0.015584265 0.00045422651 0.015606739 0.99844694 -0.030940704
489818867.92453 0.99859124 -0.032453686 0.0005136882 0.015926424 0.00052174088 0.015979769 0.99877697 -0.031398028
499815094.33962 0.99864811 -0.033051699 0.00055895979 0.016223587 0.00054020341 0.016285364 0.9991039 -0.032004982
509811320.75472 0.99882156 -0.033381872 0.0005250856 0.016553227 0.00055347325 0.01658986 0.99915165 -0.032780968
519807547.16981 0.99868202 -0.033846259 0.00052508293 0.016893879 0.00054254523 0.016902402 0.99915195 -0.033479601
529803773.58491 0.99866891 -0.034330219 0.00057380553 0.017194815 0.00058836397 0.017252019 0.99895328 -0.034082174
539800000 0.99869525 -0.035091609 0.00056036958 0.017503016 0.0005999743 0.01756404 0.99882555 -0.034653708
549796226.41509 0.99867851 -0.035841823 0.0006098249 0.017885763 0.000628151 0.017923007 0.9986437 -0.035131544
559792452.83019 0.99857199 -0.036544085 0.00062789768 0.018186459 0.00063859392 0.018201336 0.99861515 -0.035641789
569788679.24528 0.99835366 -0.037214011 0.00066756457 0.018482817 0.00065424386 0.018530313 0.99875647 -0.036391407
579784905.66038 0.99841774 -0.037744835 0.00069304812 0.018820252 0.00071305747 0.018843818 0.99890471 -0.037127219
589781132.07547 0.99857295 -0.038394839 0.00073814951 0.01914808 0.00070514716 0.019208636 0.99900281 -0.037915766
599777358.49057 0.99869812 -0.03892687 0.00073257741 0.019461662 0.00072936062 0.019534988 0.99905348 -0.038704544
609773584.90566 0.99888241 -0.039739639 0.0007624866 0.019818945 0.00075705827 0.019843759 0.99891055 -0.03951139
619769811.32075 0.9989574 -0.040454924 0.00083830999 0.020131709 0.00079446752 0.020192483 0.99879169 -0.040172517
629766037.73585 0.99880326 -0.041091204 0.00085482746 0.020390635 0.00084093679 0.020472039 0.99867284 -0.040640086
639762264.15094 0.99862379 -0.041718408 0.00089388806 0.020716537 0.00086966041 0.02076737 0.99849111 -0.041042581
649758490.56604 0.99852049 -0.042283177 0.00090302154 0.021011908 0.0008671172 0.021090912 0.99857682 -0.041474581
659754716.98113 0.9984169 -0.042743921 0.00085510314 0.021384908 0.00085936952 0.021462221 0.99863505 -0.042048335
669750943.39623 0.9985249 -0.043288291 0.00088691292 0.021723181 0.00091410847 0.021785412 0.99873328 -0.042860895
679747169.81132 0.99849272 -0.044002831 0.0009177177 0.02206674 0.00093361677 0.022113871 0.99873459 -0.043791197
689743396.22642 0.99862665 -0.044827908 0.0010041483 0.022416472 0.00099224411 0.022449216 0.99855268 -0.044708103
699739622.64151 0.99880576 -0.045634001 0.0010358561 0.022703791 0.0010212613 0.022752702 0.99848944 -0.045401901
709735849.0566 0.99879187 -0.04652635 0.001070342 0.023027537 0.0010528096 0.023059331 0.99825209 -0.046019122
719732075.4717 0.99867636 -0.047187567 0.0010794662 0.023314543 0.0010983287 0.023390677 0.9982754 -0.046606064
729728301.88679 0.99851042 -0.047790438 0.0011258116 0.023645297 0.0011143787 0.023676272 0.99834061 -0.04706791
739724528.30189 0.99839997 -0.048437074 0.0011522146 0.023949936 0.0011526519 0.024030518 0.99855834 -0.047710061
749720754.71698 0.99826086 -0.048983812 0.0011948077 0.024256408 0.0012112064 0.024341775 0.99858886 -0.048413828
759716981.13208 0.99833691 -0.04945308 0.001200744 0.024572618 0.0012057638 0.024655055 0.9985162 -0.049182177
769713207.54717 0.99824446 -0.050215691 0.0012242086 0.024869749 0.0012554424 0.024920728 0.99826968 -0.049872547
779709433.96226 0.99843341 -0.05080213 0.0012755556 0.025224524 0.0012667027 0.025260754 0.99803054 -0.050487146
789705660.37736 0.9982236 -0.051707298 0.0012932615 0.025538888 0.0012752134 0.025597515 0.99771249 -0.051237792
799701886.79245 0.99822116 -0.052586436 0.0013149893 0.02583806 0.0013378188 0.025903078 0.99764109 -0.051774621
809698113.20755 0.99807715 -0.053094223 0.0013335943 0.026161725 0.0013164231 0.026235646 0.99767631 -0.052209407
819694339.62264 0.99793988 -0.05371207 0.0013636854 0.026443599 0.0013659555 0.026537754 0.99776179 -0.052789986
829690566.03774 0.99783337 -0.054279745 0.0014083041 0.026774522 0.00140741 0.026870307 0.99806601 -0.053688735
839686792.45283 0.99794197 -0.054753125 0.0014348566 0.027040353 0.0014597708 0.027170764 0.99807465 -0.054479718
849683018.86792 0.99803919 -0.055344306 0.0014831321 0.027430737 0.0014842884 0.027476018 0.99795204 -0.055163063
859679245.28302 0.99804157 -0.056008518 0.0014996594 0.027729418 0.0015011188 0.027807985 0.99765921 -0.055843264
869675471.69811 0.9979108 -0.05679512 0.0015531667 0.028045127 0.0015454609 0.028130561 0.99729991 -0.056334138
879671698.11321 0.99790698 -0.057442471 0.0015746425 0.028366253 0.0015862288 0.02844703 0.99732602 -0.056717254
889667924.5283 0.99767816 -0.058151543 0.0016163308 0.028657656 0.0016095079 0.028738532 0.99719632 -0.05721882
899664150.9434 0.99751103 -0.058905512 0.0016335631 0.028977435 0.0016154777 0.029059287 0.99724531 -0.057799637
909660377.35849 0.99749076 -0.059561729 0.0016407645 0.029270235 0.0016493388 0.029395498 0.99740404 -0.05867061
919656603.77358 0.99757069 -0.060132414 0.0016606362 0.029616637 0.0016546086 0.029694406 0.99736536 -0.059592202
929652830.18868 0.99758017 -0.060851544 0.0017180238 0.02993796 0.0016962616 0.030000318 0.99724996 -0.060383201
939649056.60377 0.99779356 -0.061456293 0.0016983803 0.030236304 0.0016962662 0.030322833 0.99709702 -0.06106028
949645283.01887 0.99771857 -0.062268525 0.0016743758 0.030558707 0.0016915858 0.030674277 0.99689525 -0.06158185
959641509.43396 0.99761486 -0.0629403 0.0017396687 0.030894203 0.0017256048 0.031015735 0.99677062 -0.062129796
969637735.84906 0.9975329 -0.063648731 0.001785066 0.031255711 0.0017811945 0.03133972 0.99678952 -0.062433243
979633962.26415 0.99736476 -0.064334095 0.0018189885 0.031533103 0.0018325397 0.031655245 0.99687833 -0.063135132
989630188.67925 0.99742085 -0.06482181 0.0018814905 0.031850956 0.0018622968 0.031965852 0.99707621 -0.063646197
999626415.09434 0.99744201 -0.065454781 0.001896047 0.032180592 0.0019093696 0.032311387 0.99697191 -0.064492583
1009622641.5094 0.99747467 -0.066114724 0.0019107871 0.032495525 0.0019532838 0.032615259 0.99687392 -0.065336645
1019618867.9245 0.9975996 -0.066868901 0.0019893302 0.032813739 0.0020117098 0.032956149 0.99656117 -0.066130757
1029615094.3396 0.99760175 -0.067756206 0.0020451825 0.03313845 0.0020296322 0.033225749 0.99622941 -0.06673035
1039611320.7547 0.99763203 -0.068590313 0.0020792522 0.03342675 0.0020513562 0.033534005 0.99618828 -0.067339242
1049607547.1698 0.99754703 -0.069561653 0.0021019403 0.033718597 0.0020934488 0.033826113 0.99622655 -0.067857556
1059603773.5849 0.99745882 -0.070165426 0.0021306919 0.033997335 0.002133185 0.03412465 0.99622357 -0.068427205
1069600000 0.99717772 -0.070821822 0.0021100501 0.034290481 0.0021428848 0.034447189 0.99643803 -0.069137633
1079596226.4151 0.99721169 -0.071434952 0.002115868 0.034634732 0.0021518194 0.034743384 0.99640751 -0.069927439
1089592452.8302 0.99723262 -0.072101712 0.002150557 0.034955986 0.0021671979 0.035091348 0.99638927 -0.070603013
1099588679.2453 0.99730742 -0.072720557 0.0021489337 0.035294898 0.0021885019 0.035404287 0.9960618 -0.071274161
1109584905.6604 0.99731386 -0.073565573 0.0021974659 0.035634071 0.0022240579 0.035769388 0.99579722 -0.071753442
1119581132.0755 0.99736714 -0.074462295 0.0021982715 0.03597296 0.0022423011 0.036117706 0.99558479 -0.072198629
1129577358.4906 0.99722791 -0.075233549 0.0022173449 0.036314953 0.002272889 0.036453519 0.99547088 -0.072670072
1139573584.9057 0.99692863 -0.076114535 0.0022916673 0.036609061 0.0023611477 0.036766987 0.99561852 -0.073303998
1149569811.3208 0.99683779 -0.076970972 0.0023441932 0.036972355 0.002421577 0.037077293 0.99574959 -0.074036501
1159566037.7358 0.99663115 -0.077617973 0.0023716455 0.037237361 0.0024106549 0.037385885 0.99588472 -0.0750615
1169562264.1509 0.99657977 -0.07817629 0.0023512729 0.037557285 0.0024411287 0.037694585 0.99568975 -0.075829953
1179558490.566 0.99645507 -0.078980997 0.0023841406 0.037914418 0.0024387063 0.038059462 0.99553853 -0.076488882
1189554716.9811 0.99647498 -0.079710275 0.0024331026 0.038241901 0.0025152108 0.038363311 0.99527907 -0.077025682
1199550943.3962 0.99642211 -0.080568701 0.0024560895 0.038609061 0.0025517363 0.038716979 0.99505192 -0.077396542
1209547169.8113 0.99623406 -0.081385836 0.0025140801 0.03892738 0.0025932677 0.038988683 0.9950816 -0.077772021
1219543396.2264 0.99604142 -0.082151264 0.0025560041 0.039254505 0.0026234747 0.039380826 0.99508327 -0.078099236
1229539622.6415 0.9957661 -0.082993031 0.0026353728 0.039582297 0.0026917458 0.03970018 0.9952575 -0.078870386
1239535849.0566 0.99550223 -0.083567888 0.0026875744 0.039903987 0.002769703 0.040019039 0.99538004 -0.079749167
1249532075.4717 0.99528736 -0.084290408 0.0027295405 0.040216014 0.002820017 0.040313657 0.99517739 -0.080606595
1259528301.8868 0.99510479 -0.084752172 0.00276931 0.040521689 0.0028741807 0.040630922 0.99498409 -0.081413567
1269524528.3019 0.99498951 -0.085520446 0.0028286409 0.040847052 0.0029731998 0.040939309 0.99477446 -0.082060039
1279520754.717 0.99462986 -0.086193219 0.002887371 0.041120179 0.002999183 0.041180238 0.9944734 -0.082613967
1289516981.1321 0.99448645 -0.086982787 0.0029105693 0.041426688 0.0029842472 0.041471791 0.994564 -0.083040327
1299513207.5472 0.99417484 -0.087820083 0.0029077325 0.041708551 0.0029905196 0.041781463 0.99472642 -0.083368272
1309509433.9623 0.99376553 -0.08855015 0.0029050345 0.042016681 0.0029862402 0.042077627 0.99478048 -0.084146366
1319505660.3774 0.99339932 -0.089245006 0.0029313508 0.042374168 0.0030151764 0.042399526 0.99476981 -0.084795937
1329501886.7925 0.99319386 -0.089927346 0.0029509123 0.042659067 0.0030549318 0.042712815 0.99482071 -0.085663438
1339498113.2075 0.99291182 -0.090375721 0.0029559042 0.042954568 0.0030743061 0.043011576 0.99443913 -0.086489558
1349494339.6226 0.99269736 -0.091004178 0.0029745721 0.043314539 0.0030336054 0.04337712 0.99406475 -0.086995251
1359490566.0377 0.99265462 -0.091560155 0.0029576588 0.043665908 0.003040053 0.043719776 0.99389124 -0.087517679
1369486792.4528 0.99233711 -0.092077494 0.0029524677 0.044004634 0.0030450886 0.044026937 0.99373972 -0.087974101
1379483018.8679 0.99219972 -0.092670456 0.0029983397 0.044361763 0.0030648694 0.044395473 0.99372208 -0.088305302
1389479245.283 0.99187201 -0.093233675 0.003030289 0.044734642 0.0030872021 0.044739537 0.9936707 -0.088994682
1399475471.6981 0.99146032 -0.093567789 0.0030325055 0.045078553 0.0031007435 0.045115229 0.99394667 -0.089684695
1409471698.1132 0.99116457 -0.093969353 0.0030944592 0.045448516 0.0031326846 0.045473304 0.99398839 -0.090509467
1419467924.5283 0.99099016 -0.09426567 0.0031021433 0.045826383 0.0031516477 0.045877084 0.99370599 -0.091163337
1429464150.9434 0.99078202 -0.094684482 0.0031376425 0.046220653 0.003199378 0.046240263 0.99366724 -0.091668367
1439460377.3585 0.99097979 -0.095177248 0.0032181619 0.046665441 0.0032688268 0.046700809 0.9933989 -0.092061833
1449456603.7736 0.99097347 -0.095700428 0.0033288747 0.047052849 0.0033461787 0.047065519 0.99324632 -0.092402413
1459452830.1887 0.99098539 -0.096413434 0.0034614075 0.047453232 0.0034945626 0.047432162 0.99345994 -0.092681736
1469449056.6038 0.99101472 -0.097100765 0.0036150739 0.047754701 0.0036300011 0.047823917 0.99365848 -0.093327731
1479445283.0189 0.99091262 -0.097710148 0.0037413007 0.048067857 0.0037453992 0.048096184 0.99373317 -0.094223902
1489441509.434 0.99085742 -0.098208547 0.0038816202 0.048397765 0.0039108898 0.04840178 0.99359852 -0.095083445
1499437735.8491 0.99063855 -0.098487049 0.0039948951 0.048643738 0.003988469 0.048655145 0.99352688 -0.095969409
1509433962.2642 0.99063945 -0.099035107 0.004084812 0.048881613 0.0040364689 0.048921727 0.99327159 -0.096649408
1519430188.6792 0.99078739 -0.099554926 0.0041063037 0.049166344 0.0041307509 0.049203742 0.99319887 -0.097165078
1529426415.0943 0.99074304 -0.10014695 0.0041577294 0.049427286 0.0041309856 0.049464658 0.99306864 -0.097659022
1539422641.5094 0.99067974 -0.10101483 0.0042187856 0.049727604 0.0042018001 0.049758177 0.99315619 -0.098071948
1549418867.9245 0.99052429 -0.10183245 0.0042915735 0.050010175 0.0042561861 0.050034754 0.99338973 -0.098874226
1559415094.3396 0.99043125 -0.10244393 0.0043179318 0.050277699 0.0043091662 0.050315812 0.99353635 -0.099440128
1569411320.7547 0.9902969 -0.10317984 0.0043700244 0.050537888 0.0043018768 0.050587639 0.99343115 -0.10024726
1579407547.1698 0.99025732 -0.10363671 0.0043934681 0.050837833 0.0043639396 0.050856184 0.99308521 -0.10109496
1589403773.5849 0.99016786 -0.10427767 0.0043911226 0.051120192 0.0043461062 0.051188916 0.99290097 -0.10182077
1599400000 0.99019635 -0.10473463 0.0043927385 0.051421117 0.0043337727 0.051468953 0.99247575 -0.10220316
1609396226.4151 0.99014014 -0.10540965 0.0043746689 0.051719297 0.0043312572 0.05179036 0.99229091 -0.10273429
1619392452.8302 0.99013305 -0.1059379 0.0043836366 0.052055009 0.0043274872 0.052128471 0.99232906 -0.10314971
1629388679.2453 0.98993164 -0.1066412 0.0044037495 0.052414477 0.0042971577 0.052450567 0.99253434 -0.10364047
1639384905.6604 0.98975176 -0.10734099 0.0043879761 0.052740891 0.0043645045 0.052863386 0.99276334 -0.10455711
1649381132.0755 0.98950362 -0.10793343 0.0043907054 0.053087346 0.004332453 0.053192697 0.99272597 -0.10534859
1659377358.4906 0.98932403 -0.10872608 0.0044469796 0.053444248 0.0044049453 0.053565308 0.99279529 -0.10623598
1669373584.9057 0.98921841 -0.10915667 0.0044386247 0.053793952 0.004459586 0.053905733 0.99239159 -0.10691367
1679369811.3208 0.98931164 -0.10976914 0.0044709491 0.054186702 0.0044450806 0.054275431 0.99215233 -0.10743538
1689366037.7358 0.98929238 -0.11044568 0.0045309477 0.054567575 0.0044732708 0.054668527 0.99198568 -0.10776514
1699362264.1509 0.98943925 -0.11096939 0.004584562 0.05490106 0.0045114858 0.055035729 0.99225956 -0.10821606
1709358490.566 0.98939669 -0.1116831 0.0046280725 0.055233695 0.004552762 0.05541091 0.99218392 -0.10862722
1719354716.9811 0.98909748 -0.11230841 0.0046816561 0.05565729 0.0046161413 0.055816267 0.99235678 -0.10943019
