!Keysight Technologies,N5222B,MY61253708,A.15.00.15
!Date: Wednesday, June 19, 2024 09:06:31
!Correction: S11(C  2-Port  ) 
!S21(C  2-Port  ) 
!S12(C  2-Port  ) 
!S22(C  2-Port  ) 
!S2P File: Measurements: S11, S21, S12, S22:
# Hz S  RI   R 50
10000000 0.99879873 -0.00278759 -1.7506012e-005 0.00022784958 -0.00035014871 0.00052684342 0.99867725 -0.0007866919
19996226.415094 0.99918252 -0.0021981001 2.9887888e-006 0.00075690757 -3.746539e-005 0.00069313502 0.99939793 -0.0021389127
29992452.830189 0.99968779 -0.0024412274 8.5579057e-005 0.0011217513 -4.9598166e-006 0.0011463943 0.99951565 -0.0026688278
39988679.245283 1.0001042 -0.0030702055 -6.0858991e-005 0.0014346053 2.9223083e-005 0.0013478551 0.99964547 -0.0031492114
49984905.660377 1.0001694 -0.0038418472 1.1298805e-005 0.0017706093 1.4377409e-005 0.0017125251 0.99981898 -0.0037807822
59981132.075472 1.0003319 -0.004745096 4.2738568e-005 0.002083787 1.1177734e-005 0.0020968108 0.99979717 -0.0042937696
69977358.490566 1.0001197 -0.0052502565 1.2972876e-005 0.0024213498 1.935492e-006 0.002483695 0.99961692 -0.0047671609
79973584.90566 0.99983919 -0.0058091283 3.5770354e-005 0.0027564904 6.3785585e-005 0.0027896662 0.99934363 -0.0053055584
89969811.320755 0.99985707 -0.0059825182 -4.4908375e-006 0.0030907511 -2.8711511e-006 0.0031625235 0.9995265 -0.0056148767
99966037.735849 1.0000701 -0.0067579895 -1.9459985e-006 0.0034685151 1.2488861e-005 0.0034806712 0.99961782 -0.0064213425
109962264.15094 1.0001123 -0.007672295 1.7220096e-005 0.0038326024 3.1889707e-005 0.0038438924 0.99963838 -0.0072639138
119958490.56604 1.0001978 -0.0086931884 3.103679e-005 0.0041516032 3.8844999e-005 0.0042119231 0.9996357 -0.0081345737
129954716.98113 1.0000768 -0.0096858442 4.2203697e-005 0.0045081759 6.1723287e-005 0.0045093158 0.99964327 -0.0091344118
139950943.39623 0.99999154 -0.010570617 6.931492e-005 0.0048491261 3.5183417e-005 0.0048940424 0.99954319 -0.0098939165
149947169.81132 0.99986261 -0.011258185 5.0444156e-005 0.0052003693 6.7819608e-005 0.0052412888 0.99945742 -0.010489672
159943396.22642 0.99977624 -0.011745512 6.3521089e-005 0.0055511836 5.778065e-005 0.0056050299 0.99955189 -0.010957867
169939622.64151 0.9998287 -0.012151033 6.1821134e-005 0.0059088711 5.8702717e-005 0.005959129 0.9996264 -0.011397704
179935849.0566 0.99984884 -0.01244238 6.0099177e-005 0.0062226858 4.7977432e-005 0.0062917252 0.99957794 -0.011798173
189932075.4717 1.0000033 -0.013223559 9.7147422e-005 0.0065727867 0.00010560686 0.0066450527 0.99974328 -0.012416095
199928301.88679 0.99993265 -0.014125049 0.00010171696 0.0069404636 0.00011084252 0.0070038829 0.99965799 -0.013342321
209924528.30189 0.99971247 -0.014828309 0.00013108226 0.0072866455 9.7332057e-005 0.0073404256 0.99945027 -0.014089659
219920754.71698 0.99965465 -0.015669376 0.00014883932 0.007625212 0.00012095785 0.0076904902 0.9992193 -0.014808625
229916981.13208 0.99941158 -0.016546577 0.00014246977 0.0079668518 0.00014026859 0.008036905 0.99915719 -0.015632898
239913207.54717 0.99934268 -0.017203221 0.00014365406 0.0083186533 0.00014819794 0.0083748931 0.99912828 -0.016281102
249909433.96226 0.99933833 -0.017856359 0.00015761447 0.0086563192 0.00015550386 0.0087120477 0.9992379 -0.016945183
259905660.37736 0.99946219 -0.018515766 0.00016433792 0.0090600587 0.00014760485 0.0090729268 0.99944174 -0.017499
269901886.79245 0.99948144 -0.019036859 0.00016800524 0.0094071552 0.00018992927 0.0093807252 0.99976498 -0.01822181
279898113.20755 0.99975979 -0.019791752 0.00015564961 0.0096753174 0.00018817536 0.0097531565 0.99970126 -0.018948779
289894339.62264 0.99970692 -0.020599902 0.00016728416 0.010030141 0.00021203561 0.010143399 0.99954915 -0.019715101
299890566.03774 0.99967325 -0.021166593 0.00020813057 0.010456554 0.00025312952 0.010491477 0.99932075 -0.02029413
309886792.45283 0.99929839 -0.021735862 0.00024448684 0.010710041 0.00023111608 0.010827277 0.99908173 -0.020712808
319883018.86792 0.99935335 -0.02235043 0.00026687048 0.011095302 0.00030498626 0.011180827 0.9992193 -0.021212816
329879245.28302 0.99941385 -0.02308929 0.00028594211 0.011456327 0.00024319673 0.011520525 0.99933481 -0.021940291
339875471.69811 0.99919313 -0.023934767 0.00027400767 0.011801504 0.00031136617 0.011850197 0.99926633 -0.022816494
349871698.11321 0.99938434 -0.024717063 0.00031691929 0.012136932 0.00030104909 0.012223009 0.99928105 -0.023712873
359867924.5283 0.99929106 -0.02554208 0.00032237871 0.012483962 0.00030783657 0.012515927 0.99929202 -0.024690837
369864150.9434 0.9995153 -0.026343048 0.0003252984 0.012800097 0.00033222465 0.012891049 0.99926311 -0.02542001
379860377.35849 0.9993487 -0.027120084 0.00037315697 0.013185401 0.00037542148 0.01323816 0.99914259 -0.026101172
389856603.77358 0.99928534 -0.027652711 0.0003892621 0.013541352 0.00041438732 0.013618429 0.99915886 -0.026631802
399852830.18868 0.99904203 -0.028293371 0.00042285398 0.013805951 0.00039226841 0.013978859 0.9991836 -0.02705577
409849056.60377 0.99916273 -0.028697683 0.00043666188 0.014182545 0.00041827277 0.014291352 0.99921376 -0.027537264
419845283.01887 0.99907434 -0.02918601 0.00043735886 0.014505732 0.00042469567 0.014611353 0.99915016 -0.028081387
429841509.43396 0.99922574 -0.029928803 0.00047631655 0.014896985 0.00043473952 0.014959426 0.99937791 -0.028860122
439837735.84906 0.99908978 -0.030759573 0.00048249471 0.015235156 0.00050381594 0.015336755 0.99914306 -0.029861435
449833962.26415 0.9989996 -0.031682581 0.00050808489 0.015571207 0.00050715404 0.015635284 0.99879545 -0.030717909
459830188.67925 0.99890673 -0.032418668 0.00048805354 0.0159024 0.00049047591 0.016018149 0.99858606 -0.031443208
469826415.09434 0.99876326 -0.033216983 0.00049667852 0.016262485 0.00050672796 0.016369421 0.99834824 -0.032026947
479822641.50943 0.99877995 -0.033908643 0.00052194344 0.016623084 0.00056130532 0.016721567 0.9984135 -0.032550514
489818867.92453 0.99878967 -0.034419358 0.00059444364 0.016946778 0.00058361283 0.017118402 0.99880505 -0.033084482
499815094.33962 0.99892551 -0.035058439 0.00061834371 0.017308384 0.00061156414 0.017425252 0.99901664 -0.033718377
509811320.75472 0.99903941 -0.035413332 0.0005911311 0.017616116 0.00062057166 0.017762681 0.99921489 -0.034580454
519807547.16981 0.99897695 -0.036126971 0.00064064329 0.017942933 0.00065087713 0.018135441 0.99908614 -0.035298914
529803773.58491 0.99897695 -0.036802441 0.00065199938 0.018339058 0.00069207232 0.018459313 0.998923 -0.035949677
539800000 0.99895227 -0.03746824 0.0006984761 0.018672677 0.00064331735 0.018806824 0.99866521 -0.036667496
549796226.41509 0.99869949 -0.0383479 0.00068160798 0.019046605 0.00071798824 0.019189082 0.99848366 -0.037177414
559792452.83019 0.99847883 -0.03914535 0.00081571378 0.01938802 0.00070644729 0.019530993 0.99839556 -0.037682027
569788679.24528 0.9983514 -0.039870739 0.00076148938 0.019710334 0.0007604803 0.019857267 0.99858987 -0.038422078
579784905.66038 0.99833024 -0.040417545 0.00083126116 0.020102458 0.0007571273 0.020234317 0.99866635 -0.03920912
589781132.07547 0.99852687 -0.041090339 0.00080276374 0.020428184 0.00086299144 0.020600906 0.99872565 -0.040086806
599777358.49057 0.99864429 -0.041766167 0.00084625557 0.020739086 0.00086873397 0.020928863 0.99886805 -0.040948093
609773584.90566 0.99882096 -0.042548157 0.00088225619 0.021098107 0.00093375967 0.021269582 0.99868023 -0.041754592
619769811.32075 0.99894369 -0.043257654 0.00095446408 0.021416426 0.00096934382 0.021577965 0.99864817 -0.042385936
629766037.73585 0.99864352 -0.043875992 0.0009656623 0.021780331 0.00099514611 0.021902997 0.99840593 -0.042854756
639762264.15094 0.99840146 -0.044532225 0.00099208741 0.022072002 0.001006797 0.022218965 0.99828172 -0.043337807
649758490.56604 0.9981935 -0.045091122 0.00099612679 0.022378379 0.00098792324 0.022603612 0.99824882 -0.043809697
659754716.98113 0.9981035 -0.045655817 0.0010250052 0.022766622 0.0010124156 0.02294934 0.99838549 -0.044398576
669750943.39623 0.99804169 -0.046222776 0.0010684845 0.023146987 0.0010559144 0.023292411 0.99840224 -0.045248896
679747169.81132 0.99812824 -0.046866506 0.0010845877 0.02350888 0.001119751 0.023685316 0.99840415 -0.046190776
689743396.22642 0.99828494 -0.047768414 0.0011478402 0.023830619 0.0011128029 0.023982193 0.998276 -0.047103077
699739622.64151 0.99842876 -0.048600346 0.0011789147 0.024171919 0.0011944035 0.024364466 0.99812436 -0.047863632
709735849.0566 0.99837095 -0.049472086 0.0012085642 0.024501881 0.0011959726 0.024693912 0.99784434 -0.048453838
719732075.4717 0.99827594 -0.050216734 0.0012506112 0.024850668 0.0012729494 0.025012519 0.99796212 -0.049103796
729728301.88679 0.99821901 -0.050732046 0.0013050325 0.025176639 0.0013089729 0.025355134 0.99798417 -0.049566478
739724528.30189 0.99802214 -0.051410273 0.0013114265 0.025484953 0.0013143397 0.025698286 0.99824321 -0.050245881
749720754.71698 0.99789584 -0.051955894 0.001376518 0.02584116 0.0013687108 0.026034882 0.99824286 -0.05094859
759716981.13208 0.99797714 -0.052469015 0.0014272369 0.026134152 0.0013980586 0.026391316 0.99813473 -0.051768273
769713207.54717 0.99788862 -0.053249151 0.0014432706 0.026522182 0.0014532143 0.026715331 0.9978897 -0.05249542
779709433.96226 0.99826992 -0.053869486 0.0014785863 0.026888443 0.0014754322 0.027086332 0.99766123 -0.053134561
789705660.37736 0.99798822 -0.054824054 0.0014969092 0.027188703 0.0015034545 0.027386028 0.99734408 -0.053862482
799701886.79245 0.99791408 -0.055666924 0.0015605437 0.027537487 0.0015601488 0.027736822 0.99728203 -0.05446741
809698113.20755 0.99780804 -0.056241021 0.0015542614 0.027868971 0.0015693186 0.028061494 0.99733293 -0.054931656
819694339.62264 0.99767381 -0.056932509 0.001575727 0.028167687 0.001593933 0.028397597 0.99750119 -0.055615634
829690566.03774 0.99767649 -0.057552814 0.0016180929 0.028517885 0.0016365563 0.028767582 0.99769855 -0.056451112
839686792.45283 0.99768102 -0.057994515 0.0016540224 0.028862132 0.0016708951 0.029077936 0.99782979 -0.057381213
849683018.86792 0.99783069 -0.058699675 0.0016793737 0.029198453 0.0017022453 0.029456351 0.99766117 -0.058111876
859679245.28302 0.99787092 -0.059439987 0.0017477944 0.029567953 0.0017237784 0.029767472 0.99733043 -0.05881232
869675471.69811 0.99780881 -0.060204476 0.0018307259 0.029879157 0.0017923126 0.030104259 0.99696374 -0.059263527
879671698.11321 0.99763918 -0.060919456 0.0018174443 0.030214818 0.0018213803 0.030429989 0.99695158 -0.059701424
889667924.5283 0.99745488 -0.061802149 0.0018712673 0.030548608 0.0018936852 0.03078237 0.99678439 -0.060225576
899664150.9434 0.99725449 -0.062477291 0.0018817931 0.030881889 0.001883504 0.031079493 0.99692696 -0.060926497
909660377.35849 0.99721217 -0.063158423 0.0018926123 0.031200051 0.0019149613 0.031444695 0.99702317 -0.061807454
919656603.77358 0.99734133 -0.063858941 0.0019010371 0.031559177 0.0019608121 0.031783912 0.99700296 -0.06276004
929652830.18868 0.997347 -0.064572573 0.0019677002 0.031853471 0.0019730572 0.032101762 0.99686652 -0.063678294
939649056.60377 0.99745822 -0.065296829 0.0019779336 0.032191254 0.0019661784 0.032432653 0.99666393 -0.064389467
949645283.01887 0.99740475 -0.066104777 0.0019816426 0.032523595 0.0019990476 0.032804374 0.9964698 -0.064942926
959641509.43396 0.99741966 -0.066857129 0.0020516599 0.032901153 0.0020673685 0.033147439 0.99628335 -0.065411478
969637735.84906 0.99733424 -0.067555249 0.0020809285 0.033296436 0.0021117004 0.033516221 0.99637961 -0.065790772
979633962.26415 0.9970156 -0.068311274 0.0021505677 0.033558562 0.0021400903 0.033865146 0.9963904 -0.066451058
989630188.67925 0.99709272 -0.068802655 0.0021692803 0.033939071 0.0021955539 0.034227353 0.99658251 -0.06711942
999626415.09434 0.99710131 -0.069479704 0.0021626372 0.034233384 0.0022074133 0.034570359 0.99655926 -0.067923546
1009622641.5094 0.99714088 -0.070191726 0.002242309 0.034627691 0.0022860998 0.034916803 0.99633181 -0.068849936
1019618867.9245 0.99727225 -0.071022451 0.0022990634 0.034970261 0.0023379736 0.035262655 0.99615097 -0.069737226
1029615094.3396 0.99721181 -0.07203728 0.0023580212 0.035260431 0.0023934059 0.035584845 0.99571574 -0.070255727
1039611320.7547 0.99727583 -0.072883248 0.0023904508 0.03563014 0.0024019713 0.03589274 0.99565417 -0.070971757
1049607547.1698 0.9970805 -0.073870949 0.002419428 0.035929788 0.0024689389 0.036221452 0.99563926 -0.071598865
1059603773.5849 0.99685949 -0.074559659 0.002484221 0.036205329 0.0025233384 0.036496557 0.99568272 -0.072121084
1069600000 0.99670452 -0.075142413 0.0024761613 0.03656039 0.0025100224 0.036857016 0.99588072 -0.072861195
1079596226.4151 0.99671668 -0.075820923 0.0024800557 0.036875345 0.0025412482 0.037192561 0.99588293 -0.073625818
1089592452.8302 0.99672115 -0.076512009 0.002512183 0.037258238 0.0025997683 0.037545029 0.99570829 -0.074433625
1099588679.2453 0.99678493 -0.077068299 0.0025366172 0.037580639 0.0025925264 0.037904434 0.99538153 -0.075002193
1109584905.6604 0.99686223 -0.078023046 0.0025412738 0.03791691 0.0026182774 0.03825558 0.99507409 -0.075586721
1119581132.0755 0.99682963 -0.079005681 0.0025681928 0.038292557 0.0026571387 0.038624175 0.99494064 -0.076029897
1129577358.4906 0.99661887 -0.079731315 0.0026095584 0.03865695 0.002690671 0.03898742 0.99486208 -0.076450169
1139573584.9057 0.99638444 -0.080789357 0.0027080383 0.039009791 0.0027695103 0.03929463 0.99491256 -0.077225447
1149569811.3208 0.99624419 -0.081589982 0.0027622024 0.039313961 0.0028280769 0.039678708 0.99504459 -0.077913761
1159566037.7358 0.99601454 -0.082306266 0.0027781017 0.039651863 0.0028598234 0.039977323 0.9951489 -0.078974247
1169562264.1509 0.99584818 -0.082946718 0.0027637593 0.039980698 0.0028853267 0.040302414 0.99492204 -0.079822183
1179558490.566 0.99579614 -0.08370243 0.0028059974 0.040356759 0.0028868881 0.040708687 0.99475044 -0.080524713
1189554716.9811 0.99573767 -0.084413946 0.0028579952 0.040724438 0.0029516704 0.041054755 0.99453002 -0.08112362
1199550943.3962 0.99574065 -0.08527118 0.0029227436 0.041086305 0.0030375496 0.041413337 0.99431217 -0.081422538
1209547169.8113 0.99559295 -0.086229503 0.0029563382 0.041434292 0.0030418262 0.041737903 0.99422818 -0.081810877
1219543396.2264 0.9953326 -0.087028742 0.0029851571 0.041783117 0.003117173 0.042111482 0.99433589 -0.082279071
1229539622.6415 0.99504155 -0.08789587 0.0030476321 0.042110711 0.0032086968 0.042453837 0.9944762 -0.082946122
1239535849.0566 0.99473321 -0.088564038 0.0031385235 0.042448789 0.0032461323 0.042808026 0.99452424 -0.08392936
1249532075.4717 0.9944703 -0.089304805 0.0032026221 0.042788506 0.0033499016 0.043123461 0.99430859 -0.084708557
1259528301.8868 0.99427325 -0.08983779 0.0032392479 0.043148499 0.0034351815 0.043448724 0.99412179 -0.085695684
1269524528.3019 0.99411178 -0.090598643 0.0033257362 0.043448541 0.0034876335 0.04374525 0.99385065 -0.086369663
1279520754.717 0.99377197 -0.091322675 0.0033726753 0.043778781 0.0035309331 0.044041298 0.99358088 -0.086926982
1289516981.1321 0.99358761 -0.092162997 0.0034261635 0.044071283 0.0035450542 0.04436554 0.99365139 -0.087406933
1299513207.5472 0.99326742 -0.093062758 0.0034207962 0.044417955 0.0035589859 0.04464329 0.99380642 -0.087791115
1309509433.9623 0.99283075 -0.093770251 0.0034546852 0.044704657 0.003578973 0.044993591 0.99383861 -0.088485092
1319505660.3774 0.99243224 -0.094508067 0.0034521883 0.045069002 0.0035587205 0.045362014 0.99387085 -0.089120001
1329501886.7925 0.9921301 -0.095093757 0.0034835041 0.045397297 0.0036121849 0.045666538 0.99386811 -0.09016189
1339498113.2075 0.99182332 -0.09562996 0.0035034744 0.045725778 0.0036524134 0.045990583 0.99352211 -0.090903074
1349494339.6226 0.99165273 -0.096260868 0.0034789238 0.046113029 0.0035954784 0.046323955 0.99308944 -0.091481768
1359490566.0377 0.99153143 -0.096788138 0.0035107005 0.046476759 0.0036032759 0.046720535 0.99286211 -0.091985881
1369486792.4528 0.9913668 -0.097450286 0.0035219807 0.046845704 0.003630532 0.047063991 0.992607 -0.092504352
1379483018.8679 0.99108785 -0.098033093 0.0035678816 0.04723065 0.0036635399 0.047438122 0.99269897 -0.09289097
1389479245.283 0.99068028 -0.098504812 0.0036350563 0.047584604 0.0036950409 0.047816589 0.99268645 -0.093542516
1399475471.6981 0.99025393 -0.098914415 0.0036344565 0.047942247 0.0037047081 0.0482224 0.9928475 -0.094273776
1409471698.1132 0.9898814 -0.099345371 0.0036794031 0.048364434 0.0037473808 0.048602421 0.99283671 -0.095090143
1419467924.5283 0.98973924 -0.099523991 0.0036646416 0.048720285 0.0037720073 0.048981503 0.99269116 -0.095823348
1429464150.9434 0.98953545 -0.099960715 0.0037180278 0.049194574 0.0038134344 0.049384277 0.99254537 -0.096444815
1439460377.3585 0.98974288 -0.10053749 0.0037896978 0.049621504 0.0038654618 0.049830846 0.99227464 -0.096776828
1449456603.7736 0.98977488 -0.10109188 0.0039168727 0.050045308 0.0039947303 0.050287291 0.9922204 -0.097122282
1459452830.1887 0.9897902 -0.10178456 0.004087707 0.050463438 0.004116362 0.050682686 0.99229509 -0.09744978
1469449056.6038 0.98987049 -0.10256657 0.0042629372 0.050808199 0.0042820163 0.051060595 0.99254978 -0.098157287
1479445283.0189 0.98963338 -0.10313855 0.0043602735 0.051098611 0.0044133989 0.05136846 0.99259418 -0.099023208
1489441509.434 0.98944056 -0.10369036 0.0045309551 0.051450931 0.0045528952 0.051694315 0.99241233 -0.099924922
1499437735.8491 0.98932725 -0.10405385 0.0046351515 0.051684413 0.004646657 0.051952086 0.99229515 -0.10071966
1509433962.2642 0.98934299 -0.10456133 0.0047531603 0.051963102 0.0047318032 0.052260127 0.9920857 -0.10143149
1519430188.6792 0.98950309 -0.10514992 0.0047783908 0.052235521 0.0048217326 0.052562848 0.99193591 -0.10206056
1529426415.0943 0.98941231 -0.1057485 0.0048800316 0.05257158 0.0048541352 0.052841034 0.99196333 -0.10246208
1539422641.5094 0.98944795 -0.10658947 0.0049209283 0.052909631 0.0048980312 0.053143322 0.99201876 -0.10298584
1549418867.9245 0.9892813 -0.10740724 0.0049662655 0.05318512 0.0049618231 0.053473633 0.9922784 -0.10368645
1559415094.3396 0.98906022 -0.10814846 0.0050449576 0.053480342 0.0050232783 0.053782441 0.9924233 -0.10433069
1569411320.7547 0.9890039 -0.10888052 0.0050923964 0.0537869 0.0050684521 0.054092068 0.99227333 -0.10515824
1579407547.1698 0.9888947 -0.10943776 0.0051230919 0.05404548 0.0051074922 0.054361008 0.99185354 -0.10609916
1589403773.5849 0.98873919 -0.11000311 0.0050842874 0.054362342 0.005090218 0.054671831 0.99160314 -0.10680258
1599400000 0.98873812 -0.11044127 0.0051400103 0.054676253 0.0051034559 0.055009156 0.9912256 -0.10721835
1609396226.4151 0.98878622 -0.11109179 0.0050991001 0.054998096 0.0050579729 0.055283263 0.99104166 -0.1077477
1619392452.8302 0.98877358 -0.11185718 0.0051200725 0.055380758 0.0050669033 0.05571299 0.99103391 -0.10825434
1629388679.2453 0.98845136 -0.11243424 0.0051699132 0.055709839 0.0051245913 0.056062799 0.99121654 -0.10878533
1639384905.6604 0.98825067 -0.11320605 0.0051517049 0.056079678 0.0050954032 0.056472205 0.99148732 -0.10960018
1649381132.0755 0.98810536 -0.11389267 0.0051720385 0.056475814 0.0051399358 0.05683057 0.99143225 -0.1106196
1659377358.4906 0.98796326 -0.11461404 0.0051986985 0.056842584 0.0052032918 0.05722557 0.99145418 -0.1114631
1669373584.9057 0.98780417 -0.11502995 0.0052846945 0.057245992 0.0051897974 0.057641588 0.99118549 -0.11214407
1679369811.3208 0.9878521 -0.11573236 0.0053136516 0.057619289 0.0052464213 0.058006186 0.99096578 -0.11271772
1689366037.7358 0.98776382 -0.11638001 0.0053297132 0.058044586 0.0053007435 0.058387838 0.9906671 -0.11298606
1699362264.1509 0.98800075 -0.11700632 0.0054274295 0.058362905 0.0053638229 0.058806684 0.99086934 -0.11342658
1709358490.566 0.98786855 -0.11765562 0.0054946197 0.058759943 0.0054453462 0.059231728 0.99080503 -0.11400618
1719354716.9811 0.98754549 -0.11834115 0.0055249669 0.059161916 0.0055140033 0.059575446 0.99098647 -0.11472812
1729350943.3962 0.98719847 -0.11893022 0.0056460723 0.059612799 0.0056136362 0.060014132 0.9910059 -0.11570781
