!Keysight Technologies,N5222B,MY61253708,A.15.00.15
!Date: Wednesday, June 19, 2024 09:31:12
!Correction: S11(C  2-Port  ) 
!S21(C  2-Port  ) 
!S12(C  2-Port  ) 
!S22(C  2-Port  ) 
!S2P File: Measurements: S11, S21, S12, S22:
# Hz S  RI   R 50
10000000 0.99870491 -0.0023880303 -0.0002590096 0.00067614572 -0.0001122563 0.00045334009 0.99840915 -0.00070682168
19996226.415094 0.99886823 -0.0023395717 -4.761538e-005 0.00067727489 2.456829e-005 0.00069724047 0.99918705 -0.0023917556
29992452.830189 0.99968046 -0.0023957789 -1.6325503e-005 0.001064711 -1.5944242e-006 0.0010513701 0.99959791 -0.0026272535
39988679.245283 1.0001069 -0.0030071586 -2.7204514e-006 0.0013712166 3.6718586e-005 0.0013938163 0.99971497 -0.0030841976
49984905.660377 1.0001527 -0.0037181973 5.2985211e-005 0.0017231771 1.6829115e-005 0.0017075553 0.99982262 -0.0036383867
59981132.075472 1.0003902 -0.0046031177 -8.6961954e-005 0.0020544692 -8.3690975e-007 0.0019638345 0.99981105 -0.0042608976
69977358.490566 1.0001607 -0.0051593613 -1.202941e-005 0.0023449054 3.0708157e-005 0.0023336913 0.99963599 -0.0047665909
79973584.90566 0.99991292 -0.0057510734 2.5332905e-005 0.0026965139 2.3540109e-005 0.0026442143 0.999385 -0.0052242577
89969811.320755 0.99991 -0.0059385896 1.9236468e-006 0.0029766955 2.5520567e-006 0.0030264179 0.99958074 -0.0054918826
99966037.735849 1.0000658 -0.0066839308 4.3043983e-005 0.0033371509 2.6475172e-005 0.0033404452 0.9996624 -0.006324783
109962264.15094 1.0001091 -0.0075770915 3.8483064e-005 0.003656802 2.815068e-005 0.0037312193 0.9996562 -0.007136941
119958490.56604 1.0001569 -0.0085561275 1.6084989e-005 0.003995697 2.2727181e-005 0.0040229424 0.99968934 -0.0080185533
129954716.98113 1.0001285 -0.009510994 6.0324208e-005 0.0043388521 3.2162061e-005 0.0043676114 0.9996773 -0.0088987947
139950943.39623 1.0000638 -0.010322601 2.9271323e-005 0.0046670949 3.7000296e-005 0.0047047064 0.99957639 -0.0096366964
149947169.81132 0.99986267 -0.010981321 3.3404212e-005 0.0050112042 4.5466237e-005 0.0050366782 0.99952722 -0.010248214
159943396.22642 0.99984968 -0.01152733 5.638646e-005 0.0053351908 6.0055172e-005 0.0053813178 0.99963486 -0.010714084
169939622.64151 0.99985611 -0.011945471 7.0065726e-005 0.005656926 3.9699371e-005 0.0057300343 0.99968034 -0.01115068
179935849.0566 0.99995762 -0.012204528 6.1616767e-005 0.0059955316 6.8306806e-005 0.0060499804 0.99962604 -0.01156041
189932075.4717 1.0000647 -0.012942821 8.9807436e-005 0.0063203927 8.9121051e-005 0.0063941004 0.99979007 -0.012085646
199928301.88679 0.99993134 -0.013765395 9.3457638e-005 0.0066489256 9.1967173e-005 0.0067316233 0.99971449 -0.012989908
209924528.30189 0.99966717 -0.01439929 9.0303249e-005 0.0070031919 0.00011634163 0.0070855259 0.99943697 -0.013727471
219920754.71698 0.99977767 -0.015291929 0.00010908325 0.0073301429 0.0001156244 0.0073807193 0.99929166 -0.014370859
229916981.13208 0.99953008 -0.016127199 0.00012999144 0.0076820469 0.0001283607 0.0077401972 0.99927968 -0.015152186
239913207.54717 0.99941343 -0.016799374 0.00015260116 0.0079959445 0.00011318548 0.0080699027 0.99925399 -0.015802937
249909433.96226 0.99942565 -0.017452598 0.00013363943 0.0083332742 0.00014450564 0.0084054051 0.99937963 -0.016458392
259905660.37736 0.99951231 -0.018100739 0.00015479 0.0086983498 0.00012674136 0.0087643303 0.99950922 -0.017094314
269901886.79245 0.9996897 -0.018691257 0.00024550036 0.0090255039 0.00014669809 0.0090610925 0.99987441 -0.017736837
279898113.20755 0.99972284 -0.019303083 0.00017731893 0.0093071675 0.00016944762 0.0094528906 0.99974382 -0.018455639
289894339.62264 0.99974322 -0.020018786 0.00016068388 0.0096906871 0.00016471185 0.0097810198 0.99964255 -0.019277871
299890566.03774 0.9997201 -0.020627528 0.00016912608 0.0099863103 0.00019010063 0.010086147 0.99944937 -0.019727379
309886792.45283 0.99944478 -0.021118157 0.00020621647 0.010302071 0.00018458976 0.010443535 0.99926144 -0.020110942
319883018.86792 0.99952412 -0.021747798 0.00024512969 0.010648042 0.00020929566 0.010731346 0.99946779 -0.020581871
329879245.28302 0.99952227 -0.022711903 0.00020842301 0.011022839 0.00028127432 0.011080593 0.99950278 -0.021374404
339875471.69811 0.99929643 -0.023306809 0.00030385284 0.011341139 0.00021430745 0.011413089 0.99946833 -0.022164971
349871698.11321 0.99938118 -0.024157524 0.00030009984 0.011701195 0.00024424167 0.011742372 0.99943346 -0.023064435
359867924.5283 0.99941385 -0.0249331 0.00028573954 0.012000615 0.00028944947 0.01208421 0.99936825 -0.024034113
369864150.9434 0.99959546 -0.025699943 0.00030248775 0.012356637 0.00030113175 0.012469172 0.99942112 -0.024769574
379860377.35849 0.9994117 -0.02640754 0.00032086717 0.012675647 0.00033067144 0.012741508 0.99933439 -0.025415972
389856603.77358 0.9994877 -0.026961714 0.00032468885 0.012996207 0.00033810362 0.01308028 0.99928546 -0.025886625
399852830.18868 0.99926049 -0.027484149 0.000393264 0.01330484 0.00038289418 0.013407907 0.99931586 -0.026319921
409849056.60377 0.9991408 -0.027909094 0.00036908983 0.013630816 0.0003395332 0.013737127 0.99928278 -0.026900211
419845283.01887 0.99914336 -0.028485566 0.00038445229 0.013993902 0.00039677089 0.014063189 0.99929243 -0.027390748
429841509.43396 0.99928486 -0.029183596 0.00044216774 0.014311826 0.00046661822 0.014468892 0.99947423 -0.028188407
439837735.84906 0.99906099 -0.030066654 0.00043706945 0.014658109 0.00044893089 0.014795748 0.99918687 -0.029107511
449833962.26415 0.99904668 -0.030905545 0.00046500238 0.014951278 0.0004613325 0.015098136 0.99885798 -0.029919833
459830188.67925 0.99886823 -0.031587481 0.00045720534 0.015298063 0.00045907777 0.015420788 0.99866414 -0.030665904
469826415.09434 0.99886006 -0.032407969 0.00051433081 0.01563476 0.00049748458 0.015768558 0.99846625 -0.031172931
479822641.50943 0.99881649 -0.03295166 0.00054072856 0.015964493 0.00048301835 0.016106129 0.99842477 -0.031576268
489818867.92453 0.99893683 -0.033481956 0.00055224961 0.016321916 0.00054510636 0.016471945 0.99877918 -0.032164395
499815094.33962 0.99898648 -0.03412801 0.00054432405 0.016601559 0.00056586415 0.016756458 0.99899381 -0.032800585
509811320.75472 0.99905467 -0.034605511 0.00055085099 0.016958939 0.0005972553 0.017077696 0.99921966 -0.033542365
519807547.16981 0.99904549 -0.035146683 0.0006042989 0.017217141 0.00060477434 0.017461933 0.99912637 -0.03425929
529803773.58491 0.99893075 -0.035733014 0.00062119961 0.01763254 0.00061466917 0.017737078 0.998891 -0.034899026
539800000 0.99893689 -0.036477923 0.000649906 0.017958984 0.00066838902 0.018113052 0.99876696 -0.035623953
549796226.41509 0.9987545 -0.037289381 0.00065789046 0.018274391 0.00066715386 0.018458791 0.99859095 -0.036095291
559792452.83019 0.99862659 -0.038033932 0.00065628998 0.018611142 0.00070638303 0.018775877 0.99847525 -0.036501318
569788679.24528 0.99851823 -0.038715005 0.0006816797 0.018950177 0.0006877929 0.0190941 0.99871773 -0.037312418
579784905.66038 0.99840873 -0.039290212 0.0007438967 0.019310405 0.00075108046 0.019482734 0.99884164 -0.038004451
589781132.07547 0.99850523 -0.039839089 0.00078457687 0.019636514 0.0007979665 0.019845588 0.99889636 -0.038851917
599777358.49057 0.99861866 -0.040564865 0.00079689361 0.019971065 0.00083424523 0.02013474 0.99893838 -0.039713383
609773584.90566 0.99875379 -0.041326053 0.00081350247 0.020262115 0.00083776645 0.020474538 0.99875772 -0.040540174
619769811.32075 0.9989233 -0.041939884 0.00086106127 0.020598421 0.00090620294 0.020780662 0.99874681 -0.041072279
629766037.73585 0.99878365 -0.042661428 0.000924238 0.020927971 0.00090785325 0.021094687 0.9985702 -0.041631192
639762264.15094 0.99850661 -0.043256491 0.00091979001 0.02123234 0.00093608722 0.021410577 0.99845237 -0.042048171
649758490.56604 0.99839574 -0.043957919 0.00095020887 0.02156228 0.00090953661 0.021746662 0.99849725 -0.042490646
659754716.98113 0.99820352 -0.044404536 0.00086731836 0.021892287 0.00097233802 0.022079302 0.99857163 -0.043049186
669750943.39623 0.99826062 -0.044849157 0.00096391793 0.022255555 0.00096171862 0.022442266 0.99861658 -0.04382506
679747169.81132 0.9982897 -0.045682907 0.00098251458 0.02262879 0.0010113672 0.022837469 0.99863303 -0.044788465
689743396.22642 0.99845171 -0.046443552 0.0010319464 0.022917341 0.0010279566 0.023160685 0.99840111 -0.045756429
699739622.64151 0.99855042 -0.047247559 0.0010954151 0.023252003 0.0010822061 0.023429103 0.99831843 -0.046444237
709735849.0566 0.99851501 -0.048110612 0.0011323119 0.023566326 0.0011412264 0.023828227 0.99806708 -0.047041737
719732075.4717 0.99843073 -0.04881534 0.001165879 0.023945948 0.0011684238 0.024100091 0.99824691 -0.047641635
729728301.88679 0.99833494 -0.049372196 0.0011856202 0.024222001 0.001162542 0.024452152 0.99818462 -0.04811877
739724528.30189 0.99815285 -0.050021291 0.0012187432 0.024538949 0.001233431 0.024769254 0.99845272 -0.048734099
749720754.71698 0.99811262 -0.050475389 0.001241914 0.024834605 0.0012603756 0.025072198 0.99846858 -0.04951407
759716981.13208 0.99813002 -0.0511145 0.00126376 0.02520581 0.0012823539 0.025422694 0.99843097 -0.05027476
769713207.54717 0.99810356 -0.051724315 0.0013115108 0.02551624 0.0013462575 0.025747344 0.99815768 -0.050926864
779709433.96226 0.99825585 -0.052378524 0.0013124114 0.025861092 0.0013752668 0.026067745 0.99790114 -0.051655293
789705660.37736 0.99815953 -0.053331316 0.0014023157 0.026157713 0.0013403315 0.026351931 0.99763298 -0.052328676
799701886.79245 0.99805439 -0.054079145 0.0014145169 0.026465489 0.001403477 0.026734725 0.99746698 -0.052949131
809698113.20755 0.99804872 -0.054712713 0.0014305711 0.026789961 0.0014469069 0.027036998 0.99745536 -0.053391099
819694339.62264 0.99785894 -0.055370957 0.0014301268 0.027114253 0.0014873152 0.027371293 0.99767339 -0.053966433
829690566.03774 0.99791956 -0.056024343 0.0014888961 0.02741609 0.0014713733 0.027730932 0.99788857 -0.054855824
839686792.45283 0.99797183 -0.056417972 0.0015285606 0.027753301 0.0015101391 0.027994901 0.99796945 -0.055624694
849683018.86792 0.99806535 -0.057093523 0.001543721 0.028107956 0.0015817855 0.028346237 0.99784672 -0.056451738
859679245.28302 0.99800944 -0.057788104 0.0015704697 0.028438523 0.0015961817 0.028675772 0.99753159 -0.05708769
869675471.69811 0.99795264 -0.058550894 0.0016380074 0.028760597 0.001647301 0.02899293 0.99718255 -0.057565898
879671698.11321 0.99786907 -0.059213981 0.0016853297 0.029056938 0.0017044166 0.029325148 0.99714392 -0.057985932
889667924.5283 0.99769408 -0.060078979 0.001704433 0.029369976 0.0017222781 0.029651467 0.99699605 -0.058503151
899664150.9434 0.99758053 -0.060794055 0.0017409092 0.029693749 0.0017174622 0.029978903 0.99710107 -0.059083015
909660377.35849 0.9975366 -0.061406642 0.001732653 0.030022101 0.0017377273 0.030294601 0.99729043 -0.059993774
919656603.77358 0.99755311 -0.062100202 0.0017841994 0.030310445 0.0017941548 0.030636286 0.99722695 -0.060912028
929652830.18868 0.9976306 -0.062783748 0.0017951829 0.03067155 0.0018205922 0.030924514 0.99707818 -0.06179136
939649056.60377 0.99776578 -0.063479841 0.0018099323 0.03096626 0.0018253289 0.031274773 0.99696547 -0.06254077
949645283.01887 0.99770021 -0.06430091 0.0017999981 0.031301573 0.0018189911 0.031588539 0.99666107 -0.06304346
959641509.43396 0.99766982 -0.06495586 0.0018384568 0.031670772 0.0018555382 0.031981975 0.99660665 -0.063502908
969637735.84906 0.9975487 -0.065760165 0.0019202037 0.032021359 0.0019160192 0.032310236 0.99666691 -0.063846976
979633962.26415 0.99742979 -0.066438213 0.0019825243 0.032341167 0.001961838 0.032636281 0.99668151 -0.064534888
989630188.67925 0.99740744 -0.066987187 0.001978498 0.032619663 0.002025079 0.032967705 0.99688208 -0.065181136
999626415.09434 0.99752104 -0.067531049 0.0020521581 0.032959927 0.0020066388 0.033276178 0.99679613 -0.065928727
1009622641.5094 0.99745798 -0.068207875 0.0020401357 0.033286549 0.002074182 0.033645153 0.99667335 -0.066830099
1019618867.9245 0.997495 -0.069097683 0.0020982097 0.033630554 0.0021603722 0.033952028 0.99636173 -0.067624792
1029615094.3396 0.99755752 -0.070030868 0.0021537412 0.033939712 0.0021967813 0.034252912 0.99601245 -0.068241686
1039611320.7547 0.99753386 -0.070879102 0.002186805 0.034244351 0.0022255648 0.034570232 0.99597228 -0.068892568
1049607547.1698 0.99742454 -0.071780212 0.0022297392 0.03458168 0.0022501356 0.034907423 0.99600071 -0.069485612
1059603773.5849 0.99728042 -0.072550297 0.0022536963 0.034851655 0.0023036776 0.035187338 0.99600041 -0.070012867
1069600000 0.99710774 -0.073230207 0.0022514034 0.035149194 0.0023026075 0.035511348 0.99616259 -0.07072261
1079596226.4151 0.99702728 -0.073755234 0.0022674333 0.035502788 0.0023485632 0.035834841 0.99615204 -0.071482778
1089592452.8302 0.99708378 -0.074339867 0.0022966061 0.035826243 0.0023480691 0.036197931 0.99603742 -0.07223776
1099588679.2453 0.99709332 -0.07509172 0.0022812542 0.036182724 0.0023776833 0.036496222 0.99575412 -0.072841674
1109584905.6604 0.9973104 -0.075922996 0.00233097 0.036491852 0.002400781 0.036870889 0.99559164 -0.073384568
1119581132.0755 0.99713296 -0.076842681 0.00234742 0.036841255 0.0024401001 0.037209358 0.9952783 -0.073847666
1129577358.4906 0.99702847 -0.07764262 0.0023636874 0.037218947 0.0024657343 0.037561931 0.99519002 -0.074293196
1139573584.9057 0.99677134 -0.078601182 0.0024547912 0.037533578 0.0025171256 0.037915476 0.99528039 -0.074965
1149569811.3208 0.99662793 -0.079434797 0.0025128012 0.037875749 0.0025561184 0.038234256 0.99542236 -0.075687617
1159566037.7358 0.99643564 -0.080076247 0.0025213612 0.038159426 0.0026152898 0.038563211 0.99556345 -0.076663107
1169562264.1509 0.9962697 -0.080669582 0.0025475211 0.038447738 0.0025795512 0.038866024 0.99533343 -0.077453047
1179558490.566 0.99626315 -0.081519127 0.0025424846 0.038851898 0.0026368757 0.039228842 0.99520791 -0.0781831
1189554716.9811 0.99615026 -0.08219552 0.0025816802 0.03918888 0.002687376 0.039554536 0.99495202 -0.078674704
1199550943.3962 0.99620962 -0.08299005 0.0026346371 0.039537512 0.0027781669 0.039900914 0.99478263 -0.079149723
1209547169.8113 0.99593204 -0.08390826 0.0026737237 0.039871097 0.0028027687 0.040218942 0.99468964 -0.079488963
1219543396.2264 0.99581468 -0.084718332 0.0027338932 0.040239494 0.002875335 0.04060474 0.99478292 -0.079859167
1229539622.6415 0.99545628 -0.085601717 0.0028086435 0.04057274 0.0029149633 0.040932443 0.9949652 -0.08057794
1239535849.0566 0.99527556 -0.086271048 0.002866297 0.040890805 0.003004509 0.041243684 0.99503934 -0.081482768
1249532075.4717 0.99499732 -0.086946428 0.0029175698 0.041207138 0.0030359293 0.041541316 0.99486512 -0.08228711
1259528301.8868 0.99479252 -0.087381244 0.002958063 0.041518036 0.0030933786 0.041883871 0.99457002 -0.083156168
1269524528.3019 0.99459904 -0.088119 0.0030085966 0.041822478 0.003130272 0.042160891 0.99440038 -0.083759189
1279520754.717 0.99424964 -0.088818468 0.0030724215 0.042118788 0.0031971349 0.042445317 0.99405789 -0.084418386
1289516981.1321 0.99420387 -0.089795053 0.0031025512 0.042463809 0.0032417076 0.042754836 0.99418598 -0.084874243
1299513207.5472 0.99378598 -0.090577155 0.003106188 0.042761009 0.0032235328 0.043065701 0.99428427 -0.085206211
1309509433.9623 0.99331391 -0.091183886 0.0031134421 0.043067276 0.0032679392 0.043381725 0.99434316 -0.085964352
1319505660.3774 0.99293351 -0.092001483 0.0031263893 0.043365866 0.0032610027 0.043688774 0.99442112 -0.086608499
1329501886.7925 0.99273628 -0.092583716 0.0031309444 0.043668203 0.0032976065 0.044024963 0.99443173 -0.087504178
1339498113.2075 0.9924162 -0.093081892 0.0031712763 0.044018213 0.0033249641 0.044341493 0.99405658 -0.088257849
1349494339.6226 0.99221826 -0.093770087 0.003128767 0.044361088 0.0032883296 0.044685882 0.99368107 -0.088760398
1359490566.0377 0.99209821 -0.094287634 0.003191838 0.044747561 0.0033043474 0.04503227 0.99347568 -0.089365393
1369486792.4528 0.99192262 -0.094815224 0.0031790929 0.045096003 0.003318849 0.04540807 0.99329525 -0.089845508
1379483018.8679 0.99170339 -0.095384583 0.0032071611 0.045469381 0.0033257583 0.045719568 0.99323201 -0.090116777
1389479245.283 0.99129814 -0.09592393 0.0032639951 0.04583174 0.0033486225 0.046126116 0.99325842 -0.090853214
1399475471.6981 0.9908818 -0.096257806 0.003256714 0.046179507 0.0033678878 0.046470657 0.99344325 -0.091565967
1409471698.1132 0.99058998 -0.096680567 0.0033015851 0.046567906 0.0034032036 0.046898834 0.99347705 -0.09239386
1419467924.5283 0.99033904 -0.096994311 0.003340913 0.046946038 0.0034425613 0.04726392 0.9933337 -0.093007237
1429464150.9434 0.99033409 -0.097312003 0.0033633877 0.047354512 0.0034834612 0.047626503 0.99317181 -0.093603313
1439460377.3585 0.99038965 -0.097841069 0.0034290729 0.047797069 0.0035202904 0.048041563 0.99293733 -0.093990088
1449456603.7736 0.99043924 -0.098478004 0.0035462994 0.048189472 0.0036223521 0.048468556 0.99276161 -0.094338685
1459452830.1887 0.99042976 -0.099032372 0.0036737546 0.048609197 0.0037372429 0.048867315 0.99291074 -0.094586432
1469449056.6038 0.99046677 -0.099768609 0.0038275672 0.048946109 0.0039003454 0.049212165 0.99318939 -0.095299035
1479445283.0189 0.99029917 -0.10044835 0.0040109316 0.049202118 0.0040411646 0.049508393 0.99325347 -0.096168324
1489441509.434 0.99018645 -0.1009253 0.0041135717 0.049524769 0.0041953772 0.049843125 0.99318808 -0.096995205
1499437735.8491 0.99003303 -0.10124257 0.0042051636 0.049813561 0.0042633303 0.050100073 0.99302924 -0.097786427
1509433962.2642 0.99003232 -0.10170967 0.0043132203 0.050076798 0.0043237424 0.050387852 0.99277329 -0.098584034
1519430188.6792 0.99013215 -0.10227776 0.004392989 0.050307773 0.0044127349 0.050654344 0.9926796 -0.099105418
1529426415.0943 0.99003875 -0.10287791 0.0044145994 0.05064372 0.0044566877 0.050943658 0.99261487 -0.099475265
1539422641.5094 0.99012345 -0.10373162 0.0044737272 0.050915249 0.0045080739 0.051262029 0.99266869 -0.10009996
1549418867.9245 0.98991394 -0.10456182 0.0045510707 0.051221844 0.0045611467 0.051564209 0.99291623 -0.10073827
1559415094.3396 0.98983949 -0.10521263 0.0046398025 0.051503032 0.0046158731 0.051857356 0.99301839 -0.10141894
1569411320.7547 0.98971808 -0.10599452 0.0046353964 0.051785257 0.0046589682 0.052130215 0.99297482 -0.10220926
1579407547.1698 0.98958373 -0.10651256 0.004675128 0.052041303 0.0046576471 0.052407324 0.99271631 -0.10300738
1589403773.5849 0.98961031 -0.10709545 0.0046463385 0.052346483 0.0047067292 0.052731216 0.99237025 -0.10368451
1599400000 0.98960239 -0.10744959 0.0046261856 0.052652858 0.0046765618 0.053053558 0.99203777 -0.10417682
1609396226.4151 0.98957264 -0.10813601 0.0046220329 0.052981965 0.004687808 0.053363085 0.99183047 -0.10472712
1619392452.8302 0.98945069 -0.10876408 0.0046715736 0.053306464 0.0046970733 0.053664647 0.99186784 -0.10523006
1629388679.2453 0.98921329 -0.10951504 0.0046780203 0.053689912 0.0046500601 0.054062359 0.99204952 -0.10568431
1639384905.6604 0.98905647 -0.11014013 0.0046810848 0.054032907 0.0046723341 0.054448187 0.99233073 -0.10657378
1649381132.0755 0.98879361 -0.11083138 0.0047216956 0.054389015 0.0047031548 0.054794528 0.99225962 -0.1074509
1659377358.4906 0.98860556 -0.11153772 0.0047118813 0.054735739 0.0047506578 0.055205613 0.99216372 -0.10828644
1669373584.9057 0.98863745 -0.11202193 0.004743292 0.055135075 0.0047637862 0.055526558 0.99183911 -0.10900375
1679369811.3208 0.98872101 -0.11263713 0.0047876136 0.055520616 0.0047759237 0.055959947 0.99170607 -0.10955045
1689366037.7358 0.98872697 -0.11325237 0.0048513785 0.055892546 0.0048135296 0.056340594 0.99157548 -0.10989675
1699362264.1509 0.98874879 -0.11382975 0.0049050469 0.056214016 0.0048579397 0.056702603 0.99178636 -0.11030382
1709358490.566 0.98863292 -0.11456089 0.0049477862 0.056655522 0.0049074665 0.05710116 0.99180746 -0.1108394
1719354716.9811 0.98841977 -0.11513528 0.0050246269 0.056992099 0.0050348267 0.057431217 0.99177003 -0.11152035
1729350943.3962 0.98812777 -0.11574927 0.0050675534 0.057377852 0.005088551 0.057871044 0.99184602 -0.11232147
