!Keysight Technologies,N5222B,MY61253708,A.15.00.15
!Date: Wednesday, June 19, 2024 10:42:51
!Correction: S11(C  2-Port  ) 
!S21(C  2-Port  ) 
!S12(C  2-Port  ) 
!S22(C  2-Port  ) 
!S2P File: Measurements: S11, S21, S12, S22:
# Hz S  RI   R 50
10000000 0.99839181 -0.0033956468 -0.00011341223 0.0002053114 0.00021277022 0.00017439583 0.99815309 -0.0021450222
19996226.415094 0.99975777 -0.0022956431 -1.0852527e-005 0.00065685087 -6.5396016e-006 0.00070033397 0.99991661 -0.0021544993
29992452.830189 0.99963051 -0.0025532246 0.00013715745 0.0010220933 -0.00011799455 0.00098875165 0.99919516 -0.0028000176
39988679.245283 1.0001172 -0.0030049533 5.317411e-005 0.0012930719 1.7459388e-005 0.0012597783 0.99969536 -0.003194958
49984905.660377 1.0002717 -0.0036931634 1.5367346e-005 0.0015516432 3.2450771e-007 0.0016333393 0.99994826 -0.0036590695
59981132.075472 1.0004649 -0.0045695007 2.8425595e-005 0.0019336545 -1.0181451e-005 0.0019369589 0.99994051 -0.0042150319
69977358.490566 1.0001936 -0.0050333887 -4.3895525e-006 0.0022608931 1.7568436e-005 0.0022580877 0.99977148 -0.0047540497
79973584.90566 0.99993712 -0.005628109 3.122841e-005 0.0025489535 -1.3652025e-006 0.0025698172 0.99938607 -0.0052278638
89969811.320755 0.9999069 -0.0057292879 2.1810993e-005 0.0028607254 1.7889543e-005 0.002894355 0.99961138 -0.0053778887
99966037.735849 1.0001842 -0.0063778758 1.4800811e-005 0.0032298104 6.4921333e-006 0.0032442971 0.99969208 -0.0061085969
109962264.15094 1.0001973 -0.0072476715 1.6022066e-005 0.0035483253 2.1806278e-005 0.0035376698 0.99970907 -0.0069438964
119958490.56604 1.0002774 -0.0081613362 4.1934079e-005 0.0038658697 3.2369513e-005 0.0038823602 0.99976909 -0.0077960789
129954716.98113 1.0002227 -0.0091843009 3.8596685e-005 0.0041895392 5.6223362e-005 0.0041870507 0.99978971 -0.0086834431
139950943.39623 1.0001281 -0.0099615604 4.7543901e-005 0.0045101382 2.6153211e-005 0.004525986 0.99965572 -0.0094553642
149947169.81132 1.0000008 -0.010590464 4.3395674e-005 0.0048511033 5.3515891e-005 0.0048589623 0.99960649 -0.010031581
159943396.22642 0.99995744 -0.011107236 4.5081135e-005 0.0051613329 4.4220593e-005 0.0051755179 0.99968874 -0.010426372
169939622.64151 0.99991709 -0.011432827 5.6548452e-005 0.0054807207 6.6258304e-005 0.0054969126 0.99972028 -0.010846399
179935849.0566 1.0000434 -0.011669248 6.7562214e-005 0.0058109681 6.7657093e-005 0.0058337222 0.99960566 -0.011198848
189932075.4717 1.0001043 -0.012390733 8.4889354e-005 0.0061032977 0.00011255126 0.006130321 0.99983358 -0.01172179
199928301.88679 1.0000875 -0.013279498 4.6142261e-005 0.0064686895 7.8680343e-005 0.0064720749 0.99972504 -0.012540549
209924528.30189 0.99980092 -0.013738856 0.00010359834 0.0067938534 9.0871472e-005 0.0067715109 0.99954116 -0.013203844
219920754.71698 0.99997771 -0.014587283 0.00010591443 0.0070706075 9.6681295e-005 0.0070982855 0.99943268 -0.013838321
229916981.13208 0.99974382 -0.01547277 9.6793054e-005 0.0074399468 0.00012399768 0.0074184798 0.99939799 -0.014680713
239913207.54717 0.99957573 -0.016132057 0.00012978392 0.007711513 0.00013611781 0.0077430089 0.99933404 -0.015388351
249909433.96226 0.99958348 -0.016731083 0.00012600888 0.008055157 0.00013694982 0.0080560343 0.99942303 -0.015892893
259905660.37736 0.99983674 -0.017259032 0.00013385527 0.0083743948 0.00015717791 0.0083449483 0.99965644 -0.01641047
269901886.79245 0.99993968 -0.017824575 0.00010949781 0.0087142959 0.00014153868 0.0087337894 1.0000772 -0.017138019
279898113.20755 1.0000631 -0.018529117 0.00012265937 0.0090174982 0.0001684546 0.0090471637 0.999982 -0.017981544
289894339.62264 0.9999299 -0.019258022 0.00021130545 0.0093752975 0.00015619583 0.0093351994 0.99974191 -0.018721133
299890566.03774 0.99985129 -0.019854128 0.00016573467 0.0096285446 0.00018475018 0.0096697975 0.9994759 -0.019108951
309886792.45283 0.99963546 -0.020246401 0.00019101665 0.0099880006 0.00017638213 0.009999129 0.99934632 -0.019536808
319883018.86792 0.99966669 -0.020952702 0.00020691706 0.010290062 0.00021450268 0.010345843 0.99947143 -0.020016968
329879245.28302 0.99978155 -0.021766692 0.00022764131 0.010647824 0.00022044079 0.010654107 0.99963748 -0.020632446
339875471.69811 0.9996289 -0.022423968 0.00024238776 0.010982831 0.00026154425 0.010994758 0.99955463 -0.021543227
349871698.11321 0.99980432 -0.023212105 0.00024334714 0.011273611 0.00026286254 0.011329956 0.99966097 -0.022394538
359867924.5283 0.99963331 -0.024109095 0.00027993135 0.01157048 0.00026345439 0.0116649 0.9995687 -0.023366749
369864150.9434 0.99984157 -0.024965793 0.00028740661 0.011880104 0.0003110643 0.011906 0.99954689 -0.024069965
379860377.35849 0.99982011 -0.025602937 0.00029212586 0.012263357 0.00028574769 0.012257964 0.99939209 -0.02475813
389856603.77358 0.99963415 -0.02625674 0.00028378703 0.012550437 0.00033167563 0.012579486 0.99940187 -0.025163472
399852830.18868 0.99935979 -0.02680403 0.00032655057 0.01287616 0.00034722779 0.012881014 0.99943745 -0.025670856
409849056.60377 0.99933541 -0.027297031 0.00036928424 0.013193456 0.00035121044 0.0132397 0.99953634 -0.026149705
419845283.01887 0.99920422 -0.027749717 0.00039041648 0.013538743 0.00034953374 0.01355903 0.99947655 -0.026774794
429841509.43396 0.99922776 -0.028337508 0.00038839737 0.013822431 0.00040754769 0.013891106 0.99953723 -0.027476519
439837735.84906 0.99906027 -0.029343128 0.00042481162 0.014147809 0.00042474025 0.014195936 0.99927193 -0.028383076
449833962.26415 0.99881697 -0.030105144 0.00045287004 0.014459822 0.00042073196 0.014482222 0.9988451 -0.029176772
459830188.67925 0.99858177 -0.030798644 0.00042955345 0.014797311 0.00042071426 0.014788907 0.99862409 -0.029911667
469826415.09434 0.99848139 -0.031527519 0.00047578011 0.015136046 0.00041865325 0.01516355 0.99834281 -0.030405313
479822641.50943 0.99831164 -0.031969175 0.00046530273 0.015443777 0.00045751513 0.015486934 0.9983539 -0.030725293
489818867.92453 0.99841672 -0.032392353 0.00051316386 0.015771007 0.00049658678 0.015817074 0.9986456 -0.031245321
499815094.33962 0.99854589 -0.032876074 0.00051175943 0.016101347 0.00055441353 0.016095579 0.99892473 -0.031767249
509811320.75472 0.99858952 -0.033126257 0.0005685917 0.016405346 0.00056667731 0.016412085 0.99909067 -0.032518387
519807547.16981 0.99852383 -0.033639878 0.00055245822 0.016695086 0.00057408493 0.016726097 0.99910516 -0.033231169
529803773.58491 0.99853349 -0.034164339 0.00058560027 0.016996656 0.00054216664 0.01706209 0.99888313 -0.03374505
539800000 0.99860168 -0.034720913 0.00057518273 0.017352909 0.00058866339 0.017366534 0.99871683 -0.034413606
549796226.41509 0.99848634 -0.035583615 0.00059662387 0.017656285 0.00062386692 0.017763462 0.99855661 -0.034786791
559792452.83019 0.99840099 -0.036283612 0.00061763637 0.017976796 0.00061961822 0.018068662 0.99849331 -0.035308242
569788679.24528 0.99828809 -0.036890775 0.00066886796 0.018333012 0.00063863676 0.018343037 0.99864519 -0.036055744
579784905.66038 0.9983111 -0.037438057 0.00068438705 0.01866252 0.00067329057 0.018665576 0.998891 -0.036727287
589781132.07547 0.99844927 -0.03802985 0.00071403384 0.018965505 0.00067111757 0.019004555 0.99903035 -0.037603676
599777358.49057 0.99859148 -0.038664699 0.00071688741 0.019291192 0.00076737348 0.01934493 0.99898344 -0.038396955
609773584.90566 0.99875546 -0.039455056 0.00076171831 0.019603916 0.00077060168 0.01965303 0.99894154 -0.039132565
619769811.32075 0.99890059 -0.040105641 0.00080414489 0.019894324 0.00079287868 0.019962884 0.99891454 -0.039726198
629766037.73585 0.99872029 -0.040639341 0.00084528793 0.020199483 0.00080547389 0.020277403 0.99863183 -0.040187627
639762264.15094 0.99862975 -0.041312516 0.00081482949 0.02052542 0.00082927546 0.020576585 0.99850202 -0.04068543
649758490.56604 0.99854004 -0.041879952 0.00087629259 0.020863239 0.0008626515 0.020893678 0.99859548 -0.041079625
659754716.98113 0.99837351 -0.042333603 0.00083970465 0.021125674 0.00083896611 0.021232219 0.99873352 -0.041597426
669750943.39623 0.99835122 -0.042818189 0.00084693497 0.021497186 0.00087416545 0.021580197 0.99874616 -0.04239127
679747169.81132 0.99844235 -0.043657184 0.00093400001 0.021845445 0.0009580272 0.021885753 0.99881244 -0.043400966
689743396.22642 0.99864745 -0.044445992 0.00098044518 0.022194728 0.00095088873 0.022195404 0.99863648 -0.044361621
699739622.64151 0.99874949 -0.045264155 0.0010217056 0.022484111 0.00099690724 0.022507535 0.99855918 -0.045069396
709735849.0566 0.99874908 -0.046150133 0.0010237845 0.022810459 0.0010308791 0.022829812 0.99828523 -0.045716055
719732075.4717 0.99860853 -0.04690218 0.0010971879 0.023075894 0.0010759807 0.02314261 0.99835241 -0.046161234
729728301.88679 0.99855626 -0.047395974 0.0011109393 0.023423001 0.0011235457 0.023487721 0.99843591 -0.04664734
739724528.30189 0.99845624 -0.047986314 0.0011337791 0.023737209 0.0011342354 0.023807844 0.99868399 -0.047369748
749720754.71698 0.99829733 -0.048555151 0.0011639083 0.024029903 0.0011673984 0.024077028 0.99869382 -0.047998041
759716981.13208 0.99829638 -0.049097031 0.0012161499 0.024346244 0.0011795564 0.024401695 0.99859071 -0.048849076
769713207.54717 0.99826258 -0.04984495 0.0011877995 0.024631623 0.0012155632 0.024725595 0.99828297 -0.049493611
779709433.96226 0.99839866 -0.050404407 0.0012289661 0.024966095 0.0012284385 0.025018381 0.99805981 -0.050111298
789705660.37736 0.99828881 -0.051356643 0.0012642182 0.025278874 0.0012794761 0.02531166 0.9978379 -0.050849944
799701886.79245 0.99815691 -0.052138627 0.0012966683 0.025603101 0.0012902189 0.025677824 0.99762881 -0.051416397
809698113.20755 0.99807167 -0.05279924 0.001332883 0.025919816 0.0013138223 0.025921775 0.99769992 -0.051826879
819694339.62264 0.99792248 -0.053430408 0.0013559056 0.026190987 0.0013323124 0.0263058 0.99781883 -0.052458376
829690566.03774 0.99781334 -0.053956479 0.0014168127 0.026497155 0.0013897372 0.026602924 0.99807167 -0.053226233
839686792.45283 0.99790412 -0.054336607 0.0014262041 0.026840964 0.001401342 0.026921244 0.99812245 -0.054076165
849683018.86792 0.99794376 -0.054995723 0.0014430676 0.027183825 0.0014798979 0.027224071 0.99790853 -0.054791458
859679245.28302 0.99798584 -0.055591524 0.0014694575 0.027477944 0.0014754171 0.027544601 0.99765325 -0.0554021
869675471.69811 0.99787384 -0.056358278 0.0015663644 0.027756348 0.0015202817 0.027836438 0.99730867 -0.055865556
879671698.11321 0.99775159 -0.056980647 0.0015560999 0.028078528 0.0015281345 0.028169274 0.99729198 -0.056271169
889667924.5283 0.99764615 -0.057767928 0.001567238 0.028377693 0.0015595499 0.028428774 0.99714243 -0.056756794
899664150.9434 0.99742985 -0.058455139 0.0015668292 0.028698845 0.0016068276 0.028774109 0.99716973 -0.057343394
909660377.35849 0.99746716 -0.059035063 0.0016245483 0.029000487 0.0016178084 0.029063784 0.99737948 -0.05817017
919656603.77358 0.99757373 -0.059763029 0.0016025151 0.029329635 0.001623827 0.029408047 0.99737865 -0.059066147
929652830.18868 0.99752718 -0.060441464 0.0016574357 0.029613864 0.0016514184 0.029700506 0.99724567 -0.059966028
939649056.60377 0.99771374 -0.060966015 0.0016773483 0.029939592 0.0016622348 0.029997047 0.99710214 -0.060595214
949645283.01887 0.99768502 -0.061753392 0.0016406419 0.030248826 0.0016766795 0.03033093 0.99683732 -0.061118543
959641509.43396 0.99760127 -0.06240803 0.0016943915 0.030616865 0.0016935216 0.030681876 0.9967472 -0.061594844
969637735.84906 0.99754226 -0.063122809 0.0017454093 0.030960953 0.0017427504 0.031050552 0.99685514 -0.061924666
979633962.26415 0.99736375 -0.063850664 0.0017954754 0.031236771 0.0017876041 0.031342644 0.99684978 -0.062552445
989630188.67925 0.99731433 -0.064303875 0.0018664775 0.031528849 0.0018309187 0.031672139 0.99710274 -0.063140184
999626415.09434 0.99738324 -0.064911038 0.0018463209 0.031861912 0.0018664347 0.031969894 0.99701619 -0.063931376
1009622641.5094 0.99748683 -0.06549184 0.001876629 0.032209679 0.0019322839 0.032297261 0.99691129 -0.064744562
1019618867.9245 0.99757689 -0.066341594 0.0019358518 0.032512963 0.0019834088 0.032613635 0.99662048 -0.065643296
1029615094.3396 0.99761128 -0.067272097 0.0019888533 0.032826826 0.0020076055 0.032889824 0.99630201 -0.066167295
1039611320.7547 0.9976213 -0.068059474 0.0020174449 0.033106115 0.0020454591 0.033207938 0.99620801 -0.066815436
1049607547.1698 0.99744248 -0.068981543 0.0020777148 0.033408869 0.0020483371 0.033490054 0.99623537 -0.067336239
1059603773.5849 0.99738669 -0.069548607 0.0020708209 0.033676293 0.0020643082 0.033783965 0.99630845 -0.067890763
1069600000 0.99720228 -0.070120484 0.0020754766 0.033993937 0.0021048579 0.034109298 0.99642992 -0.068590552
1079596226.4151 0.99722958 -0.070814498 0.0020808107 0.034298569 0.0021085269 0.034413524 0.99651617 -0.069348991
1089592452.8302 0.99723274 -0.071433872 0.0021083979 0.034635 0.0021570278 0.034765001 0.99642336 -0.07000646
1099588679.2453 0.99725735 -0.072042346 0.002113292 0.034949481 0.0021509491 0.035075083 0.99605417 -0.07061398
1109584905.6604 0.99742067 -0.072893739 0.0021680482 0.035290841 0.002196447 0.035401162 0.99581933 -0.071209773
1119581132.0755 0.99735016 -0.073865324 0.0021345862 0.035623364 0.0021884367 0.035725065 0.99566287 -0.071594298
1129577358.4906 0.99725842 -0.074632376 0.0021782257 0.035977662 0.0022441931 0.036085114 0.99554598 -0.071998954
1139573584.9057 0.99697465 -0.075522423 0.0022441028 0.036283113 0.0022896994 0.036422495 0.99567848 -0.072722703
1149569811.3208 0.9969219 -0.076314725 0.0022773785 0.036588069 0.0023461781 0.036719296 0.99582833 -0.073459812
1159566037.7358 0.99674046 -0.07705754 0.002313247 0.036904275 0.0023775902 0.037012719 0.99597085 -0.074437648
1169562264.1509 0.99653065 -0.077587157 0.002351597 0.037184488 0.002385579 0.03731731 0.99579871 -0.075214535
1179558490.566 0.99658555 -0.078342438 0.0023191327 0.037556686 0.0023912834 0.037661374 0.99564672 -0.075927615
1189554716.9811 0.9965198 -0.079075307 0.0023878813 0.037897222 0.0024397485 0.037998352 0.99535328 -0.076438457
1199550943.3962 0.99645329 -0.079860687 0.0024065375 0.038236257 0.0024909452 0.038315255 0.99512666 -0.076791346
1209547169.8113 0.99633163 -0.080809265 0.0024567991 0.038576916 0.0025466252 0.038669243 0.99516881 -0.077093333
1219543396.2264 0.99609381 -0.081589133 0.0025173542 0.038920965 0.0025737793 0.039003771 0.99518108 -0.077537671
1229539622.6415 0.99588555 -0.082281202 0.002566779 0.039208882 0.0026414189 0.039310332 0.99535358 -0.078214318
1239535849.0566 0.99553895 -0.083075106 0.0026397286 0.039491236 0.0026835743 0.03962712 0.99543208 -0.079115212
1249532075.4717 0.99527621 -0.083736986 0.0026363453 0.039828375 0.0027612404 0.03994618 0.99531913 -0.079966187
1259528301.8868 0.9951064 -0.084186912 0.0027124025 0.040139679 0.0028236136 0.040226173 0.99505484 -0.080824107
1269524528.3019 0.99500656 -0.084936351 0.0027746251 0.040455971 0.0028905338 0.040533081 0.99482006 -0.08147186
1279520754.717 0.99463278 -0.085638747 0.0028158401 0.040712196 0.0029189424 0.040791109 0.99460524 -0.081976697
1289516981.1321 0.99461293 -0.086380601 0.0028262753 0.040995646 0.0029544951 0.041082714 0.99462748 -0.082382053
1299513207.5472 0.99430633 -0.087186575 0.0028384533 0.041321509 0.0029360764 0.04138393 0.99483657 -0.082705259
1309509433.9623 0.9937861 -0.08787404 0.0028751735 0.04162664 0.0029656747 0.04167784 0.99491704 -0.083456397
1319505660.3774 0.99349141 -0.088663548 0.002864643 0.041946411 0.0029309774 0.041990962 0.99490905 -0.084108353
1329501886.7925 0.99318337 -0.089256436 0.0028664954 0.042272955 0.0029832311 0.042286392 0.99498689 -0.085083634
1339498113.2075 0.99296278 -0.089827359 0.0028997771 0.042569313 0.0029937476 0.042593889 0.99458933 -0.085848421
1349494339.6226 0.99280328 -0.090368323 0.0028731655 0.042909112 0.0029911748 0.042947855 0.99420714 -0.086416557
1359490566.0377 0.99269593 -0.090918928 0.0028910469 0.043238074 0.0029850118 0.043279029 0.99402308 -0.086895436
1369486792.4528 0.99254167 -0.091478735 0.0029182117 0.043567929 0.0030052625 0.043621697 0.99388951 -0.087360203
1379483018.8679 0.99227774 -0.092029102 0.0028971659 0.0439374 0.0029887301 0.043949757 0.99390179 -0.087612405
1389479245.283 0.99189436 -0.092605919 0.0029793922 0.044329163 0.0030089337 0.044338606 0.99382156 -0.088372797
1399475471.6981 0.99152946 -0.092921317 0.002956273 0.044650193 0.0030532479 0.044669956 0.99403358 -0.088976175
1409471698.1132 0.99118418 -0.093273371 0.003001374 0.045025997 0.0030731563 0.045035206 0.99406838 -0.089839362
1419467924.5283 0.99100703 -0.093664676 0.0030129226 0.04538019 0.0030821869 0.045413278 0.99396414 -0.090489984
1429464150.9434 0.99084067 -0.09405002 0.0030560456 0.045778848 0.0031277277 0.045788318 0.993806 -0.091044784
1439460377.3585 0.99103129 -0.094502866 0.0031267768 0.046222635 0.0031866264 0.046220183 0.99359077 -0.091398492
1449456603.7736 0.99105531 -0.095070228 0.0032720696 0.046621777 0.0032594511 0.046617664 0.99348748 -0.091674969
1459452830.1887 0.991126 -0.095773757 0.0034014173 0.047030952 0.0033762734 0.047001086 0.99358582 -0.092056721
1469449056.6038 0.9910937 -0.096463025 0.0035488093 0.047350936 0.00353886 0.047339518 0.99383777 -0.092671275
1479445283.0189 0.99097091 -0.097047716 0.0036911815 0.047619045 0.003657405 0.04763886 0.99389917 -0.093572274
1489441509.434 0.99088001 -0.097615153 0.0037769973 0.047930278 0.0037844535 0.047938794 0.99383426 -0.094537705
1499437735.8491 0.99074072 -0.097875446 0.0038584173 0.048193499 0.0039092973 0.048204392 0.99370259 -0.095314592
1509433962.2642 0.99076337 -0.098396093 0.0039846143 0.048454493 0.0039617764 0.048440926 0.99348003 -0.096013322
1519430188.6792 0.99078512 -0.098947525 0.0040375981 0.048718035 0.0040154383 0.048725232 0.99332589 -0.096543163
1529426415.0943 0.99077702 -0.099542469 0.0041096359 0.048979007 0.0040625073 0.048972949 0.99331236 -0.096961319
1539422641.5094 0.99082923 -0.10038269 0.0041237706 0.049249832 0.0041309102 0.049320806 0.99340928 -0.097373553
1549418867.9245 0.99069226 -0.10120067 0.0042264266 0.049548041 0.004172992 0.049566053 0.99364698 -0.098183513
1559415094.3396 0.99053466 -0.10185367 0.0042313822 0.049821749 0.0042344481 0.049836516 0.99372303 -0.09875676
1569411320.7547 0.99039543 -0.10264198 0.0042979959 0.050067864 0.004250844 0.050113201 0.99361861 -0.099641368
1579407547.1698 0.9904176 -0.10312067 0.0043076952 0.050318681 0.0042828755 0.050394319 0.99324685 -0.10047632
1589403773.5849 0.99033594 -0.10366735 0.0043050312 0.050639946 0.0042517893 0.05067711 0.99305624 -0.10109988
1599400000 0.99023974 -0.1040549 0.0043082302 0.050932795 0.0042673536 0.050961003 0.99261576 -0.10158733
1609396226.4151 0.99020404 -0.10477164 0.0042697173 0.051252488 0.004221512 0.05126917 0.99250197 -0.1020709
1619392452.8302 0.99021739 -0.10534474 0.004300965 0.051534679 0.0042364318 0.051610962 0.99245644 -0.10255569
1629388679.2453 0.98999518 -0.10602999 0.0043139327 0.05188708 0.0042393301 0.051946588 0.99272329 -0.10293344
1639384905.6604 0.98979878 -0.10666014 0.0042982311 0.052264269 0.0042247083 0.052349493 0.99303287 -0.10381274
1649381132.0755 0.98957372 -0.10737136 0.0043560155 0.052589342 0.0042950362 0.052691534 0.99298185 -0.10479012
1659377358.4906 0.98935115 -0.10815805 0.0043136943 0.052917525 0.0042856652 0.053053997 0.99293363 -0.10558885
1669373584.9057 0.98930275 -0.10854053 0.0043657403 0.053338528 0.0042856331 0.053397313 0.99262804 -0.1062851
1679369811.3208 0.98939389 -0.10914978 0.0043696631 0.053685144 0.0043541184 0.053762805 0.99238467 -0.10677183
1689366037.7358 0.98940206 -0.10981342 0.0044434275 0.05404228 0.0043615736 0.054138038 0.99219137 -0.10705781
1699362264.1509 0.98954213 -0.11043939 0.0044989623 0.05442581 0.0043866914 0.054522756 0.99237478 -0.10747133
1709358490.566 0.98943061 -0.11103995 0.0044970019 0.054762993 0.0044602156 0.054903358 0.99247158 -0.10799441
1719354716.9811 0.98917341 -0.11166492 0.0045828111 0.055102054 0.0045356117 0.055243738 0.99246645 -0.10866225
