!Keysight Technologies,N5222B,MY61253708,A.15.00.15
!Date: Wednesday, June 19, 2024 08:54:10
!Correction: S11(C  2-Port  ) 
!S21(C  2-Port  ) 
!S12(C  2-Port  ) 
!S22(C  2-Port  ) 
!S2P File: Measurements: S11, S21, S12, S22:
# Hz S  RI   R 50
10000000 0.99854702 -0.0021016002 0.00017981997 0.00068182201 -0.00013496116 0.00084375724 0.99869132 -0.0008225143
19996226.415094 0.99920011 -0.0020800233 0.00012178454 0.00071564945 2.6766647e-005 0.00071398111 0.99928218 -0.0021151602
29992452.830189 0.99980861 -0.0025812984 4.2085303e-006 0.001072447 -1.9140367e-005 0.0011168339 0.99947137 -0.0026578605
39988679.245283 1.0000836 -0.0031448156 9.0279063e-006 0.0014792484 9.6309232e-006 0.0014950964 0.9996919 -0.0032524019
49984905.660377 1.0001547 -0.0039595366 1.555396e-005 0.0018167729 2.8880546e-005 0.0018193432 0.99980342 -0.003875494
59981132.075472 1.0002221 -0.0047942102 4.401023e-006 0.0021679942 3.5244797e-005 0.0021701022 0.99974924 -0.0044502318
69977358.490566 0.99998814 -0.0053340029 4.1114399e-006 0.0025741307 3.5637378e-005 0.0025457384 0.99966067 -0.0049296394
79973584.90566 0.99979448 -0.0058738589 1.6231206e-005 0.0029368035 2.5074696e-006 0.0029176315 0.99939913 -0.0054722428
89969811.320755 0.99980104 -0.006162852 1.8379185e-005 0.0032701604 4.6626898e-005 0.003276268 0.9995209 -0.0058303773
99966037.735849 0.99997056 -0.0069440305 4.2658008e-005 0.0036205684 2.6547525e-005 0.0036529147 0.99959904 -0.0066059828
109962264.15094 1.0000381 -0.0078879446 3.0198484e-005 0.0039800317 5.7772617e-005 0.0039972137 0.99958414 -0.0075068027
119958490.56604 1.000108 -0.0089264214 4.8546121e-005 0.0043538688 5.6196935e-005 0.0043576043 0.9996295 -0.0084503293
129954716.98113 1.0000423 -0.0099910796 6.2632025e-005 0.0047019846 8.0431695e-005 0.0047103018 0.99961513 -0.0093955994
139950943.39623 0.99994361 -0.010876013 3.3106684e-005 0.0050665732 4.941845e-005 0.00510559 0.99953401 -0.010185618
149947169.81132 0.99981606 -0.011546284 6.890716e-005 0.005436819 6.3344603e-005 0.0054404223 0.99944574 -0.010789752
159943396.22642 0.99973935 -0.01209563 7.9897465e-005 0.0057754568 7.5736782e-005 0.0058247554 0.99956852 -0.011269361
169939622.64151 0.99978077 -0.012460686 7.3401665e-005 0.0061468249 7.8910089e-005 0.006186659 0.99963462 -0.011704646
179935849.0566 0.99982578 -0.012774616 9.0126181e-005 0.0065316185 9.8833581e-005 0.0065254248 0.99960303 -0.012156367
189932075.4717 0.99997711 -0.013520807 7.3920703e-005 0.0068812529 9.7732525e-005 0.0069292802 0.99974573 -0.012760162
199928301.88679 0.99992424 -0.014439732 0.0001218426 0.0072368281 0.00013120915 0.0072684726 0.99968117 -0.013683885
209924528.30189 0.9996314 -0.015172437 0.00011284882 0.0075869691 9.8463963e-005 0.0076262187 0.99941337 -0.014521047
219920754.71698 0.99959421 -0.016122162 0.00015011313 0.0079617556 0.00016126456 0.0079993457 0.99925125 -0.015216768
229916981.13208 0.9992702 -0.017002851 0.00015134225 0.0082841758 0.00014315685 0.0083723115 0.99913841 -0.016051859
239913207.54717 0.99921566 -0.01769834 0.00013998098 0.0086616278 0.00016585327 0.008713169 0.99912041 -0.01673053
249909433.96226 0.99928057 -0.01829648 0.00016912399 0.0090451036 0.00017820159 0.0090748854 0.99927467 -0.017398715
259905660.37736 0.99943066 -0.018876523 0.00020812731 0.0093788644 0.00020409469 0.0094288019 0.99942088 -0.017976075
269901886.79245 0.99954498 -0.019597813 0.00020160875 0.0097930171 0.00019838777 0.0098372605 0.99983329 -0.018662617
279898113.20755 0.9996745 -0.0202398 0.00024460698 0.010122883 0.00023826212 0.010175909 0.99965191 -0.019518182
289894339.62264 0.99959791 -0.021156311 0.00022427086 0.010421768 0.0002327296 0.010564072 0.99956262 -0.020389497
299890566.03774 0.99961299 -0.021758735 0.00020799157 0.010838044 0.00027482305 0.010961103 0.99929512 -0.020838916
309886792.45283 0.99923217 -0.022440888 0.0002526613 0.011184575 0.00027797744 0.011263744 0.9991799 -0.021275617
319883018.86792 0.99923801 -0.022982597 0.00026866049 0.011578331 0.00033611804 0.011626767 0.99923247 -0.021799326
329879245.28302 0.99914992 -0.023760676 0.00030773692 0.011963626 0.0002647019 0.011993186 0.99928367 -0.022521257
339875471.69811 0.99904001 -0.024408385 0.00033263571 0.012292111 0.00029902556 0.012359234 0.99924397 -0.023438163
349871698.11321 0.99937183 -0.02534008 0.00039031636 0.012633135 0.00033172918 0.012769857 0.99929243 -0.024404228
359867924.5283 0.99913394 -0.026129186 0.00035051163 0.013002757 0.00031961687 0.013118377 0.99922085 -0.025321454
369864150.9434 0.99939424 -0.027039379 0.00034605572 0.013314718 0.00036779465 0.013461281 0.99922204 -0.026056558
379860377.35849 0.99927902 -0.027751938 0.00039360207 0.013758087 0.0004163906 0.013812792 0.99917895 -0.026875377
389856603.77358 0.99924082 -0.028280944 0.00040367991 0.014074684 0.00040169293 0.014177395 0.99916083 -0.027282178
399852830.18868 0.9989568 -0.028960466 0.0004456318 0.014407787 0.00045222649 0.01451539 0.99914789 -0.027728587
409849056.60377 0.99889255 -0.029381171 0.00046175526 0.014793585 0.00048581211 0.014892089 0.99920917 -0.028225727
419845283.01887 0.99895418 -0.029910386 0.00048532756 0.015151417 0.00048148958 0.015280344 0.9991352 -0.028796136
429841509.43396 0.99901581 -0.030588239 0.00052358024 0.015539501 0.00050276285 0.015644297 0.99935579 -0.029622167
439837735.84906 0.99889576 -0.031423137 0.00056572584 0.015841354 0.00051939883 0.015971279 0.99917352 -0.030608654
449833962.26415 0.9988749 -0.03236571 0.00053614751 0.016195452 0.00052129431 0.016337628 0.99885273 -0.031455755
459830188.67925 0.99884927 -0.033154339 0.00055086985 0.016552586 0.00053725857 0.016674347 0.99861223 -0.032312483
469826415.09434 0.99870366 -0.034084529 0.00056452304 0.016912643 0.00054565398 0.017067691 0.99836075 -0.032874435
479822641.50943 0.99866188 -0.034692302 0.00058340724 0.017307339 0.00057218294 0.017446302 0.99840784 -0.033369042
489818867.92453 0.99865192 -0.035265654 0.00063822232 0.017648559 0.0006494727 0.017787727 0.99877042 -0.033964485
499815094.33962 0.99876964 -0.035865515 0.00065690698 0.018014146 0.00067390548 0.018165659 0.99905831 -0.034570277
509811320.75472 0.99889767 -0.036377952 0.00069371035 0.018345205 0.00065059157 0.018471569 0.99912947 -0.035495464
519807547.16981 0.99886322 -0.036915839 0.0007230998 0.018768148 0.00071469415 0.018881997 0.99911451 -0.036260575
529803773.58491 0.99877751 -0.037578076 0.00070408452 0.019140445 0.00072289445 0.019228619 0.99893188 -0.036962807
539800000 0.99874455 -0.038469061 0.00073903124 0.019441342 0.00077961874 0.019611621 0.99863374 -0.037657082
549796226.41509 0.99851841 -0.039340138 0.00072014425 0.019843187 0.00080021843 0.019972956 0.99843794 -0.038137943
559792452.83019 0.99839425 -0.040057302 0.00083632767 0.020193212 0.00083399285 0.020292744 0.99835217 -0.038651288
569788679.24528 0.99813861 -0.040731281 0.00082350057 0.020570174 0.00084235752 0.020673344 0.99846542 -0.039459199
579784905.66038 0.99815488 -0.041369684 0.00086933281 0.020954262 0.00082751899 0.021053735 0.99866509 -0.040239818
589781132.07547 0.99833566 -0.042094618 0.00089039933 0.021252358 0.00091646146 0.021419521 0.99879086 -0.041195542
599777358.49057 0.99844646 -0.042743355 0.00093780924 0.021622354 0.00096263643 0.021819511 0.99878216 -0.04199785
609773584.90566 0.99866378 -0.043546021 0.00096100336 0.021989688 0.00099717896 0.022142682 0.99860138 -0.042916253
619769811.32075 0.99868613 -0.044305801 0.0010665767 0.022356488 0.0010470925 0.022494385 0.99853927 -0.043399513
629766037.73585 0.99842131 -0.044931859 0.0010846611 0.022675553 0.0011183405 0.022840904 0.99832094 -0.043944776
639762264.15094 0.99819446 -0.045591533 0.0011127451 0.023027174 0.0010734531 0.023155013 0.9982003 -0.044427902
649758490.56604 0.99819946 -0.046227604 0.0011195396 0.023377879 0.0011037197 0.023521105 0.99825805 -0.044890106
659754716.98113 0.99787521 -0.046718091 0.0011295471 0.023684889 0.0010997634 0.02387698 0.998245 -0.045478582
669750943.39623 0.99791253 -0.04722777 0.0011386289 0.024091564 0.0011482127 0.024274299 0.99836081 -0.046372473
679747169.81132 0.99794334 -0.048057795 0.0012004932 0.024503132 0.0012088029 0.024652034 0.99831969 -0.047364078
689743396.22642 0.99803805 -0.048925012 0.00125694 0.024839526 0.0012582531 0.025021942 0.99812043 -0.048348814
699739622.64151 0.99819052 -0.049711347 0.0012863791 0.025243789 0.00129114 0.025362607 0.99801409 -0.049034536
709735849.0566 0.99819922 -0.050677389 0.0013835968 0.025519567 0.0013419277 0.02571528 0.99777031 -0.049764268
719732075.4717 0.99801213 -0.051397264 0.0013562571 0.02588186 0.0014005704 0.02606325 0.9978596 -0.050356984
729728301.88679 0.99791181 -0.05193612 0.0013782056 0.0262338 0.0013959715 0.026377089 0.99792135 -0.05076915
739724528.30189 0.99781156 -0.052564621 0.0014534323 0.026593762 0.0014387388 0.026780084 0.9980818 -0.051524863
749720754.71698 0.99769783 -0.053122595 0.0015518479 0.026919642 0.0014964095 0.027129985 0.99808633 -0.052254796
759716981.13208 0.99774486 -0.053643405 0.0015117778 0.027292848 0.0015107533 0.027473815 0.9980709 -0.053055465
769713207.54717 0.99767286 -0.054457366 0.001563916 0.027615037 0.0015946934 0.027819915 0.99782211 -0.053713799
779709433.96226 0.99768037 -0.055081893 0.0015946846 0.027983569 0.0016045409 0.028173832 0.99754369 -0.054475836
789705660.37736 0.99771905 -0.056070417 0.0016458975 0.028339269 0.0016702842 0.028541988 0.99723601 -0.055151999
799701886.79245 0.99764597 -0.057026595 0.0016895151 0.028675798 0.0016816594 0.028862923 0.99716115 -0.05582422
809698113.20755 0.99761677 -0.057571098 0.001722645 0.02902336 0.0017029778 0.029226048 0.99719715 -0.056314304
819694339.62264 0.99745578 -0.058313131 0.0017388142 0.029342564 0.0017283075 0.02958071 0.99731719 -0.056943655
829690566.03774 0.99746257 -0.058922529 0.001781893 0.029708982 0.0017555309 0.029931244 0.9975602 -0.057885677
839686792.45283 0.99751586 -0.059349388 0.0017860131 0.030100103 0.0017902609 0.030264445 0.99773866 -0.058709115
849683018.86792 0.99760753 -0.060025282 0.0018319667 0.030449033 0.0018649772 0.030633669 0.99758089 -0.059614591
859679245.28302 0.99762654 -0.060845256 0.0018646922 0.030788967 0.0018653702 0.031018395 0.99720681 -0.060219616
869675471.69811 0.99750674 -0.061600238 0.0019553574 0.031129567 0.0019181296 0.031358186 0.99690592 -0.06073758
879671698.11321 0.99737829 -0.062270649 0.0019911174 0.031512231 0.0019769256 0.031709936 0.99687427 -0.061205506
889667924.5283 0.99714696 -0.063208342 0.0020183697 0.031809341 0.0020311372 0.032034632 0.99665844 -0.061787009
899664150.9434 0.9970485 -0.063895464 0.0020314381 0.03214198 0.0020484924 0.032380849 0.9967038 -0.062387526
909660377.35849 0.99695599 -0.064642236 0.0020778012 0.032507941 0.0020751427 0.032722503 0.99691063 -0.063340694
919656603.77358 0.99699098 -0.065321326 0.0021090824 0.032880589 0.0021330221 0.033110972 0.99688786 -0.064304337
929652830.18868 0.99702871 -0.066063285 0.0021439893 0.033167396 0.0021661809 0.033436488 0.99672234 -0.065194517
939649056.60377 0.9972198 -0.066795588 0.0021688752 0.033518698 0.0021771668 0.03377413 0.99659622 -0.065981627
949645283.01887 0.99718326 -0.067616582 0.0021735714 0.033910736 0.002157799 0.034150735 0.99631834 -0.066485152
959641509.43396 0.99713933 -0.068341047 0.0022236928 0.034283131 0.002210292 0.034550574 0.9962073 -0.067039311
969637735.84906 0.99697375 -0.069188446 0.002290179 0.034679167 0.0022888221 0.034921378 0.9962045 -0.067381352
979633962.26415 0.99678314 -0.069874376 0.0023374467 0.03499005 0.0023431028 0.035269249 0.99629593 -0.06804347
989630188.67925 0.99677831 -0.070379287 0.0023627803 0.035345417 0.0023607872 0.035622362 0.99640775 -0.068758994
999626415.09434 0.99680346 -0.070978552 0.0023803804 0.035694644 0.0024129059 0.035984181 0.99639356 -0.069604069
1009622641.5094 0.99686861 -0.07175222 0.0024391897 0.036082841 0.0024713604 0.036375381 0.99622381 -0.070475519
1019618867.9245 0.99697274 -0.072638884 0.0025094831 0.036467507 0.0025563925 0.036735445 0.9959237 -0.071384996
1029615094.3396 0.99695259 -0.07362631 0.0025663543 0.036770359 0.0026019104 0.03705262 0.99544406 -0.071987212
1039611320.7547 0.9970119 -0.074571788 0.0026124641 0.037095491 0.0026553217 0.037363973 0.99545562 -0.07269606
1049607547.1698 0.99677551 -0.0755703 0.002655894 0.037417721 0.0026660152 0.037717082 0.99546337 -0.073355064
1059603773.5849 0.99662387 -0.07619977 0.0027069524 0.037738882 0.0027298843 0.03807709 0.99546933 -0.07385844
1069600000 0.99632251 -0.076923966 0.0026999749 0.038078245 0.0027527642 0.038413655 0.99562538 -0.074616969
1079596226.4151 0.99634778 -0.0775453 0.0027271807 0.03846116 0.0028013461 0.038762804 0.9955076 -0.07547617
1089592452.8302 0.99634188 -0.078166127 0.0027881619 0.038810309 0.002828219 0.039076343 0.9955008 -0.076162249
1099588679.2453 0.99638551 -0.078843534 0.0028079748 0.039132893 0.0028645806 0.039459214 0.99508816 -0.076856762
1109584905.6604 0.99651951 -0.079703927 0.0028144987 0.039527029 0.0028788224 0.03980099 0.99493372 -0.077446505
1119581132.0755 0.99639088 -0.080828041 0.0028261058 0.039885912 0.0029201782 0.040193174 0.99468309 -0.077883847
1129577358.4906 0.99621511 -0.081601888 0.0028842445 0.040276557 0.0029309001 0.040579908 0.99461162 -0.07832402
1139573584.9057 0.99594671 -0.082540601 0.0029488923 0.040638112 0.0030447189 0.040940043 0.99465775 -0.0790416
1149569811.3208 0.99581999 -0.083447218 0.0030215345 0.04097528 0.0030699892 0.041298505 0.99476343 -0.079835922
1159566037.7358 0.99561679 -0.084149599 0.0030525792 0.041306492 0.0031364169 0.041632436 0.9948774 -0.08090657
1169562264.1509 0.99543667 -0.084841073 0.0030727703 0.041656718 0.0031549316 0.041995436 0.9947114 -0.081715673
1179558490.566 0.99540275 -0.085459769 0.0030860158 0.042039271 0.0031938672 0.042393532 0.99447465 -0.082484819
1189554716.9811 0.99541086 -0.08633998 0.0031382311 0.042380147 0.0032513868 0.042742524 0.99425918 -0.083030969
1199550943.3962 0.99529243 -0.087110668 0.0031460579 0.042800691 0.0033234619 0.04310241 0.99404883 -0.083452314
1209547169.8113 0.9951728 -0.088084042 0.0032575447 0.043123439 0.0033365227 0.043430805 0.99396068 -0.08376272
1219543396.2264 0.99487853 -0.088927507 0.003322612 0.043511834 0.0034296103 0.04383152 0.99397063 -0.084175169
1229539622.6415 0.99459165 -0.08980155 0.0033718068 0.043902259 0.0034971423 0.0442397 0.99419892 -0.084956527
1239535849.0566 0.99435037 -0.090530217 0.0034377519 0.044232853 0.0035593733 0.044520568 0.99425435 -0.085870743
1249532075.4717 0.99405628 -0.091261327 0.003501602 0.044548538 0.003644313 0.044872753 0.99407119 -0.086777717
1259528301.8868 0.99381322 -0.091786623 0.0035481434 0.044929974 0.0036954023 0.045244008 0.99373579 -0.08773008
1269524528.3019 0.99361193 -0.092568755 0.0036395229 0.04528103 0.0037720632 0.045561634 0.9935528 -0.088436186
1279520754.717 0.99326724 -0.093243301 0.0037196185 0.045578443 0.0038375973 0.045839775 0.99327695 -0.089029767
1289516981.1321 0.99318993 -0.094183743 0.0036929175 0.045917269 0.0038835388 0.046160579 0.99333733 -0.089458227
1299513207.5472 0.99273127 -0.095028758 0.00374314 0.046241045 0.0038614217 0.046508204 0.99341702 -0.089826792
1309509433.9623 0.9923712 -0.095726386 0.0037564142 0.046583161 0.0038901484 0.046822213 0.99352151 -0.090631306
1319505660.3774 0.9919008 -0.096489474 0.0037612692 0.046941079 0.0039219325 0.047211565 0.99359757 -0.091261625
1329501886.7925 0.9916594 -0.097170711 0.003812084 0.047293477 0.0039558914 0.047528259 0.99353278 -0.092294902
1339498113.2075 0.99132001 -0.097676516 0.0038131438 0.047615413 0.0039881356 0.047870781 0.99312687 -0.09300378
1349494339.6226 0.99124819 -0.098311074 0.0038395161 0.047964819 0.0039551011 0.048222236 0.99270713 -0.093642704
1359490566.0377 0.99110758 -0.098971009 0.0038412642 0.048399009 0.0039886534 0.04861185 0.99244583 -0.094188988
1369486792.4528 0.99082297 -0.099562705 0.003885651 0.048757516 0.003981065 0.048961036 0.99233437 -0.094762415
1379483018.8679 0.9906323 -0.10013925 0.0038926383 0.04915316 0.0040370068 0.049384672 0.99232674 -0.095106706
1389479245.283 0.99018317 -0.10068673 0.0039436873 0.049552538 0.0040692817 0.049796745 0.99230379 -0.095725924
1399475471.6981 0.98978508 -0.10108459 0.0039734226 0.04993245 0.0040845163 0.050153658 0.99243695 -0.096479237
1409471698.1132 0.9894433 -0.10143676 0.0040784711 0.050372548 0.0041341595 0.050580513 0.99247593 -0.097344935
1419467924.5283 0.98916101 -0.10182077 0.0040873019 0.050715704 0.0041876324 0.050959684 0.99224454 -0.098055631
1429464150.9434 0.98910177 -0.10222334 0.0041466802 0.051167071 0.0042135175 0.051357716 0.99212629 -0.098597556
1439460377.3585 0.98925138 -0.10267459 0.004206527 0.051651713 0.0042861458 0.051865708 0.99187505 -0.099022582
1449456603.7736 0.98920941 -0.10330221 0.0042874943 0.052081261 0.0043916088 0.052313656 0.9917354 -0.099407166
1459452830.1887 0.989272 -0.10406086 0.0044774637 0.052483354 0.0045090597 0.052716538 0.99188226 -0.099734098
1469449056.6038 0.98916143 -0.10481936 0.0046702828 0.052884102 0.0046522859 0.053091377 0.99213386 -0.10044372
1479445283.0189 0.98905963 -0.10544556 0.0047859289 0.053165648 0.0048072762 0.053415347 0.99208188 -0.10137784
1489441509.434 0.98887503 -0.10597828 0.0049085505 0.053499706 0.0049514119 0.053782552 0.99199855 -0.10226834
1499437735.8491 0.98877412 -0.10631442 0.005030036 0.053804852 0.0051120706 0.05404992 0.99186796 -0.10310641
1509433962.2642 0.98877299 -0.10676333 0.0051635029 0.054130882 0.0051859822 0.054358508 0.99163729 -0.10392295
1519430188.6792 0.98887897 -0.10737991 0.00518631 0.054455992 0.0052313711 0.054682937 0.99152052 -0.1044817
1529426415.0943 0.98886341 -0.10814816 0.0053026807 0.054737173 0.0052673239 0.05498179 0.99147469 -0.10490465
1539422641.5094 0.98889899 -0.10895454 0.0053799036 0.055048514 0.0053692926 0.055294652 0.99161559 -0.10533568
1549418867.9245 0.98862821 -0.10977098 0.0054132435 0.055338293 0.0054056821 0.055648204 0.99181908 -0.10610352
1559415094.3396 0.98853779 -0.11053726 0.0054882336 0.0556623 0.0054986123 0.055961154 0.9919098 -0.10673493
1569411320.7547 0.98837692 -0.11133446 0.0055570174 0.055917382 0.0054911776 0.056282412 0.99179047 -0.10765995
1579407547.1698 0.98831993 -0.11188342 0.0055543995 0.056255437 0.0055469582 0.056598447 0.99141359 -0.10850769
1589403773.5849 0.9882499 -0.11234877 0.0055672918 0.056576669 0.0055830944 0.056878798 0.99117231 -0.10920462
1599400000 0.98812461 -0.11284968 0.0055459253 0.056932934 0.0055383872 0.057235289 0.99064028 -0.10980868
1609396226.4151 0.98812437 -0.1135126 0.0055575301 0.057292316 0.0055636615 0.057517812 0.9905045 -0.11035078
1619392452.8302 0.98812354 -0.11420864 0.0056303274 0.057623319 0.0055545513 0.057924695 0.99048328 -0.11083451
1629388679.2453 0.98794842 -0.11493993 0.0056233779 0.057981178 0.0056089982 0.058353923 0.99076945 -0.11135328
1639384905.6604 0.98772013 -0.11572674 0.0056640292 0.058356129 0.0056127645 0.058747023 0.99106205 -0.11235167
1649381132.0755 0.98737365 -0.11633742 0.0056577846 0.058804914 0.005660478 0.059150063 0.99094284 -0.11322778
1659377358.4906 0.98723251 -0.11711529 0.0056975558 0.059150308 0.0056985635 0.059554748 0.99086893 -0.11407357
1669373584.9057 0.98711705 -0.11757474 0.005742352 0.05956259 0.0057473145 0.059934482 0.99052507 -0.11481372
1679369811.3208 0.98709804 -0.11826201 0.0058376137 0.059973318 0.0057971291 0.060352348 0.99032342 -0.11533576
1689366037.7358 0.98711962 -0.11898258 0.0058971848 0.060436994 0.005846303 0.060767308 0.99010348 -0.11561972
1699362264.1509 0.9873482 -0.11969696 0.0059317499 0.06079277 0.0059114369 0.061186843 0.99029362 -0.11612898
1709358490.566 0.9871614 -0.12038974 0.0060399948 0.061172053 0.0059952131 0.061592698 0.99043441 -0.11668332
1719354716.9811 0.98682559 -0.12100917 0.0061074402 0.061606653 0.006060442 0.061995778 0.99028563 -0.11747262
1729350943.3962 0.98648143 -0.12157208 0.0061906371 0.061982065 0.0061447639 0.062403351 0.99034613 -0.11840516
