!Keysight Technologies,N5222B,MY61253708,A.15.00.15
!Date: Wednesday, June 19, 2024 09:25:38
!Correction: S11(C  2-Port  ) 
!S21(C  2-Port  ) 
!S12(C  2-Port  ) 
!S22(C  2-Port  ) 
!S2P File: Measurements: S11, S21, S12, S22:
# Hz S  RI   R 50
10000000 0.99866456 -0.0022267401 0.00015110546 0.00026753778 0.00033562546 0.00034020661 0.99864572 -0.0014939904
19996226.415094 0.99904048 -0.0021814406 -3.0715077e-005 0.00059379614 -8.0483966e-005 0.00061968178 0.99909163 -0.0024468601
29992452.830189 0.99973309 -0.0024604201 2.6808702e-005 0.001085439 -6.9468166e-005 0.0010003938 0.99947965 -0.0026704669
39988679.245283 1.0000663 -0.0030523539 -6.4881839e-005 0.0013495963 1.0910881e-005 0.0013982408 0.99958259 -0.0031452626
49984905.660377 1.0001724 -0.0037049651 -2.2509485e-006 0.0016713268 -6.751623e-006 0.0017018418 0.99976873 -0.0036868155
59981132.075472 1.0003302 -0.0046314001 5.6785822e-005 0.0020503404 5.9819722e-005 0.0020233463 0.99972308 -0.0043018162
69977358.490566 1.000137 -0.0052041616 -1.9633801e-005 0.002353543 5.2985997e-006 0.0023744884 0.9996236 -0.004866207
79973584.90566 0.99988717 -0.0057761669 3.7643244e-005 0.0026979796 2.2716704e-005 0.0027240627 0.99938887 -0.0053731203
89969811.320755 0.9998976 -0.0059354603 6.2793959e-005 0.003029305 1.212093e-005 0.0030416586 0.99953473 -0.0056314766
99966037.735849 1.0000724 -0.0066979825 1.9021682e-006 0.003383182 1.4330435e-005 0.0034092432 0.99956501 -0.0064663589
109962264.15094 1.0000807 -0.0076289773 5.669595e-005 0.0036748322 3.6223035e-005 0.0037506472 0.99957699 -0.0072548985
119958490.56604 1.0001173 -0.0085406899 4.1363062e-005 0.0040331343 2.2253953e-005 0.0040802262 0.99965513 -0.0081559122
129954716.98113 1.0000864 -0.0095449984 5.5614859e-005 0.0043789623 3.5745208e-005 0.0044263834 0.99962723 -0.0090632439
139950943.39623 1.0000341 -0.010353584 7.5090691e-005 0.004711587 5.2054776e-005 0.0047331904 0.99951589 -0.0098394621
149947169.81132 0.99988365 -0.011010587 2.8121052e-005 0.0050222622 5.8324775e-005 0.0050961203 0.99944323 -0.010439485
159943396.22642 0.99989235 -0.011561185 7.4396143e-005 0.0053930809 5.4251635e-005 0.005402911 0.99955237 -0.010901332
169939622.64151 0.99982935 -0.011938162 5.3066062e-005 0.0057116332 6.2812411e-005 0.0057698833 0.99962807 -0.011324793
179935849.0566 0.99992889 -0.012212098 7.425854e-005 0.006041429 6.5682572e-005 0.0061215004 0.99952638 -0.01176396
189932075.4717 1.0000103 -0.012999445 0.00010074186 0.0064051882 6.0469145e-005 0.0064307544 0.99973452 -0.012304515
199928301.88679 0.99992681 -0.013842076 8.1615755e-005 0.0067348666 9.2407456e-005 0.0067763645 0.99961954 -0.013207108
209924528.30189 0.99965429 -0.014509946 9.1346563e-005 0.0070744879 7.3428848e-005 0.007091763 0.99937034 -0.013944149
219920754.71698 0.99976158 -0.015390545 0.00011587911 0.007378866 0.00011400529 0.007472245 0.99926096 -0.014624268
229916981.13208 0.99952269 -0.016178131 0.00011258386 0.007739739 0.00013551652 0.007797624 0.99920231 -0.015408814
239913207.54717 0.99936819 -0.016854642 0.00012955045 0.0080656353 0.00015114715 0.0081257196 0.99914986 -0.016133372
249909433.96226 0.99943244 -0.017512262 0.00013945927 0.0084045799 0.00013352092 0.0084897308 0.99926078 -0.016727269
259905660.37736 0.99957871 -0.018108994 0.00017949427 0.0087141879 0.0001169513 0.0087916628 0.99944437 -0.01725471
269901886.79245 0.99982828 -0.018828109 0.00015338883 0.0090891775 0.00015166157 0.0091622351 0.99974006 -0.0180078
279898113.20755 0.99979687 -0.019361392 0.00015586405 0.0093967607 0.00019809767 0.0094795022 0.99959767 -0.01876381
289894339.62264 0.9997288 -0.020225972 0.00014157593 0.0097304657 0.000189065 0.0098191239 0.99950898 -0.019555241
299890566.03774 0.99956417 -0.020591557 0.0002124412 0.010104693 0.00022656098 0.010143474 0.99921262 -0.01993531
309886792.45283 0.99947727 -0.021301374 0.00017914874 0.010432271 0.00019847939 0.010496562 0.99920326 -0.020484306
319883018.86792 0.99953496 -0.021907777 0.00023431145 0.010793579 0.00024413364 0.010836547 0.99924064 -0.02094993
329879245.28302 0.99939919 -0.022695988 0.0002216408 0.011059957 0.0002452461 0.011178834 0.9993341 -0.021670997
339875471.69811 0.99934256 -0.023455158 0.00025700894 0.011410392 0.0002764907 0.0115354 0.99929661 -0.022479504
349871698.11321 0.99951297 -0.024276346 0.00029057357 0.011722342 0.00030522142 0.0118882 0.99930751 -0.023390561
359867924.5283 0.99939609 -0.025074959 0.00029181363 0.012050228 0.00028764037 0.012202731 0.99920923 -0.024387985
369864150.9434 0.99950498 -0.025805682 0.00032570353 0.012417412 0.00032531563 0.012518587 0.99934548 -0.025084287
379860377.35849 0.99940515 -0.026544973 0.00034806877 0.01276611 0.00036183861 0.012869566 0.99928713 -0.025723398
389856603.77358 0.99939871 -0.027101994 0.00032495195 0.01307347 0.00036045257 0.01315201 0.99919116 -0.026214719
399852830.18868 0.99921608 -0.027707458 0.0004531634 0.013418918 0.00038675359 0.013531141 0.99924695 -0.026694834
409849056.60377 0.99908417 -0.028204648 0.0004006236 0.013764723 0.00038395365 0.013867644 0.99920684 -0.027162045
419845283.01887 0.99909043 -0.028627247 0.00042387517 0.014090315 0.00040917005 0.014188798 0.99927074 -0.02774033
429841509.43396 0.99915522 -0.029355496 0.00042191613 0.014416451 0.0004482423 0.014542168 0.999493 -0.028485417
439837735.84906 0.99919981 -0.03020063 0.00047153037 0.014746218 0.00047953799 0.014894291 0.99928892 -0.029443637
449833962.26415 0.99895543 -0.030971825 0.00048004044 0.015062192 0.00049232552 0.015218145 0.99896055 -0.030289471
459830188.67925 0.99891877 -0.031765521 0.00046716304 0.015432963 0.0004458474 0.01552855 0.99875522 -0.031061143
469826415.09434 0.99878579 -0.032563418 0.00044392003 0.015742276 0.00046340283 0.015897872 0.99852777 -0.031679124
479822641.50943 0.99872947 -0.033087879 0.00050317589 0.016081948 0.00049942709 0.01623895 0.99855113 -0.03214106
489818867.92453 0.99880064 -0.03362444 0.00056524854 0.016434219 0.0005290499 0.016575048 0.99887204 -0.032643229
499815094.33962 0.99883479 -0.03423515 0.00057466654 0.016769413 0.00057512429 0.016893819 0.99912804 -0.033298045
509811320.75472 0.99897617 -0.034658149 0.00064074318 0.017130706 0.00057409436 0.017260073 0.99925363 -0.034065377
519807547.16981 0.99891651 -0.035222441 0.00058973115 0.017422877 0.00064754253 0.017572524 0.99923807 -0.034965158
529803773.58491 0.99887192 -0.035852641 0.00059487112 0.017732736 0.0006657131 0.017877627 0.9989928 -0.035523236
539800000 0.99894369 -0.036565498 0.00063481834 0.018132634 0.00063444767 0.018258775 0.99885392 -0.036206737
549796226.41509 0.99869716 -0.037394017 0.00065372046 0.018424371 0.00066642696 0.018580016 0.99858534 -0.03674075
559792452.83019 0.99856579 -0.03806141 0.0007003434 0.018802099 0.00070284586 0.018951312 0.99855512 -0.037262917
569788679.24528 0.99842262 -0.03884232 0.00071368087 0.019137627 0.00072408374 0.019245386 0.99865854 -0.037942618
579784905.66038 0.99838334 -0.039348587 0.00074794702 0.01949873 0.00073871319 0.019612223 0.99877489 -0.038678691
589781132.07547 0.99854636 -0.040025085 0.00075261109 0.019817652 0.00074525271 0.019962024 0.99881178 -0.039543688
599777358.49057 0.99864554 -0.040706933 0.00086520053 0.020135764 0.00074584689 0.02028605 0.99888194 -0.040376663
609773584.90566 0.99884027 -0.041460082 0.00088416168 0.020458283 0.00086659769 0.020615757 0.99873173 -0.041287981
619769811.32075 0.99893707 -0.042174429 0.0009090011 0.020803472 0.00093541713 0.020941142 0.99869525 -0.041746616
629766037.73585 0.99868393 -0.042757958 0.00094573665 0.021077391 0.0009229295 0.02126107 0.9984836 -0.042344838
639762264.15094 0.99854511 -0.043412089 0.00092893955 0.021411356 0.0009436633 0.021601776 0.99833858 -0.042742193
649758490.56604 0.9984054 -0.044055119 0.00092663756 0.021722034 0.00097525399 0.021921227 0.99828589 -0.04323253
659754716.98113 0.99822253 -0.044441313 0.00095995702 0.022056563 0.0009592073 0.02229432 0.99844539 -0.043752193
669750943.39623 0.9982456 -0.045067519 0.00099544087 0.022397272 0.0010074228 0.022638362 0.99849963 -0.044648647
679747169.81132 0.99825454 -0.045839585 0.00099624076 0.022781804 0.0010161203 0.022989446 0.9984681 -0.045591846
689743396.22642 0.99839699 -0.046594352 0.0010853373 0.023121994 0.0010660924 0.023323342 0.9983145 -0.046513349
699739622.64151 0.9984827 -0.047387958 0.0011108713 0.023420092 0.0011239452 0.023646906 0.99819791 -0.0471735
709735849.0566 0.99856341 -0.048306763 0.001153612 0.023761626 0.0011450752 0.023960419 0.99796003 -0.047794163
719732075.4717 0.99842232 -0.048950553 0.0012010015 0.024101455 0.001227729 0.024292998 0.99807078 -0.048433036
729728301.88679 0.99833077 -0.049661696 0.0012016203 0.024414748 0.0012260508 0.024596263 0.99805796 -0.048822999
739724528.30189 0.99822068 -0.050222531 0.0012191352 0.024754098 0.0012880368 0.024997015 0.99829561 -0.04953742
749720754.71698 0.99808592 -0.050774142 0.0012850324 0.025046676 0.0012902194 0.025286077 0.99829489 -0.050235406
759716981.13208 0.99811226 -0.051228404 0.0013215728 0.025368899 0.0013191346 0.02559224 0.99823987 -0.051044762
769713207.54717 0.99808228 -0.051901162 0.001341546 0.025703993 0.0013686642 0.025923431 0.99805331 -0.05175975
779709433.96226 0.99819064 -0.052635521 0.0013559717 0.026057225 0.0013792193 0.026262663 0.99777818 -0.052421909
789705660.37736 0.99811012 -0.053531826 0.0014138576 0.026341887 0.0014123982 0.026595665 0.99757111 -0.053047448
799701886.79245 0.99801534 -0.054354399 0.0014119735 0.026677426 0.0014503626 0.026916459 0.99742377 -0.053658456
809698113.20755 0.99791181 -0.054923341 0.001475855 0.027012162 0.0014749798 0.027251752 0.99750149 -0.054174304
819694339.62264 0.99780273 -0.055621952 0.001496668 0.02731568 0.0014838958 0.027569843 0.99759549 -0.054765403
829690566.03774 0.99789208 -0.056216866 0.0015350645 0.027674878 0.0015326589 0.027909704 0.9978137 -0.055632651
839686792.45283 0.99781889 -0.056682676 0.001539351 0.02795516 0.0015777629 0.028230529 0.99787533 -0.056504309
849683018.86792 0.99803513 -0.057302974 0.001564943 0.028369676 0.0015953504 0.028575683 0.99779987 -0.057310157
859679245.28302 0.9979648 -0.058087558 0.0016183006 0.028635314 0.0016679503 0.028896518 0.99749649 -0.057941347
869675471.69811 0.99784964 -0.058826208 0.0016658781 0.028964147 0.0017089061 0.029232649 0.99715883 -0.058396667
879671698.11321 0.99783063 -0.059477676 0.0017093094 0.029265091 0.0017145476 0.029557463 0.99711955 -0.058850408
889667924.5283 0.99757254 -0.060263038 0.0017557442 0.029594911 0.0017457912 0.029867057 0.99694008 -0.059357703
899664150.9434 0.99741316 -0.061005533 0.0017387494 0.029942758 0.0017629275 0.030209005 0.99700046 -0.060003132
909660377.35849 0.99744689 -0.061664626 0.001783283 0.030243654 0.0017777807 0.030506052 0.99719888 -0.060927004
919656603.77358 0.9975127 -0.062369302 0.0017954633 0.030584594 0.0018261066 0.030857073 0.99716806 -0.061781764
929652830.18868 0.99750376 -0.063080609 0.0018451344 0.030889338 0.0018421048 0.031163407 0.99703443 -0.062692881
939649056.60377 0.99771065 -0.063696384 0.001845656 0.031219155 0.0018655658 0.03150161 0.99686241 -0.063432455
949645283.01887 0.99769616 -0.064559996 0.0018873697 0.031558529 0.0018636798 0.031884328 0.9966073 -0.063968465
959641509.43396 0.99758244 -0.065193921 0.0019019088 0.031908128 0.0018836604 0.032190282 0.99655569 -0.064483017
969637735.84906 0.99748087 -0.065986514 0.0019312929 0.0322707 0.0019977847 0.032554571 0.99659097 -0.064837545
979633962.26415 0.99731928 -0.066689089 0.0020369131 0.032583825 0.0020188869 0.032891542 0.9966113 -0.06547942
989630188.67925 0.9973492 -0.067228496 0.0020309472 0.032901548 0.0020634634 0.033207767 0.99673128 -0.066111416
999626415.09434 0.99740732 -0.067823112 0.0020527299 0.033235081 0.0020780358 0.033563901 0.99672306 -0.06694746
1009622641.5094 0.99742597 -0.068565115 0.0020893943 0.033570416 0.0021228371 0.033873368 0.99651116 -0.067820132
1019618867.9245 0.99748051 -0.069421798 0.0021450133 0.033882324 0.0022000093 0.0342407 0.99635577 -0.068651617
1029615094.3396 0.9974705 -0.070264727 0.0022042897 0.034214266 0.0022755936 0.034545816 0.99587023 -0.069300562
1039611320.7547 0.99748313 -0.071176201 0.0022381637 0.034533679 0.0022439025 0.034828775 0.99582934 -0.069959939
1049607547.1698 0.99730366 -0.072034128 0.0022805284 0.034830701 0.0023161287 0.035174634 0.99588567 -0.070499346
1059603773.5849 0.99716014 -0.072739869 0.002307375 0.035138629 0.0023397813 0.035468932 0.995821 -0.071097523
1069600000 0.99692422 -0.073363841 0.0023197308 0.035454407 0.0023669582 0.035791464 0.99601543 -0.071807206
1079596226.4151 0.9969216 -0.074029848 0.0023102541 0.035763543 0.0023648264 0.03610431 0.99602842 -0.072553039
1089592452.8302 0.99699199 -0.074685991 0.0023479955 0.036131788 0.0023888061 0.036473356 0.99596977 -0.073307961
1099588679.2453 0.99695593 -0.075289279 0.0023760702 0.036434498 0.0024330691 0.036781989 0.9955976 -0.073870689
1109584905.6604 0.99715221 -0.076234981 0.0023721242 0.036785223 0.0024370635 0.037118305 0.99536794 -0.074490309
1119581132.0755 0.99711394 -0.077194333 0.0024311193 0.037145898 0.0024975887 0.037490964 0.9952029 -0.074930996
1129577358.4906 0.99688852 -0.07796666 0.0024480205 0.037491795 0.0025221091 0.037849657 0.99507606 -0.075402468
1139573584.9057 0.99659622 -0.078893185 0.0024996102 0.037823133 0.0025990047 0.038184397 0.99509186 -0.076046437
1149569811.3208 0.996548 -0.079704583 0.0025733938 0.03816966 0.0026510777 0.038496975 0.99521518 -0.076846331
1159566037.7358 0.99635535 -0.080394119 0.0025879638 0.038458757 0.0026758546 0.038828149 0.99536693 -0.077844799
1169562264.1509 0.99615633 -0.081036627 0.0025682747 0.038750313 0.0026856288 0.039143965 0.9951874 -0.07862106
1179558490.566 0.99614185 -0.081787616 0.0026240444 0.039153077 0.0027022962 0.03951633 0.99507344 -0.07927686
1189554716.9811 0.99612439 -0.082481086 0.0026422162 0.039478943 0.0027830582 0.039844215 0.99476069 -0.079922915
1199550943.3962 0.9960053 -0.08339864 0.0026846025 0.039849281 0.0028103013 0.040207274 0.99460804 -0.080324978
1209547169.8113 0.99587607 -0.084287882 0.0027480759 0.040209081 0.002868969 0.040528502 0.99451333 -0.080652714
1219543396.2264 0.99573088 -0.085064411 0.0027643298 0.040542055 0.0029212642 0.040887699 0.99452126 -0.08103095
1229539622.6415 0.99538028 -0.085898668 0.0028795712 0.040867426 0.002973292 0.041255452 0.99470043 -0.081772804
1239535849.0566 0.99509597 -0.086535662 0.0029025972 0.0411865 0.0030686511 0.04155723 0.99480164 -0.08266139
1249532075.4717 0.99477834 -0.087213174 0.0029795545 0.041522499 0.0030935267 0.04190341 0.99463826 -0.083508216
1259528301.8868 0.99468946 -0.087736964 0.0030178744 0.041855719 0.0031804424 0.042187385 0.99439251 -0.084405124
1269524528.3019 0.99447829 -0.088474572 0.0030930322 0.042172689 0.0032438021 0.0424859 0.99415207 -0.08515203
1279520754.717 0.9940505 -0.089205712 0.0031461816 0.042439975 0.0032890243 0.042767406 0.99386299 -0.085643172
1289516981.1321 0.99398106 -0.090056717 0.0031522168 0.042735934 0.0033137631 0.043055903 0.99400103 -0.086113095
1299513207.5472 0.99361706 -0.090880156 0.0031975713 0.043033615 0.0033224709 0.043396413 0.99408001 -0.086467505
1309509433.9623 0.99321091 -0.091595814 0.0032146005 0.043375369 0.0033403169 0.043679059 0.99419796 -0.087154418
1319505660.3774 0.99281943 -0.092300147 0.0032024309 0.043716319 0.0033515412 0.044077225 0.99417979 -0.087873995
1329501886.7925 0.99249005 -0.092997581 0.0032175779 0.04404062 0.0033393521 0.044365808 0.99420947 -0.088771522
1339498113.2075 0.99221969 -0.093503565 0.003221062 0.044377331 0.0034032073 0.044686921 0.99380815 -0.089529186
1349494339.6226 0.99203998 -0.094112039 0.003237328 0.044691727 0.0033847019 0.044996459 0.99341774 -0.090105519
1359490566.0377 0.99203295 -0.094676942 0.0032353383 0.045124538 0.003430048 0.045378253 0.99314904 -0.090646744
1369486792.4528 0.99177158 -0.095178455 0.0032268493 0.045455687 0.0034181466 0.045726828 0.9930836 -0.091154039
1379483018.8679 0.99144548 -0.095781371 0.0032580809 0.045787625 0.003387253 0.046065956 0.99298322 -0.091473721
1389479245.283 0.99107718 -0.096246094 0.0033303294 0.046208717 0.0034387726 0.04648003 0.99303257 -0.092167169
1399475471.6981 0.99067104 -0.096701205 0.0033346191 0.046554387 0.0034607407 0.046837144 0.9931674 -0.092809469
1409471698.1132 0.99041963 -0.097000249 0.0033873494 0.046944484 0.0034922985 0.047225572 0.99324542 -0.093686081
1419467924.5283 0.9901756 -0.097266167 0.0033962252 0.0473013 0.0035141986 0.047588948 0.99299937 -0.094431072
1429464150.9434 0.99008286 -0.097805828 0.0034509134 0.047726788 0.0035724323 0.047996089 0.9928956 -0.094895035
1439460377.3585 0.99019653 -0.098227561 0.0035782093 0.048109166 0.0036186706 0.048422951 0.99264652 -0.095368192
1449456603.7736 0.99020344 -0.098739803 0.0036405073 0.048550449 0.0036997879 0.048852172 0.99254519 -0.095604509
1459452830.1887 0.99025142 -0.099460185 0.0038031954 0.048987102 0.003850624 0.049265087 0.99262589 -0.096001685
1469449056.6038 0.99030894 -0.10020804 0.0039312318 0.049335837 0.0040202439 0.04954439 0.99286985 -0.096648574
1479445283.0189 0.99014497 -0.10076667 0.0040921681 0.049568176 0.0041084187 0.049885795 0.99295771 -0.097566068
1489441509.434 0.99003637 -0.10128498 0.0042259786 0.049904536 0.0042914953 0.050216168 0.99287951 -0.098422468
1499437735.8491 0.98989469 -0.10162678 0.004318323 0.050191216 0.0043870639 0.050466076 0.99265784 -0.099269748
1509433962.2642 0.98991162 -0.10207947 0.0044122478 0.050453611 0.004481798 0.05074637 0.99254137 -0.10001118
1519430188.6792 0.99002677 -0.10266396 0.0044593364 0.050729521 0.0045223106 0.051025908 0.99242282 -0.10056216
1529426415.0943 0.98993933 -0.10333037 0.0045094434 0.051029004 0.0046012811 0.051321104 0.99235141 -0.10096192
1539422641.5094 0.98997611 -0.10416663 0.0045617283 0.051343616 0.0046101604 0.051630612 0.99238956 -0.10144716
1549418867.9245 0.9897415 -0.10492712 0.0046728607 0.051601969 0.0046863323 0.051965561 0.99265242 -0.10213698
1559415094.3396 0.98967063 -0.10562798 0.0047122203 0.051875953 0.0047076046 0.052236956 0.99273527 -0.10282531
1569411320.7547 0.98958892 -0.10644874 0.0047422703 0.052169222 0.0047571035 0.052521683 0.99268222 -0.10363753
1579407547.1698 0.98949349 -0.10693288 0.0047888677 0.052483033 0.0047803274 0.052824534 0.99224061 -0.10441732
1589403773.5849 0.98935246 -0.10742328 0.0047650598 0.05272752 0.0048238076 0.053132452 0.99201059 -0.10515511
1599400000 0.98939949 -0.10791713 0.0047330093 0.05303593 0.0047495216 0.053428464 0.99166346 -0.10565034
1609396226.4151 0.98935676 -0.10858323 0.0047750515 0.053387862 0.0047403541 0.053723205 0.99150276 -0.10618177
1619392452.8302 0.98935211 -0.10921499 0.0047644675 0.053746432 0.0047616232 0.05414474 0.99135637 -0.10657996
1629388679.2453 0.98914653 -0.10996571 0.0047811866 0.054037917 0.0047765113 0.054474108 0.99171144 -0.10708597
1639384905.6604 0.98897463 -0.11058116 0.0047595701 0.054432947 0.004761301 0.054827392 0.99192613 -0.10794783
1649381132.0755 0.98860753 -0.11122799 0.0047916155 0.054767061 0.0047943201 0.055204872 0.99195427 -0.10890856
1659377358.4906 0.98850095 -0.11205435 0.0048287883 0.055185113 0.0048431251 0.055603139 0.99183542 -0.10977817
1669373584.9057 0.98842269 -0.11243441 0.0048525957 0.055537701 0.004866844 0.05598728 0.99154305 -0.11033611
1679369811.3208 0.98842216 -0.11314854 0.0049149366 0.055930227 0.0049263593 0.056342751 0.99126285 -0.11091065
1689366037.7358 0.98844802 -0.11378756 0.0049579442 0.05629031 0.0049501471 0.056753755 0.99114102 -0.11126092
1699362264.1509 0.9886483 -0.11444893 0.0050050514 0.056669269 0.0050115734 0.057128027 0.99135381 -0.11177771
1709358490.566 0.98849392 -0.11511713 0.0050892755 0.057065919 0.0050930195 0.057572227 0.99133801 -0.11236586
1719354716.9811 0.98820972 -0.11568567 0.0051137321 0.057450153 0.0051457118 0.057911567 0.9914825 -0.11298007
1729350943.3962 0.98797292 -0.11618549 0.0052303392 0.057821833 0.005260108 0.058297344 0.99147016 -0.11384889
