!Keysight Technologies,N5222B,MY61253708,A.15.00.15
!Date: Wednesday, June 19, 2024 09:01:34
!Correction: S11(C  2-Port  ) 
!S21(C  2-Port  ) 
!S12(C  2-Port  ) 
!S22(C  2-Port  ) 
!S2P File: Measurements: S11, S21, S12, S22:
# Hz S  RI   R 50
10000000 0.99891675 -0.0020678341 0.0001565507 2.2155364e-005 -1.1651471e-005 0.00034554413 0.99841177 -0.0010328591
19996226.415094 0.99922192 -0.0019741356 0.00023694088 0.00067570584 -2.0839565e-005 0.00070879515 0.99914896 -0.0021176636
29992452.830189 0.99984998 -0.002440244 4.2535685e-005 0.0010262764 1.0399992e-005 0.0010841854 0.99954456 -0.0027485788
39988679.245283 1.0000882 -0.0030903816 4.5114255e-005 0.0014191907 -8.1566439e-005 0.0014269219 0.99963433 -0.0032013953
49984905.660377 1.0002139 -0.0039027631 -4.0331099e-005 0.0018312763 1.3441546e-005 0.0017930914 0.99981618 -0.0037693679
59981132.075472 1.0003135 -0.0046661198 -1.6647915e-005 0.0021479886 3.4446886e-005 0.0021100352 0.99975288 -0.0043720901
69977358.490566 1.0000751 -0.0052910931 1.2952954e-005 0.0024205116 5.1801253e-006 0.0024958956 0.99963242 -0.0048346892
79973584.90566 0.99978989 -0.0058219135 1.6449718e-005 0.0027662267 -1.5063677e-005 0.0028114652 0.99938315 -0.005369693
89969811.320755 0.99984384 -0.0059927106 9.06887e-006 0.003185539 2.7261209e-005 0.0031709978 0.99955964 -0.0057173073
99966037.735849 1.0000401 -0.0067838579 2.876122e-005 0.0035158477 4.4658431e-005 0.0035457453 0.99960762 -0.0065078884
109962264.15094 1.0001545 -0.0077874511 3.6187237e-005 0.0038665887 2.4945068e-005 0.0038789234 0.99957788 -0.0073750317
119958490.56604 1.0001938 -0.008772701 2.4774577e-005 0.0041908883 3.9291102e-005 0.0042604301 0.99961543 -0.0083120167
129954716.98113 1.000088 -0.0097917616 5.3231837e-005 0.0045496752 5.406118e-005 0.0046004825 0.99958587 -0.0092401505
139950943.39623 1.0000156 -0.010687631 4.4935456e-005 0.0049125212 4.3077918e-005 0.0049499469 0.99951106 -0.010002716
149947169.81132 0.99984169 -0.011376917 7.7574281e-005 0.0052806442 7.0802402e-005 0.0053071869 0.99947417 -0.010654032
159943396.22642 0.99982488 -0.011896431 6.0702907e-005 0.0056276573 7.6554716e-005 0.0056792833 0.99953085 -0.011083394
169939622.64151 0.99980557 -0.01226294 7.3250209e-005 0.0059885108 7.7563571e-005 0.0060411189 0.99960262 -0.011547074
179935849.0566 0.99989533 -0.012543827 7.8570214e-005 0.0063421982 8.2204235e-005 0.0063626682 0.99951571 -0.011961162
189932075.4717 1.0000257 -0.013318926 6.8940688e-005 0.0066976873 0.00010599825 0.0067364075 0.99971128 -0.012550771
199928301.88679 1.0000312 -0.014208257 7.5245509e-005 0.0070554805 0.00013870327 0.0070929788 0.99963021 -0.01346159
209924528.30189 0.99975401 -0.01493606 0.00016331649 0.0074201399 9.7307609e-005 0.0074524824 0.99941474 -0.014256537
219920754.71698 0.99972332 -0.015882194 0.0001624322 0.0077620642 0.00011048303 0.0077741058 0.99922359 -0.014950931
229916981.13208 0.99940085 -0.01675415 0.00013427343 0.0080634709 0.00012049265 0.0081445016 0.99912184 -0.015726507
239913207.54717 0.99931532 -0.017397281 0.00017007225 0.0084293699 0.00014765759 0.008503559 0.99914771 -0.016463043
249909433.96226 0.9993338 -0.018020958 0.00016145199 0.0087822611 0.0001825795 0.0088326409 0.99923456 -0.017110407
259905660.37736 0.99946702 -0.018631816 0.00016716449 0.0091246516 0.00015369104 0.0092252027 0.99941409 -0.017690688
269901886.79245 0.99972153 -0.01931268 0.00019683479 0.0094445776 0.00016645552 0.0095158871 0.99981427 -0.018441632
279898113.20755 0.99978817 -0.020064756 0.00019393768 0.0098783355 0.00020529237 0.0098961284 0.99954915 -0.019165739
289894339.62264 0.99967957 -0.020751655 0.00021140557 0.010169061 0.00019564806 0.010265261 0.99947006 -0.019859672
299890566.03774 0.99968541 -0.021314263 0.00027642027 0.010520348 0.00024219928 0.010617663 0.99928343 -0.020425022
309886792.45283 0.99933916 -0.02198144 0.00027431746 0.010855903 0.00023178058 0.010945987 0.99914271 -0.020974934
319883018.86792 0.99934208 -0.022560209 0.00026766211 0.01124152 0.0002851747 0.011339562 0.99926412 -0.021455139
329879245.28302 0.99927831 -0.023277164 0.00028954959 0.011596535 0.00021230057 0.011676406 0.99932098 -0.022206783
339875471.69811 0.99917108 -0.024062604 0.00029280293 0.011925346 0.00029810565 0.0119822 0.99914229 -0.023083702
349871698.11321 0.99948221 -0.02496323 0.00031902175 0.012283543 0.00034309365 0.012395344 0.99931639 -0.023885846
359867924.5283 0.99932832 -0.02579844 0.00029413914 0.012665797 0.00035634032 0.012731556 0.99925542 -0.024904013
369864150.9434 0.99943662 -0.026607513 0.00032611704 0.012999321 0.00038158288 0.013094295 0.99922621 -0.025696874
379860377.35849 0.99931818 -0.02733101 0.00040279375 0.013367346 0.00037783338 0.013478719 0.99911016 -0.026384607
389856603.77358 0.99924439 -0.027824581 0.00039457902 0.013669416 0.00037485315 0.013811478 0.99918127 -0.026822746
399852830.18868 0.99902236 -0.028497905 0.00040000025 0.014020205 0.00040753186 0.014169754 0.99914283 -0.027307868
409849056.60377 0.99907869 -0.028950248 0.00044702154 0.014395465 0.0004131106 0.014492126 0.99911165 -0.027808383
419845283.01887 0.99904311 -0.029365838 0.00043630879 0.014731573 0.00048089866 0.014858481 0.9991864 -0.02832377
429841509.43396 0.99916553 -0.030083358 0.00048888708 0.015079526 0.00046532834 0.015204214 0.99932122 -0.029158473
439837735.84906 0.99906307 -0.030993477 0.00051221449 0.01544098 0.00049720495 0.015542583 0.99912453 -0.030089751
449833962.26415 0.99904037 -0.031929761 0.00051251194 0.015775157 0.00049869064 0.015872687 0.99882227 -0.030950069
459830188.67925 0.99887717 -0.032746255 0.00048489496 0.016112672 0.00049238559 0.016247198 0.99863863 -0.031788498
469826415.09434 0.99885005 -0.033583283 0.00051060645 0.016478566 0.00055833813 0.016604025 0.99834245 -0.032354712
479822641.50943 0.99869889 -0.034161933 0.00056994497 0.016854806 0.00056480011 0.016977401 0.99841112 -0.032850519
489818867.92453 0.99876851 -0.034684777 0.00056731002 0.017158512 0.00062013045 0.017317411 0.99874699 -0.033416212
499815094.33962 0.9988445 -0.035318971 0.00065142382 0.017519519 0.00064803148 0.017647903 0.99903423 -0.03404966
509811320.75472 0.9990139 -0.035816766 0.0006237097 0.017905001 0.0006203113 0.018018395 0.99920756 -0.034930702
519807547.16981 0.99903375 -0.036405534 0.00066087954 0.018207794 0.0006772764 0.01836089 0.99914509 -0.035704702
529803773.58491 0.99887437 -0.037012368 0.00070242584 0.018584609 0.0006481614 0.018693507 0.99884915 -0.036286563
539800000 0.99889082 -0.03785409 0.00070269732 0.018932862 0.00069774757 0.019073168 0.99868357 -0.037116826
549796226.41509 0.99875498 -0.038677514 0.00074899429 0.019276792 0.0007313313 0.019420618 0.99846822 -0.037537336
559792452.83019 0.99842691 -0.039413393 0.00075923745 0.019643132 0.00078198221 0.019800341 0.99842757 -0.038018346
569788679.24528 0.99834818 -0.040135741 0.00077303266 0.019980263 0.0008053272 0.020115789 0.99854314 -0.038830817
579784905.66038 0.99829251 -0.040712126 0.0008124914 0.020331137 0.00082228589 0.020484915 0.99870586 -0.039541557
589781132.07547 0.99834335 -0.041353256 0.0008577304 0.02070378 0.00091880374 0.020848468 0.99883699 -0.040450662
599777358.49057 0.99856973 -0.042065799 0.00091479067 0.021026269 0.00092246383 0.021204725 0.99883038 -0.041236818
609773584.90566 0.9986853 -0.042817064 0.00089612312 0.0214043 0.00095380913 0.021585993 0.99862075 -0.04214086
619769811.32075 0.99871212 -0.043534666 0.00098018488 0.021761447 0.00097412057 0.021886326 0.99854589 -0.042776853
629766037.73585 0.9986586 -0.044222862 0.0010213442 0.022043828 0.00098286662 0.022232262 0.99835515 -0.043215603
639762264.15094 0.99833661 -0.044915259 0.0010601825 0.022391923 0.0010321462 0.022531454 0.99818289 -0.043778554
649758490.56604 0.99826795 -0.045522302 0.001056883 0.022731215 0.0010361159 0.022857906 0.99829108 -0.044133276
659754716.98113 0.99805069 -0.046112418 0.0010034861 0.023074986 0.0010518143 0.023240678 0.99829984 -0.044744462
669750943.39623 0.99796593 -0.046568543 0.0010797773 0.023438733 0.0010828739 0.023614278 0.99839616 -0.045565873
679747169.81132 0.99808431 -0.047342706 0.0011184181 0.023801455 0.0011307755 0.023969065 0.99833429 -0.046580449
689743396.22642 0.99821675 -0.048157543 0.0012094118 0.02415292 0.0011731517 0.024323236 0.9982307 -0.047540486
699739622.64151 0.99837947 -0.049028099 0.0012514992 0.024517339 0.0012103897 0.024686713 0.99805862 -0.048232973
709735849.0566 0.99833465 -0.049869254 0.0012801753 0.024860092 0.0012474096 0.025001943 0.99790645 -0.048983775
719732075.4717 0.99823582 -0.050650477 0.0013149618 0.025176249 0.0013161404 0.025370568 0.9978959 -0.049533784
729728301.88679 0.99811554 -0.051214844 0.0013244469 0.025507215 0.0013343627 0.025711974 0.99800313 -0.050027072
739724528.30189 0.99798095 -0.051833108 0.0013821344 0.02587677 0.0013583563 0.026026018 0.99815547 -0.05064711
749720754.71698 0.99793172 -0.052359566 0.0014049038 0.026194738 0.0014288533 0.026406977 0.99819493 -0.051344573
759716981.13208 0.99794662 -0.052855134 0.0014283676 0.026546691 0.001449951 0.026730163 0.99815458 -0.052136183
769713207.54717 0.99783432 -0.053560406 0.0014488539 0.026880277 0.0015014065 0.027076539 0.99780375 -0.052865446
779709433.96226 0.99798113 -0.054284178 0.0014904047 0.027211944 0.0015351974 0.027437611 0.99759173 -0.053572387
789705660.37736 0.99783862 -0.055294812 0.0015551029 0.027548999 0.0015730588 0.027767325 0.99731934 -0.05426237
799701886.79245 0.99781066 -0.05605635 0.0016227122 0.027884241 0.0016035866 0.028078765 0.9972409 -0.054929644
809698113.20755 0.9977228 -0.056786835 0.0016240482 0.028205143 0.0016120002 0.028449979 0.99724817 -0.055432543
819694339.62264 0.99759662 -0.057373822 0.0016286406 0.028577328 0.001612199 0.028792417 0.99741352 -0.056062609
829690566.03774 0.99754894 -0.058026314 0.0016769283 0.028916415 0.0016983328 0.029120009 0.99765825 -0.056966066
839686792.45283 0.99766666 -0.058452427 0.0016880585 0.029278988 0.0017202301 0.029510718 0.99771047 -0.057797551
849683018.86792 0.9977299 -0.059159331 0.0017334991 0.029595129 0.0017405951 0.029819926 0.99756849 -0.058586188
859679245.28302 0.99780476 -0.059874684 0.0017726645 0.029956464 0.001786733 0.030170564 0.99727094 -0.059206992
869675471.69811 0.99768579 -0.060744137 0.001853019 0.030305764 0.0018351665 0.030495508 0.99693918 -0.05977127
879671698.11321 0.99761045 -0.061366782 0.0018820718 0.030587062 0.0018590566 0.030852519 0.99691814 -0.060218167
889667924.5283 0.99740356 -0.062241673 0.0019081011 0.030952038 0.0019204831 0.03118423 0.99676061 -0.060759991
899664150.9434 0.9971019 -0.062976927 0.0019416539 0.031267047 0.0019230871 0.03154736 0.99686956 -0.061404645
909660377.35849 0.99721229 -0.063691929 0.0019609928 0.03162951 0.0019631214 0.031888172 0.99689806 -0.062391862
919656603.77358 0.99721307 -0.064369038 0.0019966443 0.031970948 0.001992811 0.032224648 0.99690205 -0.063282982
929652830.18868 0.99724692 -0.06511265 0.0020368109 0.032255083 0.0020352136 0.032549128 0.99680305 -0.064121366
939649056.60377 0.99739647 -0.06580925 0.0020293295 0.032623038 0.0020464305 0.032855436 0.99660254 -0.064898312
949645283.01887 0.99730879 -0.066644564 0.0020224666 0.032983545 0.002054953 0.033226211 0.99634057 -0.065491818
959641509.43396 0.99738371 -0.067296743 0.0020796396 0.03334555 0.0021168953 0.033603657 0.9962514 -0.065908641
969637735.84906 0.9971981 -0.06806609 0.0021404782 0.033705331 0.002187483 0.033995703 0.99627119 -0.066318423
979633962.26415 0.99706692 -0.068854116 0.0022062175 0.034029882 0.002212048 0.0342834 0.99632871 -0.066985019
989630188.67925 0.99700105 -0.069325894 0.002248955 0.034357291 0.0022360198 0.034655597 0.99653518 -0.067655534
999626415.09434 0.99709612 -0.070020139 0.0022440031 0.034717344 0.0022897366 0.034998603 0.99648535 -0.068524599
1009622641.5094 0.99711573 -0.070722923 0.0023073331 0.035070255 0.0023138104 0.035400108 0.99626595 -0.069336161
1019618867.9245 0.99717367 -0.071546674 0.0023632189 0.035460506 0.0024281037 0.035729378 0.99601716 -0.070268884
1029615094.3396 0.99713761 -0.072589785 0.0024277959 0.035729088 0.0024453271 0.036045913 0.99563074 -0.070858151
1039611320.7547 0.99719232 -0.073470801 0.0024857447 0.036095466 0.002480844 0.036352724 0.9955824 -0.071560472
1049607547.1698 0.9969725 -0.074446604 0.002478268 0.036377847 0.002540926 0.036671963 0.99556136 -0.072209239
1059603773.5849 0.99683917 -0.075132787 0.0025297804 0.036713757 0.0025805244 0.037005715 0.9955399 -0.072745889
1069600000 0.996544 -0.075811148 0.0025679488 0.037040256 0.002588572 0.037351698 0.99569666 -0.073488414
1079596226.4151 0.99658018 -0.076378666 0.0025826874 0.037391257 0.0026237178 0.037695058 0.99571466 -0.074227959
1089592452.8302 0.99661672 -0.077033669 0.0025690375 0.037764311 0.0026595043 0.03806062 0.99563318 -0.074988842
1099588679.2453 0.99667132 -0.077689856 0.0026050862 0.038079143 0.0026793834 0.038402557 0.99529421 -0.075626343
1109584905.6604 0.99677205 -0.078591719 0.0026415838 0.038428377 0.0026952801 0.03877512 0.99507207 -0.076216698
1119581132.0755 0.99665201 -0.079552092 0.0026744902 0.038789555 0.0027270513 0.039135087 0.99480492 -0.076611422
1129577358.4906 0.9965176 -0.080367625 0.0027205013 0.039170902 0.0028007366 0.039543871 0.99475926 -0.077139437
1139573584.9057 0.99622375 -0.08137688 0.0027561653 0.03951754 0.0028529642 0.039836124 0.99478167 -0.07784757
1149569811.3208 0.99613553 -0.082202829 0.0028250222 0.039869163 0.0028914274 0.040179588 0.99494594 -0.078565575
1159566037.7358 0.99586797 -0.082851768 0.0028619133 0.04018309 0.0029259734 0.040527526 0.99498248 -0.079622447
1169562264.1509 0.99570578 -0.083499402 0.002873024 0.040525012 0.0029658582 0.040834129 0.99481738 -0.080456495
1179558490.566 0.99567896 -0.084257327 0.0028962784 0.040932741 0.0030154646 0.041208893 0.9946956 -0.081220523
1189554716.9811 0.99561977 -0.085070282 0.0029535629 0.04125097 0.0030214898 0.041570786 0.99440205 -0.081680834
1199550943.3962 0.99563897 -0.085894942 0.003006855 0.041638948 0.0030994304 0.041965529 0.99420071 -0.082111984
1209547169.8113 0.99539387 -0.086814225 0.0030152025 0.041977745 0.0031396188 0.042302426 0.99417019 -0.082496822
1219543396.2264 0.99515921 -0.087733254 0.0030967598 0.042349678 0.0031794882 0.042686097 0.99421698 -0.082909733
1229539622.6415 0.99491477 -0.088490516 0.003155414 0.042676263 0.003255209 0.043051206 0.99439371 -0.083620816
1239535849.0566 0.99459428 -0.089230597 0.0032586567 0.043032732 0.0033911262 0.043368481 0.99440455 -0.084616542
1249532075.4717 0.99428785 -0.089970291 0.0032852788 0.04337126 0.0034769622 0.043691371 0.99427211 -0.085446343
1259528301.8868 0.994084 -0.090479314 0.0033509713 0.043710697 0.0034988895 0.044001672 0.99403644 -0.08635059
1269524528.3019 0.99395669 -0.091251135 0.0034119487 0.04404825 0.003579488 0.044333849 0.99377942 -0.087021619
1279520754.717 0.99356747 -0.091933042 0.0035031475 0.044327404 0.0036283594 0.044629026 0.99347788 -0.087552123
1289516981.1321 0.99345577 -0.092780709 0.0034893109 0.044678278 0.0036166096 0.044911217 0.99358046 -0.08799544
1299513207.5472 0.99319649 -0.093626499 0.0035095215 0.044969566 0.0036461372 0.045295589 0.99361622 -0.088386327
1309509433.9623 0.99264234 -0.094363391 0.0035375422 0.045306932 0.0036489815 0.045606192 0.99376726 -0.089259565
1319505660.3774 0.99223953 -0.095137522 0.0035701757 0.045671392 0.0036698785 0.045924511 0.99374521 -0.08983396
1329501886.7925 0.99198163 -0.095698476 0.0035843588 0.046043038 0.0037067048 0.046251919 0.99374419 -0.090825468
1339498113.2075 0.9916929 -0.096313834 0.0036104163 0.046355013 0.0037339786 0.046613201 0.9933244 -0.091582417
1349494339.6226 0.99151325 -0.096874446 0.003587218 0.046700723 0.003708276 0.046999127 0.99296081 -0.092227027
1359490566.0377 0.99140847 -0.097507715 0.0035815388 0.047095761 0.0037568696 0.047353741 0.99272627 -0.092710286
1369486792.4528 0.99111032 -0.098080993 0.0036236811 0.0474618 0.0037687868 0.047729559 0.99253756 -0.09323743
1379483018.8679 0.99082512 -0.098688476 0.003653714 0.047877286 0.0037464688 0.048076957 0.99250644 -0.093576752
1389479245.283 0.9904806 -0.099286348 0.0037415177 0.048236638 0.0038231201 0.048459902 0.99254721 -0.094327003
1399475471.6981 0.99009407 -0.099682927 0.0037627164 0.048596807 0.003821345 0.048806377 0.99270821 -0.095014781
1409471698.1132 0.98972619 -0.10008377 0.003803682 0.048970062 0.0038890326 0.049271431 0.9927519 -0.095916525
1419467924.5283 0.98945242 -0.10031861 0.0037909169 0.04938744 0.0038956171 0.04962448 0.99253273 -0.096592218
1429464150.9434 0.98932719 -0.10081893 0.0038365647 0.049786486 0.0039268993 0.050015479 0.99231017 -0.097111523
1439460377.3585 0.98955035 -0.10123152 0.0039657503 0.050291877 0.0040007001 0.050487004 0.99216008 -0.097395867
1449456603.7736 0.98959112 -0.10180673 0.0040654894 0.050709728 0.0041067461 0.05086384 0.99202615 -0.097796828
1459452830.1887 0.98958349 -0.10249272 0.0042097345 0.051106289 0.004228875 0.051363729 0.9922142 -0.098135769
1469449056.6038 0.9896695 -0.10321784 0.0043626977 0.051472221 0.0043736342 0.05173777 0.99238938 -0.09884724
1479445283.0189 0.98940325 -0.10391927 0.004536395 0.051823266 0.0045288065 0.052020814 0.99238676 -0.099756524
1489441509.434 0.98930055 -0.10442147 0.0046488028 0.052104969 0.004700115 0.052352972 0.99231696 -0.10062942
1499437735.8491 0.98915714 -0.10477945 0.0047229696 0.052379798 0.0047615096 0.052609775 0.99211413 -0.10158584
1509433962.2642 0.98915452 -0.10525637 0.0048586139 0.052682344 0.0048719044 0.052930929 0.99200571 -0.10227309
1519430188.6792 0.98932356 -0.1058484 0.0049022343 0.052961957 0.0049412716 0.053213682 0.99179351 -0.1028277
1529426415.0943 0.9891969 -0.1065155 0.0049902499 0.053240895 0.0049597826 0.053535819 0.99170411 -0.10333088
1539422641.5094 0.98927534 -0.10728204 0.0050630048 0.053585086 0.0050379233 0.053866431 0.9918443 -0.10372039
1549418867.9245 0.98912871 -0.10820083 0.0051030982 0.053879473 0.005126331 0.054195147 0.99207515 -0.10450333
1559415094.3396 0.98898351 -0.10888362 0.0051921885 0.054181851 0.0051740874 0.054468542 0.99220753 -0.10518751
1569411320.7547 0.98879588 -0.10968734 0.0052473024 0.054499675 0.0051972801 0.054773968 0.99205172 -0.10606991
1579407547.1698 0.9887054 -0.110219 0.005240744 0.054781813 0.0052485904 0.055091366 0.99171722 -0.10687053
1589403773.5849 0.98860085 -0.11080396 0.0052007101 0.055082217 0.0052306987 0.055392206 0.9914704 -0.10758978
1599400000 0.98869783 -0.11125281 0.005266089 0.055382337 0.0052428264 0.055705927 0.99106693 -0.10808852
1609396226.4151 0.98861814 -0.11189014 0.0052712993 0.055773631 0.0052277688 0.056050494 0.990843 -0.10855138
1619392452.8302 0.9885757 -0.11259085 0.0052940622 0.056072183 0.0052403491 0.056412227 0.99090177 -0.10911015
1629388679.2453 0.98832154 -0.11325952 0.0053097662 0.056439623 0.0052710548 0.056809835 0.99110717 -0.10966665
1639384905.6604 0.98804522 -0.11393347 0.0052975286 0.056863748 0.0052522104 0.057219163 0.99136853 -0.11045437
1649381132.0755 0.98781902 -0.11469853 0.0053105187 0.057239428 0.0053205397 0.057579324 0.99135268 -0.11143124
1659377358.4906 0.98763514 -0.11540133 0.0053799134 0.057602815 0.0053613484 0.057951674 0.99123609 -0.11242345
1669373584.9057 0.98758727 -0.1158776 0.0053739888 0.058018025 0.0053742048 0.058392532 0.99092317 -0.11299565
1679369811.3208 0.98768067 -0.1164908 0.0054629482 0.058410048 0.0054451674 0.058797348 0.99067307 -0.1135945
1689366037.7358 0.98758185 -0.11733359 0.0055280644 0.058751106 0.0054867025 0.059153955 0.99049395 -0.11386728
1699362264.1509 0.9877609 -0.11784063 0.005576699 0.059166677 0.0055581033 0.059570149 0.99080902 -0.11432286
1709358490.566 0.98765016 -0.11857581 0.0056419438 0.059566606 0.0056011891 0.059959572 0.99073458 -0.11492155
1719354716.9811 0.9873513 -0.11927032 0.0057256557 0.059976794 0.0057340525 0.060390368 0.99065059 -0.11562377
1729350943.3962 0.98696059 -0.11984882 0.0057851784 0.06035557 0.0057993438 0.060762834 0.99082148 -0.11659589
