!Keysight Technologies,N5222B,MY61253708,A.15.00.15
!Date: Wednesday, June 19, 2024 09:34:54
!Correction: S11(C  2-Port  ) 
!S21(C  2-Port  ) 
!S12(C  2-Port  ) 
!S22(C  2-Port  ) 
!S2P File: Measurements: S11, S21, S12, S22:
# Hz S  RI   R 50
10000000 0.99857503 -0.002813071 -0.00017226319 0.00041127601 1.9175688e-005 0.00012568109 0.99825239 -0.00085934997
19996226.415094 0.9989152 -0.0025612414 9.5761352e-005 0.0007350776 8.1787002e-006 0.0006053166 0.99905384 -0.0025563836
29992452.830189 0.99978912 -0.0025720894 9.0427697e-005 0.0010344249 -5.5236596e-005 0.0010286722 0.99952298 -0.0026428699
39988679.245283 1.0000497 -0.0030415207 4.8850838e-005 0.001361608 -2.1706306e-005 0.001334292 0.99972004 -0.0030923635
49984905.660377 1.0002087 -0.0037341416 6.6819775e-005 0.0016435133 1.0993157e-005 0.0016689727 0.99990779 -0.003673315
59981132.075472 1.0003598 -0.0045857728 -5.4470729e-006 0.0020453392 3.6225305e-005 0.0020675978 0.99982804 -0.0042160749
69977358.490566 1.0001835 -0.0051887818 -4.4582703e-006 0.0023325474 3.9530009e-005 0.0023567036 0.99973881 -0.0047195069
79973584.90566 0.99989069 -0.0057844818 -1.9438798e-005 0.0026944287 -4.7757057e-006 0.0026897979 0.99944878 -0.0051905811
89969811.320755 0.999915 -0.0058849454 5.1992829e-005 0.0029944349 8.57329e-006 0.0030275639 0.99963504 -0.0054606199
99966037.735849 1.0001211 -0.0066698492 6.9942907e-006 0.0033394881 1.0973541e-005 0.0033337928 0.99967027 -0.0062827021
109962264.15094 1.000098 -0.0075153112 1.5298661e-005 0.0036425344 4.8616785e-005 0.0037019709 0.99970132 -0.0070982128
119958490.56604 1.0001762 -0.0085029006 3.4091645e-005 0.003993243 4.1773077e-005 0.0040497952 0.99971998 -0.0079768896
129954716.98113 1.0000978 -0.0094450116 4.135957e-005 0.0043170047 3.7525315e-005 0.0043569505 0.99969625 -0.0088839531
139950943.39623 1.0000325 -0.010243576 3.0827607e-005 0.0046452316 5.7112833e-005 0.0046996851 0.99963117 -0.0096092094
149947169.81132 0.9999187 -0.01096049 3.2949261e-005 0.004955776 3.8463157e-005 0.0050346502 0.99957395 -0.010225534
159943396.22642 0.99988723 -0.011508763 3.9967941e-005 0.0053297207 3.5624485e-005 0.0053562559 0.9996767 -0.010664582
169939622.64151 0.99987674 -0.011851445 8.1161037e-005 0.0056533064 6.7804242e-005 0.0057153036 0.99970549 -0.011089794
179935849.0566 0.99988204 -0.012158453 6.161537e-005 0.0059825177 7.1449089e-005 0.0060466966 0.99961621 -0.011517793
189932075.4717 1.0000432 -0.012919098 5.296059e-005 0.006324179 6.7114132e-005 0.0063691786 0.99984825 -0.012109965
199928301.88679 0.99993956 -0.013783425 9.5486059e-005 0.0066578081 0.00010223768 0.0067142583 0.99974728 -0.012967676
209924528.30189 0.9996649 -0.014342308 0.00010655576 0.0069627105 9.9076191e-005 0.0070430217 0.99947822 -0.013672188
219920754.71698 0.9998284 -0.015206784 0.00010013091 0.0073048035 0.00012383983 0.0073570311 0.99938428 -0.014306515
229916981.13208 0.99957681 -0.016082257 0.00012337836 0.0076658991 0.00010638894 0.007709993 0.99928892 -0.015046507
239913207.54717 0.99942762 -0.016736882 0.0001293887 0.0079678902 0.00014755639 0.0080493912 0.99930471 -0.015778607
249909433.96226 0.99948013 -0.017374933 0.0001331151 0.0082967207 0.00012892671 0.0083497865 0.99941826 -0.016382426
259905660.37736 0.99955308 -0.017979085 0.00010173023 0.0086585646 0.00018249732 0.0087226527 0.99952424 -0.01693213
269901886.79245 0.9997226 -0.018601209 0.00017178548 0.0089835674 0.00020019256 0.009037395 0.99986225 -0.017747253
279898113.20755 0.99980706 -0.019176632 0.00015884312 0.0093314601 0.00020087976 0.0093904715 0.99973905 -0.018384144
289894339.62264 0.99976885 -0.020030051 0.00017026393 0.00961971 0.00018116506 0.0097743729 0.99972332 -0.019155085
299890566.03774 0.9997285 -0.020550013 0.00020842045 0.0099722827 0.00015918026 0.010033514 0.99944794 -0.019627929
309886792.45283 0.99946398 -0.02110631 0.00023351138 0.010297897 0.00021969201 0.010393783 0.99926406 -0.020045206
319883018.86792 0.99946749 -0.021663278 0.000250326 0.010630653 0.00025993073 0.010722479 0.99944574 -0.020523071
329879245.28302 0.99950695 -0.022586942 0.00023810193 0.010954252 0.00025399169 0.01104685 0.99953663 -0.021350712
339875471.69811 0.99936759 -0.023341447 0.00023992267 0.011298478 0.00026071782 0.01137857 0.99944752 -0.022129595
349871698.11321 0.99956536 -0.024069607 0.0002645778 0.011628262 0.00029076426 0.011721773 0.99948138 -0.023038864
359867924.5283 0.99935102 -0.024823725 0.00030373409 0.011922119 0.00024718652 0.012033906 0.99942869 -0.023947716
369864150.9434 0.99949527 -0.025566578 0.0003297627 0.012321116 0.00035116123 0.012407954 0.99948478 -0.024672329
379860377.35849 0.99943024 -0.026283413 0.00034371135 0.012589854 0.00029229023 0.01270528 0.999345 -0.025321677
389856603.77358 0.99953091 -0.026935458 0.0003274628 0.01298842 0.00035518873 0.013064684 0.99930024 -0.025844127
399852830.18868 0.99924976 -0.027429342 0.00034684502 0.013296591 0.0003420054 0.013389969 0.99935883 -0.026320577
409849056.60377 0.99914706 -0.027896378 0.0004117215 0.013624486 0.00036835589 0.013741636 0.9993397 -0.026801191
419845283.01887 0.99916244 -0.028430521 0.00036115013 0.013934036 0.00037650997 0.014045721 0.99934793 -0.027271509
429841509.43396 0.99923176 -0.028994858 0.00041404134 0.014267946 0.00040116021 0.014421562 0.9995023 -0.028086632
439837735.84906 0.99910879 -0.029960677 0.00044284773 0.014596445 0.00043919205 0.014740397 0.99931294 -0.02902393
449833962.26415 0.99910271 -0.030742466 0.00043416908 0.014933894 0.00045889243 0.015046714 0.99888778 -0.029781431
459830188.67925 0.99892926 -0.03146863 0.00042366097 0.015261099 0.00044735149 0.015345983 0.99867857 -0.030512154
469826415.09434 0.99886793 -0.032267481 0.00045935111 0.015590761 0.00043345056 0.015710315 0.99841243 -0.031110793
479822641.50943 0.99881709 -0.032788508 0.00053555891 0.015948411 0.0005047319 0.016062105 0.99850273 -0.03151609
489818867.92453 0.99891222 -0.033467323 0.00055303145 0.016254313 0.00057913736 0.016419847 0.99882007 -0.032076806
499815094.33962 0.99907136 -0.03406924 0.00055416767 0.016589332 0.00058241235 0.016729567 0.99908793 -0.032657176
509811320.75472 0.99897182 -0.034413218 0.00058725703 0.016906578 0.00053489476 0.017044459 0.99917132 -0.033466961
519807547.16981 0.9990173 -0.035048097 0.00055788644 0.017240468 0.00056254538 0.01735758 0.9991796 -0.034148484
529803773.58491 0.99898523 -0.035600632 0.00059006829 0.017594637 0.00061662216 0.017733157 0.99895561 -0.034762889
539800000 0.99905312 -0.036303893 0.00061693881 0.017896423 0.0006362861 0.01805597 0.99878114 -0.035423204
549796226.41509 0.99881989 -0.03711465 0.00069315126 0.018244041 0.00062027294 0.0183715 0.99865389 -0.035909086
559792452.83019 0.99860978 -0.037955761 0.00067641865 0.018619137 0.0006373683 0.018729698 0.99858606 -0.03633517
569788679.24528 0.99844563 -0.038536966 0.00069321971 0.018935226 0.00070218509 0.019056017 0.99877071 -0.037103027
579784905.66038 0.99850857 -0.039169051 0.00071852631 0.019229257 0.00072659855 0.019442754 0.99885076 -0.037828036
589781132.07547 0.99854875 -0.039773881 0.00074986741 0.019585853 0.0007035844 0.019731365 0.99887967 -0.038780242
599777358.49057 0.99874747 -0.040332615 0.00075979903 0.019948019 0.00078256335 0.020064641 0.99895245 -0.039511442
609773584.90566 0.9988904 -0.041165471 0.0008255979 0.020267509 0.00080701674 0.020438788 0.998923 -0.040332094
619769811.32075 0.99892986 -0.041827112 0.00087125832 0.020564856 0.00088196993 0.020720659 0.99874979 -0.040879488
629766037.73585 0.9987576 -0.042494506 0.00088623445 0.020849066 0.00087788329 0.021070972 0.99860942 -0.041448385
639762264.15094 0.99857545 -0.043107346 0.00090008276 0.021177573 0.0009163029 0.021358998 0.99840987 -0.04185389
649758490.56604 0.99845946 -0.043828636 0.00090513658 0.021525264 0.00092216209 0.021664595 0.99857575 -0.042301193
659754716.98113 0.99837422 -0.044216812 0.00088300649 0.021853324 0.00093847141 0.022054449 0.99861586 -0.042858988
669750943.39623 0.9982568 -0.044754028 0.00092189992 0.022177767 0.00097879581 0.022377031 0.99865186 -0.043670118
679747169.81132 0.99836743 -0.045431547 0.00099136692 0.022544857 0.00098576548 0.022754457 0.99868274 -0.04462304
689743396.22642 0.99850643 -0.046312869 0.0010388857 0.022821182 0.0010355329 0.023066344 0.99843723 -0.045612156
699739622.64151 0.99860138 -0.04709959 0.0010840092 0.023185752 0.001074357 0.023378177 0.99834919 -0.04627803
709735849.0566 0.99853927 -0.047977053 0.001100176 0.023511505 0.001142321 0.023720512 0.9981522 -0.046929896
719732075.4717 0.9984591 -0.048625171 0.0011798553 0.023850091 0.0011307923 0.024033176 0.99823821 -0.047470331
729728301.88679 0.99835503 -0.049242318 0.001164536 0.024127997 0.0011863019 0.024361175 0.99825895 -0.047997057
739724528.30189 0.99823195 -0.049907923 0.0012153825 0.024463173 0.0012554154 0.024698513 0.99845433 -0.04865478
749720754.71698 0.99814391 -0.050464109 0.0012704488 0.024771597 0.0012783851 0.025012808 0.99846464 -0.049372181
759716981.13208 0.99815357 -0.050904483 0.0012762928 0.025120156 0.0012562657 0.025341697 0.99838513 -0.050133407
769713207.54717 0.99814481 -0.051627457 0.0013081031 0.025415879 0.0013110843 0.025660582 0.99816287 -0.050819308
779709433.96226 0.99826145 -0.052241746 0.0013221903 0.025774386 0.0013651936 0.025986664 0.99792123 -0.051484488
789705660.37736 0.99813104 -0.053202331 0.0013640076 0.026081212 0.0014111949 0.026275981 0.9976719 -0.052211255
799701886.79245 0.99810922 -0.053954095 0.0014047148 0.026407156 0.0014041467 0.026647469 0.99755663 -0.052807838
809698113.20755 0.99803793 -0.054562181 0.0014064438 0.026695587 0.0014428189 0.026955118 0.99762458 -0.053247064
819694339.62264 0.99791396 -0.055194497 0.0014467211 0.027022064 0.0014683469 0.027281296 0.99769622 -0.053846002
829690566.03774 0.99789828 -0.055814564 0.0014428338 0.027350508 0.0014947746 0.027615391 0.99792087 -0.054720402
839686792.45283 0.99793762 -0.056334823 0.0015152609 0.027682427 0.0015183939 0.027938215 0.99795872 -0.055538297
849683018.86792 0.9980585 -0.056934208 0.0015518446 0.02803785 0.00156043 0.028257428 0.99789435 -0.056202054
859679245.28302 0.99808848 -0.057634503 0.001584731 0.028327469 0.0016092183 0.028605472 0.99756122 -0.056868017
869675471.69811 0.9979161 -0.058377743 0.001629672 0.028656244 0.0016286978 0.028918451 0.9972313 -0.057374924
879671698.11321 0.99789083 -0.059082981 0.0016222759 0.028948685 0.0016490305 0.029228132 0.99723089 -0.057807907
889667924.5283 0.99777377 -0.059908748 0.0016909642 0.029275259 0.0016717976 0.029542152 0.99708289 -0.058310956
899664150.9434 0.99754739 -0.060652614 0.0017059864 0.029579077 0.001736179 0.029878067 0.99712014 -0.058926731
909660377.35849 0.99759114 -0.061272323 0.0017215204 0.029903151 0.001794436 0.030230135 0.99729729 -0.059745207
919656603.77358 0.99762565 -0.061891913 0.0017501498 0.030264311 0.001761971 0.030533703 0.99724293 -0.060711116
929652830.18868 0.997567 -0.062653005 0.0017994158 0.030582864 0.0017935177 0.030848686 0.9971168 -0.061542511
939649056.60377 0.9977777 -0.063292831 0.0017942451 0.030872475 0.0017990284 0.031156622 0.99700952 -0.062300205
949645283.01887 0.99772328 -0.064101115 0.001776668 0.031206645 0.0018129975 0.031516146 0.99677366 -0.062806293
959641509.43396 0.99767298 -0.064853162 0.0018072994 0.031588253 0.0018761661 0.031870551 0.99669039 -0.063385576
969637735.84906 0.99760985 -0.06550473 0.0019062785 0.031908207 0.0018971721 0.032212615 0.996732 -0.063620836
979633962.26415 0.99742985 -0.066270985 0.0019236822 0.032223962 0.0019662934 0.03252583 0.99677891 -0.064294301
989630188.67925 0.99746692 -0.066746771 0.0019470425 0.032521222 0.0019887323 0.032836258 0.99695164 -0.064945191
999626415.09434 0.99749434 -0.067387462 0.0019898769 0.032870844 0.0020466307 0.033209249 0.99685699 -0.065711826
1009622641.5094 0.99747968 -0.067989483 0.0020333799 0.033220254 0.0021062223 0.033524029 0.99673229 -0.066626698
1019618867.9245 0.99764109 -0.068813905 0.0020851726 0.033530939 0.0021368144 0.033893593 0.9964149 -0.067423657
1029615094.3396 0.99762553 -0.069751322 0.0021373238 0.033839755 0.0022046799 0.034169443 0.99608636 -0.068007082
1039611320.7547 0.9975884 -0.070722163 0.0021796459 0.03413526 0.0022138488 0.034466088 0.99605596 -0.068633556
1049607547.1698 0.99742126 -0.071625605 0.0022062398 0.034438062 0.0022293776 0.034786493 0.99606913 -0.06926208
1059603773.5849 0.99742472 -0.072255224 0.0022238102 0.034721572 0.0022384804 0.035063121 0.99609578 -0.069778711
1069600000 0.99698555 -0.072846115 0.0022000419 0.035018962 0.002314195 0.035397731 0.99616683 -0.070519388
1079596226.4151 0.99704945 -0.073483199 0.0022311402 0.035387244 0.002296987 0.035737656 0.99620414 -0.071269937
1089592452.8302 0.99715811 -0.074169725 0.0022766944 0.035746891 0.002322915 0.03608625 0.99621856 -0.071960717
1099588679.2453 0.99719656 -0.074932367 0.0022547878 0.036048491 0.0023530573 0.036416803 0.99579871 -0.072620213
1109584905.6604 0.99724156 -0.075681433 0.0023110677 0.036406461 0.0023867367 0.036740892 0.99552774 -0.07321839
1119581132.0755 0.99727607 -0.07667245 0.0023147152 0.036719959 0.002387133 0.03710461 0.99537021 -0.073664233
1129577358.4906 0.99711484 -0.077396333 0.0023820791 0.037100267 0.0024605468 0.037466001 0.99530363 -0.073979914
1139573584.9057 0.99684501 -0.078319341 0.0024016472 0.037411887 0.002493808 0.037791479 0.99543118 -0.074654907
1149569811.3208 0.99676794 -0.079161532 0.0024652663 0.037742693 0.0025819265 0.038110469 0.99554318 -0.075448796
1159566037.7358 0.99654049 -0.07987982 0.0025144843 0.038051285 0.0025859596 0.038411561 0.99558252 -0.076446652
1169562264.1509 0.9963212 -0.080473632 0.0025088228 0.038333606 0.0025992598 0.038760878 0.99545902 -0.077227473
1179558490.566 0.99633443 -0.081332043 0.0025298959 0.038738936 0.0026174244 0.039106783 0.99533063 -0.077978432
1189554716.9811 0.99627906 -0.08194086 0.0025452012 0.039064325 0.0026876545 0.039460339 0.9950586 -0.078482658
1199550943.3962 0.99622428 -0.082814574 0.0025870819 0.039438073 0.0027313959 0.03976671 0.99481887 -0.078874618
1209547169.8113 0.99606681 -0.083712935 0.0026429901 0.039748732 0.0028049806 0.040093895 0.99477798 -0.079288632
1219543396.2264 0.99588501 -0.084433749 0.0026868852 0.040099312 0.002800575 0.04048701 0.99477112 -0.07965681
1229539622.6415 0.9955653 -0.085297316 0.002757119 0.040436126 0.0028922353 0.040828645 0.99500823 -0.080236346
1239535849.0566 0.99530995 -0.08595705 0.0028340211 0.040752627 0.0029593492 0.041169215 0.99511111 -0.081220448
1249532075.4717 0.9949789 -0.086698279 0.002881068 0.04106601 0.0030196069 0.041459113 0.99486446 -0.082000762
1259528301.8868 0.99481285 -0.087197632 0.0029103775 0.041402187 0.0030644201 0.041754395 0.99467605 -0.08289215
1269524528.3019 0.99465942 -0.087949365 0.0029984694 0.041738488 0.0031334348 0.042064279 0.99442118 -0.083585501
1279520754.717 0.99432868 -0.088661037 0.0030559897 0.041956224 0.003198446 0.042337723 0.99420285 -0.084149644
1289516981.1321 0.99428713 -0.08942169 0.0030762767 0.042310361 0.0031964127 0.042627364 0.99427223 -0.084553391
1299513207.5472 0.9939031 -0.090341926 0.0030758511 0.042596351 0.0032172799 0.042965993 0.9943645 -0.084961623
1309509433.9623 0.99340051 -0.091027424 0.0030693598 0.042915933 0.0032307468 0.043257095 0.9944756 -0.085737005
1319505660.3774 0.99303502 -0.091689765 0.0030893711 0.043233309 0.0032335594 0.043569285 0.99449658 -0.086276487
1329501886.7925 0.99279535 -0.0923374 0.0031061471 0.043544762 0.0032905117 0.043900177 0.99448079 -0.087212026
1339498113.2075 0.99250031 -0.092874795 0.0031535579 0.04392406 0.0032974817 0.044202868 0.99410284 -0.087979674
1349494339.6226 0.99233431 -0.093463972 0.0031100367 0.044234354 0.0032615429 0.044546489 0.99378419 -0.08856032
1359490566.0377 0.99225008 -0.09411943 0.0031333063 0.04458037 0.0033019353 0.044931415 0.99357802 -0.089152545
1369486792.4528 0.99202967 -0.094551593 0.0031644208 0.044937894 0.0032896092 0.045232564 0.99340284 -0.089604646
1379483018.8679 0.99175596 -0.095174149 0.003179078 0.045328852 0.0032814865 0.045616522 0.99337596 -0.089879878
1389479245.283 0.99132746 -0.095674455 0.0032276213 0.045701031 0.003343612 0.045997314 0.99332547 -0.090569168
1399475471.6981 0.99096584 -0.096062452 0.0032683238 0.046052463 0.003330091 0.046368591 0.99358451 -0.091260314
1409471698.1132 0.99071616 -0.096364066 0.003293711 0.046412297 0.0033653178 0.046734821 0.99358958 -0.092010595
1419467924.5283 0.99051195 -0.096684486 0.0032756599 0.046790563 0.0033956878 0.047126837 0.99343967 -0.092692792
1429464150.9434 0.99029511 -0.097198188 0.00334985 0.047184296 0.003432218 0.04747365 0.99328029 -0.093320221
1439460377.3585 0.99048811 -0.097630993 0.003408812 0.047627386 0.0035333838 0.047926601 0.99309558 -0.093751922
1449456603.7736 0.99049407 -0.098263904 0.0035304213 0.048072863 0.0035932576 0.048327226 0.99288189 -0.093941092
1459452830.1887 0.99045503 -0.09882167 0.0036744606 0.048465427 0.0037590768 0.048732318 0.99301755 -0.094322741
1469449056.6038 0.99054933 -0.09951067 0.0038025836 0.048777841 0.0038607251 0.049079891 0.99322134 -0.094982266
1479445283.0189 0.99042249 -0.10010886 0.0039588185 0.04907541 0.0040219878 0.049385265 0.99331433 -0.095900141
1489441509.434 0.99022889 -0.10059997 0.0040547289 0.049356893 0.004152786 0.049705856 0.99317145 -0.096728086
1499437735.8491 0.99009442 -0.10097632 0.0041761361 0.049659368 0.0042044446 0.049952373 0.99306262 -0.097492039
1509433962.2642 0.99014664 -0.10152213 0.0042654546 0.04991743 0.0042994097 0.050291177 0.99292934 -0.098284125
1519430188.6792 0.99022651 -0.10214165 0.0043543745 0.050199829 0.0043556169 0.050511599 0.99285233 -0.098830551
1529426415.0943 0.99018592 -0.10269412 0.0044082329 0.050485469 0.0043989923 0.050829135 0.99272048 -0.099238545
1539422641.5094 0.99017382 -0.10349399 0.0044460804 0.050757825 0.0044717896 0.051103678 0.99280393 -0.099819392
1549418867.9245 0.99008775 -0.10430081 0.0044971546 0.051062431 0.0045070751 0.051383942 0.99309814 -0.10048883
1559415094.3396 0.98992068 -0.10496244 0.0045664441 0.051350527 0.0045800898 0.051686659 0.99314463 -0.10108125
1569411320.7547 0.98982501 -0.10568392 0.0045805983 0.051613588 0.0046133343 0.051947851 0.99308181 -0.10191418
1579407547.1698 0.98974997 -0.10619575 0.0046196277 0.051922228 0.0046520764 0.052271288 0.99278712 -0.10277005
1589403773.5849 0.98969144 -0.10683659 0.004642101 0.052225448 0.0046279971 0.052605517 0.99249953 -0.10347727
1599400000 0.98964214 -0.10722253 0.0046291398 0.052458104 0.0045908503 0.052877307 0.9921819 -0.10385221
1609396226.4151 0.98964697 -0.10787506 0.0046105077 0.052856863 0.0046286676 0.053217955 0.99203366 -0.10442533
1619392452.8302 0.98955894 -0.10847652 0.0046486147 0.053149555 0.0046239384 0.053557999 0.99198771 -0.1049403
1629388679.2453 0.98935628 -0.10920069 0.0046503134 0.053489082 0.0046364963 0.053914879 0.99219704 -0.10542259
1639384905.6604 0.98912555 -0.10984021 0.0046157935 0.053850017 0.0046248483 0.054313295 0.9924323 -0.10622951
1649381132.0755 0.98886091 -0.11047733 0.0046972372 0.054243803 0.0046467539 0.054655522 0.99236131 -0.10712925
1659377358.4906 0.98876238 -0.11136994 0.0046948157 0.054617085 0.004701212 0.055035658 0.99243033 -0.10801032
1669373584.9057 0.98875457 -0.11175017 0.0046721399 0.054951176 0.0047277249 0.05541119 0.99208802 -0.10866567
1679369811.3208 0.98879826 -0.11243838 0.0047621224 0.05530642 0.0047601424 0.055762693 0.99187064 -0.10922709
1689366037.7358 0.98874688 -0.11311975 0.0047923084 0.055724367 0.0048083849 0.056200117 0.99172175 -0.10952517
1699362264.1509 0.98883462 -0.11372294 0.0048803799 0.056053448 0.0048543867 0.056559335 0.99191636 -0.10998307
1709358490.566 0.98874742 -0.11435287 0.0049141934 0.056476623 0.0049197515 0.056949947 0.99187773 -0.11054641
1719354716.9811 0.98840654 -0.11492333 0.0049973652 0.056833297 0.0049920194 0.057326779 0.99196911 -0.11132184
1729350943.3962 0.98823762 -0.11548662 0.005022794 0.057213627 0.0050507803 0.057701513 0.99204326 -0.111967
