!Keysight Technologies,N5222B,MY61253708,A.15.00.15
!Date: Wednesday, June 19, 2024 08:36:54
!Correction: S11(C  2-Port  ) 
!S21(C  2-Port  ) 
!S12(C  2-Port  ) 
!S22(C  2-Port  ) 
!S2P File: Measurements: S11, S21, S12, S22:
# Hz S  RI   R 50
10000000 0.99845493 -0.0024906099 0.00060068187 0.0008298512 2.0760315e-005 0.00039472478 0.99906087 -0.0010212362
19996226.415094 0.99901569 -0.0025262833 2.1438522e-005 0.0012852855 -2.8475712e-005 0.0012615857 0.9992885 -0.002651751
29992452.830189 0.99968034 -0.0033130944 9.7160228e-006 0.0018484199 -0.00010044826 0.0019192239 0.99940765 -0.0034220219
39988679.245283 1.0000263 -0.004207477 3.2480486e-005 0.0024930232 8.2138606e-005 0.0024828224 0.99966061 -0.0042514056
49984905.660377 1.0001035 -0.0052405596 2.6379712e-007 0.003120529 2.5663292e-005 0.0031428828 0.99972725 -0.0051415265
59981132.075472 1.0001982 -0.0063783228 1.7898856e-005 0.0037258922 6.2182429e-005 0.0037254498 0.99965417 -0.0059436262
69977358.490566 0.99991477 -0.0071468055 7.6136013e-005 0.0043583838 9.0681104e-005 0.0043457379 0.99955755 -0.0066627525
79973584.90566 0.99975121 -0.0079096258 7.1669696e-005 0.0049996581 6.5514585e-005 0.0049311481 0.99930483 -0.0074809194
89969811.320755 0.99971724 -0.008551687 7.801922e-005 0.0055735447 5.7820464e-005 0.005564739 0.99936444 -0.0081470013
99966037.735849 0.99982268 -0.0095251352 7.7174744e-005 0.0062226807 8.1941718e-005 0.0061854902 0.99943626 -0.0091403872
109962264.15094 0.99986333 -0.010714412 0.00011681148 0.0068127848 0.00010518485 0.0068248883 0.99943739 -0.010299966
119958490.56604 0.9999671 -0.012028933 0.00015528477 0.0074453 0.00014929217 0.0074462211 0.99946952 -0.011524886
129954716.98113 0.99984902 -0.013338894 0.00017932802 0.0080364496 0.00018367218 0.0080428272 0.99941772 -0.012726963
139950943.39623 0.99974525 -0.014491048 0.00020515552 0.0086853346 0.00019929784 0.0086522233 0.99930125 -0.013782011
149947169.81132 0.99958336 -0.015407085 0.00020861416 0.0092906673 0.00020757783 0.0092712222 0.99923968 -0.014637351
159943396.22642 0.99952281 -0.016142458 0.00023287442 0.0099198427 0.00024115806 0.0098963287 0.99929684 -0.015336484
169939622.64151 0.9995836 -0.016783975 0.00027295144 0.010518514 0.00024681503 0.010525342 0.99937057 -0.016016319
179935849.0566 0.9995333 -0.01737237 0.00025625993 0.01114074 0.00027979654 0.011119975 0.99934322 -0.016683251
189932075.4717 0.99961901 -0.01837793 0.00034348993 0.01179496 0.0003108168 0.011773553 0.99950802 -0.017652869
199928301.88679 0.99956691 -0.019540846 0.00032965909 0.0123952 0.00033815508 0.012376264 0.99930423 -0.018796325
209924528.30189 0.99932873 -0.020631671 0.00042145862 0.013054421 0.00041986443 0.013010597 0.99902856 -0.019886047
219920754.71698 0.99883735 -0.021869808 0.000808632 0.013542892 0.00083903503 0.013553299 0.99846607 -0.020851701
229916981.13208 0.99887443 -0.022889048 0.00047326088 0.014138079 0.00047122873 0.014110308 0.99867326 -0.021830171
239913207.54717 0.99873722 -0.023749126 0.00052273209 0.014742617 0.00050923717 0.014778144 0.99864548 -0.022790579
249909433.96226 0.99880463 -0.024735659 0.00053405575 0.015384233 0.00054518087 0.015389465 0.99877799 -0.023698807
259905660.37736 0.99887115 -0.025514066 0.00059650792 0.016069032 0.00056965183 0.016034819 0.99895227 -0.024555355
269901886.79245 0.99902159 -0.026575118 0.0006161232 0.016636292 0.00058144517 0.016649416 0.99925679 -0.02548103
279898113.20755 0.99909514 -0.027414933 0.00066859671 0.017338896 0.00059553259 0.017171986 0.99920428 -0.026554689
289894339.62264 0.99909824 -0.028552115 0.00074094161 0.01787987 0.00072872639 0.017811732 0.99891603 -0.027603477
299890566.03774 0.99900174 -0.029405564 0.00074469065 0.018469516 0.00074556936 0.01847285 0.9987309 -0.028387189
309886792.45283 0.99870056 -0.03033568 0.00083455315 0.019081859 0.00081157149 0.019065129 0.9985196 -0.029203512
319883018.86792 0.99837893 -0.031199664 0.00087327044 0.019659586 0.00088195968 0.019691417 0.99846768 -0.029924363
329879245.28302 0.99832225 -0.032104105 0.00093689561 0.020306328 0.00090715382 0.020309165 0.99855566 -0.03087011
339875471.69811 0.99825883 -0.033015192 0.00098380609 0.020932961 0.00095797796 0.020897307 0.99841672 -0.031945661
349871698.11321 0.99847746 -0.034274817 0.0010151258 0.021546502 0.0010184655 0.021491952 0.99857974 -0.033201128
359867924.5283 0.99836797 -0.035394192 0.0010896558 0.022134287 0.0011195894 0.022138961 0.9984293 -0.034401536
369864150.9434 0.99851388 -0.036410809 0.0011452022 0.022747047 0.0011320789 0.02274267 0.99835885 -0.035405338
379860377.35849 0.99841654 -0.037400991 0.0012164835 0.023374684 0.0011902233 0.023331264 0.99828446 -0.036419332
389856603.77358 0.99820012 -0.038198054 0.0012930091 0.02397592 0.0012918431 0.024003388 0.99826884 -0.037127733
399852830.18868 0.99798572 -0.039083987 0.0013212338 0.024564803 0.001278895 0.024532067 0.99815536 -0.037834585
409849056.60377 0.99789661 -0.039742656 0.0014324497 0.025207506 0.0013760095 0.025177302 0.99818361 -0.038530454
419845283.01887 0.99778962 -0.040482938 0.001461776 0.025809579 0.0014157863 0.025786111 0.99812591 -0.03931129
429841509.43396 0.99788404 -0.041419297 0.001532211 0.026415892 0.0014763605 0.026405433 0.9983182 -0.040410668
439837735.84906 0.99781549 -0.042672947 0.0015712169 0.027012026 0.0016031496 0.026975404 0.99804807 -0.041570187
449833962.26415 0.99764466 -0.043845683 0.0016819318 0.027598649 0.001648393 0.02759189 0.99763995 -0.042805076
459830188.67925 0.99745381 -0.044920981 0.00171695 0.028244723 0.0017124815 0.028174005 0.99739933 -0.043811232
469826415.09434 0.99740541 -0.046016127 0.001800796 0.02881583 0.0017842781 0.02878321 0.99709517 -0.044691473
479822641.50943 0.99716765 -0.046862587 0.0018498176 0.029423738 0.001857592 0.029440068 0.99716043 -0.045399591
489818867.92453 0.99732876 -0.047569126 0.0019520596 0.030029831 0.0019592801 0.030006444 0.99739778 -0.046208411
499815094.33962 0.99737346 -0.048343211 0.002035209 0.030599225 0.0019935602 0.030604037 0.99767089 -0.047115356
509811320.75472 0.99748272 -0.049083818 0.0021525337 0.031219341 0.0020872001 0.031163646 0.99772656 -0.048222635
519807547.16981 0.99724233 -0.049979091 0.0021737814 0.031867579 0.0021156901 0.031776641 0.99762523 -0.049279809
529803773.58491 0.9972195 -0.050880164 0.0022671772 0.032442007 0.0022519501 0.03242857 0.9973526 -0.050148904
539800000 0.99701822 -0.05186303 0.0023327088 0.03302427 0.0022820649 0.03304005 0.99708104 -0.051106974
549796226.41509 0.9968484 -0.05306977 0.0024025356 0.033664558 0.0023820456 0.03357337 0.99670839 -0.051957726
559792452.83019 0.99649847 -0.054113835 0.0025438089 0.03422593 0.002439972 0.034256753 0.9965446 -0.052670866
569788679.24528 0.99625051 -0.055100799 0.0025672214 0.0348319 0.0025804164 0.03487175 0.99660534 -0.053652018
579784905.66038 0.99620587 -0.05582606 0.0026297756 0.035491526 0.0026193236 0.03542557 0.99677563 -0.054586031
589781132.07547 0.9964115 -0.056763411 0.0027479893 0.036096938 0.0027010813 0.036056094 0.99689507 -0.055809349
599777358.49057 0.99634486 -0.057729483 0.0028710533 0.036680881 0.0028290069 0.03665112 0.99692976 -0.056827873
609773584.90566 0.99659407 -0.058713477 0.0029536674 0.037305571 0.0029301231 0.037224647 0.99665368 -0.058063209
619769811.32075 0.99670237 -0.059779435 0.0030724974 0.037841309 0.0030375486 0.03781626 0.99649203 -0.05880478
629766037.73585 0.99629521 -0.060656816 0.0031910297 0.038430534 0.0031857956 0.038411997 0.99623853 -0.059579432
639762264.15094 0.99599433 -0.061521545 0.0032897103 0.039038759 0.0032482622 0.038999416 0.99590379 -0.060290694
649758490.56604 0.99572188 -0.06235905 0.003310943 0.039548181 0.0033107875 0.039596859 0.99597216 -0.060961783
659754716.98113 0.99549282 -0.063132852 0.003382327 0.040238287 0.0033846945 0.040183835 0.99594259 -0.061820954
669750943.39623 0.99546194 -0.063910991 0.0034689745 0.040819421 0.0034526996 0.040809549 0.9959923 -0.062911481
679747169.81132 0.99535221 -0.064925723 0.0036076393 0.041472521 0.0035718924 0.041451253 0.99585843 -0.064176537
689743396.22642 0.99553716 -0.066133529 0.0037181396 0.042069435 0.0036985762 0.042023867 0.99559844 -0.065413803
699739622.64151 0.99563414 -0.06717509 0.0038550999 0.042660039 0.0037907399 0.042606678 0.99545926 -0.066386819
709735849.0566 0.99553198 -0.068341546 0.0039969855 0.043205824 0.0039398889 0.043169502 0.99513352 -0.067367949
719732075.4717 0.99533737 -0.069321603 0.0040482469 0.04381169 0.0040401071 0.043794386 0.99519098 -0.068162203
729728301.88679 0.99516356 -0.070068389 0.0041511394 0.044395655 0.0041285418 0.044346146 0.99513805 -0.068748623
739724528.30189 0.99492699 -0.070914537 0.0042533092 0.044951562 0.004212914 0.044976391 0.99520165 -0.069732234
749720754.71698 0.99470657 -0.071640357 0.0043915841 0.045576312 0.0043505798 0.045560513 0.99521393 -0.070699319
759716981.13208 0.9947139 -0.072465181 0.0044820122 0.046136435 0.0044286158 0.046141878 0.995049 -0.07170409
769713207.54717 0.99453723 -0.073481947 0.0045871325 0.046746228 0.0045207851 0.046735168 0.99471301 -0.072666883
779709433.96226 0.99469805 -0.074447982 0.0046996931 0.04739292 0.0046382919 0.047316551 0.99439949 -0.073619746
789705660.37736 0.99442995 -0.075746655 0.0048256461 0.047938388 0.0047890618 0.047887705 0.99406374 -0.0746364
799701886.79245 0.99433011 -0.076778233 0.004969541 0.048516698 0.0049017873 0.04850702 0.99388611 -0.075496584
809698113.20755 0.99416113 -0.077678755 0.0050307773 0.049067583 0.0049556382 0.049127519 0.99386477 -0.076207563
819694339.62264 0.99392843 -0.078558907 0.0051274961 0.049665347 0.0051008677 0.049701069 0.99397784 -0.077136517
829690566.03774 0.99384832 -0.079461753 0.005267553 0.050247774 0.0052201375 0.050312683 0.9941963 -0.078301817
839686792.45283 0.99381489 -0.080104321 0.0053662276 0.050892185 0.0053047938 0.050876122 0.99414045 -0.079400301
849683018.86792 0.99384123 -0.081035055 0.0054699276 0.051499471 0.0054691774 0.051474836 0.99391997 -0.080360495
859679245.28302 0.99375671 -0.082053065 0.005616717 0.052119382 0.0055761188 0.05206966 0.99355328 -0.081284374
869675471.69811 0.99353981 -0.083058804 0.0057850704 0.052715153 0.0057306178 0.052696187 0.99305928 -0.082069516
879671698.11321 0.99333996 -0.08417061 0.0059494539 0.053316012 0.0058906842 0.053329058 0.99284166 -0.082846224
889667924.5283 0.99294412 -0.085293412 0.0061089108 0.053922847 0.0060634771 0.053929374 0.99253738 -0.083677024
899664150.9434 0.99247378 -0.086295813 0.0064365398 0.054467104 0.0063905306 0.054514628 0.99236625 -0.084566981
909660377.35849 0.99229562 -0.086860329 0.0066721831 0.054747857 0.0065955101 0.054782402 0.99240732 -0.085364044
919656603.77358 0.99253023 -0.087698147 0.006539749 0.055212274 0.0065005571 0.055252608 0.99242985 -0.086481765
929652830.18868 0.99251723 -0.088725507 0.0065377057 0.055800907 0.0064935219 0.05583068 0.99233317 -0.08766219
939649056.60377 0.99275678 -0.089648575 0.0065829121 0.056427587 0.0065469295 0.056434251 0.99216771 -0.088659853
949645283.01887 0.99262166 -0.09076272 0.0066051902 0.057065099 0.0066025425 0.057062119 0.99181712 -0.089389384
959641509.43396 0.99239081 -0.091731161 0.0067506433 0.057692632 0.00670317 0.057704482 0.99170291 -0.090132028
969637735.84906 0.99225092 -0.092699885 0.0069198646 0.058337521 0.0068637356 0.058339067 0.99163985 -0.090807438
979633962.26415 0.99194801 -0.093690865 0.0070393654 0.058881432 0.0069890809 0.058918338 0.99152893 -0.091760136
989630188.67925 0.99179786 -0.094480082 0.0072029764 0.059471756 0.0071305158 0.059539918 0.99162275 -0.092623711
999626415.09434 0.99178374 -0.095326394 0.0072913729 0.060082443 0.0072750542 0.060126781 0.99147725 -0.093793958
1009622641.5094 0.99168801 -0.096310064 0.0074294806 0.060687084 0.007409513 0.060754184 0.991193 -0.094961926
1019618867.9245 0.99166793 -0.097493656 0.0075977026 0.061313141 0.0075860904 0.061306197 0.99084997 -0.096058816
1029615094.3396 0.99159968 -0.098735988 0.0077517331 0.061865363 0.0077195149 0.061854437 0.99031544 -0.096958339
1039611320.7547 0.9915601 -0.099893361 0.0079081114 0.062419157 0.0078784004 0.062461928 0.99018812 -0.097836673
1049607547.1698 0.99120075 -0.10104293 0.0080439299 0.062967978 0.0079966737 0.063003846 0.99005044 -0.098671481
1059603773.5849 0.99101633 -0.10196516 0.0081652105 0.063510865 0.0081341304 0.063609079 0.99005651 -0.099463642
1069600000 0.99062443 -0.10279423 0.0082706604 0.064087093 0.0082949214 0.064147606 0.9900462 -0.10038674
1079596226.4151 0.99044186 -0.10373071 0.0084167579 0.064654581 0.008428012 0.064748734 0.98987526 -0.1015016
1089592452.8302 0.99036711 -0.10446255 0.008551565 0.06525749 0.0085813347 0.065299414 0.98972213 -0.10236551
1099588679.2453 0.99035412 -0.10542423 0.0086893998 0.065830998 0.0086831972 0.065848552 0.98924971 -0.10328659
1109584905.6604 0.99019802 -0.10659491 0.0088011101 0.066442758 0.0088533554 0.066435657 0.98890162 -0.10406715
1119581132.0755 0.99028373 -0.10789014 0.0089497576 0.067011289 0.0089688413 0.067028463 0.98859257 -0.10469084
1129577358.4906 0.98987347 -0.10895774 0.0091241337 0.067630634 0.0091357734 0.067691326 0.98831791 -0.10551807
1139573584.9057 0.98945111 -0.11009637 0.0092626959 0.068195283 0.0093178879 0.068236649 0.98835409 -0.10641012
1149569811.3208 0.98919976 -0.111227 0.0094816545 0.068755195 0.0094721094 0.068782926 0.98835349 -0.10740706
1159566037.7358 0.98891062 -0.11202124 0.0095994361 0.069257334 0.0096332617 0.06932196 0.98835075 -0.10869446
1169562264.1509 0.98863441 -0.1129016 0.0096916296 0.069807097 0.0097579528 0.069878809 0.98808402 -0.10971698
1179558490.566 0.98852098 -0.11386798 0.0098024681 0.070414275 0.0098797046 0.070484862 0.98775363 -0.11060169
1189554716.9811 0.98839748 -0.11484 0.0099542793 0.071025901 0.010052912 0.071043126 0.98747587 -0.11131915
1199550943.3962 0.98819947 -0.11589223 0.010095196 0.071629211 0.01018456 0.071607307 0.98707575 -0.11192393
1209547169.8113 0.98799282 -0.11705141 0.010254107 0.072222345 0.010338752 0.072144739 0.9869473 -0.11248833
1219543396.2264 0.98759437 -0.11811986 0.010396515 0.072812364 0.010462263 0.072824769 0.98691946 -0.11320305
1229539622.6415 0.98715544 -0.11929715 0.010578703 0.073393367 0.010706574 0.073414177 0.98696804 -0.11420748
1239535849.0566 0.98674697 -0.12014121 0.010743272 0.073929593 0.010871682 0.073974155 0.98693711 -0.11541608
1249532075.4717 0.98636788 -0.12105338 0.01089912 0.074541606 0.011079976 0.074504092 0.98666722 -0.11654057
1259528301.8868 0.986094 -0.12186101 0.011099942 0.075114325 0.011261338 0.075000413 0.98627669 -0.11763725
1269524528.3019 0.98576266 -0.12289587 0.011279911 0.075663269 0.011426115 0.07554546 0.98589373 -0.11855844
1279520754.717 0.98535234 -0.12384463 0.011493465 0.076207608 0.01157867 0.076063551 0.98550749 -0.11928415
1289516981.1321 0.98509991 -0.1248886 0.011620214 0.076698028 0.011739366 0.076565914 0.98548341 -0.11996412
1299513207.5472 0.98458922 -0.12591511 0.011755023 0.077247292 0.011845455 0.077183843 0.98552072 -0.12058696
1309509433.9623 0.98402572 -0.12677589 0.011878378 0.077798508 0.011990597 0.077697895 0.9854759 -0.1214788
1319505660.3774 0.98349375 -0.12776969 0.011978528 0.078370847 0.012129646 0.078249715 0.9853726 -0.12240627
1329501886.7925 0.98308623 -0.128629 0.012141135 0.078922287 0.012279142 0.078803577 0.98516214 -0.12365016
1339498113.2075 0.98261863 -0.1293031 0.012289213 0.079472296 0.012410529 0.079323106 0.98469591 -0.12456766
1349494339.6226 0.98235363 -0.13021864 0.012428671 0.08007776 0.012490885 0.079880163 0.9840855 -0.12545207
1359490566.0377 0.98221815 -0.1311523 0.012573376 0.080699705 0.012618978 0.080471322 0.98376036 -0.12618896
1369486792.4528 0.98175538 -0.13198653 0.012726245 0.081299722 0.012762031 0.081072345 0.98353744 -0.12695104
1379483018.8679 0.98136657 -0.13270514 0.012808407 0.081857443 0.01291177 0.081634127 0.98337466 -0.12752828
1389479245.283 0.98086351 -0.13352272 0.013003245 0.082487665 0.013070293 0.082276821 0.98325598 -0.12847513
1399475471.6981 0.98031211 -0.13404763 0.013155505 0.08302965 0.013175633 0.082873464 0.98333383 -0.12937486
1409471698.1132 0.97989714 -0.13458985 0.013297426 0.083649233 0.013313331 0.083446786 0.98321897 -0.13038863
1419467924.5283 0.97958076 -0.13507681 0.013452034 0.084259808 0.01348847 0.084090382 0.98293543 -0.13136487
1429464150.9434 0.9793303 -0.13574988 0.013609398 0.084916249 0.013600357 0.084719688 0.9827106 -0.13201189
1439460377.3585 0.97942317 -0.13648887 0.013813645 0.085652106 0.013808398 0.08538308 0.98234022 -0.13261928
1449456603.7736 0.97930026 -0.13739529 0.014140214 0.086300701 0.014008209 0.08601848 0.98206514 -0.13318223
1459452830.1887 0.9790839 -0.13830298 0.014359031 0.08689487 0.014282916 0.086675167 0.98202527 -0.13376218
1469449056.6038 0.9790321 -0.13934374 0.014681697 0.087454028 0.014559541 0.087277919 0.98214364 -0.13478482
1479445283.0189 0.9787544 -0.14010853 0.014942208 0.087969296 0.014832504 0.087818392 0.98205167 -0.13588351
1489441509.434 0.97845262 -0.14086315 0.015188109 0.088513851 0.015103258 0.0883632 0.98178619 -0.13709056
1499437735.8491 0.9781369 -0.14136738 0.015445309 0.088966675 0.015346389 0.088830903 0.98155195 -0.13806385
1509433962.2642 0.97802049 -0.14207383 0.01573815 0.089506723 0.015605783 0.089331694 0.98115391 -0.13902816
1519430188.6792 0.97810006 -0.14288613 0.015932254 0.089981243 0.015765488 0.089807943 0.9809016 -0.13972276
1529426415.0943 0.97784048 -0.14376822 0.016135704 0.090573326 0.015950188 0.090296842 0.98067045 -0.14037344
1539422641.5094 0.97773957 -0.14478472 0.016357109 0.091100462 0.016158 0.090886131 0.98070335 -0.14108144
1549418867.9245 0.9774065 -0.14585087 0.016562935 0.091545492 0.016361186 0.091397688 0.98074502 -0.14193636
1559415094.3396 0.97701627 -0.14679289 0.016719148 0.092023313 0.016547695 0.091882579 0.98070109 -0.14288497
1569411320.7547 0.97679019 -0.14775397 0.016935123 0.092492543 0.016709119 0.092362471 0.98050243 -0.14396183
1579407547.1698 0.97662157 -0.14855827 0.017081372 0.092954025 0.016845115 0.092845291 0.97991979 -0.14500271
1589403773.5849 0.97645879 -0.14917335 0.017125905 0.093455262 0.017017543 0.093325593 0.97960055 -0.145888
1599400000 0.97631866 -0.14987168 0.017254816 0.093965672 0.017070469 0.093849145 0.97910124 -0.14655572
1609396226.4151 0.97621357 -0.15081722 0.017361393 0.094575472 0.017166581 0.094367482 0.97884518 -0.14727762
1619392452.8302 0.97603297 -0.15170267 0.017533828 0.095184259 0.017279916 0.094982147 0.97872418 -0.14804915
1629388679.2453 0.97567713 -0.15264755 0.01769815 0.095739052 0.017423134 0.095629424 0.97887373 -0.14883953
1639384905.6604 0.97533143 -0.15348576 0.017797379 0.09632571 0.017595038 0.096225806 0.97889966 -0.14995885
1649381132.0755 0.97492623 -0.15439123 0.01797918 0.096878931 0.01778766 0.096842743 0.97874206 -0.15110669
1659377358.4906 0.97458458 -0.15538183 0.018152833 0.097480424 0.017957497 0.097428165 0.97851837 -0.15217841
1669373584.9057 0.97437817 -0.15601583 0.018304411 0.098115757 0.018160708 0.098056518 0.977979 -0.1530039
1679369811.3208 0.97431093 -0.15696637 0.0185403 0.09873683 0.01832458 0.098644257 0.97766024 -0.15371047
1689366037.7358 0.97418785 -0.157803 0.018699788 0.099298507 0.018480361 0.099229753 0.97738135 -0.15433192
1699362264.1509 0.97414023 -0.15876004 0.018943496 0.099939205 0.018700764 0.099865139 0.97741163 -0.15492563
1709358490.566 0.97387922 -0.15965202 0.019153878 0.10052721 0.018944398 0.10045902 0.97728735 -0.15576921
1719354716.9811 0.97340506 -0.16040391 0.019373216 0.10111837 0.019136809 0.10104921 0.9770931 -0.1567443
1729350943.3962 0.97290599 -0.1612137 0.019582292 0.10170601 0.019380106 0.10167953 0.97712409 -0.15790606
1739347169.8113 0.97266722 -0.16180636 0.019828979 0.10231338 0.019676581 0.1023545 0.97682339 -0.15897658
1749343396.2264 0.97243547 -0.16239554 0.020095188 0.10285401 0.019862637 0.10289204 0.97637188 -0.16011137
1759339622.6415 0.9722479 -0.16305137 0.020319678 0.10340273 0.020158015 0.10342918 0.97611928 -0.16087678
