!Keysight Technologies,N5222B,MY61253708,A.15.00.15
!Date: Wednesday, June 19, 2024 09:28:07
!Correction: S11(C  2-Port  ) 
!S21(C  2-Port  ) 
!S12(C  2-Port  ) 
!S22(C  2-Port  ) 
!S2P File: Measurements: S11, S21, S12, S22:
# Hz S  RI   R 50
10000000 0.99888444 -0.0026493967 0.00024227062 -0.00016218457 -4.5045497e-005 0.0005269752 0.99878764 -0.0013568401
19996226.415094 0.9990775 -0.0024745166 2.8624199e-005 0.0006446967 7.4787997e-005 0.00085497933 0.99907625 -0.0023198426
29992452.830189 0.99974817 -0.0023943484 5.0322327e-005 0.0011189973 3.0218798e-005 0.0011005984 0.99942064 -0.002743721
39988679.245283 1.000047 -0.0030158311 7.4648357e-005 0.0013246479 -1.9313884e-006 0.0013554081 0.99962413 -0.0031531602
49984905.660377 1.0001386 -0.0037344992 2.941431e-005 0.0016589869 1.5005528e-005 0.0017018614 0.99974716 -0.0037264824
59981132.075472 1.0002968 -0.0046011508 1.9001425e-005 0.0020507982 3.4473371e-005 0.0020182515 0.99970782 -0.0043465495
69977358.490566 1.0001255 -0.0051538199 1.1611177e-005 0.0023571511 1.3514873e-006 0.002373745 0.99960989 -0.0048870351
79973584.90566 0.99987793 -0.0057728589 -1.8663239e-005 0.0026677726 1.2393692e-005 0.0027347575 0.99931777 -0.0053531528
89969811.320755 0.99982953 -0.0058837235 -5.2093295e-005 0.0030165697 6.9909729e-006 0.0030483245 0.99950707 -0.0056403577
99966037.735849 1.0001132 -0.0067001134 3.6468206e-005 0.0033712685 3.4114986e-005 0.0033952524 0.99957538 -0.0064270794
109962264.15094 1.0001262 -0.0076288134 6.6610635e-005 0.0036899564 1.8256949e-005 0.0036946533 0.9995665 -0.0072535127
119958490.56604 1.0001276 -0.0085497499 5.1986426e-005 0.0040190509 4.1103922e-005 0.0040585902 0.99961156 -0.0081100166
129954716.98113 1.0000877 -0.009527415 6.5842178e-005 0.0043459088 5.3104013e-005 0.0043983464 0.9995963 -0.0090592802
139950943.39623 1.0000161 -0.010340011 3.4737954e-005 0.004686961 5.6843768e-005 0.0047378889 0.99949807 -0.009795215
149947169.81132 0.99987584 -0.010992706 6.2855659e-005 0.005043006 5.417061e-005 0.0050760102 0.99946344 -0.010402709
159943396.22642 0.9998979 -0.011551619 7.1264105e-005 0.0053700511 5.9628394e-005 0.0054101534 0.99953902 -0.010884166
169939622.64151 0.99981964 -0.011925906 6.0515245e-005 0.0056954385 6.1348022e-005 0.0057497048 0.99958622 -0.011328205
179935849.0566 0.99993676 -0.012152016 5.9631653e-005 0.0060679791 7.2930939e-005 0.0061078425 0.9995259 -0.01173386
189932075.4717 1.0000266 -0.012997657 0.00010075071 0.0063635451 9.4119459e-005 0.0064274501 0.99971336 -0.01224789
199928301.88679 0.99998832 -0.013808578 9.9598896e-005 0.0067031635 8.6962245e-005 0.006762885 0.99954891 -0.013161093
209924528.30189 0.9997313 -0.014441743 8.7862136e-005 0.0070285364 0.00011100806 0.0070830588 0.99934858 -0.013882503
219920754.71698 0.99978125 -0.01532796 8.2801795e-005 0.0073905149 0.00013366295 0.007438615 0.99922252 -0.014535308
229916981.13208 0.99949723 -0.016161025 0.00011893339 0.0077262465 0.0001285444 0.0077883052 0.99916798 -0.015376806
239913207.54717 0.99939644 -0.016787551 0.00012998882 0.0080521908 0.00014202613 0.0081088953 0.99914646 -0.016089274
249909433.96226 0.99945492 -0.017493993 0.00015497371 0.0083751827 0.00014839577 0.0084331138 0.99922633 -0.016684532
259905660.37736 0.99960649 -0.018099934 0.00015464751 0.0087109637 0.00010747975 0.0087993415 0.99945772 -0.017333686
269901886.79245 0.99979925 -0.018766657 0.00019308319 0.0090744086 0.00018207671 0.0091235321 0.99971581 -0.017972857
279898113.20755 0.99969399 -0.019466162 0.00020535383 0.0093540028 0.00013747974 0.0094819777 0.99964952 -0.018689573
289894339.62264 0.99970806 -0.020108432 0.00020982092 0.0097073726 0.00017953105 0.0097748432 0.99947405 -0.019517124
299890566.03774 0.99973845 -0.020619065 0.00018407567 0.01003476 0.00017823861 0.010137943 0.99932384 -0.02000314
309886792.45283 0.99941778 -0.021261245 0.0001863651 0.010372626 0.00019843038 0.010469513 0.99916542 -0.020366952
319883018.86792 0.99955261 -0.021832615 0.00023441343 0.010769587 0.00022492651 0.010822093 0.99923623 -0.020934284
329879245.28302 0.99952328 -0.02258566 0.00025246851 0.011071755 0.00026014773 0.011129641 0.99930841 -0.021713078
339875471.69811 0.99929249 -0.023398727 0.00027831458 0.011419396 0.00027199113 0.011485117 0.99930245 -0.022403844
349871698.11321 0.99958628 -0.02418074 0.00030081696 0.011752313 0.00030171429 0.011807278 0.999322 -0.023419231
359867924.5283 0.99940503 -0.024989575 0.00028649857 0.012047115 0.00029652426 0.012175942 0.99924225 -0.024271101
369864150.9434 0.99949646 -0.025808096 0.00036915811 0.012369532 0.0003370007 0.012520038 0.99921882 -0.025054723
379860377.35849 0.99935657 -0.026489958 0.00031661987 0.012716105 0.00032975757 0.01284659 0.99921542 -0.02564086
389856603.77358 0.99945885 -0.027048618 0.00037758378 0.013068903 0.00033447007 0.013123129 0.99920994 -0.026094735
399852830.18868 0.99909222 -0.027617037 0.00036422024 0.013375607 0.00038040522 0.013486734 0.99920863 -0.02657932
409849056.60377 0.99912465 -0.028084235 0.00039456406 0.01372835 0.00041118945 0.013834841 0.99925911 -0.027063316
419845283.01887 0.9991039 -0.028588176 0.00042357761 0.01405328 0.00040367944 0.014205012 0.99922347 -0.027627438
429841509.43396 0.99919105 -0.02919355 0.00045593409 0.014389668 0.00042361952 0.014488196 0.99947 -0.028417468
439837735.84906 0.99901843 -0.030065164 0.00046517001 0.014713731 0.00045972597 0.014840334 0.99923074 -0.029362291
449833962.26415 0.99896002 -0.030810058 0.00041855453 0.015028886 0.0004843073 0.015173263 0.99889791 -0.030219555
459830188.67925 0.99881494 -0.031676203 0.00046209758 0.015350018 0.00046680076 0.015510483 0.99875021 -0.030933827
469826415.09434 0.99881351 -0.032399565 0.00047640922 0.015701722 0.00048539834 0.015866823 0.99852073 -0.03155756
479822641.50943 0.99870312 -0.032964289 0.00054236804 0.01604161 0.00051656668 0.016219614 0.99853963 -0.032055564
489818867.92453 0.99878478 -0.033610344 0.00054106209 0.016377728 0.00055147475 0.016548637 0.99878514 -0.032584459
499815094.33962 0.99885595 -0.034131914 0.00062787207 0.016696583 0.00057163695 0.016875898 0.99916601 -0.033193439
509811320.75472 0.99901009 -0.034541819 0.00060174207 0.01705783 0.00062145165 0.017196767 0.99924529 -0.034043822
519807547.16981 0.99891329 -0.035105735 0.00058653392 0.017391579 0.00059646787 0.017515518 0.99916846 -0.034742892
529803773.58491 0.99889553 -0.035765976 0.00059888419 0.017722115 0.00060282741 0.017859399 0.99895418 -0.03538844
539800000 0.99894762 -0.036487058 0.00067541725 0.018073658 0.00068052462 0.01818662 0.99874461 -0.036129504
549796226.41509 0.99866748 -0.037362397 0.00065837428 0.018388662 0.00067562563 0.018551519 0.99858004 -0.036693573
559792452.83019 0.99857187 -0.037997067 0.00067611877 0.018730488 0.00073331408 0.01889533 0.99849343 -0.037115693
569788679.24528 0.99837714 -0.038692892 0.00072454941 0.019093838 0.00069728633 0.019218314 0.99863362 -0.037852973
579784905.66038 0.99836344 -0.039273448 0.00074188842 0.019373573 0.00074187119 0.019562468 0.99874908 -0.038629122
589781132.07547 0.99847078 -0.039870977 0.00078239478 0.019731104 0.00076776464 0.019889988 0.99882495 -0.039493769
599777358.49057 0.99858767 -0.040500671 0.00080367923 0.020085549 0.00083418936 0.020232741 0.99888802 -0.040295154
609773584.90566 0.99885201 -0.041296259 0.0008327518 0.020407161 0.00083205977 0.020562891 0.99876249 -0.041131761
619769811.32075 0.99882787 -0.042046458 0.00085670128 0.020729685 0.00089167105 0.020889789 0.99860841 -0.04166609
629766037.73585 0.99874717 -0.042638391 0.00090566091 0.021048527 0.00092675537 0.021232486 0.99850714 -0.04221487
639762264.15094 0.99847442 -0.043305844 0.00092311343 0.021348564 0.00093285437 0.021501724 0.99832088 -0.042623743
649758490.56604 0.99838781 -0.043915972 0.00092917494 0.021661352 0.00093627628 0.021856116 0.99838078 -0.043061808
659754716.98113 0.99821103 -0.044485211 0.00093077123 0.022011708 0.00094314199 0.022199936 0.99847609 -0.043680221
669750943.39623 0.99818319 -0.044976294 0.00097950362 0.02239435 0.00097917859 0.022576135 0.99849588 -0.044499487
679747169.81132 0.99819493 -0.045616187 0.0010187897 0.02270286 0.0010382097 0.022922773 0.99841768 -0.045485206
689743396.22642 0.99839592 -0.046410531 0.0010603629 0.023054345 0.0010804329 0.023250313 0.99823713 -0.046352237
699739622.64151 0.99852931 -0.047308713 0.0010841377 0.023391437 0.0011045737 0.023538671 0.99824107 -0.047108203
709735849.0566 0.99853641 -0.048223332 0.00117807 0.023720402 0.0011631568 0.023900786 0.99792957 -0.047706366
719732075.4717 0.99841726 -0.048904002 0.0011457736 0.024002975 0.0011710483 0.024206107 0.99807477 -0.048292756
729728301.88679 0.99823999 -0.049467981 0.0012225313 0.02435359 0.0012125457 0.024539482 0.99809706 -0.048708618
739724528.30189 0.99815041 -0.050059244 0.001211131 0.024663644 0.0012224973 0.024903612 0.99825817 -0.049377546
749720754.71698 0.99804175 -0.050587267 0.0012762011 0.024997903 0.0012819949 0.025222123 0.99823499 -0.050116763
759716981.13208 0.99813813 -0.051166564 0.0012953496 0.025306314 0.0013036188 0.025519796 0.99823886 -0.05090785
769713207.54717 0.99802655 -0.051893026 0.0013274625 0.02563172 0.0013517747 0.025847087 0.99796796 -0.051597923
779709433.96226 0.99817246 -0.052469432 0.0013431056 0.02597278 0.0013698771 0.026198419 0.99774623 -0.052265279
789705660.37736 0.99801844 -0.053405136 0.0014067153 0.026282677 0.0013942095 0.026536765 0.99754894 -0.052923322
799701886.79245 0.99800563 -0.054141551 0.0014616186 0.026616285 0.0014068866 0.026833206 0.99739295 -0.053567737
809698113.20755 0.99799275 -0.054825604 0.0014289042 0.026942041 0.0014757421 0.027192514 0.99741751 -0.053979859
819694339.62264 0.99777967 -0.055393487 0.0014594868 0.027240084 0.0014750096 0.027513541 0.99755746 -0.054674953
829690566.03774 0.99780816 -0.056076169 0.0015162649 0.027571414 0.0015397156 0.027843621 0.9978438 -0.055523634
839686792.45283 0.99784714 -0.056571722 0.0015173526 0.027908849 0.0015471969 0.028152984 0.99785691 -0.05634582
849683018.86792 0.99794751 -0.057140894 0.001557657 0.028210443 0.0015924771 0.028491704 0.99769181 -0.057072714
859679245.28302 0.99797451 -0.057893515 0.0016080998 0.028562004 0.0016312106 0.028833132 0.99748969 -0.057748467
869675471.69811 0.99790579 -0.058718711 0.0017042123 0.028865285 0.0016652122 0.029118031 0.99712586 -0.058266401
879671698.11321 0.99778754 -0.059291758 0.0016931226 0.029213475 0.0017335566 0.029440846 0.99711573 -0.058734979
889667924.5283 0.99757671 -0.060119003 0.0017037392 0.029500635 0.0017165877 0.029779654 0.99696308 -0.059134394
899664150.9434 0.99743098 -0.0608446 0.0017488692 0.029808503 0.0017732549 0.03010679 0.99695683 -0.059845328
909660377.35849 0.99741292 -0.06144394 0.0017962977 0.030160716 0.0017948942 0.030424319 0.99713057 -0.060805291
919656603.77358 0.99748063 -0.062218994 0.0017981487 0.030488255 0.0018173321 0.030750565 0.99713963 -0.061652318
929652830.18868 0.99747884 -0.062894434 0.0018116776 0.030810514 0.0018372005 0.03110477 0.9970383 -0.062487245
939649056.60377 0.99765146 -0.063565344 0.0018455731 0.031106472 0.0018381579 0.031415459 0.99689007 -0.063278258
949645283.01887 0.99760491 -0.064318344 0.001841391 0.031458601 0.0018522871 0.031758357 0.99655545 -0.063738577
959641509.43396 0.99763763 -0.06501013 0.0018872693 0.03181503 0.0018941574 0.032110743 0.99653727 -0.064303577
969637735.84906 0.997482 -0.065765768 0.001889647 0.032193869 0.0019248044 0.032460298 0.99655998 -0.064656645
979633962.26415 0.99730885 -0.066507146 0.0019866517 0.032468099 0.0020078563 0.032773815 0.996593 -0.065334029
989630188.67925 0.99725264 -0.06705448 0.0020192042 0.032794654 0.0020377357 0.033102408 0.99678206 -0.065950066
999626415.09434 0.99740994 -0.067660779 0.0020708544 0.033131737 0.002080014 0.03346286 0.99670774 -0.066821039
1009622641.5094 0.99744272 -0.068331003 0.0020770272 0.033464871 0.0021250602 0.033820741 0.9965117 -0.067658782
1019618867.9245 0.99748898 -0.069180936 0.0021244832 0.033828631 0.0022161966 0.034102816 0.99628341 -0.068475157
1029615094.3396 0.99750209 -0.070086092 0.0021535363 0.034099802 0.0022333749 0.034413632 0.99589217 -0.069069356
1039611320.7547 0.99751854 -0.071007043 0.0022385037 0.034410175 0.0022575073 0.034734726 0.99587047 -0.069720984
1049607547.1698 0.99735236 -0.071897157 0.002284938 0.034720995 0.0022729477 0.035058141 0.99588472 -0.070346981
1059603773.5849 0.99719173 -0.072597295 0.002267452 0.035043344 0.0023360141 0.035366438 0.99582833 -0.070910275
1069600000 0.9970243 -0.073183686 0.00232301 0.035338327 0.0023360234 0.035690837 0.99601346 -0.071598709
1079596226.4151 0.99699581 -0.073867507 0.0023105908 0.035650939 0.0023688539 0.036008902 0.99601406 -0.0724288
1089592452.8302 0.99705303 -0.074447244 0.0023162961 0.036009096 0.0023913523 0.036338214 0.99594384 -0.073144764
1099588679.2453 0.99701494 -0.075163603 0.0023572408 0.036356032 0.0024182647 0.036691263 0.99556661 -0.07372728
1109584905.6604 0.99719816 -0.075880662 0.0023833793 0.036678407 0.0024343571 0.037023943 0.99530876 -0.074274182
1119581132.0755 0.99711794 -0.077041395 0.0024009361 0.03701834 0.0024696453 0.037378296 0.99510425 -0.074714765
1129577358.4906 0.99694097 -0.077750087 0.0024206638 0.037377417 0.0024911873 0.037770726 0.99504364 -0.075236797
1139573584.9057 0.99664873 -0.078579068 0.0024410263 0.037714794 0.0025292402 0.038057122 0.9950875 -0.075819969
1149569811.3208 0.99655813 -0.079435445 0.0025356661 0.03805295 0.0026131459 0.03840914 0.99523395 -0.076635204
1159566037.7358 0.99641001 -0.080142677 0.002573411 0.03832861 0.0026828041 0.038726173 0.99534911 -0.077650249
1169562264.1509 0.99612302 -0.080756932 0.0025694594 0.038630094 0.0026705544 0.039026223 0.99517393 -0.078478873
1179558490.566 0.996198 -0.081544742 0.0025793607 0.039033342 0.0026972052 0.03939347 0.99503279 -0.079138055
1189554716.9811 0.99610531 -0.082290977 0.0026207743 0.039368398 0.0027646041 0.039737478 0.99476177 -0.079676479
1199550943.3962 0.99603999 -0.083121628 0.0026479848 0.039729096 0.0028004795 0.040098809 0.99459064 -0.08001408
1209547169.8113 0.99597466 -0.084005594 0.0027098795 0.040091645 0.0028474433 0.040408801 0.99456453 -0.080375493
1219543396.2264 0.99571168 -0.084782168 0.002762448 0.040415101 0.0029041902 0.040807661 0.99453866 -0.080809802
1229539622.6415 0.99532175 -0.085676074 0.0028413516 0.040742792 0.0029537603 0.041153885 0.99475646 -0.081476063
1239535849.0566 0.99516076 -0.086361319 0.0028692419 0.041085206 0.0030223578 0.041447345 0.99482805 -0.082489312
1249532075.4717 0.9948898 -0.087020785 0.0029655087 0.041404862 0.0030916014 0.041755114 0.99467111 -0.083309725
1259528301.8868 0.9946475 -0.087479889 0.0029829107 0.041718889 0.0031485744 0.042058691 0.9944011 -0.084210873
1269524528.3019 0.99445611 -0.088269889 0.0030735433 0.042034999 0.0032485407 0.042378604 0.99415463 -0.084818304
1279520754.717 0.99407876 -0.088973738 0.0031071506 0.042300604 0.0032528036 0.042660158 0.99389541 -0.085416012
1289516981.1321 0.99403983 -0.089808196 0.0031632753 0.0426112 0.0032810448 0.042942684 0.99398845 -0.085801393
1299513207.5472 0.99364769 -0.090646476 0.0031390358 0.042956505 0.0032835081 0.043274358 0.99404931 -0.086257607
1309509433.9623 0.99321228 -0.091275677 0.0031233234 0.043266177 0.0033144783 0.043544903 0.99418807 -0.086996242
1319505660.3774 0.99286777 -0.092079312 0.0031908397 0.043601148 0.0033165971 0.043894317 0.99425262 -0.087580651
1329501886.7925 0.99262583 -0.092818707 0.0031699371 0.043911904 0.0033650119 0.04421927 0.99413514 -0.088572711
1339498113.2075 0.99231231 -0.093216926 0.0032416899 0.044266872 0.0033561746 0.0445452 0.9937979 -0.089263171
1349494339.6226 0.9920904 -0.093776442 0.0031925933 0.044616804 0.0033395952 0.044915039 0.99341673 -0.089914829
1359490566.0377 0.99202895 -0.094346613 0.0032226369 0.04497847 0.0033420324 0.04524409 0.9932543 -0.090406984
1369486792.4528 0.99180424 -0.094924271 0.0032191454 0.045325737 0.0033670878 0.04563237 0.99307764 -0.090899169
1379483018.8679 0.9914785 -0.095512696 0.0032427146 0.045675084 0.0033626717 0.045954127 0.99304676 -0.091215469
1389479245.283 0.99116778 -0.096006066 0.0032904036 0.046048615 0.0034161583 0.046340786 0.99304104 -0.091994464
1399475471.6981 0.9906944 -0.096389532 0.0033171102 0.046422087 0.0034131035 0.046696126 0.99327487 -0.092591912
1409471698.1132 0.99048173 -0.096783713 0.003358342 0.046751965 0.0034457953 0.047086298 0.99326283 -0.093399726
1419467924.5283 0.99016476 -0.097112983 0.0033779535 0.047173742 0.0034898249 0.047461994 0.99307168 -0.094150513
1429464150.9434 0.99012327 -0.097449243 0.003386043 0.04753869 0.0035304297 0.047843169 0.99295783 -0.094672799
1439460377.3585 0.99028069 -0.098000154 0.0034794128 0.047991015 0.0035980521 0.048278324 0.9926607 -0.095072508
1449456603.7736 0.99025834 -0.09856452 0.0036064899 0.04839826 0.0036858357 0.04872204 0.99260384 -0.0953639
1459452830.1887 0.9903518 -0.099185675 0.0037232675 0.048816979 0.0037978776 0.049110636 0.99272251 -0.095743954
1469449056.6038 0.9903065 -0.099938393 0.0039076656 0.04916152 0.0039570928 0.049438819 0.99293554 -0.096302658
1479445283.0189 0.9901588 -0.10056955 0.0040460583 0.049445845 0.004099248 0.049759056 0.99298859 -0.097287439
1489441509.434 0.99002439 -0.10102868 0.0041507725 0.049805008 0.004218068 0.050091706 0.99278736 -0.098122954
1499437735.8491 0.98991054 -0.1013706 0.0042648725 0.050074462 0.0043864157 0.050350334 0.99277252 -0.09907639
1509433962.2642 0.9897809 -0.1018793 0.004373725 0.050316192 0.0043977783 0.050636325 0.99250811 -0.09972395
1519430188.6792 0.99001175 -0.10232916 0.0044256002 0.050582662 0.0045217108 0.050924204 0.99238133 -0.10025111
1529426415.0943 0.98997343 -0.10301322 0.0044658966 0.050902255 0.0045152009 0.05119592 0.99238795 -0.10075402
1539422641.5094 0.990031 -0.10389178 0.0045817713 0.051167201 0.0045514149 0.051529504 0.99237853 -0.10111876
1549418867.9245 0.98990327 -0.10462628 0.0045950441 0.051451627 0.0046376511 0.051825866 0.99265981 -0.10187094
1559415094.3396 0.98965991 -0.10534379 0.0046459213 0.051734168 0.0046402309 0.052075297 0.99267113 -0.10246056
1569411320.7547 0.98960853 -0.10607396 0.004670497 0.052009601 0.0047175437 0.052382149 0.99261141 -0.10339952
1579407547.1698 0.98947024 -0.10661967 0.0047473195 0.052301515 0.0047375713 0.052641127 0.99233514 -0.10422224
1589403773.5849 0.98948324 -0.10716733 0.0047140978 0.052591156 0.0047345199 0.052988686 0.99213421 -0.10486016
1599400000 0.98940897 -0.10766104 0.0047394736 0.052903067 0.0047369394 0.053302303 0.99160057 -0.10539174
1609396226.4151 0.98941863 -0.10826582 0.0047614858 0.053271163 0.0047460292 0.053598754 0.99154288 -0.10588306
1619392452.8302 0.98933917 -0.10889313 0.0047004651 0.053583007 0.0047589801 0.053939603 0.99148399 -0.10638931
1629388679.2453 0.98917556 -0.10962075 0.0047338996 0.053922698 0.0047194604 0.05430828 0.99175763 -0.10683551
1639384905.6604 0.98889905 -0.11018503 0.0047677336 0.05427736 0.0047680885 0.054694366 0.99200153 -0.10770997
1649381132.0755 0.98870599 -0.11087102 0.0047165118 0.054627243 0.0047215372 0.055102289 0.99192125 -0.10864574
1659377358.4906 0.9885723 -0.11171123 0.0048001707 0.055015281 0.0048143733 0.055461969 0.99190354 -0.10948199
1669373584.9057 0.98843616 -0.11211506 0.0048314235 0.05541645 0.0048485245 0.055822372 0.99153095 -0.11016002
1679369811.3208 0.98862201 -0.11282369 0.0048881387 0.055794898 0.0048503764 0.056176472 0.99141812 -0.11075515
1689366037.7358 0.98856556 -0.11337239 0.0049029924 0.056150805 0.0049171168 0.056599103 0.99117613 -0.11106172
1699362264.1509 0.98877084 -0.11413971 0.0049535846 0.05653007 0.0049497364 0.057003241 0.99142897 -0.11145198
1709358490.566 0.98863453 -0.11474405 0.0050213756 0.056904193 0.0049712388 0.057378847 0.99142855 -0.11197436
1719354716.9811 0.98829108 -0.11534813 0.0050728526 0.057267085 0.0050751828 0.057759017 0.99142683 -0.11269727
1729350943.3962 0.98796088 -0.11595199 0.0051539838 0.057655919 0.0051594824 0.058121257 0.99147695 -0.11356351
