!Keysight Technologies,N5222B,MY61253708,A.15.00.15
!Date: Wednesday, June 19, 2024 08:38:45
!Correction: S11(C  2-Port  ) 
!S21(C  2-Port  ) 
!S12(C  2-Port  ) 
!S22(C  2-Port  ) 
!S2P File: Measurements: S11, S21, S12, S22:
# Hz S  RI   R 50
10000000 0.99884844 -0.0022506416 0.00044076197 0.0004489421 3.8245969e-005 0.0002767148 0.99858224 -0.0012781918
19996226.415094 0.9991889 -0.0025184751 0.00017450587 0.0012383923 0.0002016424 0.001176666 0.99909639 -0.0025053024
29992452.830189 0.99977213 -0.0031864047 6.2963809e-006 0.0018283164 3.909925e-006 0.0017606069 0.99951446 -0.0033351779
39988679.245283 1.000047 -0.0041402876 4.6913541e-005 0.0023468756 3.9574603e-005 0.0023958499 0.99964118 -0.0041718185
49984905.660377 1.0001082 -0.0051464438 5.5806711e-005 0.002993885 5.9249345e-005 0.002974519 0.9997403 -0.0049273372
59981132.075472 1.0002074 -0.0061615407 9.085983e-006 0.0035847523 4.4887071e-005 0.0034972206 0.9996407 -0.0057029128
69977358.490566 0.99997485 -0.0068729781 3.0621217e-005 0.0041725626 7.737791e-005 0.0040743309 0.99950099 -0.0064777415
79973584.90566 0.99975348 -0.0077047348 6.5744622e-005 0.0047113216 4.6328991e-005 0.0047167893 0.99929601 -0.007191807
89969811.320755 0.99969637 -0.0082642138 0.00010559917 0.0053567346 6.792997e-005 0.0053066872 0.99934757 -0.0078689754
99966037.735849 0.99983746 -0.0092050433 0.0001271558 0.005926834 7.3821284e-005 0.0058603482 0.99941266 -0.0088599473
109962264.15094 0.99988705 -0.010395363 0.00013057748 0.0065065627 0.00012617989 0.0064406386 0.99944359 -0.0099120438
119958490.56604 0.99994266 -0.011644751 0.00014818157 0.0070887925 0.00014109607 0.0070463633 0.99947721 -0.011076361
129954716.98113 0.99990404 -0.013005108 0.0001806519 0.0077057783 0.00015673367 0.0076172259 0.99943817 -0.012274057
139950943.39623 0.99975413 -0.014059616 0.00018074994 0.0082876971 0.00019234986 0.0082235774 0.99932855 -0.013268456
149947169.81132 0.99967802 -0.014969975 0.00021567056 0.0088709118 0.00021445006 0.0087878602 0.99925542 -0.014141053
159943396.22642 0.99957263 -0.015709132 0.00023351982 0.0094696023 0.0002149581 0.009371018 0.99933356 -0.014800102
169939622.64151 0.99959952 -0.01630225 0.00025045511 0.010063804 0.00023356325 0.0099536246 0.99940646 -0.015480176
179935849.0566 0.9995876 -0.016944885 0.00031053112 0.010657905 0.00027899537 0.010559644 0.99933141 -0.016130924
189932075.4717 0.99964869 -0.017828494 0.00035095122 0.011264841 0.00030665891 0.011144713 0.99946475 -0.017001003
199928301.88679 0.99963921 -0.018977791 0.00035615847 0.011846631 0.0003460336 0.011755995 0.99935311 -0.018132806
209924528.30189 0.99933392 -0.020034522 0.00042677321 0.012482833 0.00039379927 0.012329459 0.99906236 -0.019213364
219920754.71698 0.99894154 -0.021052599 0.00079063606 0.01296872 0.00077412324 0.012829175 0.99852985 -0.02008611
229916981.13208 0.99896646 -0.022181094 0.00048392685 0.013519069 0.00046198815 0.013385567 0.99867618 -0.021073908
239913207.54717 0.99879974 -0.023078131 0.00050648802 0.014118263 0.00050196151 0.013988191 0.99865949 -0.022020703
249909433.96226 0.99887514 -0.024061739 0.00053245528 0.014718008 0.00055056391 0.01457746 0.99880296 -0.022858024
259905660.37736 0.99898231 -0.024889618 0.00058684964 0.015288329 0.00054907287 0.015149112 0.99902201 -0.023748636
269901886.79245 0.99914467 -0.02563329 0.00058595766 0.015858119 0.00060225278 0.015714152 0.99924654 -0.024573267
279898113.20755 0.99927193 -0.026730731 0.0006522797 0.016466729 0.00066264509 0.016368452 0.99917144 -0.02558051
289894339.62264 0.99918199 -0.027730882 0.00070822425 0.017057274 0.00066531077 0.016891696 0.99907506 -0.026709884
299890566.03774 0.99903452 -0.02858308 0.00073458022 0.017649811 0.00072501088 0.017474063 0.99873185 -0.027381241
309886792.45283 0.99868441 -0.029397056 0.00082553935 0.018228557 0.00074383453 0.018060431 0.99851203 -0.028133832
319883018.86792 0.99849427 -0.030248582 0.00087096356 0.01879745 0.00084895594 0.018634431 0.99849498 -0.028896272
329879245.28302 0.99844468 -0.031077057 0.00086141843 0.019427534 0.00087335054 0.019226098 0.99855316 -0.029737622
339875471.69811 0.99834853 -0.032041699 0.00096266833 0.019986255 0.0009400316 0.01977778 0.99851584 -0.030841224
349871698.11321 0.99857438 -0.03318429 0.0010557543 0.020597022 0.00096969539 0.020382933 0.99859214 -0.032025516
359867924.5283 0.99837029 -0.034328431 0.0010125134 0.021114714 0.0010363096 0.02096799 0.99853384 -0.033204585
369864150.9434 0.99860829 -0.035357833 0.0011116327 0.021737464 0.0010448727 0.021517368 0.99842811 -0.034124643
379860377.35849 0.99840516 -0.036333993 0.0011841285 0.022304134 0.0011373991 0.02212831 0.99830425 -0.035124466
389856603.77358 0.99828792 -0.037066579 0.0012720218 0.022909988 0.0011914512 0.022688486 0.99825013 -0.035756528
399852830.18868 0.99804497 -0.037944824 0.0013007084 0.023490669 0.0012605572 0.023240784 0.9982264 -0.036494344
409849056.60377 0.99799424 -0.038653899 0.0013367204 0.024013996 0.0013213959 0.023858691 0.99823236 -0.037133947
419845283.01887 0.99796408 -0.039323688 0.0013924502 0.024625348 0.0013562543 0.024445556 0.99825972 -0.037939906
429841509.43396 0.99796873 -0.040229976 0.0014692666 0.025207534 0.0014445428 0.025004141 0.99830484 -0.039026409
439837735.84906 0.99783051 -0.041335925 0.0015778877 0.025804086 0.001540479 0.025555581 0.99805021 -0.040184528
449833962.26415 0.99780923 -0.042452723 0.0016611493 0.02636501 0.0015953472 0.02608389 0.99767745 -0.041183233
459830188.67925 0.99762821 -0.043555737 0.0016916199 0.026940446 0.0016031219 0.026660219 0.99745208 -0.042253256
469826415.09434 0.99748904 -0.044699728 0.0017306479 0.027505685 0.0016538175 0.027236005 0.99721557 -0.043054432
479822641.50943 0.99733162 -0.045462035 0.0018018293 0.028100224 0.0017574839 0.027875643 0.9972207 -0.043801934
489818867.92453 0.99743313 -0.046159148 0.0018643951 0.028682992 0.0018159552 0.02840573 0.99757195 -0.044590235
499815094.33962 0.99745482 -0.046903998 0.0019512996 0.029227432 0.0018887669 0.028962053 0.99780071 -0.045464009
509811320.75472 0.99755788 -0.047672011 0.0020159283 0.029780468 0.0020140463 0.029504633 0.99794048 -0.04653573
519807547.16981 0.99745381 -0.048475504 0.0020890487 0.030408878 0.0020129634 0.030108126 0.99782604 -0.047504544
529803773.58491 0.9973672 -0.049383044 0.0021161595 0.030980323 0.0020764545 0.030671505 0.99750888 -0.04847315
539800000 0.99730533 -0.050324515 0.0022284705 0.031534597 0.0021569086 0.031267401 0.99722016 -0.049339265
549796226.41509 0.99697334 -0.051503956 0.0023013549 0.032136317 0.002217018 0.031815514 0.99701411 -0.050054014
559792452.83019 0.99665344 -0.052556902 0.0024193777 0.032698456 0.0022817953 0.032367781 0.99675322 -0.050822198
569788679.24528 0.99645329 -0.053511024 0.0024664644 0.033296056 0.0023431974 0.032989658 0.99684459 -0.051707447
579784905.66038 0.99638206 -0.054257967 0.0025410322 0.033836968 0.0024368495 0.033557225 0.99698609 -0.052722625
589781132.07547 0.99649149 -0.055163085 0.0026230868 0.034430593 0.0025323061 0.034113009 0.99703264 -0.053910315
599777358.49057 0.99655557 -0.055994242 0.002753716 0.035024956 0.0026468998 0.0347072 0.99705523 -0.05492118
609773584.90566 0.99665076 -0.057106793 0.002863443 0.035562865 0.0027611796 0.035289291 0.99684 -0.056040663
619769811.32075 0.99670649 -0.057977647 0.00295546 0.036168769 0.0028944239 0.035806127 0.9967165 -0.056790441
629766037.73585 0.99648929 -0.05883643 0.0030740928 0.036705058 0.0029650498 0.036339 0.99640566 -0.057510972
639762264.15094 0.99617088 -0.059739307 0.0031145411 0.037250645 0.0030277716 0.036865421 0.99621296 -0.058213145
649758490.56604 0.9959994 -0.060518444 0.0032080272 0.037819851 0.0030866866 0.037442502 0.99619567 -0.058825061
659754716.98113 0.9956888 -0.061336309 0.0032768939 0.038356628 0.0031734128 0.038008027 0.99616289 -0.059639335
669750943.39623 0.99562836 -0.062037587 0.0033385726 0.038980417 0.0032010656 0.038628548 0.9962182 -0.060774356
679747169.81132 0.99560171 -0.063038208 0.0034446996 0.039554082 0.0033328938 0.03917177 0.99611551 -0.062026795
689743396.22642 0.99570394 -0.064135253 0.0035693459 0.04013323 0.0034435596 0.039774001 0.99582636 -0.063160926
699739622.64151 0.99586445 -0.065174401 0.0036618859 0.040651977 0.0035355967 0.0403434 0.99570131 -0.064032197
709735849.0566 0.99584961 -0.066292681 0.0037653947 0.041222133 0.0036427577 0.040866472 0.99534148 -0.064919777
719732075.4717 0.99552566 -0.067290217 0.0038971696 0.041806597 0.0037911413 0.041416794 0.99543309 -0.065689027
729728301.88679 0.99535656 -0.068021119 0.0039724521 0.042364486 0.0038492884 0.041975372 0.99543637 -0.066383898
739724528.30189 0.99515194 -0.068851486 0.0040465267 0.042902607 0.0039201351 0.04258737 0.99552131 -0.067286298
749720754.71698 0.99496567 -0.069550753 0.0041825376 0.04346792 0.0040182755 0.043102149 0.99555975 -0.06815353
759716981.13208 0.9949677 -0.070304632 0.0042671748 0.044024386 0.0041377023 0.043652788 0.99538469 -0.069241077
769713207.54717 0.99483275 -0.071338713 0.0043799803 0.044573888 0.0042404011 0.044208985 0.99506456 -0.070140421
779709433.96226 0.99497539 -0.072188117 0.0044434136 0.045138635 0.0043389834 0.044795435 0.99466681 -0.071097709
789705660.37736 0.9946903 -0.073374331 0.0046094116 0.045683164 0.0044505931 0.045301851 0.9943651 -0.072050273
799701886.79245 0.99463499 -0.074523926 0.0047353487 0.046233315 0.0045398511 0.045840446 0.99424714 -0.072808981
809698113.20755 0.99445987 -0.075350314 0.0047691418 0.046818171 0.0046110773 0.046405576 0.99424332 -0.073520467
819694339.62264 0.9942959 -0.076301053 0.004870154 0.047377985 0.0047477093 0.046982639 0.9942944 -0.074363977
829690566.03774 0.99426591 -0.076977909 0.0049818549 0.047948249 0.0048500709 0.047518164 0.9944858 -0.075552642
839686792.45283 0.99429137 -0.077802658 0.0050546443 0.04850702 0.004947165 0.048126318 0.99449342 -0.076587856
849683018.86792 0.99424624 -0.078610301 0.0051669516 0.049116157 0.0050396984 0.048662901 0.99423057 -0.077585354
859679245.28302 0.99414456 -0.079549789 0.0053291041 0.049639117 0.0051960126 0.049235869 0.9938463 -0.078437239
869675471.69811 0.99398559 -0.080561906 0.0054599475 0.05023497 0.0053100605 0.049802452 0.99345624 -0.079153657
879671698.11321 0.99376339 -0.081548922 0.0055706245 0.0508013 0.0054659643 0.050363217 0.99329895 -0.079888776
889667924.5283 0.99338573 -0.082751244 0.0057651941 0.051380627 0.0056066019 0.050984859 0.99311662 -0.080591977
899664150.9434 0.99282563 -0.083726764 0.0060361829 0.051964268 0.0058295708 0.051508307 0.99287653 -0.081465244
909660377.35849 0.99269807 -0.084332705 0.006213936 0.052248973 0.006074708 0.051840864 0.99290162 -0.082406133
919656603.77358 0.99284667 -0.085149035 0.0061844788 0.052705906 0.0059839161 0.052286685 0.99293864 -0.083538607
929652830.18868 0.99291438 -0.08614701 0.0061878804 0.053273126 0.0060375836 0.05282829 0.99280083 -0.084678411
939649056.60377 0.99313521 -0.086938649 0.0062458012 0.053799514 0.0060906485 0.053381026 0.99259859 -0.085596383
949645283.01887 0.9929949 -0.08808744 0.0062786127 0.054386191 0.0061459942 0.053964093 0.99233824 -0.086368911
959641509.43396 0.99286944 -0.088982612 0.0063899271 0.055000864 0.0062234495 0.054565702 0.99220663 -0.08712852
969637735.84906 0.99268472 -0.0899387 0.0065275971 0.055579554 0.0063122921 0.055139035 0.9921487 -0.087642789
979633962.26415 0.99234831 -0.090964213 0.0066642542 0.056130238 0.0064574615 0.055706434 0.99209279 -0.088490874
989630188.67925 0.99227804 -0.091614887 0.0067561809 0.056710452 0.0066057462 0.056279596 0.99219012 -0.089357778
999626415.09434 0.99217618 -0.092534274 0.0068870261 0.057273086 0.0067010522 0.056847293 0.99195117 -0.090472788
1009622641.5094 0.99224126 -0.093474567 0.0069698421 0.057834394 0.0068269102 0.057433609 0.99177784 -0.091627911
1019618867.9245 0.99219733 -0.094630547 0.0071477462 0.058415782 0.0069966251 0.058008414 0.99140459 -0.092763104
1029615094.3396 0.99212635 -0.095809698 0.0072910804 0.058934558 0.0071732774 0.058517173 0.99099243 -0.093577057
1039611320.7547 0.99204451 -0.096990883 0.0074243229 0.059513398 0.0072737448 0.05906909 0.9907667 -0.094455689
1049607547.1698 0.99182582 -0.098014653 0.0075625172 0.060019638 0.0073851515 0.059595674 0.99073237 -0.095255852
1059603773.5849 0.9915067 -0.098997563 0.0076795164 0.060548719 0.0075315759 0.060112543 0.9906323 -0.096002012
1069600000 0.99114323 -0.099735945 0.0077775791 0.061084397 0.0076609049 0.060660467 0.99074 -0.096892536
1079596226.4151 0.9909873 -0.10062886 0.0079092206 0.061633673 0.0077538174 0.061206952 0.99060541 -0.09792681
1089592452.8302 0.99093884 -0.10143739 0.0080378139 0.062195845 0.0078828484 0.061728578 0.99036044 -0.098869905
1099588679.2453 0.99095404 -0.10234717 0.008126881 0.062712304 0.0079933256 0.062282957 0.98990893 -0.099654973
1109584905.6604 0.99091828 -0.10338804 0.0082690008 0.06327346 0.0081349947 0.062849872 0.98965693 -0.10046037
1119581132.0755 0.99074429 -0.10460725 0.0083868112 0.063847974 0.0082595507 0.063395709 0.98922139 -0.10106379
1129577358.4906 0.99047637 -0.10576817 0.0085390881 0.064409666 0.0084074568 0.063944869 0.98915392 -0.10173169
1139573584.9057 0.99009758 -0.10686088 0.0086867418 0.064966254 0.0085714292 0.064506568 0.98916095 -0.10267153
1149569811.3208 0.98990452 -0.10796609 0.0088215414 0.0655559 0.0087088812 0.065034121 0.98915476 -0.10368598
1159566037.7358 0.98955488 -0.10882568 0.0089615826 0.066011086 0.0088422913 0.065545008 0.98911238 -0.10491821
1169562264.1509 0.98926771 -0.1096383 0.0090420768 0.066526078 0.0089511722 0.066082463 0.98880845 -0.10592335
1179558490.566 0.98925823 -0.11061297 0.0091712577 0.067138866 0.0090785073 0.066649318 0.9886362 -0.10681175
1189554716.9811 0.98909473 -0.11143386 0.0092959534 0.067692459 0.0092329476 0.067168079 0.98817253 -0.10752091
1199550943.3962 0.98897946 -0.11248395 0.0094343834 0.06824819 0.0093616676 0.067758277 0.98789883 -0.10809758
1209547169.8113 0.98867249 -0.11362511 0.0095644388 0.068799369 0.0094712302 0.068281651 0.98774946 -0.10861267
1219543396.2264 0.98830807 -0.11470829 0.0097271744 0.069385275 0.0096302126 0.068847224 0.98782945 -0.10924403
1229539622.6415 0.98789793 -0.11579898 0.0099169333 0.069918528 0.0097804889 0.069381885 0.98780221 -0.11023068
1239535849.0566 0.9875347 -0.11673251 0.010078123 0.070450768 0.0099723693 0.069945477 0.98786545 -0.11140746
1249532075.4717 0.98714244 -0.11764518 0.010213872 0.070982642 0.010134248 0.070426457 0.98750699 -0.11243518
1259528301.8868 0.98685217 -0.11836168 0.010372041 0.071578227 0.010324759 0.070931785 0.98715818 -0.1136353
1269524528.3019 0.9866029 -0.11928242 0.010558849 0.07207147 0.010498861 0.071448386 0.98678017 -0.11444694
1279520754.717 0.98614264 -0.12013764 0.010726618 0.0725611 0.010631367 0.071932912 0.98641104 -0.11521962
1289516981.1321 0.98588318 -0.12123299 0.010824041 0.073065385 0.010795351 0.072426416 0.98638982 -0.11574686
1299513207.5472 0.98548019 -0.12217212 0.010940757 0.07358481 0.010872945 0.072955899 0.9865402 -0.116373
1309509433.9623 0.98476237 -0.12307486 0.011042167 0.074109331 0.01097316 0.073424466 0.98647308 -0.11730041
1319505660.3774 0.98431075 -0.12399158 0.01116021 0.074683085 0.011085376 0.073964231 0.98638016 -0.11811481
1329501886.7925 0.98392546 -0.12495103 0.011326794 0.075208738 0.011238948 0.074498735 0.98624724 -0.11934522
1339498113.2075 0.9835217 -0.12562612 0.011464462 0.075758547 0.011380799 0.074999377 0.98567271 -0.12034014
1349494339.6226 0.98330587 -0.12648876 0.011545056 0.07629405 0.01142134 0.075554572 0.98524374 -0.12117439
1359490566.0377 0.98309076 -0.12731925 0.011653142 0.076898366 0.011535993 0.076142371 0.98495978 -0.12183544
1369486792.4528 0.98281431 -0.12804583 0.011817984 0.07744436 0.011658154 0.076727644 0.98462325 -0.12248814
1379483018.8679 0.98232239 -0.12887138 0.01194136 0.078027844 0.011758694 0.077256694 0.98456544 -0.12304091
1389479245.283 0.98185694 -0.12962341 0.012122324 0.078572601 0.011902586 0.077836014 0.98448801 -0.12400374
1399475471.6981 0.98134816 -0.13018003 0.012219664 0.079135329 0.012050886 0.07841406 0.98451066 -0.1248785
1409471698.1132 0.98092091 -0.13070202 0.012392465 0.079724349 0.012181958 0.078975268 0.98443925 -0.12588641
1419467924.5283 0.98055595 -0.13113895 0.012510529 0.080316417 0.012258377 0.079519354 0.98406833 -0.12674367
1429464150.9434 0.98036993 -0.13170922 0.012714896 0.080940351 0.012444787 0.080104381 0.98390204 -0.12749797
1439460377.3585 0.98038298 -0.13241656 0.012875753 0.081599995 0.012612986 0.080812521 0.98357546 -0.1280251
1449456603.7736 0.98035771 -0.13322403 0.013077059 0.082196876 0.012776313 0.081362925 0.9832828 -0.12856752
1459452830.1887 0.98024994 -0.13416329 0.013366468 0.082827851 0.013049692 0.08199954 0.98326886 -0.12910756
1469449056.6038 0.9800598 -0.13513061 0.013640892 0.083344385 0.013332414 0.082530782 0.98337352 -0.13004228
1479445283.0189 0.97982275 -0.13601798 0.01391046 0.0838608 0.013553554 0.083037406 0.98335809 -0.13112396
1489441509.434 0.97959411 -0.13671035 0.014145304 0.084363133 0.013813078 0.083565116 0.98301387 -0.13218999
1499437735.8491 0.97930682 -0.13719925 0.014382521 0.084854007 0.014037821 0.084005393 0.98279655 -0.13330659
1509433962.2642 0.97916698 -0.13789561 0.014589743 0.085302934 0.014224814 0.084512748 0.98251402 -0.13427019
1519430188.6792 0.97916895 -0.13855934 0.014800521 0.085783042 0.0144284 0.084934399 0.98222584 -0.13495296
1529426415.0943 0.97904074 -0.13943863 0.014954645 0.086232692 0.01455538 0.085457042 0.9821372 -0.1354962
1539422641.5094 0.97886431 -0.14049795 0.01516834 0.086760409 0.014782731 0.085958168 0.98207331 -0.13611946
1549418867.9245 0.97857302 -0.14145267 0.01539588 0.087200947 0.014978783 0.086446032 0.98212487 -0.13712773
1559415094.3396 0.97837764 -0.14239746 0.015508592 0.087649718 0.015061732 0.086872384 0.98217875 -0.13782066
1569411320.7547 0.9781003 -0.1433312 0.015696127 0.088114411 0.015251875 0.087366588 0.98192149 -0.13886489
1579407547.1698 0.97794139 -0.14416778 0.015858654 0.088562384 0.015365353 0.087805025 0.98139548 -0.13992934
1589403773.5849 0.97774589 -0.14479905 0.015898287 0.089085169 0.015477378 0.088284388 0.98116744 -0.14086652
1599400000 0.97769451 -0.14543164 0.015941119 0.089596987 0.015579665 0.08880797 0.98067892 -0.14151403
1609396226.4151 0.97748893 -0.14626952 0.016060578 0.090115115 0.015629807 0.08934024 0.98042428 -0.14229864
1619392452.8302 0.977431 -0.14712 0.016212206 0.090663657 0.015754025 0.08993049 0.98022377 -0.14287528
1629388679.2453 0.97695792 -0.14804146 0.016345058 0.091214426 0.015848089 0.0905229 0.98044097 -0.1436111
1639384905.6604 0.97676659 -0.14890823 0.016470781 0.091793738 0.015997274 0.091109417 0.98054838 -0.14473964
1649381132.0755 0.97625756 -0.14980459 0.016623767 0.092333682 0.01618946 0.091622822 0.98031586 -0.14587504
1659377358.4906 0.97601557 -0.15078017 0.016806208 0.092947572 0.01633266 0.092237681 0.98025858 -0.1469543
1669373584.9057 0.97580385 -0.15135857 0.01695703 0.093505144 0.016496254 0.092820577 0.97974378 -0.14780837
1679369811.3208 0.97570795 -0.15228735 0.017139226 0.094095923 0.016640877 0.093334727 0.97936416 -0.1484727
1689366037.7358 0.97556943 -0.15313941 0.017346684 0.094642356 0.016844947 0.093934104 0.97901404 -0.14895549
1699362264.1509 0.97563475 -0.15401445 0.017557913 0.095232084 0.017020805 0.094597392 0.97914308 -0.14960071
1709358490.566 0.97532731 -0.15485594 0.017709207 0.095774792 0.017215399 0.095155358 0.97901005 -0.15041512
1719354716.9811 0.97494334 -0.15568179 0.017900299 0.096374497 0.017432593 0.095683068 0.97893804 -0.15134862
1729350943.3962 0.97442824 -0.1564573 0.018142976 0.096943446 0.017649408 0.096240714 0.97876722 -0.15237811
1739347169.8113 0.97416586 -0.15702668 0.018358044 0.097573265 0.017900445 0.09682928 0.9786244 -0.15347931
1749343396.2264 0.97389722 -0.1575422 0.018633936 0.098062262 0.018153083 0.097353593 0.97811234 -0.15457833
