!Keysight Technologies,N5222B,MY61253708,A.15.00.15
!Date: Wednesday, June 19, 2024 09:10:50
!Correction: S11(C  2-Port  ) 
!S21(C  2-Port  ) 
!S12(C  2-Port  ) 
!S22(C  2-Port  ) 
!S2P File: Measurements: S11, S21, S12, S22:
# Hz S  RI   R 50
10000000 0.99862772 -0.0024048388 0.0002548288 2.0844091e-005 0.00023597054 0.00036864626 0.99872011 -0.0011692941
19996226.415094 0.99910122 -0.001991868 3.8554223e-005 0.00082143815 9.4608986e-005 0.00074971851 0.99925625 -0.0020837188
29992452.830189 0.99963492 -0.0024147332 -4.7749025e-005 0.0010976952 1.0690914e-005 0.0010475282 0.9993996 -0.002627641
39988679.245283 1.0001065 -0.0030967742 2.4080015e-005 0.0014215857 2.4075562e-006 0.0014469555 0.99962473 -0.003194496
49984905.660377 1.0001755 -0.0037992001 1.9962841e-005 0.0017445202 -1.1279539e-005 0.0017322854 0.9997803 -0.0038208365
59981132.075472 1.0003376 -0.0047518611 5.6279707e-005 0.002030012 2.4088833e-005 0.0020574378 0.99978077 -0.0043634772
69977358.490566 1.0001248 -0.005336903 -2.4835786e-005 0.0024051492 6.2304134e-006 0.0023968543 0.99958897 -0.0049239062
79973584.90566 0.99985969 -0.0058555305 2.0266627e-005 0.0027567022 3.1759148e-005 0.0027299514 0.99931097 -0.0054079294
89969811.320755 0.99986029 -0.0060373247 2.2340682e-005 0.0031195669 3.862055e-005 0.003108778 0.99951112 -0.0057379305
99966037.735849 1.0001048 -0.0068149269 4.9259805e-005 0.0034191762 2.643175e-005 0.0034778756 0.99958193 -0.0064641386
109962264.15094 1.0000994 -0.0077182949 2.8391776e-005 0.003801967 4.6674337e-005 0.0038305866 0.99960214 -0.0073235184
119958490.56604 1.0001559 -0.0087093711 2.4434878e-005 0.0041332184 4.6900939e-005 0.0041791922 0.99960732 -0.0082781613
129954716.98113 1.0000865 -0.0097135603 3.953022e-005 0.0044822376 4.6287198e-005 0.0045206696 0.99959713 -0.0092110038
139950943.39623 1.0000095 -0.010606037 3.0568612e-005 0.0048293998 3.9878301e-005 0.0048705693 0.9995048 -0.0099929441
149947169.81132 0.99985349 -0.011258811 3.7524151e-005 0.0051713851 4.5033405e-005 0.0052079554 0.99944049 -0.010578811
159943396.22642 0.99987352 -0.011795521 7.7229692e-005 0.005510984 6.6345558e-005 0.0055530523 0.99949646 -0.011026442
169939622.64151 0.99983466 -0.012149803 7.6141499e-005 0.0058621657 7.4898067e-005 0.005905435 0.99957538 -0.011476167
179935849.0566 0.99987173 -0.012477517 5.5955723e-005 0.006200905 4.8015849e-005 0.0062613022 0.99951816 -0.011894673
189932075.4717 0.99998653 -0.013259411 9.5685013e-005 0.0065513011 0.00011686445 0.0065968903 0.99970031 -0.01248318
199928301.88679 0.99998558 -0.014118999 9.8797493e-005 0.0068814866 0.00011074333 0.0069295582 0.99961352 -0.013395727
209924528.30189 0.99972713 -0.014790758 9.9279569e-005 0.0072309994 0.00010690803 0.0072900979 0.99931079 -0.014174163
219920754.71698 0.99969482 -0.015693367 0.00011617201 0.0075763231 0.00011351798 0.0076445411 0.99921393 -0.014853239
229916981.13208 0.99941897 -0.01656124 0.00014047557 0.0079042008 0.00012134505 0.0079807667 0.99913013 -0.015664428
239913207.54717 0.99935627 -0.017247787 0.00014172397 0.008252779 0.00014297116 0.0083270893 0.99909145 -0.016318362
249909433.96226 0.99936777 -0.017849892 0.00017828052 0.0086159296 0.00016193232 0.0086718863 0.99919569 -0.016973883
259905660.37736 0.99945349 -0.018390685 0.00016542384 0.0089796372 0.00012262817 0.0090129673 0.99940491 -0.017623603
269901886.79245 0.99950385 -0.019105598 0.00019639847 0.009310876 0.00019411719 0.0094014639 0.99979597 -0.01828751
279898113.20755 0.99980843 -0.019892052 0.00019773282 0.0096480213 0.0001932974 0.0097159268 0.99963498 -0.019084811
289894339.62264 0.99970484 -0.020586371 0.0001905309 0.0099502709 0.00023275474 0.01002134 0.99957311 -0.019866318
299890566.03774 0.99962896 -0.021064728 0.0002634523 0.010315532 0.00019167271 0.010403667 0.99923313 -0.020267189
309886792.45283 0.9993397 -0.021689996 0.00022424443 0.010693524 0.00025319809 0.010762542 0.99909204 -0.020817384
319883018.86792 0.99933457 -0.022379488 0.00026922859 0.011010953 0.0002491246 0.011085568 0.99918318 -0.021269411
329879245.28302 0.99938208 -0.023095936 0.00028136373 0.01135321 0.00024546171 0.011487424 0.99929649 -0.022077322
339875471.69811 0.99914801 -0.023794852 0.00026074494 0.011704215 0.00025246502 0.011793158 0.9991954 -0.022873066
349871698.11321 0.99942434 -0.02470094 0.00027765427 0.012078576 0.00033121021 0.012142007 0.99924469 -0.023824662
359867924.5283 0.99926579 -0.025487453 0.00035772892 0.012340775 0.00030533364 0.01247857 0.99912751 -0.0247311
369864150.9434 0.99939692 -0.026326835 0.00033118995 0.012736519 0.00032792496 0.012811993 0.99915749 -0.025457591
379860377.35849 0.99938542 -0.027019978 0.00037916913 0.013115734 0.00035955524 0.01314195 0.9991312 -0.02612634
389856603.77358 0.99920893 -0.02760002 0.00040019443 0.013425179 0.00036536623 0.013500089 0.99916995 -0.026598752
399852830.18868 0.99908066 -0.028310061 0.00038485881 0.013786908 0.00039136317 0.013849666 0.99922454 -0.027050585
409849056.60377 0.99902064 -0.028644862 0.00042119881 0.014052722 0.0003927022 0.014191238 0.99924338 -0.027544325
419845283.01887 0.99889529 -0.029055029 0.00045056595 0.014460661 0.00043927366 0.014560313 0.99928594 -0.028157353
429841509.43396 0.99910307 -0.029789358 0.00046862382 0.014759684 0.00045244861 0.014874895 0.99947929 -0.028941065
439837735.84906 0.99906331 -0.030686885 0.00047995558 0.015114974 0.00048373779 0.0152396 0.99917686 -0.029874384
449833962.26415 0.99896032 -0.031595916 0.00049922103 0.015427818 0.00050516753 0.015586912 0.99883497 -0.03075552
459830188.67925 0.99880862 -0.032410353 0.00048022065 0.015778709 0.00050936593 0.015911385 0.99869311 -0.031552106
469826415.09434 0.99872518 -0.033190608 0.00052320631 0.016143305 0.0005068765 0.016270939 0.99849892 -0.032173038
479822641.50943 0.99862289 -0.033814214 0.00054714014 0.0165218 0.00055095507 0.016617516 0.99847144 -0.03261935
489818867.92453 0.99875128 -0.034287304 0.00061509013 0.016827026 0.00059482083 0.016973404 0.99886322 -0.033198029
499815094.33962 0.99876416 -0.034869909 0.00058620097 0.017199632 0.00059999898 0.017299531 0.99907207 -0.033762872
509811320.75472 0.99896973 -0.035307787 0.00066803896 0.017505806 0.00063114142 0.017624704 0.99931449 -0.034684077
519807547.16981 0.99890292 -0.03593874 0.00063337572 0.017814403 0.00065091532 0.018004514 0.99916512 -0.035520077
529803773.58491 0.99895388 -0.036571205 0.00062873494 0.01822713 0.00068229996 0.018360233 0.99897069 -0.036055326
539800000 0.9989149 -0.037356824 0.00069809705 0.01856661 0.00068926276 0.018702632 0.9986977 -0.03681846
549796226.41509 0.99864572 -0.03825292 0.00073212711 0.018889083 0.00073887641 0.019027375 0.998523 -0.037323654
559792452.83019 0.99846292 -0.038962364 0.00072103646 0.019238319 0.00072285812 0.019409923 0.99847901 -0.037778437
569788679.24528 0.99824703 -0.039622545 0.00073970202 0.019593881 0.00077889813 0.019729864 0.9985792 -0.038636804
579784905.66038 0.99823689 -0.040208302 0.00080290344 0.02000132 0.00078444974 0.020093547 0.99870384 -0.039290555
589781132.07547 0.99842644 -0.040883154 0.00081105344 0.020268722 0.00079616439 0.02044851 0.99879038 -0.040259182
599777358.49057 0.99861819 -0.041502416 0.00085551478 0.020600356 0.00083165243 0.020817235 0.99881983 -0.041132569
609773584.90566 0.9988113 -0.042353585 0.00088586943 0.020964744 0.00092180684 0.02111675 0.99860364 -0.04196047
619769811.32075 0.99878186 -0.043027997 0.00094415527 0.021299513 0.00097394222 0.021448782 0.99860263 -0.042495579
629766037.73585 0.99858755 -0.043647349 0.00099944044 0.021560825 0.00099048112 0.021787602 0.99838436 -0.042973101
639762264.15094 0.99837923 -0.044336244 0.0010252777 0.021934191 0.0010131267 0.022093028 0.99819326 -0.04350692
649758490.56604 0.99820065 -0.044987053 0.0010093935 0.022274999 0.0010031615 0.022442654 0.99829125 -0.043845013
659754716.98113 0.99804854 -0.04545337 0.0010043867 0.022625208 0.0010407278 0.022812985 0.99833822 -0.044517934
669750943.39623 0.9980436 -0.046038628 0.0010481076 0.022975553 0.001060768 0.023134913 0.99848902 -0.04532215
679747169.81132 0.99811834 -0.046777748 0.0010971796 0.023324141 0.0011053891 0.023534287 0.99836612 -0.046301432
689743396.22642 0.99821287 -0.047547311 0.0011516679 0.02368018 0.0011413526 0.023900067 0.99820882 -0.047344983
699739622.64151 0.99834973 -0.048368901 0.0011779014 0.023985179 0.0011739628 0.024202416 0.99808073 -0.047978461
709735849.0566 0.99833542 -0.049287073 0.0012051284 0.024346368 0.0012472034 0.024552913 0.99787265 -0.048678182
719732075.4717 0.99821317 -0.050023049 0.0012423424 0.024699699 0.0012909509 0.024888674 0.99792755 -0.049160212
729728301.88679 0.99815071 -0.050572723 0.001289227 0.02499776 0.0012798551 0.02518734 0.99799806 -0.049692273
739724528.30189 0.9980163 -0.051099971 0.0013381029 0.025347266 0.0013142587 0.025533777 0.99822468 -0.050373748
749720754.71698 0.99783409 -0.051703334 0.0013398803 0.025682732 0.0013646241 0.025882149 0.99822164 -0.051079974
759716981.13208 0.99801922 -0.052235514 0.0014071576 0.026007216 0.0013930677 0.026209168 0.99818963 -0.05187574
769713207.54717 0.99788344 -0.052966177 0.0014170539 0.026342049 0.0014335038 0.026535213 0.99789453 -0.052631319
779709433.96226 0.99803168 -0.053623971 0.0014229338 0.026659139 0.0014779099 0.026905473 0.99766433 -0.053341776
789705660.37736 0.99791169 -0.054601103 0.0014966009 0.027033903 0.0014943583 0.027205007 0.99734342 -0.053974062
799701886.79245 0.99786925 -0.055369377 0.0015170835 0.027344434 0.0015368462 0.027559128 0.99729288 -0.05460307
809698113.20755 0.99781781 -0.056005269 0.0015435012 0.027642751 0.0015314282 0.027856302 0.99736959 -0.055075541
819694339.62264 0.99765193 -0.05670467 0.0015948839 0.027972054 0.0015729512 0.028217435 0.99747354 -0.05565834
829690566.03774 0.99767649 -0.0573259 0.0016311957 0.028321754 0.001603744 0.028543629 0.99775791 -0.056633025
839686792.45283 0.99770105 -0.057698995 0.0016242014 0.028640298 0.0016379701 0.028907385 0.99781591 -0.057445019
849683018.86792 0.99789089 -0.058414571 0.0016749296 0.028986156 0.0016901658 0.029246967 0.99769044 -0.058257788
859679245.28302 0.99776733 -0.059205979 0.0016888157 0.029362295 0.0017181542 0.02957451 0.99737841 -0.058906555
869675471.69811 0.99777043 -0.059929609 0.001758256 0.029679466 0.0017888425 0.029914172 0.99699199 -0.059453428
879671698.11321 0.99769348 -0.060632814 0.001799361 0.029995082 0.0018269646 0.030273855 0.99707586 -0.059848182
889667924.5283 0.99745148 -0.061464429 0.0018651811 0.030331019 0.0018534996 0.030575011 0.99692076 -0.060323268
899664150.9434 0.99732876 -0.062244326 0.0018556044 0.030663963 0.0018857913 0.030912571 0.99695218 -0.061024219
909660377.35849 0.99724478 -0.062846676 0.0018857196 0.030965818 0.0019075461 0.031229261 0.99706441 -0.061956093
919656603.77358 0.99731493 -0.063649267 0.0019430774 0.03130912 0.0019313442 0.031592738 0.99698353 -0.062822282
929652830.18868 0.99731076 -0.064286053 0.0019299109 0.03163537 0.001933502 0.031900637 0.99690437 -0.063770264
939649056.60377 0.99746567 -0.065026313 0.001964041 0.031986788 0.0019646902 0.032232456 0.99672925 -0.064529836
949645283.01887 0.99745101 -0.065832362 0.0019811788 0.032330379 0.0019676602 0.032600187 0.99647242 -0.064999461
959641509.43396 0.9973802 -0.06641832 0.002002975 0.03270762 0.0020127408 0.032975059 0.99634135 -0.065569103
969637735.84906 0.99732232 -0.067189485 0.0020789839 0.033036169 0.0020674514 0.033297442 0.99638033 -0.065912306
979633962.26415 0.99711424 -0.067934789 0.002136487 0.033321042 0.0021432925 0.033652529 0.9964571 -0.066561148
989630188.67925 0.99711692 -0.068475813 0.0021612151 0.033706609 0.0021790406 0.033970155 0.99664891 -0.067226946
999626415.09434 0.99711674 -0.069198847 0.0021888837 0.033997871 0.0022078715 0.03433264 0.99651128 -0.068076938
1009622641.5094 0.99717301 -0.069830075 0.002221249 0.034381989 0.0022525974 0.034680203 0.99641412 -0.06898053
1019618867.9245 0.99720204 -0.070709467 0.0022828961 0.034709185 0.0023344397 0.035020281 0.99612188 -0.069891483
1029615094.3396 0.9972291 -0.071604878 0.0023365039 0.035058267 0.0023324788 0.035355311 0.99572915 -0.070435017
1039611320.7547 0.99729824 -0.072601944 0.0023938669 0.035367731 0.0023963973 0.035672501 0.99568486 -0.071133673
1049607547.1698 0.99712121 -0.073449671 0.0023965903 0.035666332 0.0024517952 0.035948865 0.99565279 -0.071671739
1059603773.5849 0.99698013 -0.074175 0.0024655769 0.035942331 0.0024833791 0.036313396 0.99571681 -0.072246373
1069600000 0.99678332 -0.074843436 0.002442345 0.036288619 0.0024906881 0.036638934 0.99578351 -0.07299903
1079596226.4151 0.99667007 -0.075464748 0.0024542483 0.036628608 0.0025184928 0.036979496 0.99579901 -0.073811762
1089592452.8302 0.99668521 -0.076095343 0.0024946164 0.036992792 0.0025471076 0.037320148 0.99574411 -0.07450366
1099588679.2453 0.99681079 -0.076774031 0.0025247764 0.037313603 0.0025727153 0.03763615 0.99537814 -0.075174093
1109584905.6604 0.99687696 -0.077645436 0.00252527 0.037662391 0.0026111025 0.03799744 0.99511963 -0.075727761
1119581132.0755 0.99697649 -0.078635909 0.0025564441 0.038031198 0.0026364988 0.038379233 0.99496764 -0.076227814
1129577358.4906 0.99668145 -0.079430878 0.0026260801 0.038407966 0.0026491545 0.03875751 0.99481523 -0.076630354
1139573584.9057 0.99636054 -0.080314994 0.0026398376 0.038732145 0.0027068751 0.039060958 0.99493182 -0.077361286
1149569811.3208 0.99634367 -0.081294097 0.0027253381 0.039064754 0.0027918671 0.039419189 0.99501139 -0.07809025
1159566037.7358 0.99610817 -0.081986755 0.0027435739 0.039376173 0.0028280728 0.039724909 0.99511409 -0.079174131
1169562264.1509 0.99583519 -0.082636625 0.0027533043 0.039717942 0.0028574504 0.040062338 0.99500906 -0.080016732
1179558490.566 0.99585211 -0.083374843 0.0027522848 0.040062446 0.0028866976 0.040451985 0.99472165 -0.080715507
1189554716.9811 0.99587202 -0.084118009 0.0028151982 0.040447876 0.0029219827 0.040748842 0.99454552 -0.081220895
1199550943.3962 0.9957726 -0.084966153 0.0028636213 0.040782131 0.0029823072 0.041146312 0.99430907 -0.081607997
1209547169.8113 0.99557185 -0.085849062 0.002917639 0.04113245 0.0030216379 0.041469719 0.99426585 -0.081935525
1219543396.2264 0.99535531 -0.086692736 0.0029694634 0.041509114 0.0030846363 0.041841805 0.99438554 -0.08240217
1229539622.6415 0.99515688 -0.087450415 0.0030071177 0.041853249 0.0031620543 0.042206123 0.99450421 -0.083120614
1239535849.0566 0.9948988 -0.088112414 0.0031132475 0.042179063 0.0032319687 0.042507108 0.99459136 -0.084082484
1249532075.4717 0.99455208 -0.08889772 0.0031590532 0.042504035 0.0033022261 0.042827174 0.99435389 -0.084838755
1259528301.8868 0.99431992 -0.089398384 0.0031901356 0.042850062 0.0033633839 0.043172546 0.99416894 -0.085792243
1269524528.3019 0.99413478 -0.090115398 0.0032885019 0.043171018 0.003424678 0.04348487 0.99396312 -0.086442202
1279520754.717 0.99371439 -0.090856835 0.0033499578 0.043439206 0.0034905314 0.04375251 0.9936403 -0.087005645
1289516981.1321 0.99365258 -0.09172073 0.0033647297 0.043761425 0.0034935633 0.044055801 0.99369156 -0.08749643
1299513207.5472 0.99329185 -0.092640996 0.0033785813 0.044108957 0.0035283249 0.044388469 0.993806 -0.087880909
1309509433.9623 0.99283528 -0.093296841 0.0034001656 0.044418037 0.0035069566 0.044694036 0.99389285 -0.08859998
1319505660.3774 0.9923957 -0.094024137 0.0034088222 0.044757489 0.0035341978 0.045027867 0.99389488 -0.08930774
1329501886.7925 0.99209905 -0.094676048 0.0033915527 0.045079902 0.0035567116 0.045383349 0.99396932 -0.090278924
1339498113.2075 0.99180555 -0.095210671 0.0034870654 0.045414977 0.0035926001 0.045702919 0.99342489 -0.090993166
1349494339.6226 0.99165839 -0.095814675 0.003435005 0.04575973 0.0035772463 0.046110589 0.99310654 -0.09163218
1359490566.0377 0.99158502 -0.096412897 0.0034858081 0.0461585 0.0035787709 0.046396054 0.99290228 -0.092179865
1369486792.4528 0.99134851 -0.096949697 0.0034578163 0.046563722 0.0035906304 0.046804193 0.99268204 -0.092551798
1379483018.8679 0.99109077 -0.097530879 0.0034983214 0.046875224 0.0035863295 0.047137741 0.9927457 -0.093036354
1389479245.283 0.99071783 -0.098085046 0.0035586488 0.047269646 0.0036827996 0.047565691 0.99266195 -0.093712211
1399475471.6981 0.99032426 -0.098468393 0.0035905279 0.047656145 0.0036814436 0.047887929 0.99287993 -0.094467968
1409471698.1132 0.98992032 -0.098887131 0.00359469 0.048048008 0.00370157 0.048280094 0.99291766 -0.095256351
1419467924.5283 0.98969674 -0.09909603 0.0036274642 0.048445448 0.0037412839 0.048684165 0.99268162 -0.096004158
1429464150.9434 0.98957956 -0.099582464 0.0036906134 0.048822515 0.0037547518 0.049091801 0.99263883 -0.096433163
1439460377.3585 0.98978138 -0.10010743 0.0037527289 0.049282596 0.0038553281 0.049501546 0.9923557 -0.096837148
1449456603.7736 0.98984396 -0.10060771 0.0039202273 0.049700979 0.0039658174 0.049954042 0.99218702 -0.097186267
1459452830.1887 0.98978746 -0.10125798 0.0040132869 0.050111029 0.0040511694 0.050382283 0.99229562 -0.097479224
1469449056.6038 0.98986584 -0.1020692 0.0041793194 0.050479636 0.0041791359 0.050754745 0.99254525 -0.098206371
1479445283.0189 0.9897145 -0.10260795 0.0043003568 0.050760578 0.0043175649 0.051061388 0.9925921 -0.099140264
1489441509.434 0.98957026 -0.10319436 0.0044590104 0.051078133 0.004484864 0.051340632 0.99243748 -0.099971622
1499437735.8491 0.98936623 -0.10351509 0.0045435075 0.051312439 0.0045780819 0.051629245 0.99237573 -0.1008797
1509433962.2642 0.98936385 -0.10398939 0.004696955 0.051649828 0.0046945848 0.051923998 0.99218851 -0.10164531
1519430188.6792 0.98952401 -0.10457152 0.0047653504 0.051905002 0.0047751851 0.052194852 0.9919405 -0.1021958
1529426415.0943 0.98948014 -0.10528684 0.0047804937 0.052249484 0.0048183948 0.052547257 0.99186748 -0.10255063
1539422641.5094 0.98949856 -0.10614773 0.0048605227 0.052522477 0.004847765 0.052816998 0.99205583 -0.10302591
1549418867.9245 0.9892475 -0.10689382 0.0049515422 0.052796111 0.0049159117 0.053132284 0.9922803 -0.10385086
1559415094.3396 0.98916775 -0.10757193 0.0050009042 0.053117611 0.0049435589 0.053457774 0.99244642 -0.1045182
1569411320.7547 0.98907572 -0.10840578 0.0050097071 0.053421073 0.0050088186 0.053735234 0.99223995 -0.1052842
1579407547.1698 0.98895025 -0.10885006 0.0050348225 0.053688247 0.0050636865 0.054005198 0.99185032 -0.10620405
1589403773.5849 0.9888885 -0.10947976 0.0049945936 0.054013699 0.0050434265 0.054326802 0.99160129 -0.10688084
1599400000 0.98885226 -0.10994965 0.0050532408 0.054322343 0.0050413404 0.05461558 0.99128407 -0.10737267
1609396226.4151 0.98883212 -0.11059172 0.0050442265 0.054669008 0.0050514843 0.054972071 0.99101341 -0.10784821
1619392452.8302 0.98878634 -0.11126333 0.0050532259 0.054972704 0.0050094146 0.055335734 0.99114549 -0.10830724
1629388679.2453 0.98854494 -0.11188686 0.0051212106 0.055340625 0.0050480887 0.055754989 0.99136794 -0.10892466
1639384905.6604 0.9883225 -0.11254997 0.0051297219 0.055719819 0.0050803064 0.056084722 0.99151617 -0.10969236
1649381132.0755 0.98804492 -0.11327085 0.0050987639 0.056072757 0.0050863232 0.056474373 0.9915483 -0.11067593
1659377358.4906 0.98797441 -0.1139861 0.0051119644 0.056497704 0.0051459018 0.05683006 0.99138623 -0.11164129
1669373584.9057 0.98786366 -0.11449142 0.0051680058 0.056860536 0.0052118655 0.057248008 0.99114585 -0.11222913
1679369811.3208 0.98799181 -0.11516657 0.0052344911 0.057243008 0.0051991325 0.057624269 0.99083006 -0.11282846
1689366037.7358 0.98801762 -0.11589336 0.0053085666 0.057613112 0.0052510947 0.05801167 0.99068069 -0.11313725
1699362264.1509 0.98815513 -0.11643326 0.0053666513 0.058007896 0.0053253751 0.058432512 0.99096429 -0.1134657
1709358490.566 0.98789322 -0.11718467 0.0053835977 0.058388375 0.0053705024 0.058799502 0.99087989 -0.11411582
1719354716.9811 0.98766243 -0.1177257 0.0054843836 0.058754824 0.0054403394 0.059209548 0.99100208 -0.11476514
1729350943.3962 0.98733211 -0.11834985 0.0055904109 0.05916762 0.0055391844 0.059626427 0.99102765 -0.11567169
