!Keysight Technologies,N5222B,MY61253708,A.15.00.15
!Date: Wednesday, June 19, 2024 10:30:06
!Correction: S11(C  2-Port  ) 
!S21(C  2-Port  ) 
!S12(C  2-Port  ) 
!S22(C  2-Port  ) 
!S2P File: Measurements: S11, S21, S12, S22:
# Hz S  RI   R 50
10000000 0.99830776 -0.0033070147 0.00015445855 0.00039597088 1.9745858e-005 0.00044263594 0.99834567 -0.0017920136
19996226.415094 0.99986422 -0.0023987591 0.00013010568 0.00056513131 -4.4478569e-005 0.000694649 0.9999401 -0.00235641
29992452.830189 0.99955499 -0.0025329888 5.5301149e-005 0.0010145686 -5.3801647e-005 0.00096987217 0.99934506 -0.0026808679
39988679.245283 1.0000207 -0.0030190349 -1.074851e-005 0.0012949669 6.1252067e-006 0.0013225561 0.99970937 -0.0030843168
49984905.660377 1.000229 -0.0036793053 1.1456665e-005 0.0016772794 3.2432785e-005 0.001619661 0.99985945 -0.0035687983
59981132.075472 1.0004129 -0.0045393407 -2.140482e-005 0.0019690671 2.7739094e-005 0.0019102232 0.99984807 -0.0041546524
69977358.490566 1.0002108 -0.0050880928 2.894361e-005 0.0022612002 4.5912857e-005 0.0022529042 0.99971861 -0.0046832059
79973584.90566 0.9998883 -0.0056506097 2.5302172e-005 0.0025553417 3.3089425e-005 0.0025944079 0.99936962 -0.0051317811
89969811.320755 0.99994385 -0.0057084262 -1.5518861e-005 0.0029087095 6.7130895e-006 0.0029360494 0.99961638 -0.0053204596
99966037.735849 1.0001435 -0.0063988715 5.6338031e-006 0.003255012 5.608541e-006 0.0032314165 0.99972874 -0.0060884207
109962264.15094 1.0002218 -0.0073352307 3.1430507e-005 0.0035557568 4.0796993e-005 0.0035573491 0.99972856 -0.006868735
119958490.56604 1.0001996 -0.0082200766 2.4574576e-005 0.0038798973 3.5548233e-005 0.003903487 0.99976933 -0.0077083409
129954716.98113 1.0001601 -0.0092293024 2.8387411e-005 0.0042153858 5.9126411e-005 0.0042140149 0.99976665 -0.0086008906
139950943.39623 1.0001096 -0.010016853 2.8898387e-005 0.0045215581 3.131156e-005 0.0045420695 0.99966353 -0.0093317889
149947169.81132 0.99996716 -0.010674387 3.4880126e-005 0.0048504001 4.3730717e-005 0.0048743957 0.99963301 -0.0099063516
159943396.22642 0.99991882 -0.011226296 7.0295064e-005 0.005188114 4.5706518e-005 0.0051916181 0.99968165 -0.010338187
169939622.64151 0.99987292 -0.011543721 5.8395904e-005 0.0055030966 5.5823999e-005 0.005518679 0.99974746 -0.010725416
179935849.0566 0.99993008 -0.011738181 6.4035179e-005 0.0058510737 6.0816063e-005 0.0058449423 0.99965191 -0.011101693
189932075.4717 1.0000639 -0.012556821 9.1704307e-005 0.0061707282 9.096181e-005 0.0061682099 0.99988699 -0.011610538
199928301.88679 1.0000063 -0.013342053 9.5090596e-005 0.0064839572 9.7456854e-005 0.0064892666 0.99978471 -0.012507915
209924528.30189 0.99970698 -0.013877258 0.00010030298 0.0068208193 9.6167205e-005 0.0068005971 0.99953103 -0.01318942
219920754.71698 0.99991858 -0.01471141 9.753718e-005 0.0071357433 9.2429575e-005 0.0071326019 0.99942577 -0.013803869
229916981.13208 0.99969584 -0.015606076 0.00011880044 0.0074709449 0.00010697334 0.0074650063 0.99939978 -0.014554441
239913207.54717 0.99955475 -0.01624576 0.00012921217 0.0077543501 0.00014104029 0.0077880556 0.99936694 -0.015223637
249909433.96226 0.99955732 -0.016882509 0.00014419015 0.0080886623 0.00013721199 0.0081139347 0.99945903 -0.015796214
259905660.37736 0.99970073 -0.017408282 0.00013897195 0.0084357616 0.00014428748 0.0084078973 0.99961424 -0.016392857
269901886.79245 0.99986684 -0.018119633 0.00018988759 0.0087904744 0.00017286651 0.0087508112 1.0000286 -0.017032892
279898113.20755 0.99988747 -0.018786386 0.00018175668 0.0090576224 0.00015503843 0.0090603847 0.9999119 -0.017846376
289894339.62264 0.99989128 -0.019576997 0.00018049125 0.0094219213 0.00019174349 0.0094252843 0.9998008 -0.018525034
299890566.03774 0.9998455 -0.019992352 0.00018941378 0.0097134281 0.0001816107 0.0097570131 0.99955887 -0.018933415
309886792.45283 0.99962783 -0.020555563 0.00020793179 0.0099911848 0.00020870543 0.010063811 0.99950713 -0.019384488
319883018.86792 0.99955446 -0.021101266 0.00021777675 0.01035824 0.00019517308 0.010407662 0.9996267 -0.019850731
329879245.28302 0.99951422 -0.021887392 0.00020551216 0.010662749 0.00021088962 0.010718113 0.9997462 -0.020617813
339875471.69811 0.9994688 -0.022660449 0.00023087917 0.010988559 0.00022890535 0.011011765 0.9996708 -0.021460019
349871698.11321 0.99969178 -0.023534685 0.00028482242 0.011341617 0.00022431253 0.011357119 0.99969912 -0.022325128
359867924.5283 0.99952942 -0.024256736 0.00022630161 0.011653928 0.00025290018 0.011688841 0.99961686 -0.023236841
369864150.9434 0.99972004 -0.025001496 0.00027219229 0.011986428 0.00031256629 0.011976331 0.99959201 -0.024038762
379860377.35849 0.99949896 -0.025713116 0.00031002844 0.012291975 0.00032157614 0.012310331 0.99956703 -0.024674162
389856603.77358 0.99953997 -0.026341617 0.00030833576 0.012630761 0.00032346603 0.012599157 0.99953145 -0.025173008
399852830.18868 0.99928057 -0.026967138 0.00034703081 0.01296737 0.00035055447 0.012929899 0.99954307 -0.02570942
409849056.60377 0.99923652 -0.027424758 0.00035662716 0.013258674 0.00035398154 0.013307622 0.99950063 -0.026231702
419845283.01887 0.9991653 -0.027815819 0.00038299151 0.013564745 0.00037814397 0.013623822 0.99937934 -0.026804805
429841509.43396 0.99927032 -0.02846539 0.00038222363 0.013910503 0.00038335659 0.013932442 0.99950266 -0.027496666
439837735.84906 0.99916738 -0.029367059 0.00042446679 0.014207495 0.00042616064 0.01424015 0.99930578 -0.028551847
449833962.26415 0.99896854 -0.030148864 0.00042823656 0.014522771 0.00044065202 0.014540367 0.99873871 -0.029319793
459830188.67925 0.99875855 -0.030840874 0.00042715482 0.014836452 0.00045723235 0.014871178 0.99842918 -0.029989153
469826415.09434 0.99874431 -0.031645209 0.0004643132 0.015184237 0.00042100484 0.015223838 0.99812502 -0.03038922
479822641.50943 0.99869633 -0.032079123 0.00046698295 0.015487436 0.00048381684 0.015530378 0.99816859 -0.030729681
489818867.92453 0.99869722 -0.032598525 0.00050588977 0.01581762 0.00051343208 0.015869824 0.99842227 -0.031170696
499815094.33962 0.99879658 -0.033150256 0.00053487811 0.016152039 0.00052290643 0.016180554 0.99871016 -0.031683236
509811320.75472 0.99891204 -0.033488598 0.00050251605 0.016462225 0.00053765625 0.016468914 0.9988544 -0.032434717
519807547.16981 0.99886155 -0.034029037 0.00061486894 0.016774487 0.0005311477 0.016821964 0.99889916 -0.033059478
529803773.58491 0.99885213 -0.034643918 0.00056997268 0.017142363 0.00057518715 0.017124202 0.99857002 -0.033532292
539800000 0.99887598 -0.035209194 0.00058205822 0.017432768 0.00059167109 0.017513422 0.99845523 -0.034119755
549796226.41509 0.99876034 -0.036027759 0.00064408965 0.01778027 0.00061257789 0.017817194 0.99837327 -0.034451365
559792452.83019 0.99859548 -0.036752313 0.00062556658 0.018086664 0.0006258199 0.018098615 0.99840659 -0.034972697
569788679.24528 0.99841309 -0.037421554 0.00066827377 0.018399946 0.00068007223 0.018430961 0.99859023 -0.035687417
579784905.66038 0.9984135 -0.037979163 0.00069168501 0.018702339 0.00067049952 0.018774292 0.99874687 -0.036386736
589781132.07547 0.9985075 -0.038553178 0.00068769604 0.019010426 0.00069658086 0.019104227 0.99887812 -0.037278056
599777358.49057 0.99872166 -0.03916043 0.0007328745 0.019355364 0.00073384028 0.019431859 0.99896729 -0.038042992
609773584.90566 0.9987728 -0.039989561 0.00075719459 0.019668533 0.0007846079 0.019748693 0.99883616 -0.038905263
619769811.32075 0.9989658 -0.040582269 0.00080545014 0.020014964 0.00081706885 0.020050026 0.99870837 -0.03941974
629766037.73585 0.99883664 -0.041274279 0.0008146679 0.020317685 0.00085403211 0.020371882 0.99859095 -0.039867431
639762264.15094 0.99868751 -0.041888669 0.0008482472 0.020631839 0.00085287588 0.020690659 0.9984802 -0.040361866
649758490.56604 0.99853742 -0.04248552 0.00086121261 0.020964138 0.0008762572 0.02098074 0.99861217 -0.040792242
659754716.98113 0.99842536 -0.043044388 0.00086742826 0.021258611 0.00084951427 0.021329399 0.9987157 -0.041290402
669750943.39623 0.99836665 -0.043392569 0.00087360805 0.021588631 0.00089147128 0.021653233 0.99879557 -0.042111635
679747169.81132 0.99845487 -0.044283994 0.00091991446 0.021964332 0.00092741894 0.022009069 0.99880028 -0.043138519
689743396.22642 0.99856651 -0.044994116 0.0009632837 0.022260709 0.0009965105 0.022343136 0.99867594 -0.044046223
699739622.64151 0.99872124 -0.045852602 0.0010229489 0.022582861 0.0010074982 0.022627145 0.99854112 -0.044719309
709735849.0566 0.99864119 -0.046678811 0.0010328626 0.022876868 0.0010307409 0.022941049 0.99833697 -0.045343108
719732075.4717 0.99854672 -0.047400475 0.0010389248 0.023194244 0.0010643718 0.023249859 0.99839902 -0.045979768
729728301.88679 0.99846768 -0.047942728 0.0011387505 0.02351943 0.0010751402 0.023606345 0.99847984 -0.046457827
739724528.30189 0.99840611 -0.048505902 0.0011327844 0.023843661 0.0011401786 0.023897842 0.99863142 -0.047137395
749720754.71698 0.99824506 -0.049061954 0.0012005204 0.024128824 0.0011816914 0.024208874 0.99866909 -0.047796845
759716981.13208 0.99827904 -0.049610049 0.0011948505 0.024433099 0.0012020273 0.024510238 0.99863642 -0.048631907
769713207.54717 0.99822366 -0.050330132 0.0012245281 0.024768319 0.0012596166 0.024782728 0.99831116 -0.049329638
779709433.96226 0.99836749 -0.050891042 0.0012228485 0.025087629 0.0012586036 0.02513059 0.99809325 -0.049986213
789705660.37736 0.99819452 -0.05180341 0.0012894748 0.025406763 0.0013099825 0.025476936 0.99778956 -0.050699532
799701886.79245 0.99820936 -0.052594066 0.001317271 0.025709219 0.0013068328 0.025799343 0.99760222 -0.051278889
809698113.20755 0.99812353 -0.053211033 0.0013469055 0.026005156 0.0013524189 0.026103871 0.99767417 -0.051699027
819694339.62264 0.99795783 -0.053889811 0.0013736221 0.026316933 0.0013494459 0.026432609 0.99775779 -0.052260906
829690566.03774 0.99784291 -0.054443866 0.0014028698 0.02660729 0.0013937019 0.026721429 0.99793971 -0.053129554
839686792.45283 0.99797481 -0.054922879 0.0014076591 0.026920134 0.0014389097 0.027023068 0.9980126 -0.053959131
849683018.86792 0.99806601 -0.055472195 0.0014465223 0.027291298 0.0014532264 0.027345099 0.99785972 -0.054666743
859679245.28302 0.9981162 -0.056148142 0.0015079062 0.027598802 0.0014833529 0.027675802 0.99760652 -0.055294216
869675471.69811 0.99795479 -0.056869268 0.0015255585 0.027917592 0.001529553 0.028014185 0.99722946 -0.055702507
879671698.11321 0.99788594 -0.057517923 0.0015359032 0.028219307 0.0015902299 0.028270856 0.99714345 -0.056118734
889667924.5283 0.9976263 -0.058304429 0.0015894286 0.028496441 0.0015767394 0.028598037 0.99698561 -0.056630671
899664150.9434 0.99749863 -0.059040189 0.0016149031 0.028820645 0.0016014902 0.028901886 0.99712253 -0.057173759
909660377.35849 0.99751866 -0.059612006 0.0016079806 0.029110305 0.0016255667 0.029204939 0.99729699 -0.058012322
919656603.77358 0.99761611 -0.060315788 0.0016465732 0.029456535 0.0016612015 0.029520843 0.99725091 -0.05889146
929652830.18868 0.99760139 -0.060978383 0.001662977 0.029762741 0.001672565 0.029863171 0.99708593 -0.059725583
939649056.60377 0.99779284 -0.061565906 0.0016918248 0.030069588 0.0016850317 0.030154895 0.99698538 -0.06042549
949645283.01887 0.99777216 -0.062441137 0.0016937904 0.030387456 0.0016887959 0.030482102 0.99669158 -0.060912438
959641509.43396 0.99768937 -0.06306091 0.0016816445 0.030761616 0.0017367275 0.03084805 0.99658805 -0.061388552
969637735.84906 0.99763429 -0.063723356 0.0017433641 0.03109289 0.0017868001 0.031199208 0.99668974 -0.061725497
979633962.26415 0.99742913 -0.064480454 0.0018350666 0.031370286 0.0018229058 0.031455576 0.99669951 -0.062321901
989630188.67925 0.99748898 -0.065033853 0.0018560244 0.031712919 0.0018306663 0.031798512 0.99692917 -0.062853187
999626415.09434 0.99746984 -0.065619141 0.0018642722 0.032018419 0.0018788334 0.032135569 0.99686521 -0.063733459
1009622641.5094 0.99751765 -0.066209093 0.0019305805 0.032343224 0.0019461801 0.03245518 0.9967463 -0.064511687
1019618867.9245 0.99762905 -0.06701836 0.0019550906 0.032652762 0.0020012953 0.032758974 0.99648935 -0.065332904
1029615094.3396 0.99766827 -0.067920506 0.0020229332 0.032950953 0.0020219777 0.033038653 0.99610233 -0.065904677
1039611320.7547 0.99775255 -0.068784058 0.00206507 0.033261575 0.0020422814 0.033334985 0.99608463 -0.066560447
1049607547.1698 0.99758041 -0.069677494 0.0020613801 0.033547528 0.0020720544 0.033658426 0.9961282 -0.067092635
1059603773.5849 0.997495 -0.070307434 0.0021025501 0.033846911 0.0021153418 0.033947609 0.99609834 -0.0675776
1069600000 0.99727249 -0.07094267 0.0020867428 0.034130547 0.00211854 0.034271438 0.99631262 -0.068274707
1079596226.4151 0.99717349 -0.0715933 0.0021057213 0.034466673 0.0021146489 0.03455865 0.99632394 -0.069080241
1089592452.8302 0.99727142 -0.072195262 0.0021097679 0.034802396 0.0021823263 0.034892123 0.99630344 -0.069800019
1099588679.2453 0.9973231 -0.072836161 0.0021453239 0.035117529 0.0021615755 0.035247535 0.99598551 -0.070437998
1109584905.6604 0.99741411 -0.073603421 0.0021522334 0.035440393 0.0022114338 0.035570316 0.99573421 -0.070976287
1119581132.0755 0.997365 -0.074545562 0.0021921238 0.035785303 0.0022081663 0.035883542 0.99562609 -0.071326107
1129577358.4906 0.99723756 -0.075368702 0.0022106078 0.036137968 0.0022650994 0.036251642 0.99549651 -0.071801633
1139573584.9057 0.99698174 -0.076249182 0.0022686562 0.036448158 0.0023333039 0.036571816 0.99556261 -0.07244131
1149569811.3208 0.99693573 -0.077106237 0.0023083349 0.036751233 0.0023532603 0.036875989 0.99570882 -0.073170595
1159566037.7358 0.99662071 -0.077746987 0.0023432355 0.037085913 0.0024121562 0.037205182 0.99578178 -0.074187964
1169562264.1509 0.9964962 -0.078366578 0.0023707226 0.037376374 0.0023930836 0.037491053 0.99571776 -0.07496655
1179558490.566 0.9965049 -0.079130828 0.002351522 0.037709709 0.0024100842 0.037876006 0.99555027 -0.075675733
1189554716.9811 0.99642408 -0.079788417 0.0023962809 0.038062662 0.0024780827 0.038174335 0.99523312 -0.076224834
1199550943.3962 0.99654865 -0.080596477 0.0024322346 0.038415566 0.0025494266 0.038510203 0.99509329 -0.076598167
1209547169.8113 0.99632382 -0.081568912 0.0024910122 0.038695559 0.0025614183 0.038832668 0.9949764 -0.076925576
1219543396.2264 0.99612677 -0.082316086 0.002524395 0.039077256 0.0025973339 0.039193273 0.99509764 -0.077340171
1229539622.6415 0.99587083 -0.08307749 0.0025979485 0.039391939 0.002656702 0.039502211 0.99522889 -0.077976674
1239535849.0566 0.99559379 -0.083754659 0.0026221145 0.039683461 0.0027281959 0.039822765 0.9953233 -0.078964651
1249532075.4717 0.99533814 -0.084469609 0.002704208 0.039994396 0.0028077415 0.04012445 0.99517465 -0.07966356
1259528301.8868 0.99517816 -0.084914774 0.0027440973 0.040331766 0.0028468668 0.0404194 0.99489194 -0.080598444
1269524528.3019 0.99504399 -0.085647106 0.0028115856 0.040646467 0.0029376019 0.040706754 0.99474549 -0.081287622
1279520754.717 0.99472284 -0.086266905 0.0028799721 0.04088866 0.0029638156 0.040960547 0.99448502 -0.081770189
1289516981.1321 0.99463487 -0.087145358 0.0028725863 0.041201934 0.002960139 0.041274503 0.99455458 -0.082122594
1299513207.5472 0.99427593 -0.087991267 0.0028872844 0.041499849 0.0029738508 0.041554935 0.99465191 -0.082540214
1309509433.9623 0.99382877 -0.088673398 0.002860372 0.041782711 0.0029838113 0.041875463 0.99479622 -0.083286807
1319505660.3774 0.99350053 -0.089391276 0.0028760163 0.042126495 0.0029941713 0.042178474 0.9948774 -0.083844617
1329501886.7925 0.99321914 -0.090075821 0.0029263739 0.042436149 0.0030322894 0.042493954 0.9948141 -0.08482331
1339498113.2075 0.9929806 -0.09052369 0.0029425705 0.042787213 0.0029995078 0.042809404 0.99444234 -0.085553348
1349494339.6226 0.99283993 -0.091196179 0.0029113931 0.043089092 0.0030121072 0.043147054 0.99410111 -0.086199187
1359490566.0377 0.99266839 -0.091736495 0.0029231813 0.043458752 0.0030169301 0.04347574 0.99393284 -0.086584628
1369486792.4528 0.99255455 -0.0922755 0.0029240763 0.043818347 0.0030329973 0.043825015 0.99372679 -0.087120503
1379483018.8679 0.99224877 -0.092842273 0.002957263 0.044142347 0.0030118818 0.044164795 0.99379152 -0.087466903
1389479245.283 0.9918915 -0.093358099 0.002995735 0.044508915 0.0030544139 0.044532903 0.99371344 -0.088110685
1399475471.6981 0.99147081 -0.093712002 0.0030112993 0.044848278 0.0030710623 0.044881932 0.99397355 -0.088807404
1409471698.1132 0.9912532 -0.094020918 0.0030670308 0.045225795 0.0031008264 0.045248404 0.99398816 -0.089584142
1419467924.5283 0.99103236 -0.094354808 0.0030400353 0.045602422 0.0031350646 0.045624554 0.99376434 -0.09028855
1429464150.9434 0.99089575 -0.094851136 0.0030911118 0.045992762 0.0031600278 0.046012975 0.99369365 -0.090838939
1439460377.3585 0.99109685 -0.095308617 0.003199324 0.046445277 0.0032206383 0.046428725 0.99342555 -0.091222435
1449456603.7736 0.99111623 -0.095870465 0.0032915566 0.046833824 0.003312571 0.046835065 0.99332666 -0.091536224
1459452830.1887 0.99110377 -0.096568376 0.0034270268 0.047183469 0.0034354795 0.047209494 0.99349344 -0.091858745
1469449056.6038 0.99114174 -0.097197711 0.0035563149 0.04755966 0.0035940278 0.047574636 0.99372172 -0.092471749
1479445283.0189 0.99097663 -0.097863719 0.0037064734 0.047834992 0.0036979115 0.04783044 0.99379426 -0.093394533
1489441509.434 0.99090004 -0.098369896 0.003849702 0.048111048 0.0038557723 0.048152845 0.99365157 -0.094190747
1499437735.8491 0.99069542 -0.098670036 0.0039497577 0.048372488 0.0039209388 0.048387088 0.99357849 -0.095030397
1509433962.2642 0.99075198 -0.099208064 0.0040097963 0.048642281 0.003995785 0.048677955 0.99330842 -0.095756695
1519430188.6792 0.99088538 -0.099772483 0.004068397 0.04889068 0.004082609 0.048934855 0.99326169 -0.096274018
1529426415.0943 0.99079144 -0.10031676 0.0041257031 0.049221091 0.0041118003 0.049249079 0.99316943 -0.096722633
1539422641.5094 0.99080491 -0.10119908 0.0041788495 0.049478743 0.0041584168 0.049530584 0.99329948 -0.09714058
1549418867.9245 0.99074441 -0.10196738 0.0042519374 0.04975199 0.0041928254 0.049764864 0.99350214 -0.097940803
1559415094.3396 0.990578 -0.10259396 0.0042897947 0.050008766 0.0042549334 0.050098095 0.99363291 -0.098593086
1569411320.7547 0.99040675 -0.10348377 0.0043409793 0.0503029 0.0042878771 0.050337717 0.99361938 -0.09940061
1579407547.1698 0.9903397 -0.1038931 0.004363894 0.050552905 0.0042812731 0.050619312 0.99317783 -0.10020056
1589403773.5849 0.99028134 -0.10446322 0.0043622665 0.050838031 0.0043203961 0.050924845 0.9930532 -0.10091841
1599400000 0.99021667 -0.10493639 0.004327381 0.051109392 0.0043379106 0.051193852 0.99259108 -0.10141236
1609396226.4151 0.99022043 -0.10553235 0.0043224413 0.051467765 0.004291608 0.051510371 0.99241036 -0.10183366
1619392452.8302 0.99014395 -0.10617033 0.0043243077 0.051789965 0.0042731054 0.05185521 0.99243444 -0.10223961
1629388679.2453 0.990013 -0.10688958 0.0043425672 0.052127816 0.0043124948 0.05221821 0.99267143 -0.10277155
1639384905.6604 0.98972893 -0.10741012 0.0043319804 0.052484691 0.0042910767 0.052589327 0.99297255 -0.10362551
1649381132.0755 0.98952621 -0.10810179 0.0044034105 0.052828364 0.0042799432 0.052920695 0.99290293 -0.10462087
1659377358.4906 0.98935568 -0.10892928 0.0043738987 0.053184722 0.0043365341 0.053302333 0.99291444 -0.10541648
1669373584.9057 0.98932791 -0.10933695 0.004399654 0.053543441 0.0043633482 0.053660605 0.99254102 -0.10602446
1679369811.3208 0.98936296 -0.11001638 0.0044682333 0.053926148 0.0044006798 0.054005027 0.99237603 -0.10661495
1689366037.7358 0.98934507 -0.11061701 0.0044859983 0.054302387 0.0044024698 0.054408461 0.99215436 -0.10685965
1699362264.1509 0.98952073 -0.11116867 0.0045547225 0.054611843 0.0044509843 0.054794747 0.9923597 -0.10741299
1709358490.566 0.98935354 -0.11184667 0.0045751547 0.055012647 0.0045466805 0.055157695 0.99237239 -0.10788655
1719354716.9811 0.98905265 -0.11245391 0.0046225954 0.055364169 0.0045891702 0.055518869 0.99247783 -0.10859162
