!Keysight Technologies,N5222B,MY61253708,A.15.00.15
!Date: Wednesday, June 19, 2024 09:14:32
!Correction: S11(C  2-Port  ) 
!S21(C  2-Port  ) 
!S12(C  2-Port  ) 
!S22(C  2-Port  ) 
!S2P File: Measurements: S11, S21, S12, S22:
# Hz S  RI   R 50
10000000 0.99844432 -0.0022559762 0.00037497099 0.00047798062 0.00012638346 0.00040534273 0.99840844 -0.00086057186
19996226.415094 0.99902678 -0.0020878911 2.0932785e-005 0.00056749338 -0.00012017501 0.00072238082 0.99905753 -0.0022810996
29992452.830189 0.9997592 -0.0024591088 6.9789967e-005 0.0010617079 6.0734077e-005 0.00107179 0.99946308 -0.0027056634
39988679.245283 1.0000781 -0.0030406862 -2.2718159e-006 0.0013363911 -1.5100624e-005 0.0013931409 0.99963689 -0.0032425225
49984905.660377 1.0001794 -0.0038177967 1.7879531e-005 0.0017247307 -2.6037451e-006 0.0017335198 0.99976188 -0.0037828088
59981132.075472 1.0003603 -0.0047985911 3.8970145e-005 0.0020779446 6.7368557e-005 0.0021162122 0.9997192 -0.0043397844
69977358.490566 1.0001237 -0.0053055752 7.8563135e-006 0.0023786756 1.4567882e-005 0.002459367 0.99961096 -0.0048771966
79973584.90566 0.99981952 -0.0059033334 3.5099336e-005 0.0027216789 1.6989768e-005 0.0027346141 0.99927545 -0.00544554
89969811.320755 0.99989647 -0.0060738623 4.2170286e-006 0.0030571078 4.5016874e-005 0.0031162668 0.99952847 -0.0056979656
99966037.735849 1.0000859 -0.0067878813 2.956629e-005 0.0034133876 2.5300309e-005 0.0034620697 0.9995681 -0.0065192282
109962264.15094 1.0001371 -0.0077169389 3.828539e-005 0.0037595299 2.8285431e-005 0.0037809215 0.99958396 -0.0073687434
119958490.56604 1.0001736 -0.0087153912 3.781449e-005 0.0041008941 4.655146e-005 0.0041331905 0.99960947 -0.0082821548
129954716.98113 1.0001004 -0.0096975863 3.4147524e-005 0.0044386638 5.584734e-005 0.0045002168 0.99959481 -0.0091898143
139950943.39623 1.0000658 -0.010545503 5.2379095e-005 0.0047953306 3.3514123e-005 0.0048129736 0.99951041 -0.0099547971
149947169.81132 0.99988055 -0.011188149 6.0670776e-005 0.0051279832 4.3022912e-005 0.0051637664 0.99944735 -0.010596663
159943396.22642 0.9998039 -0.011772513 5.1697483e-005 0.0054699369 5.5306125e-005 0.0055117914 0.9995209 -0.011039436
169939622.64151 0.99981737 -0.012134701 6.4207183e-005 0.0058079795 6.7499233e-005 0.0058606998 0.99958771 -0.011496432
179935849.0566 0.9999162 -0.012400359 8.2118553e-005 0.0061841356 7.3953066e-005 0.0062203552 0.99950349 -0.011909992
189932075.4717 0.99998224 -0.013238937 9.1267517e-005 0.006507081 0.00010306062 0.0065461332 0.99971998 -0.012497604
199928301.88679 0.9999364 -0.014067352 8.2914252e-005 0.0068413783 9.3309442e-005 0.0068920609 0.99957293 -0.013375789
209924528.30189 0.99971008 -0.014716148 0.00010367623 0.0071645458 0.00010510848 0.0072266534 0.99936199 -0.014180884
219920754.71698 0.99971449 -0.015682608 0.00013692793 0.0075033014 0.00012812298 0.007583403 0.99922377 -0.014855146
229916981.13208 0.99945217 -0.016493946 0.00015204865 0.007863652 0.0001238191 0.0079174396 0.99912488 -0.015655667
239913207.54717 0.9993974 -0.017158341 0.00013208322 0.0081890915 0.00015984901 0.0082725063 0.99908817 -0.016327292
249909433.96226 0.9994216 -0.017794222 0.00013752282 0.0085214693 0.00012485636 0.0086087454 0.99919999 -0.016977161
259905660.37736 0.99954015 -0.0183568 0.00014043692 0.0088428985 0.00014359318 0.0089314915 0.99950874 -0.017565817
269901886.79245 0.99966681 -0.019076869 0.00017931336 0.0092391353 0.00016875472 0.0093059121 0.99976361 -0.018328696
279898113.20755 0.99976337 -0.019780502 0.00013726251 0.0096297758 0.00021956232 0.0095991725 0.99954605 -0.019022599
289894339.62264 0.99967813 -0.020503193 0.00018553343 0.0098953079 0.00018546451 0.010001937 0.99950659 -0.019805014
299890566.03774 0.9996469 -0.021046281 0.0002430696 0.010308641 0.00022339891 0.010359884 0.99925613 -0.020288229
309886792.45283 0.99943537 -0.021641612 0.00024941703 0.010598681 0.00023649062 0.01071554 0.9990927 -0.020822093
319883018.86792 0.99939692 -0.022218078 0.00024431711 0.010947301 0.00028764736 0.01106203 0.99916959 -0.021214634
329879245.28302 0.99934107 -0.022916198 0.00025543896 0.011259412 0.00027176132 0.011348032 0.99929798 -0.022029221
339875471.69811 0.99928987 -0.023709819 0.00030944461 0.011621774 0.00024497858 0.011662847 0.99926507 -0.022803046
349871698.11321 0.99945325 -0.024579614 0.00031833374 0.011990348 0.00032186625 0.012048811 0.99928951 -0.02372393
359867924.5283 0.99933845 -0.025439978 0.00029514637 0.012320999 0.00035725487 0.012397597 0.99916327 -0.024612933
369864150.9434 0.99958795 -0.026161909 0.00033713202 0.012623531 0.00037862686 0.012737179 0.99919552 -0.025413245
379860377.35849 0.99943143 -0.026993543 0.00034185662 0.012942061 0.00036839233 0.01311929 0.9991371 -0.026076108
389856603.77358 0.99933112 -0.027551591 0.00036892528 0.013320116 0.00036779838 0.013434381 0.99909878 -0.02653864
399852830.18868 0.99914503 -0.028165132 0.00042090425 0.013659511 0.00041606743 0.013754192 0.99914193 -0.027011544
409849056.60377 0.99909699 -0.028585741 0.00042865053 0.013951938 0.00042314845 0.014099641 0.99916941 -0.027502475
419845283.01887 0.99910426 -0.029089242 0.00045051705 0.014337862 0.00041403389 0.014426565 0.99924648 -0.028013229
429841509.43396 0.99924946 -0.029659599 0.00047219545 0.014663949 0.00046019023 0.014798526 0.99942303 -0.028922379
439837735.84906 0.9990508 -0.030572996 0.0004356812 0.015024671 0.00048280484 0.015099265 0.99925321 -0.029825479
449833962.26415 0.99904352 -0.03147164 0.00048810709 0.015314465 0.0005000988 0.015471472 0.99889904 -0.030638754
459830188.67925 0.99887288 -0.032190382 0.00049762102 0.015651254 0.00049398607 0.015786994 0.99872208 -0.031439543
469826415.09434 0.99882281 -0.033079147 0.00050731516 0.016015148 0.00050947024 0.016149977 0.99848163 -0.032083184
479822641.50943 0.99879277 -0.033679485 0.00055839517 0.016375864 0.00052643148 0.016501721 0.99850917 -0.032536589
489818867.92453 0.99887198 -0.03413257 0.00059246179 0.0167199 0.0005654972 0.016871069 0.99878424 -0.033132732
499815094.33962 0.99896169 -0.034733176 0.00057164812 0.01704403 0.00059230579 0.017184753 0.99912822 -0.033708394
509811320.75472 0.999066 -0.035159577 0.00059713249 0.017336033 0.00058551406 0.0175166 0.99921316 -0.034589112
519807547.16981 0.9990229 -0.035797238 0.00060962699 0.017748155 0.0006343564 0.017910279 0.99929047 -0.035365701
529803773.58491 0.99890554 -0.036434203 0.00068585668 0.018079385 0.00066869706 0.018196998 0.99889338 -0.036025882
539800000 0.99889141 -0.03712596 0.00069660484 0.018379847 0.00062117516 0.01860667 0.99873382 -0.036717594
549796226.41509 0.99876118 -0.038110495 0.000681879 0.018762361 0.00072053168 0.018885931 0.99852705 -0.037238717
559792452.83019 0.99856579 -0.038778305 0.00073650386 0.019109268 0.00068625994 0.019260161 0.99844056 -0.03763029
569788679.24528 0.99830496 -0.039407969 0.00074469252 0.019409908 0.00071168924 0.019564381 0.99860543 -0.038428366
579784905.66038 0.99832988 -0.040005185 0.00080837344 0.019788535 0.00078143517 0.019949017 0.99875242 -0.039209165
589781132.07547 0.99842536 -0.040750474 0.00081956573 0.020169532 0.00079218205 0.020306859 0.99882853 -0.040123671
599777358.49057 0.99861336 -0.041309416 0.00087752286 0.020485086 0.00081248395 0.020625589 0.99887317 -0.040976733
609773584.90566 0.99873149 -0.042130105 0.00089502888 0.020824939 0.00089963409 0.020932602 0.99867731 -0.041762747
619769811.32075 0.99881959 -0.042832792 0.00095146755 0.021163825 0.00093820784 0.021281783 0.9986257 -0.042349964
629766037.73585 0.99864799 -0.04346773 0.00098881125 0.021422803 0.00095363427 0.021635069 0.99839741 -0.042880356
639762264.15094 0.99838859 -0.044187307 0.00098252087 0.021755077 0.00096775428 0.021946497 0.99825293 -0.043301553
649758490.56604 0.99829721 -0.044743225 0.00099180359 0.022101115 0.00098336767 0.022271445 0.99827254 -0.043769836
659754716.98113 0.99805743 -0.045209557 0.0010093497 0.022452813 0.0010059485 0.022654461 0.99830604 -0.044471145
669750943.39623 0.99821866 -0.04575485 0.001043323 0.022818848 0.0010055196 0.022965914 0.99848461 -0.045168787
679747169.81132 0.99817246 -0.046482548 0.0010585872 0.023175547 0.0010525873 0.0233777 0.99835479 -0.046181172
689743396.22642 0.9983139 -0.047359616 0.0011092117 0.023524715 0.0011212835 0.023705 0.99824536 -0.047126383
699739622.64151 0.99845064 -0.048153102 0.0011577643 0.023827694 0.0011690771 0.024031041 0.99814725 -0.047868937
709735849.0566 0.99836934 -0.04907351 0.0012283756 0.024163431 0.0011865828 0.024378084 0.99786341 -0.048442878
719732075.4717 0.99822092 -0.049748182 0.0012319791 0.024502095 0.0012501613 0.024698559 0.99791378 -0.048926681
729728301.88679 0.99816334 -0.050366014 0.0012790589 0.024807997 0.0012812857 0.0250374 0.99808919 -0.049495459
739724528.30189 0.99806178 -0.05096224 0.0013423497 0.025138009 0.0013093837 0.025366731 0.99818957 -0.05014278
749720754.71698 0.99800795 -0.051532283 0.0013578716 0.025478622 0.0013600164 0.025682824 0.99824059 -0.050887764
759716981.13208 0.99799353 -0.051984519 0.0013571167 0.025802987 0.0013562553 0.026044887 0.99816096 -0.051708966
769713207.54717 0.99793708 -0.052732378 0.0013981685 0.026138339 0.0013946807 0.026342534 0.99789166 -0.052424908
779709433.96226 0.99811715 -0.053362347 0.0014489258 0.026478078 0.0014059256 0.026699184 0.99763823 -0.053045269
789705660.37736 0.99796975 -0.054344773 0.0014759824 0.026794188 0.0014788369 0.027010491 0.99745345 -0.053830355
799701886.79245 0.99796188 -0.055181563 0.0015034582 0.027116291 0.001535275 0.027331352 0.99727654 -0.054406077
809698113.20755 0.99787909 -0.055797562 0.001532994 0.027456794 0.0015023721 0.027680354 0.99735057 -0.054853141
819694339.62264 0.99775028 -0.056484371 0.0015547578 0.027779022 0.0015306845 0.028017677 0.99748296 -0.055501342
829690566.03774 0.99771941 -0.057047218 0.0015805028 0.028131718 0.0016058683 0.028370921 0.99774057 -0.056390971
839686792.45283 0.9978044 -0.057546914 0.0015922701 0.028447192 0.0016284855 0.028709829 0.99777389 -0.057228297
849683018.86792 0.99793959 -0.058119565 0.0016391862 0.028810306 0.0016699373 0.029042423 0.99769312 -0.058005773
859679245.28302 0.9978869 -0.058900416 0.0016911346 0.029128473 0.0017062025 0.029368259 0.99735439 -0.058673948
869675471.69811 0.9977982 -0.05964008 0.0017269347 0.029455392 0.0017521977 0.029700417 0.99699724 -0.059151798
879671698.11321 0.99770713 -0.060412064 0.0017810203 0.029780697 0.0017746359 0.030032255 0.99708825 -0.059628211
889667924.5283 0.99748135 -0.06122914 0.0017913813 0.030099446 0.0017696051 0.030347662 0.99689037 -0.060151041
899664150.9434 0.99729311 -0.061855495 0.0018223478 0.030431446 0.0018334165 0.03067176 0.99691468 -0.060749829
909660377.35849 0.99732214 -0.062591434 0.001844706 0.030775243 0.001854924 0.031016108 0.99707997 -0.061700031
919656603.77358 0.99738914 -0.063266829 0.0018876381 0.031068902 0.0019019148 0.031366888 0.99708873 -0.062620163
929652830.18868 0.99740702 -0.063999742 0.0019042017 0.031375267 0.0019180132 0.031651318 0.99694073 -0.063506544
939649056.60377 0.99755555 -0.064688653 0.0019313637 0.031724375 0.0019471264 0.031993445 0.99676061 -0.064270437
949645283.01887 0.99751031 -0.06553968 0.0019127678 0.032091398 0.0019504938 0.032362193 0.99652708 -0.064791009
959641509.43396 0.99740279 -0.066180527 0.0019614324 0.032455958 0.0020188401 0.032719467 0.99643904 -0.065306902
969637735.84906 0.99728721 -0.066935718 0.0020083161 0.032792859 0.0020640064 0.033079438 0.99643141 -0.065672576
979633962.26415 0.99719536 -0.067684695 0.0020994018 0.033105131 0.0021142438 0.033407297 0.99646473 -0.066372633
989630188.67925 0.99715424 -0.068250388 0.0021220464 0.033443153 0.0021396736 0.033749949 0.99666548 -0.066936821
999626415.09434 0.997208 -0.068851173 0.0021214746 0.033792131 0.0021604914 0.03409183 0.99659753 -0.067839354
1009622641.5094 0.99723721 -0.069453388 0.0021791942 0.034115851 0.0022384943 0.034457553 0.99639356 -0.068704531
1019618867.9245 0.99735987 -0.070347011 0.0022572791 0.034464553 0.0022888994 0.03475171 0.9961893 -0.069593608
1029615094.3396 0.99727857 -0.071302265 0.0022611469 0.034793999 0.0023667049 0.035084821 0.99582255 -0.070152283
1039611320.7547 0.9972682 -0.072179437 0.0023359377 0.03510322 0.0023604743 0.035396598 0.99570882 -0.07080248
1049607547.1698 0.99719101 -0.073131323 0.0023613644 0.03537802 0.0023934718 0.035746079 0.99572688 -0.071417421
1059603773.5849 0.99706793 -0.07382679 0.0023996783 0.035729565 0.0024431236 0.03604405 0.99572057 -0.071976274
1069600000 0.9968617 -0.074436337 0.0023810863 0.036025248 0.0024596527 0.036362529 0.99592149 -0.07270664
1079596226.4151 0.99669445 -0.075116724 0.0024107927 0.0363448 0.0024820757 0.036703564 0.99592096 -0.073528223
1089592452.8302 0.99682552 -0.075776964 0.0024468265 0.036724273 0.0025293818 0.037057273 0.99579203 -0.074288636
1099588679.2453 0.99687541 -0.076419383 0.0024490654 0.037044935 0.0025366992 0.037426434 0.99547422 -0.074890822
1109584905.6604 0.99700165 -0.077218994 0.0024975464 0.037393942 0.0025483891 0.037728406 0.99517989 -0.075421289
1119581132.0755 0.99692315 -0.078282289 0.0025223559 0.03775752 0.0025955467 0.038088452 0.99498838 -0.075817496
1129577358.4906 0.99681544 -0.079108387 0.0025363117 0.038094729 0.0026295055 0.038478095 0.99487817 -0.076292306
1139573584.9057 0.99644405 -0.079999298 0.0025888188 0.038409919 0.0026968988 0.038813584 0.99499321 -0.077046722
1149569811.3208 0.9963361 -0.080886349 0.0026653414 0.038799774 0.0027354143 0.03915944 0.99515522 -0.077790454
1159566037.7358 0.99614102 -0.081595421 0.0027157729 0.039080873 0.0027755015 0.039461583 0.99519563 -0.078831613
1169562264.1509 0.99598086 -0.082194328 0.0026796423 0.039407469 0.0027807578 0.039770212 0.995 -0.079661012
1179558490.566 0.99602026 -0.08294493 0.0027204757 0.039824642 0.0028443127 0.040161517 0.99484766 -0.080370612
1189554716.9811 0.99588472 -0.083700687 0.0027873591 0.040143277 0.0028890306 0.040486768 0.99467015 -0.08084631
1199550943.3962 0.99581158 -0.084516108 0.0028135087 0.040491521 0.0029589813 0.040825471 0.9943682 -0.081287503
1209547169.8113 0.99567014 -0.085465178 0.0028553866 0.040837351 0.002972153 0.041183602 0.99434274 -0.081633866
1219543396.2264 0.99547762 -0.086271554 0.0028880425 0.041239321 0.0030169589 0.041565843 0.99439704 -0.082012594
1229539622.6415 0.99523193 -0.087058455 0.0029848926 0.04152957 0.0031051785 0.041888453 0.99454761 -0.082788169
1239535849.0566 0.99479693 -0.087873518 0.0030639498 0.041866466 0.0031910352 0.042225908 0.9946214 -0.083775491
1249532075.4717 0.99456799 -0.088489071 0.003088888 0.042204984 0.0032476871 0.042527352 0.99444705 -0.084547982
1259528301.8868 0.99442291 -0.088985056 0.0031816158 0.042530671 0.0033181552 0.042845495 0.99419379 -0.085466862
1269524528.3019 0.99420536 -0.089703709 0.0032297615 0.042860925 0.003375316 0.043165818 0.99396312 -0.086127281
1279520754.717 0.99383211 -0.090465792 0.0032989313 0.043129012 0.003415219 0.043439642 0.99367571 -0.086702429
1289516981.1321 0.99377102 -0.091287732 0.0032984233 0.043454286 0.0034336755 0.043752562 0.99379599 -0.087056458
1299513207.5472 0.99335718 -0.092278749 0.0033194087 0.043789327 0.0034697186 0.044091985 0.99387342 -0.087565184
1309509433.9623 0.99286807 -0.092857525 0.0033503827 0.044087816 0.0034452863 0.044392928 0.99398154 -0.088268891
1319505660.3774 0.99258369 -0.09362644 0.0033031236 0.044393897 0.0035034576 0.044728689 0.99404734 -0.088920951
1329501886.7925 0.99224061 -0.09426564 0.0033776518 0.044749126 0.0035289768 0.045055203 0.99399173 -0.089959532
1339498113.2075 0.99197656 -0.094720393 0.0033814209 0.045082789 0.0035410477 0.045388348 0.99355716 -0.090649396
1349494339.6226 0.99176961 -0.095315449 0.0033621318 0.045434784 0.0035361 0.045722194 0.99316442 -0.091246784
1359490566.0377 0.99175251 -0.095916778 0.0033897031 0.045808747 0.0035316776 0.046100676 0.99302453 -0.091755629
1369486792.4528 0.99148667 -0.09659639 0.0034292787 0.046177633 0.0035530552 0.046447586 0.99276501 -0.092188835
1379483018.8679 0.99117839 -0.097125389 0.0034388977 0.046558108 0.003593178 0.046816759 0.99273103 -0.092591539
1389479245.283 0.99081707 -0.097672492 0.003515793 0.046927616 0.0035857726 0.047200024 0.99276847 -0.093287647
1399475471.6981 0.99038506 -0.097988814 0.0035012569 0.047307219 0.0035737976 0.047569461 0.99295771 -0.09390673
1409471698.1132 0.99007928 -0.098398857 0.0035726293 0.047683451 0.0036427192 0.047983706 0.99302751 -0.094799682
1419467924.5283 0.98987234 -0.098647416 0.0035371669 0.048064586 0.0036644703 0.048355855 0.99278873 -0.095527798
1429464150.9434 0.98975968 -0.099065274 0.0036505964 0.048491344 0.0037283879 0.048729766 0.99269164 -0.096103221
1439460377.3585 0.98986191 -0.099561766 0.0037182281 0.048930787 0.0038176905 0.049166951 0.99244142 -0.096515164
1449456603.7736 0.98993891 -0.10005045 0.0038472423 0.04931194 0.0039278688 0.049613047 0.99225414 -0.096858338
1459452830.1887 0.9899174 -0.10079008 0.0040082633 0.049741901 0.0039804745 0.049975954 0.99239838 -0.097065508
1469449056.6038 0.98997283 -0.10153133 0.0041118553 0.050106257 0.0041355314 0.05037066 0.99268687 -0.097812831
1479445283.0189 0.98988736 -0.10223076 0.0042667831 0.05039807 0.004286875 0.050705433 0.99264967 -0.098805144
1489441509.434 0.98963791 -0.10266986 0.0043869857 0.050720409 0.0044272617 0.050996058 0.9925245 -0.099653244
1499437735.8491 0.98944783 -0.10303885 0.0044940375 0.050999977 0.0045418758 0.051259875 0.99244964 -0.10048875
1509433962.2642 0.98956162 -0.10351209 0.0045881788 0.051282682 0.0045955162 0.051565569 0.99226981 -0.10118122
1519430188.6792 0.98956239 -0.10406065 0.0046544578 0.051562101 0.0046828389 0.05184786 0.99211526 -0.1017459
1529426415.0943 0.9895761 -0.10477966 0.0047082193 0.051854908 0.0047113821 0.052140765 0.99207634 -0.10210624
1539422641.5094 0.98964912 -0.10557159 0.0047969581 0.052190736 0.0047994596 0.05246304 0.99212694 -0.10267973
1549418867.9245 0.9894039 -0.10643174 0.0048740003 0.052438159 0.0048626764 0.052734278 0.992374 -0.10331702
1559415094.3396 0.98940051 -0.10707235 0.004908707 0.052743591 0.0048936922 0.053064253 0.99250603 -0.10411707
1569411320.7547 0.98921496 -0.10787198 0.0049310522 0.052998006 0.0049022483 0.053315837 0.99234599 -0.10493053
1579407547.1698 0.98917699 -0.10832015 0.0049471082 0.053313866 0.0049903356 0.053678483 0.99202555 -0.10573395
1589403773.5849 0.98907733 -0.10883388 0.0049588792 0.053593092 0.0049787797 0.053964317 0.99172854 -0.10649964
1599400000 0.98908389 -0.1093654 0.0049614366 0.053946815 0.0049462728 0.054271165 0.99139917 -0.1068542
1609396226.4151 0.98897564 -0.11005959 0.0049733738 0.054243475 0.0049237497 0.054596551 0.99120188 -0.10745901
1619392452.8302 0.98899865 -0.11061537 0.0050210077 0.054611996 0.0049392954 0.054948375 0.99120212 -0.10789913
1629388679.2453 0.98880124 -0.1113683 0.0049836654 0.054947935 0.0049917828 0.055336658 0.99141628 -0.10847077
1639384905.6604 0.98847091 -0.1120747 0.0050100088 0.05528738 0.0049840123 0.055727024 0.9916364 -0.10923966
1649381132.0755 0.98819023 -0.11272588 0.0050059557 0.055658888 0.0050234739 0.056088202 0.99163884 -0.11024684
1659377358.4906 0.98810828 -0.11356145 0.0050472207 0.05606667 0.005038444 0.056486052 0.99158168 -0.11113796
1669373584.9057 0.98801976 -0.11392955 0.005073844 0.056481246 0.0050784475 0.056854099 0.99120843 -0.11176305
1679369811.3208 0.98813069 -0.1146282 0.0051144883 0.056816872 0.0051627513 0.057286285 0.9909941 -0.11231428
1689366037.7358 0.98812836 -0.11526868 0.0052248463 0.057182804 0.0051284656 0.057610668 0.99083972 -0.1125223
1699362264.1509 0.9882279 -0.11598539 0.00524888 0.057594992 0.0052254526 0.058057889 0.99102384 -0.11301322
1709358490.566 0.9881705 -0.11653531 0.0053162454 0.057965938 0.0052873874 0.058404811 0.99101704 -0.11357929
1719354716.9811 0.9878 -0.11725718 0.0053766761 0.058332961 0.005379593 0.058805481 0.9911077 -0.11431673
1729350943.3962 0.98753834 -0.1178107 0.0054841265 0.058771931 0.005462043 0.059195425 0.9911207 -0.11522156
