!Keysight Technologies,N5222B,MY61253708,A.15.00.15
!Date: Wednesday, June 19, 2024 09:09:36
!Correction: S11(C  2-Port  ) 
!S21(C  2-Port  ) 
!S12(C  2-Port  ) 
!S22(C  2-Port  ) 
!S2P File: Measurements: S11, S21, S12, S22:
# Hz S  RI   R 50
10000000 0.99868226 -0.0018523633 -0.0002327142 0.00074811245 -2.9470539e-007 0.00094410096 0.99891591 -0.00097504258
19996226.415094 0.99906433 -0.0021436512 0.0001035535 0.0005380428 9.7684795e-005 0.00056494877 0.99918032 -0.0021160543
29992452.830189 0.99986064 -0.0025432408 1.2267556e-006 0.0010611734 -1.7340062e-005 0.0010426665 0.99953055 -0.0026863217
39988679.245283 1.0000775 -0.0030969679 8.9031673e-006 0.0013617298 -5.4937744e-005 0.001413737 0.99961287 -0.0031123012
49984905.660377 1.0001513 -0.0038712323 -2.5860092e-005 0.0017090064 -2.6525871e-005 0.001784031 0.99981654 -0.0037942529
59981132.075472 1.0003761 -0.0047313869 9.0072281e-006 0.0020638495 2.5644724e-005 0.002093486 0.99978542 -0.0043498278
69977358.490566 1.0001367 -0.0052241515 3.1375312e-005 0.002424286 -1.3991921e-006 0.0024436917 0.99959171 -0.0048508253
79973584.90566 0.99989003 -0.0058817863 -1.7277198e-006 0.002701934 1.4876248e-005 0.0027943854 0.99937099 -0.0053460002
89969811.320755 0.99986804 -0.0060487092 1.4442718e-005 0.0031347303 3.0891504e-005 0.0031363 0.99951166 -0.0056728721
99966037.735849 1.0001249 -0.0067523867 2.4713168e-005 0.00343768 1.3987825e-005 0.0034854591 0.99958891 -0.0064868629
109962264.15094 1.0000997 -0.0077263564 2.7461676e-005 0.0038076253 3.8355356e-005 0.0038364886 0.99959517 -0.0073223114
119958490.56604 1.0001804 -0.0087350607 3.8848026e-005 0.0041398373 2.2174558e-005 0.0041913376 0.99964452 -0.0082796216
129954716.98113 1.0001217 -0.0097384751 3.6777928e-005 0.0045005656 5.4413453e-005 0.0045290622 0.99961704 -0.0091947913
139950943.39623 1.0000432 -0.010593669 4.5702283e-005 0.0048451396 4.5278663e-005 0.0048554004 0.99951184 -0.0099685229
149947169.81132 0.9998666 -0.011282206 5.2170362e-005 0.005187958 5.9613725e-005 0.0052180383 0.99945182 -0.010569811
159943396.22642 0.9998154 -0.011791199 6.4477557e-005 0.0055331066 5.5033946e-005 0.005568251 0.99953353 -0.011042953
169939622.64151 0.9998678 -0.012203641 7.3367788e-005 0.0058755768 6.8265828e-005 0.0059202784 0.99959797 -0.011487179
179935849.0566 0.99992073 -0.012494206 6.6159177e-005 0.0062095802 5.0893403e-005 0.0062832609 0.99950618 -0.011891276
189932075.4717 1.0000377 -0.013207018 7.7449949e-005 0.0065701762 9.2167407e-005 0.0066358261 0.99974191 -0.012517452
199928301.88679 0.99997318 -0.014109939 9.2814444e-005 0.0069221593 0.00012398581 0.0069698957 0.99958926 -0.013413012
209924528.30189 0.99977589 -0.014861315 0.00012507814 0.0072355373 0.00011542486 0.0073283254 0.99938977 -0.014140218
219920754.71698 0.99979806 -0.015730768 0.0001121629 0.0075977519 0.00014358014 0.0076529868 0.99921644 -0.014880061
229916981.13208 0.99946773 -0.016541541 0.00012053852 0.0079477672 0.00013951585 0.0079962602 0.99913752 -0.015659243
239913207.54717 0.99936801 -0.01720291 0.00011901055 0.0082764775 0.00014493709 0.008355937 0.99909502 -0.01637608
249909433.96226 0.99933153 -0.017845154 0.00013552723 0.0086230999 0.00014941767 0.0087006632 0.99925339 -0.016988903
259905660.37736 0.99944937 -0.018458396 0.00017395848 0.0089692716 0.00020904373 0.0090507325 0.99938524 -0.017675638
269901886.79245 0.99969977 -0.019219697 0.00019279332 0.0093371049 0.00016307924 0.0093833813 0.99979949 -0.018282056
279898113.20755 0.99971253 -0.01976575 0.00018854626 0.0096547473 0.00017469865 0.0097669456 0.99961799 -0.019071415
289894339.62264 0.99967939 -0.020553917 0.00016268948 0.010036277 0.00020971894 0.010105818 0.99955714 -0.019926667
299890566.03774 0.99968016 -0.021168768 0.00019658264 0.010388428 0.00021472503 0.010447213 0.99928033 -0.02031371
309886792.45283 0.99943405 -0.021758661 0.00027852342 0.010681542 0.00029515359 0.010837236 0.99903554 -0.020836502
319883018.86792 0.99930513 -0.022374839 0.00028857356 0.011019876 0.00027711503 0.01115747 0.99921507 -0.021312594
329879245.28302 0.99943447 -0.023089379 0.00027924962 0.011363888 0.00027164724 0.011438586 0.9992671 -0.022033423
339875471.69811 0.99925399 -0.023759365 0.00026037032 0.01170083 0.0002836145 0.011840206 0.99922627 -0.022889353
349871698.11321 0.99943149 -0.024661988 0.00032465463 0.012037267 0.00030952622 0.012151667 0.99923509 -0.023815334
359867924.5283 0.99921715 -0.025568306 0.00033517554 0.012432571 0.00034127198 0.012535555 0.99927747 -0.02476576
369864150.9434 0.99946195 -0.026327014 0.00034819567 0.012807271 0.00035093259 0.01286018 0.99924529 -0.025482297
379860377.35849 0.99945354 -0.027074218 0.00038699107 0.01313287 0.00036314107 0.013208234 0.99917054 -0.026221991
389856603.77358 0.99924624 -0.027577698 0.00039454689 0.013461858 0.00040076999 0.0135615 0.99908614 -0.026660264
399852830.18868 0.99919695 -0.028319627 0.00041043572 0.013811686 0.00037289504 0.013871811 0.99916035 -0.027072698
409849056.60377 0.99910873 -0.028686272 0.00042777468 0.01410122 0.00036748344 0.014215618 0.99924284 -0.027569033
419845283.01887 0.9990564 -0.029138446 0.00042522373 0.014496909 0.00044431211 0.014586048 0.99925745 -0.028103739
429841509.43396 0.99912477 -0.029853195 0.00043193111 0.014820339 0.00047620526 0.014915078 0.9994514 -0.028949529
439837735.84906 0.99913675 -0.030756652 0.00049124984 0.015169988 0.00049456477 0.015310192 0.99927366 -0.029944777
449833962.26415 0.99897677 -0.03160122 0.0005071531 0.015493684 0.00051014777 0.01559357 0.99887049 -0.03081426
459830188.67925 0.99885523 -0.032429546 0.000472466 0.01583223 0.00052122958 0.015965011 0.9986555 -0.031609297
469826415.09434 0.99879074 -0.033278912 0.00051927008 0.016162831 0.00050625764 0.016316753 0.99842477 -0.032189041
479822641.50943 0.99862391 -0.033816867 0.00051038899 0.016536996 0.00056237774 0.016654529 0.99848628 -0.032644279
489818867.92453 0.99880093 -0.034370631 0.00057285186 0.01687699 0.00062236236 0.017035523 0.9988808 -0.033277571
499815094.33962 0.998873 -0.035087258 0.00060511706 0.017206157 0.00061075762 0.017363092 0.99909985 -0.03390491
509811320.75472 0.99895906 -0.035415486 0.00063543901 0.01754964 0.00064593885 0.017669145 0.99925333 -0.034788519
519807547.16981 0.9989385 -0.036057562 0.00064184889 0.01791882 0.00068242429 0.018029856 0.99922407 -0.035598099
529803773.58491 0.99881148 -0.036616981 0.00061722007 0.018260112 0.00068126526 0.018379401 0.99903107 -0.036115646
539800000 0.99896812 -0.037440464 0.00069544301 0.018605072 0.00072637922 0.01875289 0.99876088 -0.036893189
549796226.41509 0.9986766 -0.038151801 0.00067739701 0.018920714 0.00074190507 0.019111795 0.99857378 -0.037299961
559792452.83019 0.99842232 -0.039040834 0.00074626785 0.019282527 0.00073372666 0.019406704 0.99845648 -0.037891656
569788679.24528 0.99831653 -0.0396806 0.00075573567 0.019638859 0.00074856123 0.01978321 0.99857289 -0.038623601
579784905.66038 0.99828404 -0.040286094 0.00080353103 0.019975414 0.00078070606 0.020157168 0.99869424 -0.039357617
589781132.07547 0.99848348 -0.040921926 0.00082784891 0.020289319 0.00081380643 0.020456413 0.99883807 -0.040283173
599777358.49057 0.99861681 -0.041590154 0.00086829904 0.020683514 0.00088022556 0.020844419 0.99892545 -0.041187793
609773584.90566 0.99863362 -0.042429693 0.00091798039 0.02102096 0.00091791316 0.021191208 0.99863082 -0.042038906
619769811.32075 0.99876285 -0.043120205 0.00099493936 0.021333106 0.00097834039 0.02150354 0.99859589 -0.042598039
629766037.73585 0.99863839 -0.043779671 0.0010068342 0.021674842 0.00099842343 0.021840286 0.99838638 -0.043073863
639762264.15094 0.99838209 -0.044431731 0.0010010633 0.021987865 0.00099426159 0.022165844 0.99821389 -0.043564484
649758490.56604 0.9982208 -0.045048103 0.0010339296 0.022311242 0.0010194457 0.022524066 0.99833971 -0.043988883
659754716.98113 0.99810958 -0.045578927 0.0010353876 0.022657488 0.0010293834 0.022875819 0.99837589 -0.04456678
669750943.39623 0.99814445 -0.046027124 0.0010699728 0.023014953 0.001029877 0.023229193 0.99845386 -0.045422375
679747169.81132 0.9981752 -0.046807252 0.0010872264 0.023415407 0.0011162073 0.023592342 0.99833101 -0.046406589
689743396.22642 0.9982667 -0.047643334 0.0011710254 0.023767216 0.0011446141 0.023914207 0.9981451 -0.047403634
699739622.64151 0.99842125 -0.048484594 0.0011984967 0.024079721 0.0011657551 0.024286009 0.99810493 -0.048092782
709735849.0566 0.99838918 -0.049395509 0.0012593339 0.024408448 0.0011987999 0.024574094 0.99785173 -0.048727944
719732075.4717 0.99833697 -0.05010727 0.0012547942 0.024745269 0.0012430237 0.024936808 0.99791902 -0.049226582
729728301.88679 0.99809146 -0.050639927 0.0012926394 0.025039811 0.0013324609 0.025241818 0.99802428 -0.049674362
739724528.30189 0.99801064 -0.051253647 0.0013250178 0.025428552 0.0013207709 0.025586497 0.99819648 -0.050396606
749720754.71698 0.99784362 -0.051822975 0.0013646842 0.025730202 0.0013793251 0.025961217 0.99817401 -0.051117301
759716981.13208 0.99796551 -0.052262843 0.0013990616 0.026067898 0.0014165659 0.026302233 0.99815714 -0.051932245
769713207.54717 0.99794805 -0.053109407 0.0014021341 0.026410423 0.0014254535 0.026614491 0.99793321 -0.052656829
779709433.96226 0.99807763 -0.053744201 0.0014512078 0.026766745 0.0014594519 0.026979685 0.99763012 -0.053348832
789705660.37736 0.99792272 -0.054720461 0.0015241969 0.027101418 0.0014781337 0.027319215 0.99736875 -0.054033518
799701886.79245 0.9978708 -0.055520892 0.0015388643 0.02740249 0.001545785 0.027639546 0.99723637 -0.054579258
809698113.20755 0.99778843 -0.056163996 0.0015633972 0.027740056 0.0015648967 0.027982013 0.99733251 -0.055164784
819694339.62264 0.99762625 -0.056871116 0.0015888377 0.028069247 0.0016295235 0.028290665 0.99748361 -0.055717945
829690566.03774 0.99768835 -0.05741635 0.0016274294 0.028400004 0.001637104 0.02864657 0.99772358 -0.056707859
839686792.45283 0.99770617 -0.057820648 0.0016426714 0.028727405 0.0016629584 0.028948069 0.99780571 -0.057572246
849683018.86792 0.99778503 -0.058536857 0.001645453 0.029096629 0.0016985373 0.029341247 0.99766773 -0.05826325
859679245.28302 0.99785155 -0.059270442 0.0017455285 0.029406901 0.0017619347 0.029671313 0.99738228 -0.059013098
869675471.69811 0.9977631 -0.05997771 0.0017773118 0.029783864 0.001767518 0.030018453 0.99701983 -0.059476465
879671698.11321 0.99765295 -0.060774911 0.0018249028 0.030081056 0.0018133356 0.030321233 0.99703318 -0.059940308
889667924.5283 0.99738574 -0.061589807 0.001859392 0.030377712 0.0018572537 0.030669864 0.99686462 -0.060439646
899664150.9434 0.99725354 -0.062226415 0.0018634852 0.030726478 0.0018728785 0.03097906 0.99696386 -0.061114579
909660377.35849 0.99727398 -0.062928438 0.0018771766 0.031055672 0.0019114302 0.031294342 0.99705923 -0.061955109
919656603.77358 0.99737984 -0.063678592 0.0019370858 0.031393826 0.0019548419 0.031649701 0.99706995 -0.062963545
929652830.18868 0.99734801 -0.064424157 0.0019602282 0.03171327 0.0019864719 0.031980153 0.99690735 -0.063878417
939649056.60377 0.99753523 -0.065127581 0.0019553145 0.032055926 0.0020017764 0.032320477 0.99671561 -0.0646393
949645283.01887 0.99745142 -0.065960914 0.0019729962 0.032411311 0.0019674292 0.032675132 0.9964717 -0.06516362
959641509.43396 0.99735975 -0.066632271 0.0020242138 0.032786548 0.0020154202 0.033073246 0.99639654 -0.065616548
969637735.84906 0.99719989 -0.06729719 0.0020772712 0.033135686 0.0020752745 0.033406891 0.99645495 -0.06605953
979633962.26415 0.99706113 -0.068106592 0.0021386144 0.033449955 0.0021525696 0.03372623 0.99649662 -0.06668745
989630188.67925 0.99711037 -0.068666905 0.0021520769 0.033804487 0.002160986 0.034082808 0.99665564 -0.067365021
999626415.09434 0.99717665 -0.06924054 0.0021980554 0.034134679 0.00221931 0.034431003 0.99652505 -0.068157464
1009622641.5094 0.99722463 -0.069963112 0.0022085914 0.034507476 0.0022341767 0.034791239 0.99643642 -0.069005862
1019618867.9245 0.99722683 -0.070857421 0.0022745933 0.03482376 0.002353983 0.035117913 0.99611074 -0.069961339
1029615094.3396 0.9972654 -0.071795881 0.0023479536 0.035141855 0.0023725349 0.035408136 0.99568367 -0.070523232
1039611320.7547 0.99730301 -0.072737455 0.0023885127 0.035451811 0.0024093892 0.035738025 0.99570596 -0.07122165
1049607547.1698 0.99709469 -0.073621362 0.0024285167 0.035725545 0.0024570969 0.036073536 0.99569988 -0.071793877
1059603773.5849 0.99698848 -0.074256748 0.0024464475 0.036082782 0.002500467 0.036395412 0.99559695 -0.072402626
1069600000 0.99671012 -0.074971169 0.0024628062 0.036378104 0.0025112834 0.036717705 0.99584645 -0.07313174
1079596226.4151 0.99666315 -0.075620197 0.002483028 0.036723088 0.0025350745 0.037062623 0.99581778 -0.073894598
1089592452.8302 0.99668884 -0.076172292 0.0025237398 0.037069939 0.0025870064 0.037414473 0.99575937 -0.074619263
1099588679.2453 0.99682081 -0.076954186 0.0025144257 0.037429735 0.0025654584 0.037784934 0.99537152 -0.075237453
1109584905.6604 0.9969365 -0.077764601 0.002555144 0.037770074 0.0026036864 0.038116869 0.99513471 -0.075839803
1119581132.0755 0.99682885 -0.07871215 0.0025727102 0.038119264 0.0026249611 0.038477391 0.99492079 -0.076249003
1129577358.4906 0.99669063 -0.079595715 0.0026263259 0.038521323 0.0026695523 0.03884659 0.99477237 -0.076717585
1139573584.9057 0.99635208 -0.080473393 0.0026598154 0.038822275 0.0027365573 0.039160844 0.99492323 -0.077392578
1149569811.3208 0.9962675 -0.081369095 0.0027159313 0.039177012 0.0028378791 0.039518971 0.99505478 -0.078198776
1159566037.7358 0.99604732 -0.082041889 0.0027720667 0.039521493 0.0028477982 0.039831579 0.9951669 -0.079285264
1169562264.1509 0.99591613 -0.082703769 0.0027810279 0.03981936 0.0028667655 0.040180068 0.99496269 -0.080060393
1179558490.566 0.99586719 -0.08352083 0.0028209477 0.040200531 0.0029160606 0.040558912 0.99481755 -0.080704927
1189554716.9811 0.99583089 -0.084206462 0.002864372 0.040551066 0.0029527424 0.040877189 0.99452251 -0.081319273
1199550943.3962 0.99577862 -0.085092396 0.0029017553 0.040934458 0.0029931758 0.041224964 0.99433875 -0.081680566
1209547169.8113 0.99560583 -0.086039275 0.002952354 0.041248664 0.0030477056 0.041582279 0.99426889 -0.082124904
1219543396.2264 0.99537015 -0.086805999 0.002971495 0.041622229 0.0031053564 0.041964091 0.99435699 -0.082510561
1229539622.6415 0.99502957 -0.087658405 0.0030496623 0.04193585 0.0031557363 0.04231748 0.99445772 -0.083209187
1239535849.0566 0.99475467 -0.088342071 0.0031328108 0.042276889 0.0032369606 0.042646382 0.99455869 -0.08413887
1249532075.4717 0.99445128 -0.089071527 0.0031528203 0.042616874 0.0033281667 0.042930041 0.99435318 -0.084925771
1259528301.8868 0.99430549 -0.089571089 0.0032159761 0.042962998 0.0033677258 0.043287691 0.99413234 -0.085967839
1269524528.3019 0.99411702 -0.09038192 0.0033120438 0.043272458 0.0034616012 0.043578908 0.99388182 -0.086609066
1279520754.717 0.99372077 -0.091060333 0.0033407542 0.043575183 0.0035322614 0.043877602 0.99358934 -0.087192543
1289516981.1321 0.99362844 -0.091901988 0.0034029474 0.043883715 0.0035202811 0.04417317 0.99365962 -0.087619454
1299513207.5472 0.99328434 -0.092869759 0.0033845417 0.044203319 0.003518803 0.044520609 0.9937914 -0.087966889
1309509433.9623 0.99275529 -0.093461812 0.0034236684 0.044531416 0.0035387836 0.044834077 0.99385124 -0.088795573
1319505660.3774 0.99240303 -0.094203532 0.0034268582 0.044885047 0.0035714144 0.045153849 0.99389273 -0.089408606
1329501886.7925 0.99212146 -0.094789326 0.0034551658 0.045235351 0.0035853982 0.045511574 0.99387729 -0.090411067
1339498113.2075 0.99173701 -0.095394969 0.0034885751 0.045559544 0.0036525214 0.04584235 0.9935047 -0.091206968
1349494339.6226 0.99168903 -0.095921263 0.0034338888 0.045919131 0.0036053169 0.046154108 0.99307388 -0.091779776
1359490566.0377 0.99156141 -0.096597672 0.0034688804 0.046261936 0.003586825 0.046516169 0.99291974 -0.092321992
1369486792.4528 0.99137485 -0.097137094 0.0034904499 0.046644986 0.0036262013 0.046893306 0.99268389 -0.092788815
1379483018.8679 0.9910118 -0.097756214 0.0034819997 0.047026377 0.0036292847 0.047254361 0.99271464 -0.093096934
1389479245.283 0.99072397 -0.098332763 0.0035906229 0.047387838 0.0036697816 0.047653869 0.99270761 -0.093744397
1399475471.6981 0.99031538 -0.098651469 0.0035826471 0.047757279 0.0036603771 0.048025347 0.9928695 -0.094535321
1409471698.1132 0.98993474 -0.09906397 0.0036377746 0.048154801 0.0037354594 0.048454192 0.99288541 -0.095319152
1419467924.5283 0.98974252 -0.099263221 0.0036836378 0.048546039 0.0037895925 0.048780609 0.99262047 -0.096034706
1429464150.9434 0.98957062 -0.099710286 0.0036894344 0.048969999 0.0038076807 0.04919114 0.99255466 -0.096621096
1439460377.3585 0.98977602 -0.10019802 0.0038180687 0.049421217 0.0038752509 0.049675271 0.99232453 -0.096998215
1449456603.7736 0.98966032 -0.1007676 0.0038970411 0.049869101 0.003965701 0.050066687 0.99218571 -0.097342789
1459452830.1887 0.98972023 -0.10156041 0.0040515792 0.050238494 0.0040864963 0.050499506 0.99235737 -0.097703815
1469449056.6038 0.98973775 -0.10227713 0.0042158701 0.050574232 0.0042323116 0.050844952 0.99250025 -0.098352224
1479445283.0189 0.98960167 -0.10292157 0.0043526953 0.050883748 0.0044155791 0.051159937 0.99258065 -0.099367172
1489441509.434 0.98947763 -0.10338017 0.0044960473 0.051236108 0.0045052152 0.051473401 0.99247414 -0.10019752
1499437735.8491 0.9893086 -0.10363007 0.0045827981 0.051490091 0.0046413261 0.051777959 0.99234724 -0.10099909
1509433962.2642 0.98931712 -0.10412809 0.0046874634 0.051777836 0.004722192 0.052061971 0.99213421 -0.10174775
1519430188.6792 0.98943812 -0.10473427 0.0047798175 0.052059419 0.0047766473 0.052363016 0.99197006 -0.1023609
1529426415.0943 0.98939133 -0.10543007 0.0048349984 0.052373655 0.0048096124 0.052639388 0.99192452 -0.10274008
1539422641.5094 0.98948139 -0.10622904 0.004879314 0.052671403 0.0048784232 0.052978203 0.99201834 -0.10324782
1549418867.9245 0.98923564 -0.10708445 0.0049916664 0.052951831 0.0049312003 0.053291507 0.99219441 -0.10391834
1559415094.3396 0.98917365 -0.10782951 0.0050080437 0.053219542 0.0049873572 0.05357258 0.99235761 -0.10467142
1569411320.7547 0.98901314 -0.10859057 0.0050520496 0.05355034 0.0050338395 0.053863987 0.99229878 -0.10544199
1579407547.1698 0.98894024 -0.1090243 0.0050489805 0.053840108 0.0050824806 0.054169212 0.9918921 -0.10634664
1589403773.5849 0.98884118 -0.10964411 0.0050924122 0.054172941 0.0050832946 0.054463446 0.99161994 -0.10698918
1599400000 0.98879838 -0.11002907 0.005128976 0.054452952 0.0050909631 0.054806404 0.99127257 -0.10753801
1609396226.4151 0.98886997 -0.11071217 0.0050776554 0.054823045 0.0050359368 0.055126522 0.99109668 -0.10799427
1619392452.8302 0.98877978 -0.11140704 0.0051193349 0.055130277 0.0050827041 0.055511408 0.99104011 -0.10847351
1629388679.2453 0.98854375 -0.11208841 0.0051309802 0.055476539 0.0051060226 0.055852503 0.99129403 -0.10898253
1639384905.6604 0.98822391 -0.1127563 0.0051179803 0.055870783 0.0050863167 0.056232013 0.99151993 -0.10988328
1649381132.0755 0.98809808 -0.11344853 0.0051725227 0.056194954 0.0051412117 0.056627568 0.99157 -0.11079529
1659377358.4906 0.98793358 -0.11428761 0.0051016584 0.056619607 0.005162565 0.057015333 0.99145144 -0.1116944
1669373584.9057 0.98787856 -0.11467952 0.0052066632 0.057042412 0.0051685893 0.057382539 0.99118012 -0.11238884
1679369811.3208 0.98799121 -0.11537585 0.0052685868 0.057415493 0.0052381288 0.057773542 0.9908762 -0.11291352
1689366037.7358 0.9879654 -0.11608863 0.0052985847 0.057811335 0.0052613243 0.05819897 0.99067324 -0.11323708
1699362264.1509 0.98803616 -0.11660206 0.0054224487 0.05815969 0.0053488696 0.058558006 0.9909209 -0.1137055
1709358490.566 0.98789799 -0.11739756 0.0054478785 0.058508456 0.0054170964 0.059012696 0.99098957 -0.11425318
1719354716.9811 0.98763537 -0.11800957 0.0054831356 0.058912314 0.0055103693 0.05933864 0.99096489 -0.11509535
1729350943.3962 0.98727685 -0.11853641 0.0056280494 0.05932454 0.0055560451 0.059772093 0.99103904 -0.11594194
