!Keysight Technologies,N5222B,MY61253708,A.15.00.15
!Date: Wednesday, June 19, 2024 10:36:08
!Correction: S11(C  2-Port  ) 
!S21(C  2-Port  ) 
!S12(C  2-Port  ) 
!S22(C  2-Port  ) 
!S2P File: Measurements: S11, S21, S12, S22:
# Hz S  RI   R 50
10000000 0.99832541 -0.0031142235 -0.00018866675 0.00029076403 7.0580987e-005 0.00042090283 0.99849546 -0.0019467473
19996226.415094 0.99988472 -0.0022440255 6.7209883e-005 0.00065418018 -1.3277546e-005 0.00072136358 0.9999097 -0.0022464991
29992452.830189 0.99964166 -0.002510339 4.6203902e-005 0.00097386539 -3.6137382e-005 0.00091901916 0.99926513 -0.0027500987
39988679.245283 1.0001681 -0.0029755682 6.4117259e-005 0.0012763677 6.3925545e-005 0.0012921537 0.99965721 -0.0031071454
49984905.660377 1.0002639 -0.0036639571 2.2065127e-005 0.0016339179 5.6681456e-006 0.0016388665 0.99990046 -0.0036263764
59981132.075472 1.0004417 -0.0045168698 5.1862444e-006 0.0019407315 3.1429401e-005 0.0019584757 0.99991375 -0.0042019486
69977358.490566 1.0003092 -0.0051425397 2.3990935e-005 0.0022231548 1.959478e-005 0.0022400799 0.99975836 -0.0047536902
79973584.90566 0.99999034 -0.0056300163 -1.15484e-007 0.0025796685 1.891749e-005 0.00257161 0.99938196 -0.0052303374
89969811.320755 0.99994946 -0.0056569874 8.1746839e-006 0.0029451703 2.4955836e-005 0.0029120008 0.9995892 -0.0053929687
99966037.735849 1.0001774 -0.0064108074 8.338422e-006 0.0032310772 2.5107409e-005 0.0032325392 0.99965554 -0.0061433762
109962264.15094 1.0002451 -0.0073059797 4.4339453e-005 0.0035454815 4.5115477e-005 0.0035594127 0.99967462 -0.006917432
119958490.56604 1.0003165 -0.0081979632 5.2843709e-005 0.0038944092 4.8243674e-005 0.0038892715 0.99972761 -0.0077750087
129954716.98113 1.0002557 -0.009155035 5.2110525e-005 0.0041879849 4.136283e-005 0.004189421 0.99973261 -0.0087028742
139950943.39623 1.0001619 -0.0099752508 3.9441424e-005 0.0045193825 4.6482644e-005 0.0045354138 0.99961907 -0.0094465762
149947169.81132 1.0000083 -0.010623634 5.7140132e-005 0.0048587108 4.910538e-005 0.0048581646 0.99955171 -0.010020226
159943396.22642 0.99995852 -0.011146277 4.7362177e-005 0.0051520197 4.2506261e-005 0.0051830285 0.99962878 -0.010438621
169939622.64151 0.99996459 -0.011450142 7.20924e-005 0.0054813479 5.4779579e-005 0.0055033104 0.99967575 -0.010849878
179935849.0566 1.0000042 -0.011630416 6.3340529e-005 0.0058162636 7.016072e-005 0.0058180536 0.99959856 -0.01119414
189932075.4717 1.0001459 -0.012455046 6.3862186e-005 0.0061240699 9.2016067e-005 0.0061429506 0.99980849 -0.011686921
199928301.88679 1.0000684 -0.013246506 8.9307432e-005 0.006471558 9.8706223e-005 0.0064834389 0.99970162 -0.012599766
209924528.30189 0.9998073 -0.013840139 8.1073958e-005 0.0067864601 8.2509243e-005 0.0067702569 0.99947494 -0.013245583
219920754.71698 0.99999082 -0.014614761 0.00010802969 0.0070994869 0.00010209251 0.0071203434 0.99940991 -0.013857156
229916981.13208 0.9997226 -0.015561432 0.00011586002 0.0074335979 0.00010797754 0.0074564004 0.99937236 -0.014707536
239913207.54717 0.99962568 -0.016186154 0.00013638903 0.0077428287 0.00011392486 0.0077730906 0.9992941 -0.015371002
249909433.96226 0.99961197 -0.016711056 0.00013371836 0.0080541698 0.0001677142 0.008071118 0.99938667 -0.015910447
259905660.37736 0.99970216 -0.017271966 0.00014519412 0.0084441174 0.00015279697 0.0084249098 0.99959677 -0.016455382
269901886.79245 0.99991959 -0.017895132 0.00019095559 0.0086980416 0.00017256499 0.008671239 1.0000482 -0.017176762
279898113.20755 1.0000149 -0.018563807 0.00017071888 0.0090282997 0.0001442756 0.0090261195 0.99982464 -0.01790227
289894339.62264 0.99995673 -0.019406438 0.00018847082 0.0093670338 0.0001634392 0.0093716662 0.99975818 -0.018772215
299890566.03774 0.99990124 -0.019827127 0.0001547439 0.0096721621 0.00020716968 0.0096959528 0.99953485 -0.019156218
309886792.45283 0.99968004 -0.020288885 0.00019014347 0.0099962968 0.00021109957 0.010031711 0.9993645 -0.019590005
319883018.86792 0.99975741 -0.02098155 0.00022130925 0.010341138 0.00023221178 0.01032549 0.99949253 -0.019962847
329879245.28302 0.99970984 -0.021705478 0.00018967642 0.010662708 0.00026232004 0.010632433 0.99960649 -0.020756274
339875471.69811 0.99965096 -0.022532627 0.00024407683 0.010975648 0.00023037742 0.010981639 0.99952644 -0.021534674
349871698.11321 0.99986058 -0.023327589 0.00026247371 0.011289464 0.0002482112 0.011288073 0.99960649 -0.022468477
359867924.5283 0.99965763 -0.024089545 0.00028326921 0.011585712 0.00026593264 0.011658289 0.99950278 -0.023376912
369864150.9434 0.99985754 -0.024927914 0.00032641739 0.011932499 0.0002796466 0.01195474 0.99952686 -0.024104863
379860377.35849 0.99975145 -0.02568908 0.00027121883 0.012250639 0.00029201782 0.012280146 0.99936765 -0.024777502
389856603.77358 0.99960613 -0.026312172 0.00034082588 0.012594209 0.00029555056 0.012586989 0.9993397 -0.025220215
399852830.18868 0.99939001 -0.026936084 0.00031042239 0.012903107 0.0003456343 0.01291649 0.99944431 -0.02563864
409849056.60377 0.99934697 -0.027395997 0.00036301548 0.013220007 0.00032817139 0.013214565 0.9993934 -0.026261732
419845283.01887 0.99921101 -0.027794123 0.00037615793 0.013522904 0.00035308208 0.013572492 0.99941051 -0.026727557
429841509.43396 0.99931479 -0.02839461 0.00039026653 0.013855357 0.00039220415 0.013898291 0.99954867 -0.027523369
439837735.84906 0.99895549 -0.029395804 0.00043117325 0.014189243 0.00040812755 0.014201479 0.99926245 -0.028441533
449833962.26415 0.99887848 -0.030164331 0.00041372981 0.014496456 0.000420033 0.014515848 0.99879861 -0.029221833
459830188.67925 0.99868721 -0.030789614 0.00043836283 0.014812198 0.00044024689 0.014816007 0.99861324 -0.029886425
469826415.09434 0.99856275 -0.031516045 0.00044853659 0.015143071 0.00044818781 0.015164541 0.99834126 -0.030405641
479822641.50943 0.99837697 -0.031998418 0.00045865111 0.015450178 0.00045999582 0.015505533 0.99839783 -0.030796006
489818867.92453 0.99851465 -0.032401204 0.00051469449 0.015782084 0.00050700083 0.015823441 0.99862945 -0.03124848
499815094.33962 0.99853408 -0.03286919 0.00051974226 0.016125994 0.00053683948 0.01612922 0.99893856 -0.031809002
509811320.75472 0.99866503 -0.033272367 0.00054328778 0.016417017 0.00051527843 0.016434858 0.99908674 -0.032558192
519807547.16981 0.99859101 -0.033710033 0.00054601766 0.016735394 0.000534805 0.016755741 0.99910104 -0.033334643
529803773.58491 0.9986378 -0.034259588 0.00056808768 0.017008489 0.00057269773 0.017068371 0.99893475 -0.033801585
539800000 0.99871963 -0.034880802 0.00057009002 0.017377509 0.00056151673 0.017461482 0.99871761 -0.034480721
549796226.41509 0.99861264 -0.035688132 0.00056900969 0.017681817 0.0005803192 0.017737241 0.99859273 -0.034947187
559792452.83019 0.99847996 -0.036356688 0.00060237013 0.018064033 0.00061587989 0.018083837 0.99851751 -0.035372198
569788679.24528 0.99830991 -0.037025362 0.00064586708 0.018354962 0.00062773237 0.018381301 0.99867082 -0.036080033
579784905.66038 0.99836051 -0.037560686 0.00066660671 0.01868283 0.00066572835 0.018746071 0.99879909 -0.036794581
589781132.07547 0.99853915 -0.038130939 0.00070602819 0.019016178 0.00066643301 0.019021621 0.9989773 -0.037659109
599777358.49057 0.99866867 -0.038726032 0.0007283967 0.019299533 0.0007162299 0.019375198 0.99908972 -0.038451105
609773584.90566 0.99880737 -0.039512746 0.00078018126 0.019641921 0.00076881191 0.019684535 0.99887663 -0.039305642
619769811.32075 0.99888384 -0.040178031 0.00080858544 0.019956362 0.00080351485 0.019991171 0.99884868 -0.039816827
629766037.73585 0.99878252 -0.040822238 0.00082710478 0.020264477 0.00080750324 0.020306038 0.99864668 -0.040325314
639762264.15094 0.99859023 -0.041430399 0.00083813281 0.020552253 0.00083644129 0.020601738 0.99847245 -0.04069902
649758490.56604 0.99855751 -0.042042777 0.00084624812 0.020871317 0.00085657369 0.020943256 0.99859798 -0.041165397
659754716.98113 0.99839985 -0.042476982 0.00087772403 0.021192815 0.00084072258 0.021250583 0.99864531 -0.041723222
669750943.39623 0.99847609 -0.042981952 0.000889624 0.021559197 0.00087282015 0.021579811 0.9987548 -0.042515159
679747169.81132 0.99840891 -0.043778166 0.00092425069 0.021884097 0.00091720372 0.021940913 0.99874997 -0.043494701
689743396.22642 0.99869215 -0.044613242 0.00098894723 0.022213031 0.00096156634 0.022239648 0.99853218 -0.044405073
699739622.64151 0.99879742 -0.045380861 0.00098560844 0.022541894 0.0010133125 0.022571392 0.99850655 -0.045174569
709735849.0566 0.99874359 -0.046235919 0.0010182379 0.022834523 0.0010534656 0.022875667 0.99818778 -0.045727879
719732075.4717 0.99864107 -0.046972781 0.0010765106 0.023127565 0.0010870118 0.023182085 0.99831975 -0.04631108
729728301.88679 0.99854261 -0.047536105 0.001092121 0.023473551 0.0011078045 0.023490164 0.99831438 -0.046744555
739724528.30189 0.99845588 -0.048188671 0.0011197901 0.023767881 0.0011222544 0.023822468 0.99857849 -0.0474004
749720754.71698 0.99833816 -0.048693985 0.0011458127 0.02407641 0.0011881385 0.024132576 0.99853474 -0.048121557
759716981.13208 0.99837077 -0.049235463 0.0011904929 0.02439444 0.0011920016 0.024468297 0.99855965 -0.048862994
769713207.54717 0.99830747 -0.049919873 0.0012182081 0.024691107 0.0012377407 0.024765439 0.99821174 -0.04958877
779709433.96226 0.99841231 -0.050513215 0.001256827 0.025035828 0.0012603648 0.025078841 0.99802673 -0.050194718
789705660.37736 0.99817532 -0.051458895 0.0012546582 0.025316549 0.0012910515 0.025372159 0.99770516 -0.050867677
799701886.79245 0.99823827 -0.052216351 0.0012952937 0.025635663 0.0013036365 0.025718167 0.99764442 -0.051439017
809698113.20755 0.99812812 -0.052831069 0.001325862 0.025973845 0.0013025289 0.025997948 0.997733 -0.051863045
819694339.62264 0.99793929 -0.053464174 0.0013535749 0.026246587 0.0013410174 0.026318975 0.99780929 -0.052470267
829690566.03774 0.99790561 -0.054114103 0.0014026305 0.026554849 0.0013801232 0.026629258 0.99803507 -0.053377271
839686792.45283 0.99797016 -0.054429263 0.0013788575 0.026910977 0.0014279271 0.026940683 0.99809664 -0.054193765
849683018.86792 0.99800104 -0.055072986 0.0014301871 0.027229281 0.0014236846 0.027262578 0.99795693 -0.054888815
859679245.28302 0.99801421 -0.055741727 0.0014892314 0.027550464 0.0014753649 0.027588628 0.99767983 -0.055519879
869675471.69811 0.99796677 -0.056514978 0.0015350217 0.02784754 0.0015053339 0.027891614 0.99731517 -0.055975258
879671698.11321 0.99784946 -0.057080004 0.0015647362 0.028137671 0.0015308976 0.028211614 0.99729288 -0.056421101
889667924.5283 0.99771821 -0.057928711 0.0016031573 0.028420681 0.0015704297 0.028496621 0.99714649 -0.056881696
899664150.9434 0.99747992 -0.05859676 0.0015974492 0.028725892 0.001593126 0.028800163 0.99721849 -0.057495862
909660377.35849 0.99750984 -0.059210494 0.0016220128 0.029068857 0.0016179513 0.029147357 0.99735224 -0.058351278
919656603.77358 0.99753124 -0.059827253 0.0016526747 0.029370531 0.0016415506 0.029434294 0.99740541 -0.059186906
929652830.18868 0.99758768 -0.060518593 0.0016792184 0.029660888 0.001676444 0.029741811 0.99724042 -0.060018092
939649056.60377 0.99778032 -0.061092943 0.0016936306 0.029969379 0.0016938904 0.030063041 0.99716854 -0.060734242
949645283.01887 0.99769729 -0.061944906 0.0016510302 0.030309021 0.0016773416 0.030393729 0.99685913 -0.061229583
959641509.43396 0.9977017 -0.062520593 0.0016806778 0.030680496 0.0017323401 0.030746797 0.99680734 -0.061678499
969637735.84906 0.99756467 -0.063309193 0.0017300388 0.031024244 0.0017662719 0.031074133 0.99682438 -0.062025875
979633962.26415 0.9974044 -0.063940041 0.0017939715 0.031319506 0.0018114441 0.031362914 0.99687129 -0.062652417
989630188.67925 0.99740422 -0.064529687 0.0018462613 0.03162263 0.0018603439 0.031679556 0.99708295 -0.063245922
999626415.09434 0.99741548 -0.065171838 0.0018634284 0.031930707 0.0018563922 0.032008 0.99700421 -0.064059347
1009622641.5094 0.9974947 -0.065725878 0.0018731477 0.032232631 0.0019092988 0.032347027 0.99683821 -0.064923018
1019618867.9245 0.99754316 -0.066549301 0.0019505918 0.032580234 0.0019637588 0.032665048 0.99662983 -0.065734014
1029615094.3396 0.99759102 -0.067412913 0.0019967677 0.032854952 0.0020298632 0.032962475 0.99627948 -0.06620121
1039611320.7547 0.99766171 -0.068225414 0.0020410167 0.033142317 0.0020456593 0.033273917 0.9962256 -0.066943228
1049607547.1698 0.99755794 -0.069062233 0.0020340316 0.033446148 0.0020661196 0.033546075 0.99624467 -0.067433104
1059603773.5849 0.99750185 -0.069742799 0.0020839665 0.033758581 0.0021011028 0.033849418 0.99623293 -0.06802851
1069600000 0.9972434 -0.070348442 0.0020747483 0.03404589 0.0021086046 0.034161761 0.99639153 -0.068727463
1079596226.4151 0.99717861 -0.070986181 0.0020825155 0.034364987 0.0021134266 0.034490936 0.99646181 -0.069438241
1089592452.8302 0.9972263 -0.071595609 0.0020908639 0.034687031 0.0021732636 0.03478476 0.99634784 -0.070183665
1099588679.2453 0.99728793 -0.072318822 0.0021323599 0.03501245 0.0021523107 0.035114985 0.99604613 -0.070812166
1109584905.6604 0.99742156 -0.073076531 0.0021721646 0.035357613 0.0021861289 0.035429575 0.99579406 -0.071362272
1119581132.0755 0.99739575 -0.073972851 0.0021692039 0.035653643 0.0022019073 0.035797793 0.9956547 -0.071762025
1129577358.4906 0.99718297 -0.074824214 0.0022063553 0.036052722 0.0022505056 0.036126144 0.99554312 -0.072209388
1139573584.9057 0.99699497 -0.075734407 0.0022494262 0.03633745 0.0023131715 0.036449131 0.99565285 -0.072874248
1149569811.3208 0.99687618 -0.076507613 0.0023141981 0.036671538 0.0023313705 0.036757827 0.995794 -0.073555388
1159566037.7358 0.99669337 -0.077256173 0.0023295032 0.036964994 0.0023897933 0.037096322 0.99591863 -0.07457462
1169562264.1509 0.99656022 -0.077820122 0.0023404006 0.037256345 0.0023867413 0.037354883 0.99573851 -0.075368941
1179558490.566 0.99648547 -0.078487322 0.0023508577 0.037638526 0.0024116863 0.037748493 0.99558085 -0.076082781
1189554716.9811 0.99646324 -0.07921192 0.0023889551 0.037945431 0.0024729595 0.038059406 0.99535406 -0.076524019
1199550943.3962 0.99651015 -0.080115139 0.0024149343 0.038310103 0.0025012344 0.038394973 0.995121 -0.076948971
1209547169.8113 0.99630046 -0.080955729 0.0024806587 0.038620189 0.0025398992 0.038697541 0.99502885 -0.077249229
1219543396.2264 0.99609369 -0.081769809 0.0024995483 0.0389686 0.0025956747 0.039071042 0.99516362 -0.077651024
1229539622.6415 0.99585414 -0.082558513 0.0025778171 0.039284553 0.0026637837 0.039386608 0.9953059 -0.078310877
1239535849.0566 0.99554676 -0.083203048 0.0026321867 0.039569154 0.0027161147 0.039680477 0.99541306 -0.079267472
1249532075.4717 0.99529916 -0.083920151 0.0026639875 0.039905526 0.0027812417 0.040001657 0.99531507 -0.080039717
1259528301.8868 0.99516058 -0.084445536 0.0027272198 0.040208057 0.0028116573 0.040290583 0.99509394 -0.080943406
1269524528.3019 0.99495739 -0.085117251 0.0028010383 0.040509991 0.0029124189 0.040596236 0.99483776 -0.081602454
1279520754.717 0.99466866 -0.085796595 0.0028533216 0.040798079 0.0029238304 0.040843148 0.99455786 -0.082090475
1289516981.1321 0.99453557 -0.086607575 0.0028712805 0.041085273 0.002951921 0.041135628 0.99464965 -0.08249554
1299513207.5472 0.99429333 -0.087404788 0.0028706249 0.041400537 0.002939662 0.041411415 0.99480295 -0.082822353
1309509433.9623 0.993774 -0.088009059 0.0028456021 0.041679561 0.0029705372 0.041747835 0.99492681 -0.083625972
1319505660.3774 0.99350661 -0.088798136 0.002878435 0.041999545 0.0029699048 0.042051379 0.99495178 -0.084236249
1329501886.7925 0.99315608 -0.089429915 0.0028663818 0.042346843 0.002995342 0.042366162 0.9948982 -0.08518818
1339498113.2075 0.99292696 -0.090051025 0.0029037837 0.042648479 0.0030342741 0.042644329 0.99454236 -0.085957289
1349494339.6226 0.99270135 -0.090559885 0.0029253275 0.042961411 0.0029778215 0.042968463 0.99417466 -0.086537652
1359490566.0377 0.99271417 -0.091103405 0.0028967839 0.0433417 0.0029640626 0.043345906 0.99400496 -0.087020665
1369486792.4528 0.99250758 -0.091676146 0.0029313341 0.043674398 0.0029755002 0.043684792 0.99379659 -0.087415457
1379483018.8679 0.99230492 -0.092204966 0.0029097733 0.044018526 0.0029919632 0.04403552 0.99389529 -0.087745041
1389479245.283 0.99189126 -0.092764437 0.0029985309 0.044404782 0.0030330755 0.044400871 0.99382991 -0.088561654
1399475471.6981 0.991548 -0.093165189 0.0029602963 0.044739835 0.0030577257 0.044750042 0.99406642 -0.089109689
1409471698.1132 0.99125737 -0.093520351 0.0030326664 0.045099553 0.0030735235 0.045106381 0.99407732 -0.089963578
1419467924.5283 0.9910844 -0.093779832 0.0030321712 0.045460902 0.0030888384 0.045482624 0.99383026 -0.090700358
1429464150.9434 0.99087954 -0.094252139 0.0030870978 0.045900464 0.0031359531 0.045861281 0.99379301 -0.091271251
1439460377.3585 0.99106103 -0.094706491 0.0031408612 0.046314277 0.0031821262 0.046304636 0.99354666 -0.091579035
1449456603.7736 0.99110413 -0.095263392 0.0032641441 0.046699189 0.003283958 0.046668667 0.99335414 -0.091878414
1459452830.1887 0.99108893 -0.095946491 0.0033871494 0.04709607 0.0033816528 0.047068771 0.99357235 -0.092191607
1469449056.6038 0.99112642 -0.096677035 0.0035412759 0.04742495 0.003572287 0.047401629 0.99373305 -0.092872292
1479445283.0189 0.99095714 -0.09723521 0.0036653117 0.04769947 0.0036457656 0.047711093 0.99387014 -0.093681723
1489441509.434 0.99088645 -0.097733617 0.0037901942 0.047984067 0.0038005076 0.047983821 0.99370527 -0.094639689
1499437735.8491 0.99071938 -0.098021209 0.0039101727 0.048261423 0.0039295536 0.048240166 0.99364859 -0.095431834
1509433962.2642 0.99075377 -0.098518059 0.0039713718 0.048524734 0.0039780112 0.04850528 0.99344099 -0.096092209
1519430188.6792 0.99087894 -0.099085659 0.0040476657 0.048778631 0.0040482413 0.048771102 0.99326223 -0.096639663
1529426415.0943 0.99079156 -0.099789858 0.0041011572 0.04904566 0.004083937 0.049083211 0.99318743 -0.097069472
1539422641.5094 0.99084425 -0.10058478 0.0041960995 0.049348108 0.0041244901 0.049368348 0.99334878 -0.097525321
1549418867.9245 0.9906708 -0.10131618 0.0042434363 0.049614962 0.0042074285 0.049653485 0.99349892 -0.098258987
1559415094.3396 0.99053389 -0.10204878 0.0042314082 0.049894616 0.0042547043 0.049914591 0.99369764 -0.098876208
1569411320.7547 0.99041969 -0.10281341 0.0042925971 0.050195839 0.0042447783 0.050206423 0.99357349 -0.099772826
1579407547.1698 0.9902904 -0.10329254 0.0043329685 0.050446749 0.0042989901 0.050485618 0.9932844 -0.10054511
1589403773.5849 0.99029696 -0.10382864 0.0043366347 0.050666653 0.0042739604 0.050763883 0.99307775 -0.10123682
1599400000 0.99027961 -0.10432917 0.0042876285 0.050991848 0.0042509455 0.051029902 0.99257457 -0.10172307
1609396226.4151 0.99019015 -0.10490757 0.0043116999 0.051306777 0.0042538363 0.051331937 0.99248409 -0.1021671
1619392452.8302 0.99025154 -0.10549363 0.0042817462 0.051675543 0.0042376444 0.051687505 0.99240243 -0.10256961
1629388679.2453 0.98997629 -0.1061039 0.0042897835 0.052018248 0.0042380448 0.052082255 0.99275196 -0.10313705
1639384905.6604 0.98976147 -0.10688469 0.0043488801 0.05233898 0.0042361883 0.052430231 0.99296975 -0.10395902
1649381132.0755 0.98950922 -0.10741988 0.0043176711 0.052710727 0.0043063387 0.052783079 0.99282509 -0.10489801
1659377358.4906 0.9894591 -0.10827658 0.0043570288 0.053038873 0.0042772442 0.053101435 0.99283576 -0.10569596
1669373584.9057 0.98928136 -0.10869002 0.0043869694 0.053400736 0.0043165823 0.053466283 0.99251413 -0.10634165
1679369811.3208 0.98941082 -0.10940391 0.0043989476 0.053757224 0.0043682465 0.053835087 0.99224854 -0.10685226
1689366037.7358 0.98944259 -0.10994878 0.0044374987 0.054112941 0.0044065695 0.054210838 0.99215037 -0.10717785
1699362264.1509 0.98958611 -0.11050826 0.004485134 0.054493837 0.0044493126 0.0545603 0.99232805 -0.10762028
1709358490.566 0.98949605 -0.11126937 0.0045575919 0.054859415 0.0044515347 0.054945983 0.99238139 -0.10807925
1719354716.9811 0.98917437 -0.11179429 0.0045681708 0.055192705 0.0045417007 0.055329859 0.99248648 -0.10889283
