!Keysight Technologies,N5222B,MY61253708,A.15.00.15
!Date: Wednesday, June 19, 2024 08:46:09
!Correction: S11(C  2-Port  ) 
!S21(C  2-Port  ) 
!S12(C  2-Port  ) 
!S22(C  2-Port  ) 
!S2P File: Measurements: S11, S21, S12, S22:
# Hz S  RI   R 50
10000000 0.99859631 -0.0021478236 -9.2093193e-005 0.00049707375 -0.00012145219 0.00045779615 0.9988597 -0.0010574758
19996226.415094 0.99910128 -0.0019942522 0.00019575984 0.00096425321 3.5993697e-005 0.00083371846 0.99928474 -0.0021809638
29992452.830189 0.99977618 -0.0026365519 -1.2399105e-005 0.0011515666 -1.0870368e-005 0.001159312 0.99950421 -0.0028116405
39988679.245283 1.0000997 -0.0033528507 -3.6296697e-005 0.0015066016 1.0642078e-005 0.0015241081 0.99961954 -0.0033883303
49984905.660377 1.0001481 -0.0041409731 -1.7731218e-005 0.0019602373 -2.1133514e-005 0.0019236379 0.99977708 -0.0040609539
59981132.075472 1.0002882 -0.0049760044 6.117567e-006 0.0022762849 3.6072277e-005 0.0023068273 0.99971718 -0.0045237839
69977358.490566 1.0000027 -0.0054859705 7.6090146e-006 0.0027172007 7.0167785e-005 0.0027251167 0.99962044 -0.0050609112
79973584.90566 0.99980223 -0.0060927868 -1.0166899e-005 0.0031012001 1.4011166e-005 0.0031074751 0.9993552 -0.0056444407
89969811.320755 0.99979579 -0.0064480305 2.2378634e-005 0.0034478926 7.423223e-006 0.0034951731 0.99946105 -0.0061095655
99966037.735849 0.99993813 -0.0071560889 4.3922162e-005 0.0038496512 2.4444598e-005 0.003884756 0.9995169 -0.0068708658
109962264.15094 0.99999732 -0.0082095414 5.4366188e-005 0.0042534941 4.2260275e-005 0.0043034903 0.99952871 -0.0077608973
119958490.56604 1.0000765 -0.0092114806 4.8962887e-005 0.0046639373 3.7364196e-005 0.0046761911 0.99959308 -0.0087533891
129954716.98113 1.0000223 -0.010295749 5.6519872e-005 0.0050643766 5.3294702e-005 0.0050963624 0.99957389 -0.0097284913
139950943.39623 0.99990851 -0.011212548 5.8114732e-005 0.0054353802 6.1722632e-005 0.0054517416 0.99944174 -0.010566229
149947169.81132 0.99976385 -0.011947244 7.5790565e-005 0.0058280481 8.607097e-005 0.0058331382 0.99940002 -0.011192381
159943396.22642 0.99975061 -0.012477666 7.7990582e-005 0.0062377537 8.0522848e-005 0.0062420741 0.99948823 -0.011673063
169939622.64151 0.99976063 -0.012867235 0.00010359945 0.0066107069 7.3809759e-005 0.0066414778 0.99957037 -0.012138061
179935849.0566 0.99976873 -0.013211846 0.00011052494 0.0070095304 9.7857788e-005 0.0070330594 0.99952525 -0.01259467
189932075.4717 0.99989974 -0.014052302 0.00013207621 0.0074117114 0.00010637776 0.0074014803 0.99969339 -0.013272434
199928301.88679 0.99991351 -0.014961809 0.00013375073 0.007775343 0.00014542276 0.0077982708 0.99958801 -0.014236003
209924528.30189 0.99958956 -0.015754774 0.0001371064 0.0081535634 0.0001309223 0.0081602335 0.99937147 -0.01503633
219920754.71698 0.99953032 -0.016719908 0.00021152152 0.0085525131 0.00019350974 0.0085430946 0.99913824 -0.015848607
229916981.13208 0.99922669 -0.017600268 0.00019259914 0.0089334166 0.0001813476 0.00895089 0.99904174 -0.01664421
239913207.54717 0.9991228 -0.018286541 0.0002036466 0.0093171727 0.0001803031 0.0093373666 0.99902737 -0.01737594
249909433.96226 0.99918473 -0.018927634 0.00019084732 0.0097052315 0.00021681166 0.0097408444 0.99918097 -0.018076956
259905660.37736 0.99936062 -0.019580662 0.00021325285 0.010103937 0.00018799584 0.010144016 0.99929142 -0.018703759
269901886.79245 0.99957001 -0.020291209 0.00020370982 0.010505709 0.0002363692 0.010538335 0.99967587 -0.019465819
279898113.20755 0.99970913 -0.021072879 0.00030107424 0.010857456 0.00026491331 0.010905849 0.99948925 -0.020270616
289894339.62264 0.99959058 -0.021831483 0.00028042495 0.01127129 0.00026536174 0.011290564 0.99949914 -0.021110803
299890566.03774 0.99952847 -0.022524536 0.00032964977 0.011658499 0.0002373755 0.01167471 0.99921864 -0.021654755
309886792.45283 0.99918455 -0.023163527 0.00030261988 0.012023886 0.00028846611 0.012038591 0.99899036 -0.022145033
319883018.86792 0.99919689 -0.023840696 0.00035119848 0.012401096 0.00034472393 0.012459624 0.99902332 -0.022639155
329879245.28302 0.99897641 -0.024611324 0.00039221765 0.012784654 0.00037777331 0.012880115 0.99915731 -0.023379147
339875471.69811 0.99903822 -0.025332801 0.00035265088 0.01320564 0.00034558389 0.013203941 0.99912864 -0.02429565
349871698.11321 0.99918425 -0.026273191 0.00034039887 0.01359091 0.00041175028 0.013649622 0.99917465 -0.025250524
359867924.5283 0.99904782 -0.027251095 0.00042492291 0.013984129 0.00037002051 0.014054174 0.99913681 -0.026299655
369864150.9434 0.99935734 -0.027978063 0.00043336255 0.014360632 0.00043526641 0.014411512 0.99915081 -0.027022034
379860377.35849 0.99915332 -0.028748006 0.00046397839 0.014725739 0.00048665772 0.014779082 0.99910522 -0.027837276
389856603.77358 0.99897432 -0.029395878 0.00047167484 0.015153851 0.00050077168 0.015150642 0.9990232 -0.028288066
399852830.18868 0.99901873 -0.029924929 0.00049064355 0.015479743 0.00052351179 0.015564141 0.99909699 -0.028759032
409849056.60377 0.99879253 -0.030531749 0.00053316844 0.015892586 0.00050613045 0.015922738 0.9991318 -0.029276144
419845283.01887 0.99878258 -0.030999273 0.00056167226 0.016277462 0.00054528983 0.016316921 0.99911594 -0.029914111
429841509.43396 0.99889994 -0.031647921 0.00057268608 0.016661484 0.0005946327 0.016760534 0.99925613 -0.030730814
439837735.84906 0.99880534 -0.03263855 0.00066237221 0.017027294 0.00065482664 0.017084233 0.99906951 -0.031775624
449833962.26415 0.99874741 -0.03353101 0.00063272053 0.017361335 0.00066313474 0.017414279 0.99872142 -0.03265658
459830188.67925 0.99860382 -0.034460098 0.00064526312 0.017773442 0.00061250664 0.017837975 0.99860334 -0.033432901
469826415.09434 0.99846423 -0.035367638 0.00067294808 0.018179124 0.00065635797 0.018253792 0.99828798 -0.03413111
479822641.50943 0.99847507 -0.036019631 0.00068682781 0.018560631 0.00068159145 0.018642673 0.99839336 -0.034606084
489818867.92453 0.99853271 -0.036610484 0.00072310586 0.018969448 0.00072438642 0.019038655 0.99869549 -0.035265207
499815094.33962 0.99863982 -0.037175745 0.0007498255 0.019344639 0.00075463345 0.019418947 0.99900395 -0.035886198
509811320.75472 0.99868417 -0.03763802 0.00077641284 0.019734504 0.00082030898 0.019787781 0.99910867 -0.036831737
519807547.16981 0.99868917 -0.038282573 0.00080638425 0.020086288 0.00084520783 0.020187397 0.99910092 -0.037670374
529803773.58491 0.99858141 -0.039010197 0.00082121883 0.020450015 0.00082167238 0.02054939 0.99877608 -0.038346887
539800000 0.99862725 -0.039724559 0.00086276885 0.020884153 0.00087362388 0.0209575 0.99854392 -0.039148793
549796226.41509 0.9983632 -0.040691346 0.00087526254 0.021284435 0.00091797393 0.021340027 0.99823564 -0.039655685
559792452.83019 0.99814057 -0.041458279 0.00092611462 0.021649942 0.00092806388 0.021737065 0.99813497 -0.040179878
569788679.24528 0.99796456 -0.042325824 0.00099276658 0.022078041 0.00094988476 0.022119254 0.99837923 -0.04102391
579784905.66038 0.99794108 -0.042828128 0.00099763367 0.022436539 0.0009947333 0.022502955 0.99850315 -0.04177133
589781132.07547 0.99812436 -0.04352814 0.0010076836 0.022860736 0.0010549724 0.022930577 0.99859947 -0.04274404
599777358.49057 0.99827158 -0.044256777 0.0010824231 0.023208998 0.0011114832 0.023296176 0.99864125 -0.043613583
609773584.90566 0.99843484 -0.045075603 0.0011494668 0.023636611 0.0011478277 0.023718618 0.9984265 -0.044555821
619769811.32075 0.99846572 -0.045891225 0.0012401594 0.024026819 0.0012665624 0.024050435 0.9982751 -0.045156211
629766037.73585 0.9982276 -0.046513826 0.0012952089 0.024316378 0.0012675235 0.024383001 0.9981699 -0.045634508
639762264.15094 0.99806303 -0.047148049 0.0012420863 0.024724735 0.0012600166 0.02477124 0.99790829 -0.046142399
649758490.56604 0.99786514 -0.047865972 0.0012884755 0.025052754 0.0012550098 0.025161345 0.99801022 -0.046638951
659754716.98113 0.99760598 -0.048339099 0.0012849923 0.025452983 0.0012734896 0.025534092 0.99808741 -0.047235489
669750943.39623 0.99769235 -0.049026877 0.0013716649 0.025840709 0.001324675 0.025952533 0.99816364 -0.048112243
679747169.81132 0.9977175 -0.049838733 0.0014019491 0.026228603 0.0013398409 0.026328374 0.99805325 -0.049158882
689743396.22642 0.99789178 -0.050682276 0.001414584 0.026644209 0.0014271522 0.026725775 0.99792939 -0.050162822
699739622.64151 0.99797618 -0.051592052 0.0014876714 0.027035749 0.0014734361 0.027113177 0.99778789 -0.050894678
709735849.0566 0.9979623 -0.052543864 0.0015682501 0.027381903 0.0015637774 0.027471414 0.99750423 -0.051632941
719732075.4717 0.99786633 -0.05335474 0.0015953323 0.027763765 0.0015828768 0.02786527 0.99762464 -0.052227437
729728301.88679 0.99768311 -0.053885311 0.0016455175 0.028160192 0.0016256906 0.028231438 0.99769944 -0.052700669
739724528.30189 0.99754393 -0.054555207 0.0016511944 0.028485885 0.0016645729 0.028615419 0.99785072 -0.053411409
749720754.71698 0.99749559 -0.055080369 0.0016782777 0.028890966 0.0017164708 0.029008316 0.9978922 -0.054095596
759716981.13208 0.99751925 -0.055635482 0.0017687501 0.02927001 0.0017576823 0.029360227 0.99783754 -0.05495277
769713207.54717 0.99736667 -0.056347936 0.0017905962 0.029635269 0.0017773798 0.029754864 0.99751049 -0.05580005
779709433.96226 0.99752092 -0.057172865 0.0018325864 0.030024489 0.0018505407 0.03013235 0.99726087 -0.056552492
789705660.37736 0.99743408 -0.058154583 0.0018922882 0.030411795 0.0018613795 0.030473907 0.99696618 -0.057270736
799701886.79245 0.99732906 -0.05901739 0.0019208249 0.030765533 0.0019313702 0.030873787 0.99680495 -0.057861596
809698113.20755 0.99722821 -0.059720337 0.0019507073 0.031110367 0.0019479026 0.031279884 0.99694228 -0.058391124
819694339.62264 0.99717218 -0.060422376 0.0020085596 0.031461932 0.0019494379 0.031602904 0.99709344 -0.059104592
829690566.03774 0.99713564 -0.061104238 0.0020333389 0.0318764 0.0020208526 0.031979002 0.99733663 -0.060041338
839686792.45283 0.99716687 -0.06153965 0.0020468682 0.032266475 0.0020711394 0.032364357 0.99740797 -0.060964227
849683018.86792 0.99731135 -0.062183805 0.0020843535 0.032616131 0.0021145886 0.032771826 0.99731159 -0.061734311
859679245.28302 0.99724936 -0.063032031 0.0021536471 0.033038139 0.0021453723 0.03312799 0.99690533 -0.062346458
869675471.69811 0.99717861 -0.063844442 0.0022502346 0.033412129 0.0022128485 0.033531193 0.99656987 -0.062990904
879671698.11321 0.99702716 -0.064567424 0.002268533 0.033756692 0.0022576703 0.033896051 0.99649847 -0.063473463
889667924.5283 0.9967916 -0.065475494 0.0022981893 0.034114219 0.0023286641 0.034328312 0.99633503 -0.064007908
899664150.9434 0.99662673 -0.066301495 0.0023402534 0.034508746 0.002367422 0.034676109 0.99640322 -0.064813316
909660377.35849 0.99656039 -0.067040414 0.0024215211 0.034869734 0.0023809439 0.035020366 0.99650276 -0.065706745
919656603.77358 0.99660689 -0.067760572 0.0024524336 0.035238367 0.0024381378 0.035383999 0.99652797 -0.06669651
929652830.18868 0.99667764 -0.068508476 0.0024844632 0.03560229 0.00249492 0.035760552 0.99642819 -0.06762749
939649056.60377 0.99685448 -0.06921646 0.0025016218 0.035957128 0.0024937503 0.036111344 0.99617404 -0.06836161
949645283.01887 0.9967792 -0.070098966 0.0025097316 0.036339756 0.002535494 0.036513116 0.99592286 -0.068984002
959641509.43396 0.99665171 -0.070830524 0.0025545089 0.036747012 0.0025738766 0.036924038 0.99590361 -0.069546908
969637735.84906 0.99657106 -0.07157886 0.0026247725 0.037157804 0.0026192144 0.03731709 0.99593848 -0.069863915
979633962.26415 0.99636155 -0.072333843 0.0026756539 0.037519693 0.0026855022 0.037701115 0.9958576 -0.070612974
989630188.67925 0.99636078 -0.072901338 0.0027450258 0.037876766 0.0027096523 0.03807551 0.99605304 -0.071258843
999626415.09434 0.99638879 -0.073595792 0.0027845576 0.038275912 0.0027791243 0.038449887 0.99596012 -0.072181731
1009622641.5094 0.9963761 -0.07433255 0.0028098812 0.038678478 0.0028425902 0.038884487 0.99574423 -0.073142394
1019618867.9245 0.99648803 -0.07526727 0.0029027425 0.039065883 0.0029325974 0.039225694 0.99544632 -0.074131742
1029615094.3396 0.99648398 -0.076391041 0.0029817875 0.039423473 0.0029671323 0.039620589 0.99519372 -0.074718595
1039611320.7547 0.99647522 -0.077288628 0.0030437866 0.039806783 0.0030318666 0.039947331 0.99502426 -0.075424463
1049607547.1698 0.99639994 -0.078226484 0.0031063012 0.040148329 0.0031038183 0.040319003 0.99505126 -0.076125167
1059603773.5849 0.99618393 -0.078973591 0.0031269109 0.0404681 0.0031417552 0.040699031 0.99501538 -0.076671392
1069600000 0.9959408 -0.079640776 0.0031259451 0.040857747 0.0032031592 0.041024163 0.99512386 -0.077429056
1079596226.4151 0.99581403 -0.080289133 0.0032054563 0.041212663 0.0032052076 0.041401263 0.99508226 -0.078253575
1089592452.8302 0.99582452 -0.080914021 0.0032324577 0.041605849 0.0032748589 0.04179512 0.99500537 -0.079020709
1099588679.2453 0.99588203 -0.081625849 0.0032059513 0.041950457 0.0032940023 0.042163022 0.9946335 -0.079648435
1109584905.6604 0.99597698 -0.082612991 0.0032803211 0.042395633 0.0033596847 0.042552099 0.99439025 -0.080294371
1119581132.0755 0.99587524 -0.083649173 0.0033045588 0.042757254 0.0033596288 0.042966112 0.99417013 -0.080767319
1129577358.4906 0.9957214 -0.084482044 0.0033834055 0.043178026 0.0034129899 0.043387402 0.99407613 -0.081327349
1139573584.9057 0.99540633 -0.085543096 0.0034371614 0.043570437 0.0034870505 0.04375292 0.99414158 -0.082050025
1149569811.3208 0.99529696 -0.086396277 0.0034871497 0.043937486 0.0035919892 0.044152807 0.99429673 -0.082910053
1159566037.7358 0.9950341 -0.087080479 0.0035370924 0.044272382 0.0036332663 0.044502608 0.99435532 -0.083958805
1169562264.1509 0.99488485 -0.087716579 0.0035682023 0.044618685 0.0036653951 0.044842307 0.99413848 -0.084807903
1179558490.566 0.99477816 -0.088553429 0.0035838818 0.045056235 0.0037102615 0.045279618 0.99397689 -0.085504621
1189554716.9811 0.99477339 -0.089193821 0.0036542024 0.045446366 0.0037860153 0.045656037 0.99366009 -0.086079448
1199550943.3962 0.99473941 -0.090185732 0.0037028044 0.045861721 0.0038136877 0.046033982 0.99349725 -0.086454302
1209547169.8113 0.9945206 -0.091246605 0.0037919497 0.046235994 0.0038572745 0.046411488 0.9934094 -0.086861089
1219543396.2264 0.9942947 -0.092056915 0.0038541886 0.046650738 0.0039524385 0.046832345 0.99356359 -0.087316096
1229539622.6415 0.99400127 -0.092980951 0.0039128587 0.04703334 0.0040090401 0.047207661 0.99355352 -0.08812815
1239535849.0566 0.99365318 -0.093665391 0.0039877202 0.047345232 0.0041275378 0.047568951 0.99363363 -0.089096904
1249532075.4717 0.99333775 -0.094378076 0.0040779007 0.047776021 0.0041910247 0.047906142 0.99343717 -0.090037689
1259528301.8868 0.99314857 -0.095032364 0.0041448865 0.048132516 0.0042828191 0.048283249 0.99314857 -0.090953797
1269524528.3019 0.99297631 -0.095821589 0.0042328667 0.048491798 0.0043665804 0.04864284 0.99288559 -0.091677159
1279520754.717 0.99262923 -0.096574433 0.0042902632 0.048844334 0.0044347346 0.048956707 0.99260533 -0.092335001
1289516981.1321 0.99242288 -0.097476065 0.0043265168 0.049182028 0.0044554248 0.049293332 0.99269068 -0.092733055
1299513207.5472 0.99209464 -0.098296046 0.0043747015 0.049546916 0.004484551 0.049693294 0.99282336 -0.0931786
1309509433.9623 0.99153948 -0.099105373 0.0043838015 0.049899139 0.0045256717 0.050047442 0.99292791 -0.094003156
1319505660.3774 0.99121606 -0.099838585 0.0044276509 0.050281487 0.0045642294 0.050392199 0.99290746 -0.09465301
1329501886.7925 0.99086815 -0.10051468 0.0044466164 0.050649833 0.0045676809 0.05076218 0.99291682 -0.095690042
1339498113.2075 0.99060374 -0.10106656 0.0045140628 0.05103394 0.0046312986 0.051131986 0.99244517 -0.096411437
1349494339.6226 0.99041927 -0.10174807 0.0045035379 0.051414628 0.0046108309 0.051500808 0.99201399 -0.097083002
1359490566.0377 0.99027276 -0.10242105 0.004512962 0.051818512 0.0046607219 0.051926494 0.99181265 -0.097667068
1369486792.4528 0.99003327 -0.10293734 0.0045908187 0.052265607 0.0046259519 0.052368481 0.99158806 -0.098212093
1379483018.8679 0.9897632 -0.10362703 0.004629124 0.052659571 0.0046758368 0.052719146 0.99157894 -0.0986185
1389479245.283 0.98929727 -0.1042605 0.0046854746 0.05308307 0.0047640335 0.053170644 0.99156916 -0.09932673
1399475471.6981 0.98895884 -0.10456419 0.0047086533 0.053459682 0.0047544762 0.053562343 0.99167418 -0.10009468
1409471698.1132 0.98856711 -0.10498802 0.0047710738 0.053889558 0.0048225499 0.053997763 0.99170899 -0.1009868
1419467924.5283 0.9882862 -0.10524568 0.0047746599 0.054310244 0.0048742071 0.054409184 0.99150926 -0.10161385
1429464150.9434 0.98824406 -0.10579136 0.0049126353 0.054797187 0.0049341917 0.054864421 0.99147666 -0.10224605
1439460377.3585 0.98833603 -0.10626513 0.0049936222 0.055282798 0.0049858391 0.055317733 0.99112988 -0.10257678
1449456603.7736 0.98837417 -0.10692354 0.0050888471 0.055733856 0.0050846497 0.055772427 0.99093962 -0.10302527
1459452830.1887 0.98839605 -0.10771737 0.0052417777 0.056173451 0.0052592345 0.056239959 0.99111062 -0.10339904
1469449056.6038 0.98835659 -0.10844514 0.0053976942 0.056569397 0.00543187 0.056625836 0.99129641 -0.10413477
1479445283.0189 0.9881984 -0.10926148 0.0055966633 0.056871157 0.0055703712 0.05701571 0.9913215 -0.10511947
1489441509.434 0.98805696 -0.10978347 0.005709799 0.057243481 0.0057275239 0.057295471 0.9910863 -0.10608268
1499437735.8491 0.98783523 -0.1100426 0.0058565214 0.057547417 0.0058398601 0.05768501 0.99107033 -0.10694888
1509433962.2642 0.98787987 -0.11062518 0.0059411535 0.057881091 0.0059534987 0.05799856 0.99084133 -0.10766522
1519430188.6792 0.98790932 -0.11114287 0.0060759597 0.058223631 0.0060117822 0.058357801 0.99067539 -0.10827687
1529426415.0943 0.98795444 -0.11179683 0.0061254781 0.05856581 0.0061002597 0.058602981 0.99062335 -0.10880157
1539422641.5094 0.98794889 -0.11274161 0.0061855125 0.058867842 0.0061380197 0.05900174 0.99068761 -0.10924889
1549418867.9245 0.98773849 -0.11366236 0.0062858183 0.059235673 0.006268681 0.059392463 0.99089211 -0.11003682
1559415094.3396 0.98754835 -0.11431924 0.006319942 0.059563383 0.0062885508 0.059699051 0.99105382 -0.11071163
1569411320.7547 0.98743552 -0.11525691 0.0063826069 0.059862841 0.0063298242 0.060059771 0.99083257 -0.11162229
1579407547.1698 0.98735684 -0.11574549 0.0064302012 0.060209285 0.006400316 0.060366932 0.9905346 -0.1125855
1589403773.5849 0.98727387 -0.11635402 0.0064655449 0.060552433 0.0064168256 0.06071128 0.99016213 -0.11330324
1599400000 0.98718071 -0.11694005 0.0064892545 0.060910143 0.0064380858 0.061061025 0.98980463 -0.11385676
1609396226.4151 0.98717028 -0.11751723 0.0064739361 0.061312608 0.0064515639 0.06143219 0.98965228 -0.1144149
1619392452.8302 0.98717272 -0.11820185 0.0065223351 0.061692022 0.0064493231 0.061845887 0.98958361 -0.11499217
1629388679.2453 0.98687685 -0.11907044 0.0065719336 0.0620858 0.0064941365 0.062257998 0.98973554 -0.11545518
1639384905.6604 0.98660487 -0.11971929 0.0065379124 0.062508859 0.0064771348 0.062707648 0.99000841 -0.11641886
1649381132.0755 0.9863075 -0.12045681 0.006598182 0.062881172 0.0065645929 0.063129835 0.99004871 -0.11746982
1659377358.4906 0.98612571 -0.12133449 0.0067149773 0.063337706 0.0066281892 0.063531794 0.98990071 -0.11824757
1669373584.9057 0.98598838 -0.12175056 0.0067566838 0.063765123 0.0066701937 0.063941129 0.98958302 -0.11905896
1679369811.3208 0.98606795 -0.12255765 0.0067833271 0.064156353 0.0067724288 0.064399675 0.98938662 -0.11961831
1689366037.7358 0.9860642 -0.12318933 0.0068397 0.064622417 0.0068090297 0.064858481 0.98911703 -0.11985976
1699362264.1509 0.9861815 -0.12391368 0.0069718082 0.065019026 0.0068952981 0.065304801 0.98928881 -0.12044856
1709358490.566 0.98607785 -0.12465072 0.0070615588 0.065435082 0.0070323432 0.065670907 0.98924166 -0.12101707
1719354716.9811 0.98571634 -0.12528744 0.0071552601 0.065861151 0.0071000569 0.066126771 0.9892298 -0.12182122
1729350943.3962 0.98533016 -0.12586895 0.0072672721 0.066324085 0.0072429702 0.066586733 0.98923486 -0.12268272
