!Keysight Technologies,N5222B,MY61253708,A.15.00.15
!Date: Wednesday, June 19, 2024 08:50:28
!Correction: S11(C  2-Port  ) 
!S21(C  2-Port  ) 
!S12(C  2-Port  ) 
!S22(C  2-Port  ) 
!S2P File: Measurements: S11, S21, S12, S22:
# Hz S  RI   R 50
10000000 0.99895191 -0.0025170147 6.2651729e-005 0.00038701575 -3.5878111e-007 9.1620626e-005 0.99861979 -0.00090309978
19996226.415094 0.99908179 -0.0020382106 4.5089779e-005 0.00071376987 7.4933138e-005 0.00078900589 0.99936604 -0.0021078587
29992452.830189 0.99969494 -0.0024883151 -3.3212709e-006 0.0011074052 6.6578505e-006 0.001061877 0.99962348 -0.0028286874
39988679.245283 1.0000591 -0.003224805 9.1174799e-005 0.0014693253 5.9516606e-006 0.0015056365 0.99967897 -0.003252998
49984905.660377 1.0001985 -0.0040117204 -2.4047622e-005 0.0018059914 2.3964443e-005 0.0018861823 0.9997862 -0.0038709342
59981132.075472 1.0002648 -0.0048263371 2.9407674e-005 0.0021846688 1.7667247e-005 0.0022493298 0.99970746 -0.0043874681
69977358.490566 1.0000316 -0.0053825174 -2.7115348e-006 0.0025597387 2.4358713e-005 0.0025623504 0.99958372 -0.004988037
79973584.90566 0.99981523 -0.0059655905 1.179229e-005 0.0029889247 1.0976451e-005 0.0029389535 0.99939293 -0.0055350959
89969811.320755 0.99979663 -0.0062354207 -1.7430168e-005 0.0033321897 4.9227965e-005 0.0033406287 0.99948263 -0.0059193671
99966037.735849 0.99999619 -0.0069701374 1.7627375e-005 0.0037103039 5.2750518e-005 0.003717215 0.99955612 -0.0066918284
109962264.15094 0.99998128 -0.0079033673 7.4733456e-005 0.004062098 4.0703279e-005 0.0040825349 0.99956125 -0.0075518936
119958490.56604 1.0000486 -0.0089617968 5.9181824e-005 0.0044381106 1.5223632e-005 0.0044638845 0.99961996 -0.0085276663
129954716.98113 1.0000348 -0.010048419 3.7514255e-005 0.004786531 5.5539305e-005 0.0048375954 0.99958444 -0.0094869137
139950943.39623 0.99993515 -0.010919953 6.4545558e-005 0.0051504713 4.0231447e-005 0.005206028 0.99953192 -0.010284387
149947169.81132 0.99977708 -0.011602134 7.840246e-005 0.005537658 6.0065882e-005 0.0055553867 0.99940813 -0.010933578
159943396.22642 0.99977899 -0.012175977 7.292279e-005 0.0059051542 8.5708918e-005 0.0059339609 0.99953985 -0.011397213
169939622.64151 0.99978584 -0.012554616 8.4374275e-005 0.0062847193 8.3347433e-005 0.0063032871 0.99961966 -0.011845283
179935849.0566 0.99980688 -0.012846917 8.381228e-005 0.0066338982 0.00010205735 0.0067124171 0.99958503 -0.012299985
189932075.4717 0.99995166 -0.013649851 9.1636321e-005 0.007002702 0.00011476059 0.0070651313 0.99970853 -0.012891591
199928301.88679 0.99987721 -0.014513761 0.00012036599 0.0073764818 0.00011701556 0.0074188346 0.99960965 -0.013810694
209924528.30189 0.99963313 -0.015244231 0.00014373788 0.007766346 0.00016718288 0.0077839424 0.99941075 -0.014629558
219920754.71698 0.99961752 -0.016219527 0.00014496315 0.0081108948 0.00015610433 0.0081554493 0.99921703 -0.015418768
229916981.13208 0.99931574 -0.017094731 0.00014978228 0.0084801754 0.00014755595 0.0085205063 0.99908954 -0.016219735
239913207.54717 0.99922031 -0.017815538 0.00017246588 0.0088502951 0.00016156517 0.0088887289 0.99909371 -0.016904768
249909433.96226 0.99923241 -0.018461615 0.00019240729 0.0091956528 0.00020315009 0.0092728147 0.99923265 -0.017580867
259905660.37736 0.99947059 -0.019152761 0.00017714594 0.0095996596 0.00018502166 0.0096004531 0.9994418 -0.018199176
269901886.79245 0.99961388 -0.01979585 0.00019134651 0.0099278791 0.00020946446 0.01000366 0.99971777 -0.01898995
279898113.20755 0.99963456 -0.020575017 0.00026076799 0.010335621 0.0002202664 0.010369577 0.99959069 -0.019692615
289894339.62264 0.9996025 -0.021400332 0.00025040936 0.010676088 0.00023514684 0.010724206 0.99951363 -0.020578206
299890566.03774 0.99947006 -0.021933019 0.00026395381 0.011042049 0.00025341287 0.011049456 0.99928039 -0.021023065
309886792.45283 0.99924648 -0.02258268 0.00025760615 0.011390998 0.00026350375 0.011453792 0.99903214 -0.021575347
319883018.86792 0.9991532 -0.023189396 0.00025533605 0.011812981 0.00024063932 0.011883189 0.9991169 -0.022095203
329879245.28302 0.99898124 -0.023882121 0.00028913748 0.012123164 0.00033151777 0.012237498 0.99916023 -0.022800177
339875471.69811 0.99913287 -0.024654627 0.00028894132 0.012545524 0.00033484539 0.012598348 0.99914676 -0.023602471
349871698.11321 0.99922401 -0.025468856 0.00032216962 0.012896915 0.00034918077 0.012978573 0.99922621 -0.024598926
359867924.5283 0.99914944 -0.026401073 0.00034082821 0.013276296 0.00035568932 0.013360592 0.9993459 -0.025631249
369864150.9434 0.99932528 -0.02726984 0.00039461139 0.01362628 0.00038670329 0.013689045 0.99923152 -0.026363015
379860377.35849 0.9992916 -0.027969643 0.00040523452 0.013969971 0.0004286163 0.014069141 0.99914944 -0.027063519
389856603.77358 0.99919772 -0.028642178 0.0004494735 0.01438402 0.0004668287 0.014425203 0.99910355 -0.027514637
399852830.18868 0.99887359 -0.029268593 0.00048537366 0.014703305 0.00044597732 0.0148103 0.99915928 -0.028021514
409849056.60377 0.9988991 -0.02974241 0.00046174703 0.015086397 0.00047603797 0.01515749 0.9991923 -0.028501
419845283.01887 0.99887598 -0.030124515 0.00052306522 0.015438268 0.00049679028 0.01554442 0.99910289 -0.029141754
429841509.43396 0.99894273 -0.030817956 0.00051223626 0.015813034 0.0005259295 0.015947405 0.99933773 -0.029990286
439837735.84906 0.99886632 -0.031762287 0.00055413181 0.016173057 0.00060541136 0.016269853 0.99909031 -0.030983269
449833962.26415 0.99889803 -0.032676637 0.00057287747 0.016520008 0.00057496829 0.016604092 0.99875671 -0.031753242
459830188.67925 0.99871302 -0.033591866 0.00060115941 0.016872644 0.00055278372 0.016971892 0.998546 -0.032635301
469826415.09434 0.99867201 -0.034356415 0.00055276649 0.01726329 0.00057681464 0.017377988 0.99832207 -0.033232182
479822641.50943 0.99852073 -0.034975126 0.0006411979 0.017638242 0.00061118975 0.017771371 0.99838632 -0.033809029
489818867.92453 0.99863112 -0.035513461 0.00066414382 0.018010227 0.00066807587 0.01812268 0.99872899 -0.034275711
499815094.33962 0.99872619 -0.036206603 0.00068421895 0.018374346 0.0007293974 0.018459706 0.99910355 -0.034974009
509811320.75472 0.99885815 -0.036646262 0.00072333368 0.018718671 0.00070935657 0.018835029 0.99916106 -0.035903633
519807547.16981 0.99877179 -0.037338912 0.00076572783 0.019106755 0.00076237181 0.019203177 0.99910742 -0.036680669
529803773.58491 0.99877012 -0.037921011 0.00074219983 0.019493621 0.00075936224 0.019595999 0.99882162 -0.037274301
539800000 0.99871337 -0.03872484 0.00078376592 0.019827567 0.00079437415 0.019943858 0.99865359 -0.038062915
549796226.41509 0.99856234 -0.039683461 0.00076900609 0.020201139 0.0008091745 0.02033169 0.99842191 -0.038538098
559792452.83019 0.99823534 -0.040382266 0.00083726179 0.020536549 0.00086096488 0.02069832 0.99827027 -0.039140493
569788679.24528 0.99814731 -0.041144818 0.00086947391 0.020971429 0.00084388861 0.021083441 0.99838835 -0.039903045
579784905.66038 0.9980638 -0.041801505 0.00090174261 0.021314632 0.00090219243 0.021456076 0.998631 -0.040625542
589781132.07547 0.99822414 -0.042447954 0.00097380485 0.021696789 0.00092355814 0.021808343 0.99875736 -0.041612625
599777358.49057 0.99831653 -0.043112546 0.001025741 0.022077067 0.00094907265 0.022184934 0.99871188 -0.042411655
609773584.90566 0.9984597 -0.043954004 0.00099645683 0.022423333 0.0010433418 0.02255128 0.99852252 -0.043326005
619769811.32075 0.99865788 -0.044652373 0.0011161808 0.022811176 0.0011222819 0.022898223 0.99858683 -0.043962806
629766037.73585 0.99835825 -0.04534629 0.0011208002 0.02310014 0.001163994 0.023246586 0.99821764 -0.044366837
639762264.15094 0.99820632 -0.045962825 0.0011795799 0.023461893 0.0011211226 0.023559872 0.99811107 -0.044934615
649758490.56604 0.9980076 -0.046655223 0.0011599013 0.023805102 0.0011280966 0.023948478 0.99820632 -0.045329183
659754716.98113 0.99782324 -0.04725194 0.0011740588 0.024151903 0.0011612689 0.024311516 0.99821842 -0.04603076
669750943.39623 0.99791002 -0.047657192 0.0011684825 0.024570569 0.0012143506 0.02471396 0.99832177 -0.046855032
679747169.81132 0.99783343 -0.048413903 0.0012509526 0.024936551 0.00124589 0.025113709 0.99824435 -0.04788183
689743396.22642 0.99802148 -0.049392819 0.0013397932 0.025296479 0.0012750179 0.025472853 0.99799842 -0.048835546
699739622.64151 0.99822974 -0.050282001 0.001334371 0.025679916 0.0013512587 0.025841706 0.99799573 -0.049641818
709735849.0566 0.99810028 -0.051169842 0.001380545 0.026011523 0.0013977028 0.026199726 0.99777591 -0.050238132
719732075.4717 0.99807572 -0.051899046 0.0014556516 0.026361238 0.0014132326 0.026533144 0.99779803 -0.050821662
729728301.88679 0.99795824 -0.052362919 0.0014737202 0.026730131 0.0014546579 0.026885679 0.99787778 -0.051274985
739724528.30189 0.99780613 -0.053088754 0.0015116353 0.027102068 0.0014682016 0.027252978 0.99801916 -0.051973194
749720754.71698 0.99763703 -0.053620264 0.0015460402 0.027434114 0.0015551266 0.027625602 0.99804997 -0.052761823
759716981.13208 0.99767762 -0.05412969 0.0015757531 0.027777895 0.0015853848 0.027936805 0.9979912 -0.053570837
769713207.54717 0.99760324 -0.054958016 0.0016131839 0.028151767 0.0016196147 0.028343601 0.99774998 -0.054316968
779709433.96226 0.99773765 -0.055609278 0.0016543919 0.028532092 0.0016839728 0.028708991 0.99746001 -0.055003013
789705660.37736 0.99762696 -0.056539655 0.0017020786 0.028857503 0.0017046081 0.029029861 0.99717581 -0.055752188
799701886.79245 0.99761283 -0.057476908 0.0017867666 0.029205358 0.001755666 0.029401885 0.99708807 -0.056409955
809698113.20755 0.9975 -0.058127552 0.0017709211 0.029555902 0.0017610271 0.029779324 0.99713594 -0.056848258
819694339.62264 0.99742651 -0.058849588 0.001831105 0.029896639 0.0017973422 0.030094175 0.99727196 -0.057553977
829690566.03774 0.99736321 -0.05940631 0.0018213931 0.030281033 0.0018386077 0.030465074 0.99753606 -0.058507174
839686792.45283 0.99738073 -0.059872031 0.0018546935 0.030617952 0.0019009653 0.030826624 0.9976002 -0.059347481
849683018.86792 0.9974947 -0.060573831 0.0018994808 0.030996725 0.0019439256 0.031236419 0.99741173 -0.060145847
859679245.28302 0.99754202 -0.061357945 0.0019732537 0.031377256 0.0019667437 0.031586599 0.99713159 -0.060807705
869675471.69811 0.99744213 -0.062179178 0.0020206803 0.031732939 0.0020420542 0.031950809 0.99677038 -0.061325759
879671698.11321 0.99738657 -0.062862024 0.0020679054 0.032056447 0.0020396207 0.032287478 0.99676067 -0.061802469
889667924.5283 0.99705118 -0.063751191 0.0020977706 0.032388683 0.0021156482 0.032646231 0.99656212 -0.062367678
899664150.9434 0.99690378 -0.064572304 0.002116357 0.032759376 0.002143125 0.032982603 0.9966318 -0.06300658
909660377.35849 0.99688166 -0.065250441 0.0021464555 0.033135727 0.0021464643 0.033354387 0.99672425 -0.063953817
919656603.77358 0.99699676 -0.065946415 0.0021768212 0.033506997 0.002222978 0.03374074 0.99680072 -0.064927533
929652830.18868 0.99695337 -0.06674242 0.0022178721 0.03379292 0.0022407901 0.034090593 0.99660707 -0.065878838
939649056.60377 0.99716419 -0.067347914 0.0022387141 0.034184866 0.0022505587 0.03439077 0.99642116 -0.066650152
949645283.01887 0.99711305 -0.068187386 0.0022256777 0.034546733 0.002280971 0.034781314 0.99619758 -0.067200482
959641509.43396 0.9970392 -0.068997025 0.002296078 0.034904767 0.0023101512 0.035183012 0.99615914 -0.067739159
969637735.84906 0.99689138 -0.069675297 0.0023631398 0.035311949 0.0023763869 0.035577875 0.99609315 -0.068050742
979633962.26415 0.99672723 -0.070493199 0.0024201442 0.035637852 0.0024588972 0.035913099 0.99612343 -0.068823114
989630188.67925 0.99669325 -0.071054846 0.0024601277 0.036002349 0.0024902681 0.03628825 0.99632573 -0.06942755
999626415.09434 0.99672663 -0.071688116 0.0024774317 0.03636514 0.0025229007 0.036683977 0.99623096 -0.070339978
1009622641.5094 0.99676657 -0.072383508 0.0025177207 0.03675003 0.0025792615 0.037040349 0.99607641 -0.071289897
1019618867.9245 0.99681389 -0.073369533 0.0026294398 0.037108742 0.00263659 0.037402306 0.99572426 -0.072139814
1029615094.3396 0.99682832 -0.074337631 0.0026721787 0.037481319 0.0026990846 0.03771342 0.99532592 -0.07276845
1039611320.7547 0.99680591 -0.075232565 0.0027559223 0.037769515 0.002723556 0.038087606 0.99525422 -0.073459774
1049607547.1698 0.99668705 -0.076247543 0.0027575849 0.038112104 0.0027872324 0.038428348 0.99537152 -0.074044906
1059603773.5849 0.99646848 -0.076892227 0.0028199544 0.038450841 0.0028483216 0.038749155 0.99528182 -0.074638635
1069600000 0.99619114 -0.077561259 0.0028108619 0.038801074 0.0028604772 0.039094284 0.99537849 -0.075401872
1079596226.4151 0.9961856 -0.07818269 0.0028283685 0.03916144 0.0028953543 0.039478708 0.99547863 -0.076149635
1089592452.8302 0.99619639 -0.078827858 0.0028801933 0.039511845 0.0029560756 0.03983096 0.99535257 -0.076983005
1099588679.2453 0.99630308 -0.079532236 0.0029130448 0.039857619 0.0029608067 0.040179532 0.99501336 -0.077590615
1109584905.6604 0.99638355 -0.080415457 0.0029312158 0.04027148 0.0029907096 0.040575773 0.99469566 -0.078220204
1119581132.0755 0.99631202 -0.081523798 0.0029649967 0.040649418 0.0030384613 0.040916845 0.99453717 -0.078655429
1129577358.4906 0.99609625 -0.082370967 0.0029907115 0.04102597 0.0030728206 0.041347384 0.994394 -0.079193234
1139573584.9057 0.99578184 -0.083281785 0.0030563818 0.041383456 0.0031251553 0.04170661 0.99440551 -0.079951763
1149569811.3208 0.99568897 -0.084222898 0.0031283565 0.04172441 0.0032399823 0.042027067 0.99460584 -0.080650248
1159566037.7358 0.99544293 -0.084933221 0.0031675007 0.042081475 0.0032711942 0.042386394 0.9947058 -0.081713408
1169562264.1509 0.99528337 -0.085498363 0.0031917077 0.042418726 0.0032898728 0.042738996 0.99451095 -0.082585335
1179558490.566 0.99526298 -0.086376831 0.0032072456 0.042824432 0.003315429 0.043137446 0.99437302 -0.083278447
1189554716.9811 0.99528521 -0.087098509 0.0032867538 0.0431845 0.0033806078 0.043494474 0.99399734 -0.083836526
1199550943.3962 0.99521858 -0.087899834 0.0033253226 0.043574534 0.0034312084 0.043869525 0.99379683 -0.084206522
1209547169.8113 0.99499428 -0.088839754 0.0033637034 0.043924324 0.003502869 0.044213213 0.99377489 -0.084655464
1219543396.2264 0.99478465 -0.089724094 0.0034339787 0.044365577 0.0035089413 0.044638604 0.9938423 -0.084997684
1229539622.6415 0.9943763 -0.090574741 0.003509922 0.044699408 0.0036630556 0.04501437 0.99397659 -0.085823357
1239535849.0566 0.9941802 -0.091405153 0.0035804529 0.044988856 0.0037370548 0.045313351 0.99407285 -0.08683598
1249532075.4717 0.99383134 -0.092107601 0.0036344642 0.045382913 0.0038147713 0.045678541 0.99390173 -0.087671861
1259528301.8868 0.99363267 -0.092579454 0.0037380643 0.045740884 0.0038814452 0.046045057 0.99356288 -0.088606864
1269524528.3019 0.99349231 -0.093363732 0.0037809778 0.046114776 0.0039155465 0.046363406 0.99337488 -0.089323044
1279520754.717 0.99306113 -0.094170198 0.0038522363 0.046398681 0.0039989538 0.046662085 0.99306369 -0.089878306
1289516981.1321 0.99300611 -0.094977945 0.0038994895 0.046720829 0.0040161647 0.046983458 0.99308014 -0.090328425
1299513207.5472 0.99255854 -0.095792264 0.0038963147 0.047098763 0.0040323846 0.0473499 0.99318695 -0.090825349
1309509433.9623 0.99212062 -0.096588373 0.0039336663 0.047445357 0.0040749134 0.047683656 0.99331057 -0.091530278
1319505660.3774 0.99178028 -0.097363725 0.0039547384 0.047794934 0.004064979 0.048058983 0.99338812 -0.092178226
1329501886.7925 0.99149132 -0.098037511 0.0039923154 0.048184559 0.0041090641 0.048382066 0.99329275 -0.093203694
1339498113.2075 0.99113417 -0.098517627 0.0040321257 0.048517756 0.0041443631 0.048736691 0.99286753 -0.093923181
1349494339.6226 0.99089128 -0.099230185 0.0039923787 0.048861641 0.0041315006 0.049111612 0.99249262 -0.094558328
1359490566.0377 0.99081445 -0.09975192 0.004055528 0.0492987 0.0041525066 0.049529951 0.9922685 -0.095125437
1369486792.4528 0.99063897 -0.10038808 0.0040587727 0.049669191 0.0041735489 0.049892195 0.99203032 -0.095687091
1379483018.8679 0.99032718 -0.1010132 0.0040755621 0.050081979 0.0041786591 0.050267242 0.99200863 -0.096005343
1389479245.283 0.98995435 -0.10162029 0.0041583888 0.050447375 0.0042583831 0.05071082 0.99201876 -0.09674108
1399475471.6981 0.98950267 -0.10199285 0.0041573886 0.050828252 0.0042635798 0.051057376 0.99221611 -0.097405761
1409471698.1132 0.98914188 -0.1024122 0.0042326674 0.051261056 0.0043418398 0.051460043 0.99217546 -0.098307617
1419467924.5283 0.98893541 -0.10269251 0.0042652916 0.051671799 0.0043486925 0.051901877 0.99203587 -0.099035144
1429464150.9434 0.98887265 -0.10317361 0.0043290928 0.052079022 0.0044009965 0.052299686 0.99190378 -0.099635392
1439460377.3585 0.9890393 -0.10359389 0.0044309767 0.052592307 0.0044893259 0.052763619 0.99164593 -0.099978685
1449456603.7736 0.98898941 -0.10419263 0.0044897767 0.053029422 0.0045972019 0.053200919 0.99153399 -0.10033271
1459452830.1887 0.98899913 -0.10498917 0.0046944283 0.053433955 0.0047373064 0.053649072 0.99162096 -0.1007483
1469449056.6038 0.988985 -0.105676 0.004827844 0.053803165 0.0048845857 0.054052949 0.99183357 -0.10140666
1479445283.0189 0.9888218 -0.10646451 0.004973988 0.054133736 0.0050023007 0.054368027 0.99183869 -0.10234208
1489441509.434 0.98873353 -0.1069124 0.0051258653 0.054495525 0.0051639769 0.054733831 0.99179494 -0.10332593
1499437735.8491 0.98847973 -0.107317 0.0052490998 0.054761596 0.0052775294 0.055029623 0.99157786 -0.10410401
1509433962.2642 0.9884851 -0.10787582 0.0053377682 0.055073895 0.0053590946 0.055319514 0.99140775 -0.1048691
1519430188.6792 0.98865521 -0.1082848 0.0054388121 0.055391215 0.0054372847 0.055629201 0.99130845 -0.10549432
1529426415.0943 0.98862475 -0.10909826 0.0055041648 0.055697337 0.0054647867 0.055953935 0.99121726 -0.10591561
1539422641.5094 0.9886539 -0.10996398 0.0055399644 0.056053884 0.0055335835 0.056292087 0.99128145 -0.10643511
1549418867.9245 0.98845595 -0.11075279 0.0056242552 0.056347303 0.0056232763 0.056614667 0.99151027 -0.10714775
1559415094.3396 0.98830307 -0.11143777 0.005693201 0.056679472 0.0056440011 0.056965694 0.99163532 -0.10787338
1569411320.7547 0.98814273 -0.11230204 0.0057370523 0.056949981 0.0057175653 0.05726463 0.99147737 -0.10871491
1579407547.1698 0.98801827 -0.11286918 0.0057969857 0.05727049 0.0058144163 0.057588626 0.99111128 -0.10969335
1589403773.5849 0.98791766 -0.1134159 0.0057853628 0.057616644 0.0058185533 0.057932429 0.9908973 -0.11044037
1599400000 0.98781085 -0.11390328 0.0058218446 0.057945941 0.0058116354 0.05823927 0.99046528 -0.11085033
1609396226.4151 0.98787254 -0.11465916 0.0058034724 0.058286123 0.0057890378 0.058556203 0.99024761 -0.11138242
1619392452.8302 0.98778641 -0.11527422 0.0058655124 0.058662001 0.0057924222 0.058976062 0.99018419 -0.11188623
1629388679.2453 0.98766589 -0.11604521 0.0058688689 0.059056282 0.0058168825 0.0594014 0.99048531 -0.11249205
1639384905.6604 0.98727757 -0.11666422 0.0058882507 0.05946191 0.0058305785 0.059818614 0.99075383 -0.11334794
1649381132.0755 0.98711526 -0.11744347 0.0059516169 0.059835065 0.0059074685 0.060193673 0.9907347 -0.1143156
1659377358.4906 0.98688161 -0.11819762 0.0059413016 0.060262576 0.0059133824 0.060599186 0.99062985 -0.11515576
1669373584.9057 0.986754 -0.11866146 0.0059960838 0.060655069 0.0060294159 0.060989603 0.99030113 -0.11591342
1679369811.3208 0.9868691 -0.1193593 0.006070327 0.061090946 0.0060403943 0.061413173 0.98998767 -0.11648156
1689366037.7358 0.98686814 -0.12009957 0.0061722621 0.061490089 0.0061361343 0.061877493 0.98981637 -0.11674163
1699362264.1509 0.98698324 -0.12072057 0.0061845277 0.061866801 0.0061882585 0.062263891 0.9900918 -0.11734541
1709358490.566 0.9869144 -0.12145652 0.0062911585 0.062262762 0.0062362123 0.062685356 0.98990071 -0.11782657
1719354716.9811 0.9865272 -0.12204725 0.0063812304 0.06271632 0.0063640028 0.063089848 0.99006164 -0.11870086
1729350943.3962 0.98619938 -0.12272796 0.0064737443 0.063103221 0.0064567253 0.06351801 0.98999316 -0.11955419
