!Keysight Technologies,N5222B,MY61253708,A.15.00.15
!Date: Wednesday, June 19, 2024 10:42:11
!Correction: S11(C  2-Port  ) 
!S21(C  2-Port  ) 
!S12(C  2-Port  ) 
!S22(C  2-Port  ) 
!S2P File: Measurements: S11, S21, S12, S22:
# Hz S  RI   R 50
10000000 0.99844432 -0.0033953786 -0.00022430804 0.0001504832 -8.612837e-005 -4.1955842e-005 0.99853653 -0.0016008914
19996226.415094 0.9996829 -0.002253145 0.00010512519 0.00068762188 9.1626978e-005 0.00074596354 1.0000671 -0.0023527443
29992452.830189 0.9995237 -0.0025511384 8.2002225e-005 0.0010140738 2.5136251e-005 0.0010111362 0.99935687 -0.0027785003
39988679.245283 1.0000123 -0.0030635446 -2.094885e-005 0.0013001694 -3.3389151e-005 0.0013303056 0.99978608 -0.0031669736
49984905.660377 1.0002897 -0.0037360191 -2.0805106e-005 0.0016513956 -6.6420762e-006 0.0016261906 0.99993157 -0.0036293864
59981132.075472 1.0004255 -0.0045943856 -3.6716461e-005 0.0019775101 3.6305049e-005 0.0019343793 0.99997365 -0.0041362047
69977358.490566 1.0002379 -0.00510584 2.7311082e-005 0.0022246018 5.0390259e-005 0.0022487545 0.99985415 -0.0046776515
79973584.90566 0.99987632 -0.0056968927 1.2582866e-005 0.002568078 2.4673878e-005 0.0025616752 0.99943495 -0.005092144
89969811.320755 0.99993777 -0.005721122 -1.0405085e-005 0.0028796196 2.4989597e-005 0.0029129838 0.99966961 -0.0053069592
99966037.735849 1.0001251 -0.0064780861 2.6316324e-005 0.003219354 1.9758416e-005 0.0032319848 0.99979562 -0.0060435385
109962264.15094 1.0001351 -0.0073514581 3.4761091e-005 0.0035378388 3.5145727e-005 0.0035468959 0.99979365 -0.0068072975
119958490.56604 1.0002067 -0.0082315207 8.2878396e-006 0.003869076 3.9051054e-005 0.0038807071 0.99981546 -0.007723093
129954716.98113 1.0001376 -0.0092383027 3.3123652e-005 0.0041849613 5.569146e-005 0.0042069033 0.99982512 -0.0085887909
139950943.39623 1.0001094 -0.0099936333 4.1753592e-005 0.0044809142 3.8968457e-005 0.0045155967 0.99974656 -0.0093103666
149947169.81132 0.99995244 -0.010651171 4.7498615e-005 0.004846368 2.1659071e-005 0.004854586 0.99969184 -0.0098776817
159943396.22642 0.99986881 -0.011217922 5.0747069e-005 0.0051669464 4.5530265e-005 0.0051602186 0.999753 -0.01030919
169939622.64151 0.99987948 -0.011558823 7.1703107e-005 0.005494141 5.6619348e-005 0.0054959487 0.99980932 -0.010687865
179935849.0566 0.99993914 -0.011715651 8.1705279e-005 0.0057911999 7.2885421e-005 0.0058341715 0.99970263 -0.01101917
189932075.4717 1.000031 -0.012476295 8.3118211e-005 0.0061328188 9.5871277e-005 0.0061178571 0.99995905 -0.01156801
199928301.88679 0.99998224 -0.013309151 5.8625592e-005 0.0064801998 0.00011136674 0.0064568291 0.99987984 -0.012413979
209924528.30189 0.99974734 -0.013838917 0.00011049036 0.0067632096 8.9193811e-005 0.0067819958 0.99960864 -0.01313512
219920754.71698 0.99989235 -0.014606237 9.7167445e-005 0.0070961602 0.00010357634 0.0071192947 0.9994961 -0.013743937
229916981.13208 0.99969441 -0.015550405 0.00012754067 0.0074175233 0.00011175219 0.0074263304 0.99942321 -0.014487386
239913207.54717 0.99955291 -0.016167885 0.00014630659 0.0077172588 0.00010511644 0.0077507882 0.99938387 -0.015143182
249909433.96226 0.99953479 -0.016848713 0.00013334816 0.0080417814 0.00012708292 0.0080832141 0.99950719 -0.015746921
259905660.37736 0.99972999 -0.017349899 0.00014474895 0.0083451504 0.00017290935 0.0084515791 0.99971867 -0.016328454
269901886.79245 0.99982429 -0.018010259 0.00016580836 0.008699107 0.00020921661 0.0087398943 1.0000831 -0.016967461
279898113.20755 0.9999519 -0.018701643 0.00017992989 0.0090453736 0.00015226286 0.0090838205 0.99999142 -0.017752811
289894339.62264 0.99989164 -0.01940316 0.00020468375 0.009341184 0.00020131236 0.0093608107 0.99985933 -0.018465906
299890566.03774 0.99983901 -0.019961089 0.00021337718 0.0096365595 0.00024541561 0.009685101 0.99967587 -0.018892556
309886792.45283 0.99957353 -0.020527631 0.00022598478 0.0099724773 0.00022881309 0.010012715 0.99948674 -0.019288756
319883018.86792 0.99962091 -0.0211128 0.00021113968 0.010306302 0.00019487645 0.010348223 0.99962455 -0.01975736
329879245.28302 0.99968815 -0.021813184 0.00025313254 0.010648226 0.00026195217 0.010620258 0.99973726 -0.02052328
339875471.69811 0.99949539 -0.02256611 0.00021299615 0.010957218 0.00022082275 0.010972921 0.99973577 -0.021328673
349871698.11321 0.99966151 -0.023390055 0.00025697961 0.011283107 0.00024669804 0.011327276 0.99975812 -0.022280127
359867924.5283 0.99954981 -0.024232358 0.00025326433 0.011576534 0.00026517827 0.011617801 0.99970412 -0.023237735
369864150.9434 0.99973387 -0.025030136 0.00027992087 0.01193012 0.00030653877 0.011983428 0.99977922 -0.0239456
379860377.35849 0.99970824 -0.025699139 0.00028240262 0.0122262 0.00032458105 0.012260559 0.99968028 -0.024663791
389856603.77358 0.99952269 -0.026303917 0.00031550322 0.012567349 0.00034099584 0.01256982 0.99959862 -0.025168568
399852830.18868 0.99932194 -0.026861966 0.00035754871 0.012904165 0.00033118995 0.012893045 0.99963856 -0.02557677
409849056.60377 0.99928015 -0.027324235 0.00035626115 0.013206282 0.00034607551 0.013261938 0.99952835 -0.026174109
419845283.01887 0.99917001 -0.027761817 0.00036717812 0.013520869 0.00034498051 0.013570373 0.99941093 -0.026741296
429841509.43396 0.9992438 -0.028426617 0.0003939867 0.013814174 0.00036911434 0.013901357 0.99956632 -0.027479798
439837735.84906 0.99909818 -0.029350251 0.00041113689 0.014169362 0.00040714862 0.014205744 0.99924248 -0.028560385
449833962.26415 0.99886113 -0.030123115 0.0004351954 0.014453521 0.00042972155 0.014492235 0.99870837 -0.029335052
459830188.67925 0.99868 -0.03074494 0.00043063704 0.014793186 0.00040716399 0.014821867 0.99838072 -0.029978752
469826415.09434 0.9985534 -0.031481743 0.00047214236 0.015112593 0.0004606517 0.015149198 0.99806333 -0.030434102
479822641.50943 0.99848235 -0.031953104 0.00046117604 0.015461374 0.00047635077 0.015486364 0.99803817 -0.030695982
489818867.92453 0.99861342 -0.032442361 0.00049177231 0.015804876 0.00050589629 0.015852772 0.99835122 -0.031157553
499815094.33962 0.99861205 -0.03299585 0.0004995577 0.016099993 0.00053312117 0.016118871 0.99855036 -0.031565458
509811320.75472 0.99870598 -0.033368982 0.0005606371 0.01637003 0.00058501423 0.016416699 0.99877977 -0.03220538
519807547.16981 0.9986701 -0.033839822 0.00052702148 0.016677856 0.00057170959 0.016732534 0.99877846 -0.032883584
529803773.58491 0.99872065 -0.034399748 0.00058965106 0.017041171 0.00059099821 0.017052352 0.99853051 -0.033390164
539800000 0.99877518 -0.034995824 0.00059127505 0.017367901 0.00057846191 0.017414084 0.9983331 -0.033982351
549796226.41509 0.99870509 -0.035904229 0.000611661 0.017702147 0.00062309112 0.017731803 0.99828082 -0.034361303
559792452.83019 0.99849319 -0.03653577 0.0006281063 0.017995769 0.00064445753 0.018028509 0.99824131 -0.034765154
569788679.24528 0.99833751 -0.037255049 0.0006633969 0.018325379 0.00065317145 0.018363027 0.99845707 -0.035494655
579784905.66038 0.99833798 -0.037822843 0.0006588517 0.018662089 0.00067339127 0.01868902 0.9986732 -0.036196671
589781132.07547 0.99854761 -0.038387477 0.00071482453 0.019002555 0.00070572179 0.019018438 0.99878323 -0.037060112
599777358.49057 0.99861807 -0.038997382 0.00073135458 0.019304927 0.00073478185 0.019339591 0.99891192 -0.037810087
609773584.90566 0.99878043 -0.039738789 0.00075914752 0.019627688 0.00075633649 0.019688552 0.99884772 -0.03866718
619769811.32075 0.99896997 -0.040433168 0.00079993298 0.019956861 0.00080638286 0.019989952 0.99876344 -0.039160639
629766037.73585 0.99879813 -0.041085184 0.00085584912 0.020232297 0.00079925638 0.020276874 0.99857855 -0.039585739
639762264.15094 0.99858183 -0.041699857 0.00088668615 0.020576634 0.00084129092 0.02059483 0.998528 -0.040095806
649758490.56604 0.99846458 -0.042231739 0.00085275946 0.020838363 0.00084750913 0.020912243 0.99863517 -0.040438116
659754716.98113 0.99827749 -0.042779297 0.00086414069 0.021166762 0.00084745977 0.021227146 0.99872947 -0.04104799
669750943.39623 0.99835026 -0.04319787 0.00087356847 0.021523757 0.0008794046 0.021588197 0.99882615 -0.04193294
679747169.81132 0.99839568 -0.043979399 0.00091226702 0.021858063 0.00093541981 0.021908678 0.9987967 -0.042849526
689743396.22642 0.99856699 -0.04477483 0.00095957611 0.022189887 0.00095294975 0.022239767 0.99868643 -0.043806076
699739622.64151 0.99866807 -0.045655906 0.0010049632 0.022518625 0.0010033008 0.022545837 0.99864697 -0.044565469
709735849.0566 0.998757 -0.046495937 0.0010553265 0.022810604 0.00106043 0.022855826 0.99836695 -0.045223005
719732075.4717 0.99848711 -0.047188371 0.0010815384 0.023117285 0.00108766 0.023166293 0.99846143 -0.045703411
729728301.88679 0.99842936 -0.047766775 0.0010900563 0.023399163 0.0010535568 0.023485646 0.99858046 -0.046162933
739724528.30189 0.99831879 -0.048366398 0.0011500889 0.023757374 0.0011220858 0.023798507 0.99872226 -0.046894133
749720754.71698 0.99821901 -0.048885226 0.0011887173 0.024061881 0.0011769258 0.024121193 0.99876851 -0.047614276
759716981.13208 0.998245 -0.049371094 0.0011921218 0.024358485 0.0011885092 0.024436321 0.99865627 -0.048383862
769713207.54717 0.99819273 -0.050065935 0.0012087859 0.024673041 0.001217396 0.024729613 0.99838984 -0.049154133
779709433.96226 0.99835068 -0.050723601 0.0012426767 0.025002986 0.0012525436 0.025042254 0.99811065 -0.049807239
789705660.37736 0.99817395 -0.051589221 0.0012616292 0.02527592 0.0012776097 0.025379969 0.997859 -0.050525934
799701886.79245 0.99815524 -0.05241847 0.0013238452 0.025640197 0.0012942152 0.02570238 0.99764776 -0.051034212
809698113.20755 0.99806941 -0.052958533 0.0013318527 0.025930773 0.0013028574 0.02599084 0.9976927 -0.051528454
819694339.62264 0.99789345 -0.053650528 0.0013465318 0.026231989 0.0013451185 0.026304308 0.99779564 -0.052118838
829690566.03774 0.99780881 -0.054275364 0.0014065215 0.026562508 0.0013801763 0.026616763 0.99798512 -0.052950203
839686792.45283 0.99792171 -0.054616392 0.0014062347 0.026837273 0.0014172606 0.026911575 0.99799585 -0.053728878
849683018.86792 0.99802196 -0.055276267 0.0014261368 0.027196731 0.0014654621 0.027279839 0.99787676 -0.054455616
859679245.28302 0.99800432 -0.055867493 0.0014550257 0.027509362 0.0014906758 0.027573409 0.99761128 -0.055085599
869675471.69811 0.99793327 -0.056622952 0.0015257075 0.027784159 0.0015318356 0.027867891 0.99719346 -0.055589199
879671698.11321 0.99783701 -0.057246298 0.0015712522 0.028122144 0.0015412315 0.028185608 0.99718547 -0.055927232
889667924.5283 0.99762702 -0.058010697 0.0015684953 0.028388761 0.0015886864 0.028504882 0.99706185 -0.056390315
899664150.9434 0.99745619 -0.058722973 0.0015890282 0.028689794 0.0016032699 0.028796924 0.99711275 -0.056984007
909660377.35849 0.99746156 -0.059307516 0.0016183374 0.029047018 0.0016035638 0.029089773 0.99732012 -0.057783648
919656603.77358 0.99757934 -0.06006743 0.0016343631 0.029326722 0.001616763 0.029430248 0.99719876 -0.058702901
929652830.18868 0.99754417 -0.060708076 0.0016840529 0.029622622 0.0016700169 0.029723881 0.99709392 -0.059501261
939649056.60377 0.99774164 -0.061277837 0.0016464917 0.029941676 0.0016675871 0.030053515 0.99694031 -0.060140491
949645283.01887 0.9976365 -0.062106956 0.0016439222 0.030280799 0.0016824009 0.03036817 0.99670714 -0.060695805
959641509.43396 0.99760902 -0.062807053 0.0017201267 0.03062606 0.001723798 0.030718155 0.9966436 -0.061104536
969637735.84906 0.9975301 -0.063455224 0.0017554481 0.030990819 0.001741779 0.031063668 0.9966417 -0.061415344
979633962.26415 0.99739128 -0.064162359 0.0018224779 0.031260699 0.0018117905 0.031345502 0.99663764 -0.062047772
989630188.67925 0.99738127 -0.064700603 0.0018493598 0.031572167 0.0018354701 0.031695236 0.99694079 -0.062618762
999626415.09434 0.99747503 -0.065278679 0.0018668314 0.031888593 0.0018794322 0.032022901 0.99686122 -0.063464552
1009622641.5094 0.99759948 -0.065886989 0.0019083498 0.03219337 0.0019318839 0.032367263 0.99674106 -0.064243063
1019618867.9245 0.99762225 -0.066741481 0.0019327519 0.032542322 0.0019543334 0.032641485 0.99647194 -0.065077767
1029615094.3396 0.99759579 -0.067707956 0.0019946098 0.032840177 0.002021757 0.032935366 0.99612963 -0.065596759
1039611320.7547 0.99771184 -0.068455279 0.0020308467 0.033109471 0.0020418502 0.033228301 0.99607885 -0.066239476
1049607547.1698 0.99752706 -0.069282979 0.0020522405 0.033410087 0.0020672833 0.033535942 0.99613535 -0.066795774
1059603773.5849 0.99744314 -0.070004672 0.0020779269 0.0337184 0.0020793742 0.033852644 0.99609673 -0.067284018
1069600000 0.99718982 -0.070693195 0.0020736977 0.034006845 0.0021124268 0.034154646 0.99631345 -0.067967445
1079596226.4151 0.99719548 -0.07118877 0.0020730859 0.034334883 0.0021257424 0.034461558 0.99636447 -0.068732046
1089592452.8302 0.99722135 -0.071821928 0.0021020519 0.034660954 0.0021372475 0.034770373 0.99630111 -0.069441795
1099588679.2453 0.99730313 -0.072473675 0.0021049026 0.034994356 0.002167318 0.035100028 0.99602342 -0.070074111
1109584905.6604 0.99742562 -0.07335262 0.0021561319 0.03529207 0.0021714028 0.035452232 0.99578786 -0.070673808
1119581132.0755 0.9973495 -0.074254081 0.0021531894 0.035627235 0.0022026799 0.035786264 0.99560153 -0.07103686
1129577358.4906 0.99723279 -0.075038552 0.0022051968 0.035990883 0.0022349413 0.036101021 0.99550247 -0.071490198
1139573584.9057 0.99698436 -0.075891793 0.0022249743 0.036310464 0.002301624 0.036428116 0.99564338 -0.072196245
1149569811.3208 0.9968974 -0.076799154 0.0022744942 0.036639109 0.0023443471 0.036740568 0.99576652 -0.072845325
1159566037.7358 0.99669498 -0.077395618 0.0023247739 0.036921028 0.002375205 0.037053987 0.99589729 -0.073900849
1169562264.1509 0.99647981 -0.078012258 0.0023209099 0.037212305 0.0023873691 0.037355222 0.99573934 -0.074665129
1179558490.566 0.99650764 -0.078756899 0.0023062231 0.037599418 0.0024091753 0.037699953 0.99562663 -0.075407431
1189554716.9811 0.99647528 -0.079488784 0.0023622354 0.037930265 0.0024737371 0.038060781 0.99523431 -0.07591638
1199550943.3962 0.99650794 -0.08028096 0.0024226885 0.038274314 0.002501633 0.038407747 0.99505937 -0.07627067
1209547169.8113 0.99631095 -0.08113277 0.0024526501 0.038586512 0.0025334181 0.038657539 0.99509871 -0.076586649
1219543396.2264 0.99610341 -0.081936687 0.0024988963 0.038929649 0.0025731879 0.039055888 0.99511737 -0.076990634
1229539622.6415 0.99586999 -0.082811087 0.0025669895 0.039249256 0.0026563294 0.039350696 0.9952594 -0.07770279
1239535849.0566 0.99560809 -0.083438903 0.0026490148 0.039543182 0.0027105343 0.039682046 0.99543869 -0.078528225
1249532075.4717 0.99534005 -0.084160231 0.0026768073 0.039843291 0.002757421 0.039943419 0.99525982 -0.079413019
1259528301.8868 0.99522638 -0.084565699 0.0027200039 0.040205415 0.0028358363 0.040277548 0.99500793 -0.080283314
1269524528.3019 0.99504763 -0.085316062 0.0028066719 0.040502198 0.0029163305 0.040592045 0.99479491 -0.080994368
1279520754.717 0.99472296 -0.086002626 0.0028243668 0.040721487 0.002913258 0.040823769 0.99448931 -0.081433967
1289516981.1321 0.99455261 -0.086767286 0.0028606365 0.041057006 0.0029130401 0.0411001 0.99455631 -0.08179456
1299513207.5472 0.99424207 -0.087549925 0.0028902031 0.041333139 0.0029147509 0.041417904 0.99468911 -0.082249433
1309509433.9623 0.99393141 -0.088338539 0.0028581927 0.041659858 0.0029577352 0.041741055 0.99484044 -0.082949385
1319505660.3774 0.99350095 -0.089072973 0.0028623417 0.041966051 0.0029678447 0.042007063 0.99488461 -0.083606482
1329501886.7925 0.99321777 -0.089727372 0.0028883331 0.042289674 0.0029877443 0.042358004 0.99490559 -0.084544122
1339498113.2075 0.9930014 -0.090171397 0.0029162504 0.0426099 0.0030216351 0.042651691 0.99443507 -0.085248679
1349494339.6226 0.99284208 -0.090772703 0.0028904648 0.042905487 0.0029846961 0.042996705 0.99415773 -0.085864998
1359490566.0377 0.99271333 -0.091416448 0.0028922427 0.043279685 0.0030206181 0.043313123 0.99396652 -0.086345017
1369486792.4528 0.99259353 -0.091907799 0.0029021883 0.043660048 0.0030053873 0.043650515 0.99381971 -0.086814255
1379483018.8679 0.99225086 -0.092492104 0.0029367474 0.044003695 0.0029919366 0.043978591 0.99374777 -0.087095037
1389479245.283 0.99191964 -0.093056202 0.0029654 0.04434365 0.0030402914 0.04438141 0.99380344 -0.087775171
1399475471.6981 0.99160105 -0.093441039 0.002973469 0.044680726 0.003040351 0.04473304 0.99399668 -0.088444054
1409471698.1132 0.99122888 -0.093786851 0.0030277784 0.045050453 0.0030806344 0.045089412 0.99402654 -0.089337952
1419467924.5283 0.99107152 -0.09400332 0.0030294554 0.045401078 0.003082077 0.045428827 0.99388623 -0.089973122
1429464150.9434 0.99094331 -0.094501227 0.0030678939 0.045835041 0.0031295009 0.04583393 0.99374408 -0.0905191
1439460377.3585 0.99111146 -0.094919026 0.003158615 0.046233401 0.0031669699 0.046276297 0.99353981 -0.09084858
1449456603.7736 0.99111205 -0.095518991 0.0032835938 0.046653125 0.0033053057 0.046658613 0.99345213 -0.091275439
1459452830.1887 0.99117196 -0.09620896 0.0033889543 0.047048613 0.0033973437 0.047035366 0.99359387 -0.091500223
1469449056.6038 0.99118972 -0.096947283 0.0035573337 0.047378596 0.0035381662 0.047358572 0.99381042 -0.092220426
1479445283.0189 0.99098444 -0.097526647 0.0036690864 0.047640808 0.0036867904 0.047679067 0.99384445 -0.093079597
1489441509.434 0.99086893 -0.097966284 0.0038123876 0.047958516 0.0038338546 0.047986608 0.9936834 -0.093986362
1499437735.8491 0.99067068 -0.098337233 0.0039135441 0.048207924 0.003905097 0.04825807 0.99369282 -0.09477222
1509433962.2642 0.99080884 -0.098858356 0.0039894758 0.048499763 0.0040045842 0.048499357 0.99348229 -0.095472679
1519430188.6792 0.99077958 -0.099304855 0.0040660445 0.04873151 0.0040514078 0.048755612 0.99333906 -0.096009105
1529426415.0943 0.99076176 -0.10001835 0.0040931273 0.048969902 0.0040717945 0.049049083 0.9932375 -0.096440792
1539422641.5094 0.99082518 -0.10076609 0.0041384562 0.049325123 0.0041202926 0.049329069 0.9933967 -0.096936978
1549418867.9245 0.99068713 -0.1016286 0.0042254766 0.049564183 0.0041777529 0.049625084 0.99358022 -0.097634614
1559415094.3396 0.99055481 -0.10227758 0.0042309556 0.049880359 0.0041883923 0.049892515 0.99374473 -0.098262221
1569411320.7547 0.9903422 -0.1030068 0.0042873221 0.050093051 0.0042451443 0.050172292 0.99357581 -0.099083766
1579407547.1698 0.99031878 -0.10352328 0.0042892443 0.050408471 0.0042741224 0.050436541 0.99325883 -0.099932849
1589403773.5849 0.99029946 -0.10409552 0.0042867307 0.050648428 0.0042765345 0.050722793 0.99300694 -0.10061145
1599400000 0.99027932 -0.10450372 0.0043008979 0.050982263 0.0042773047 0.051018406 0.99269521 -0.1010735
1609396226.4151 0.99015439 -0.10517156 0.0043108077 0.051300198 0.0042536594 0.051339447 0.99252838 -0.10161057
1619392452.8302 0.9901852 -0.10575569 0.0042754803 0.051626712 0.0042463988 0.051654205 0.99254525 -0.10194802
1629388679.2453 0.98994893 -0.10643941 0.0042706728 0.05191844 0.0042645428 0.052059427 0.99268103 -0.10254493
1639384905.6604 0.98973244 -0.10707629 0.0043264739 0.052278571 0.0042502959 0.052408252 0.99300641 -0.10345528
1649381132.0755 0.98950481 -0.10776195 0.0043454356 0.052617628 0.0042720269 0.052737013 0.99308097 -0.10425481
1659377358.4906 0.9893139 -0.10851169 0.0043476708 0.052983083 0.0043178443 0.05308447 0.9929359 -0.10511786
1669373584.9057 0.98928195 -0.108945 0.0044055786 0.053369656 0.0043462492 0.053441916 0.99263245 -0.10577439
1679369811.3208 0.98934048 -0.1096597 0.0044287574 0.053733476 0.0043423707 0.053807832 0.99237835 -0.10624519
1689366037.7358 0.98931098 -0.11028567 0.0044237264 0.054068811 0.0044135787 0.054185767 0.99225795 -0.10657775
1699362264.1509 0.98945904 -0.11083519 0.0045285262 0.054422546 0.0044645471 0.054582089 0.99240422 -0.10702418
1709358490.566 0.98945469 -0.11147456 0.0045811366 0.054833069 0.0044880733 0.054950751 0.99249715 -0.10758995
1719354716.9811 0.98913443 -0.1120263 0.0046061743 0.055171154 0.0045224819 0.055313136 0.99255359 -0.10822931
1729350943.3962 0.98871922 -0.11261603 0.0046700798 0.055529967 0.0046130773 0.055688001 0.99264646 -0.10911804
