!Keysight Technologies,N5222B,MY61253708,A.15.00.15
!Date: Wednesday, June 19, 2024 08:39:22
!Correction: S11(C  2-Port  ) 
!S21(C  2-Port  ) 
!S12(C  2-Port  ) 
!S22(C  2-Port  ) 
!S2P File: Measurements: S11, S21, S12, S22:
# Hz S  RI   R 50
10000000 0.99872625 -0.0024166703 1.1231663e-005 0.0004446932 -9.7331358e-005 0.00056531379 0.99862373 -0.0010108948
19996226.415094 0.99913311 -0.0025466084 2.6703783e-005 0.00096323132 1.7468818e-005 0.0010769306 0.99929786 -0.0023466647
29992452.830189 0.99972868 -0.0029102862 2.0307314e-005 0.0015711614 2.1178857e-006 0.001560356 0.99937743 -0.0031668842
39988679.245283 1.0000454 -0.003795594 3.2909389e-005 0.0020800538 1.20849e-005 0.0020197821 0.99966866 -0.0038237721
49984905.660377 1.000136 -0.0047547519 6.0854596e-005 0.0025807261 2.29344e-005 0.002554781 0.99976766 -0.0045756996
59981132.075472 1.0001991 -0.0056515932 2.7585542e-005 0.0031177455 4.3057837e-005 0.0030176216 0.99969685 -0.0052810013
69977358.490566 0.99993908 -0.0063359514 3.0352232e-005 0.0035292676 2.5712623e-005 0.0034616638 0.99951553 -0.0059256665
79973584.90566 0.99976349 -0.0070473254 1.6710372e-005 0.0040576807 2.7669594e-005 0.0039977157 0.99932361 -0.0065256059
89969811.320755 0.99971688 -0.0075658262 7.7127712e-005 0.004579694 3.1336443e-005 0.0045052087 0.9994036 -0.0070700049
99966037.735849 0.99984503 -0.0084517747 7.2402763e-005 0.0050912928 9.0833404e-005 0.0049769925 0.99944627 -0.0079830885
109962264.15094 0.9999578 -0.0094459653 9.8536722e-005 0.0055964482 8.0251368e-005 0.0055099023 0.99947912 -0.008978948
119958490.56604 0.99999511 -0.010687798 0.00010444922 0.0061309384 0.0001001698 0.0059687579 0.99950343 -0.010056943
129954716.98113 0.99989748 -0.011878192 0.00010949443 0.0066017415 9.7272219e-005 0.0065158494 0.99949574 -0.01116091
139950943.39623 0.99980521 -0.012916936 0.00014965066 0.0071338839 0.00012261383 0.0070028752 0.99937892 -0.012094904
149947169.81132 0.9996357 -0.013756812 0.00015992159 0.0076473383 0.00014480297 0.0075021228 0.99931443 -0.012858212
159943396.22642 0.99966359 -0.014386058 0.00016949046 0.0081602633 0.00017189281 0.0079965619 0.99939853 -0.013405353
169939622.64151 0.99968976 -0.014892921 0.00018110382 0.0086449627 0.00016294513 0.0085015092 0.99950236 -0.014003366
179935849.0566 0.99967623 -0.015381694 0.00021850993 0.0091550536 0.00020550657 0.0089947078 0.99946886 -0.014585465
189932075.4717 0.99976653 -0.016240478 0.00021779072 0.0096499752 0.00018932391 0.0095137153 0.99960709 -0.015357882
199928301.88679 0.99971175 -0.017368257 0.00025880686 0.010155343 0.00023404602 0.0099732913 0.99949372 -0.016412377
209924528.30189 0.99945331 -0.018266112 0.00026509492 0.010707407 0.0002699754 0.010501498 0.99919385 -0.017341301
219920754.71698 0.99925166 -0.019343078 0.00041163387 0.011152519 0.00037200656 0.01097223 0.99888706 -0.018221915
229916981.13208 0.99907732 -0.020349085 0.00031570438 0.011649733 0.00030546356 0.011467344 0.99881184 -0.019172311
239913207.54717 0.99887925 -0.02115022 0.00037887107 0.012136034 0.00034789721 0.011959641 0.99884903 -0.019961443
249909433.96226 0.99899739 -0.02196148 0.00038464786 0.012665416 0.00037278375 0.01244696 0.9989804 -0.020763487
259905660.37736 0.9991008 -0.022767425 0.00041167671 0.013184477 0.00039649382 0.012881972 0.99917388 -0.021517277
269901886.79245 0.99925792 -0.023578048 0.00041572051 0.013619622 0.00040941616 0.013422288 0.99952519 -0.022340715
279898113.20755 0.99937963 -0.024449885 0.00047235703 0.014144058 0.0004339451 0.013958325 0.99934751 -0.023276255
289894339.62264 0.9992702 -0.025252789 0.00055322424 0.014646557 0.00047719758 0.014444672 0.99925184 -0.024237156
299890566.03774 0.99925148 -0.026097387 0.00052805385 0.015235382 0.00048425095 0.014922502 0.99891299 -0.024882764
309886792.45283 0.99892271 -0.026895396 0.00056956045 0.015678052 0.00058120955 0.015446044 0.99879044 -0.025528505
319883018.86792 0.99873298 -0.027644992 0.00059675425 0.016202249 0.00056619942 0.015933923 0.99874282 -0.026159197
329879245.28302 0.99866927 -0.028428614 0.00067137973 0.01667973 0.00064740516 0.016427997 0.99882305 -0.026957661
339875471.69811 0.99856889 -0.029457219 0.00071329577 0.017209811 0.00060621509 0.016926028 0.99884671 -0.028018214
349871698.11321 0.9988392 -0.03033182 0.00072188303 0.017733956 0.00067428546 0.017442677 0.99893117 -0.029105484
359867924.5283 0.99872428 -0.031340152 0.00076951273 0.01819939 0.0007073367 0.017907757 0.99882245 -0.030153275
369864150.9434 0.99894291 -0.03235206 0.0007792036 0.018705484 0.00080552325 0.018368211 0.99879509 -0.031042725
379860377.35849 0.99878424 -0.033235148 0.00083324895 0.019208921 0.00082893344 0.018895751 0.9986791 -0.03192772
389856603.77358 0.99861801 -0.033949256 0.00088678487 0.019711971 0.00084736384 0.019378498 0.99862111 -0.032557696
399852830.18868 0.99845189 -0.034672171 0.00088634528 0.020243648 0.0008828789 0.019883743 0.99868691 -0.033129036
409849056.60377 0.99842495 -0.03528776 0.00095119548 0.020679599 0.00090522767 0.020388804 0.9986344 -0.033729821
419845283.01887 0.99833453 -0.035911143 0.0010368517 0.021210141 0.00094136782 0.02086336 0.99863899 -0.034431577
429841509.43396 0.99826252 -0.036692411 0.0010903478 0.021709807 0.0010404782 0.021380212 0.9987036 -0.03536132
439837735.84906 0.99818426 -0.037854955 0.001149273 0.022204407 0.0011185887 0.021890426 0.9985227 -0.036564082
449833962.26415 0.99818444 -0.038694113 0.001152995 0.022673789 0.0011020224 0.022317942 0.99819148 -0.037468702
459830188.67925 0.99807727 -0.039762855 0.0012170682 0.02312788 0.0011361493 0.022781063 0.99800253 -0.038404107
469826415.09434 0.9980281 -0.040877342 0.0012414525 0.023659889 0.0011750325 0.023273576 0.99776191 -0.039238721
479822641.50943 0.99777502 -0.041573852 0.0013148822 0.024120467 0.0012280783 0.023830438 0.9977991 -0.039830185
489818867.92453 0.99791706 -0.042283684 0.0013238946 0.024639603 0.0012961971 0.024310073 0.99799258 -0.04053691
499815094.33962 0.99793518 -0.042895705 0.0013783136 0.025178483 0.0013465686 0.024828488 0.99842143 -0.04122445
509811320.75472 0.99810046 -0.04354072 0.0014497442 0.025656434 0.0013599587 0.025265463 0.9985534 -0.042193539
519807547.16981 0.99808162 -0.044333071 0.001563685 0.026160598 0.0014017764 0.025790168 0.99845511 -0.043261051
529803773.58491 0.99799573 -0.045065284 0.0015101107 0.026658 0.0014748732 0.026241936 0.99810648 -0.044008106
539800000 0.99784553 -0.046073705 0.0015852989 0.027143709 0.0014592526 0.026741285 0.99786621 -0.0449536
549796226.41509 0.99760091 -0.047088027 0.0016382448 0.027656559 0.0015584324 0.027309787 0.99752069 -0.045600504
559792452.83019 0.99731505 -0.047890425 0.0016994597 0.028163642 0.0016200906 0.0277557 0.99740928 -0.04620406
569788679.24528 0.99719572 -0.048831344 0.0017238911 0.02865617 0.0016140761 0.028247856 0.99757552 -0.04705745
579784905.66038 0.99716705 -0.049589343 0.0018097879 0.029154394 0.0016955202 0.028722925 0.99765575 -0.047907598
589781132.07547 0.99726057 -0.050415963 0.0018870784 0.029658929 0.0017658649 0.029233258 0.99784386 -0.049073339
599777358.49057 0.9973371 -0.051235229 0.0019580126 0.030197527 0.0018643243 0.029740646 0.99782693 -0.049987108
609773584.90566 0.99746543 -0.052107789 0.0020592848 0.030695062 0.0019851855 0.030235244 0.99760884 -0.051058128
619769811.32075 0.99753058 -0.053020149 0.0021744268 0.031170242 0.0021205964 0.030726815 0.99747598 -0.051753193
629766037.73585 0.99726886 -0.053832531 0.0022726441 0.031595685 0.0021463744 0.031151427 0.99711192 -0.052307844
639762264.15094 0.99702495 -0.05456689 0.0022914424 0.032087669 0.0021522348 0.031584993 0.99707144 -0.052917704
649758490.56604 0.99678707 -0.055318922 0.0022942894 0.032540519 0.0021955892 0.032076426 0.99710971 -0.053476945
659754716.98113 0.9966433 -0.055964649 0.0023226263 0.033023577 0.0022581574 0.032571185 0.9971621 -0.054272503
669750943.39623 0.99647677 -0.056641161 0.0023906315 0.033586007 0.0022828747 0.033099711 0.99721706 -0.055195749
679747169.81132 0.99657059 -0.057573218 0.0024485807 0.034085851 0.0023494852 0.033609517 0.99707615 -0.056403164
689743396.22642 0.99671245 -0.058597714 0.0025447942 0.034600962 0.002449383 0.034085732 0.99688053 -0.057540923
699739622.64151 0.99682522 -0.059620619 0.0026273169 0.035057046 0.0025422592 0.034578584 0.99668002 -0.058342636
709735849.0566 0.99672145 -0.060619496 0.0027356441 0.035553768 0.0026092797 0.035030045 0.99644345 -0.059101686
719732075.4717 0.99654657 -0.061565518 0.0028103357 0.036047477 0.0026534935 0.035472132 0.9965297 -0.059853286
729728301.88679 0.99632907 -0.06219095 0.0028907098 0.036506563 0.002709616 0.036019206 0.996539 -0.060405701
739724528.30189 0.9962495 -0.062973589 0.0029387083 0.036993451 0.0028155409 0.036490247 0.99672657 -0.061243147
749720754.71698 0.99613851 -0.063610196 0.0030505569 0.037479002 0.0028780331 0.036955234 0.99671239 -0.062085867
759716981.13208 0.99613702 -0.064263821 0.0031138882 0.037947565 0.0029278249 0.037468772 0.99661916 -0.063027442
769713207.54717 0.99601287 -0.065126866 0.0031893142 0.038481325 0.0030602803 0.037912287 0.99632543 -0.063905299
779709433.96226 0.99613547 -0.065971583 0.0032393334 0.038950279 0.0031048879 0.038428716 0.99597645 -0.064766981
789705660.37736 0.99591088 -0.067198426 0.0033382159 0.039423048 0.0031791022 0.038839594 0.99566972 -0.065666139
799701886.79245 0.99584389 -0.068198442 0.0033889841 0.039909158 0.0032509901 0.039313413 0.99544644 -0.066304296
809698113.20755 0.99580735 -0.068921357 0.0034795627 0.040333368 0.0033135246 0.039775044 0.99556416 -0.066935092
819694339.62264 0.99561596 -0.069754258 0.0035464885 0.040836696 0.0033502048 0.040248774 0.99565142 -0.067762315
829690566.03774 0.99549198 -0.070437402 0.0036200415 0.041342191 0.0034311824 0.040783487 0.99589646 -0.068758756
839686792.45283 0.99557513 -0.07099548 0.0036739707 0.041809548 0.0035360614 0.041277349 0.99596208 -0.06977573
849683018.86792 0.99562943 -0.071788996 0.0037732441 0.042328756 0.0035633463 0.04173078 0.99570054 -0.070672587
859679245.28302 0.99556327 -0.072783381 0.0038936622 0.042802062 0.0036929436 0.042204257 0.99535304 -0.07148385
869675471.69811 0.99542272 -0.073662013 0.00394799 0.043317273 0.0037721787 0.042681932 0.99498081 -0.072138995
879671698.11321 0.99530828 -0.074552909 0.0040632091 0.043797616 0.0038589891 0.043179099 0.99489713 -0.072674364
889667924.5283 0.99492824 -0.075543165 0.0041394681 0.044282716 0.0039628968 0.043684691 0.99468988 -0.073437929
899664150.9434 0.99463421 -0.076462209 0.0042670798 0.044748478 0.0040920172 0.044155031 0.99466789 -0.074233413
909660377.35849 0.99459517 -0.077287138 0.0044080969 0.045162357 0.00419081 0.044520956 0.99475372 -0.075245276
919656603.77358 0.99467337 -0.078108892 0.0044101845 0.045581575 0.004205314 0.045018081 0.99474925 -0.076260284
929652830.18868 0.99466753 -0.078857154 0.0044858418 0.046033956 0.0042538214 0.045454148 0.99457204 -0.077328116
939649056.60377 0.99483347 -0.079743207 0.0044903615 0.04652242 0.0043198811 0.045900911 0.99437612 -0.078170031
949645283.01887 0.99477351 -0.080645703 0.0045000901 0.047020495 0.0043190629 0.046395078 0.99407321 -0.078865901
959641509.43396 0.99463248 -0.081579477 0.0046033114 0.047526788 0.0044148285 0.046913505 0.99403119 -0.079465866
969637735.84906 0.99446255 -0.082396686 0.0047127157 0.048056841 0.0045166984 0.047417141 0.99400252 -0.07996279
979633962.26415 0.99422401 -0.083285704 0.0047795842 0.04851763 0.0045856051 0.047900051 0.9940021 -0.080773115
989630188.67925 0.99421638 -0.083968997 0.0048759747 0.0489996 0.0046825018 0.048404228 0.99409676 -0.081524253
999626415.09434 0.99419671 -0.084818453 0.0049577951 0.049521275 0.0047565605 0.048901744 0.99398559 -0.082611829
1009622641.5094 0.99415511 -0.085594267 0.005047637 0.050032515 0.0048527606 0.049410671 0.99373424 -0.083639696
1019618867.9245 0.99418795 -0.086690664 0.005159955 0.050546244 0.0050104111 0.049878929 0.99343073 -0.084682181
1029615094.3396 0.99414635 -0.087847084 0.0052869394 0.05103159 0.0051015895 0.05032143 0.99301785 -0.085425019
1039611320.7547 0.99407178 -0.088921279 0.0053874627 0.05142938 0.0051539335 0.050772868 0.99285465 -0.086202413
1049607547.1698 0.99385792 -0.089978158 0.0054817405 0.051890105 0.0052773128 0.051271569 0.99280614 -0.087019153
1059603773.5849 0.9936893 -0.090851396 0.0056104567 0.052353837 0.0053754691 0.051695101 0.99282229 -0.087608546
1069600000 0.99326921 -0.091570228 0.0056286529 0.052812874 0.0054471418 0.052172527 0.9928968 -0.088491231
1079596226.4151 0.99322104 -0.092216745 0.0057234988 0.053271618 0.0055404254 0.05262734 0.99279928 -0.08941786
1089592452.8302 0.99316752 -0.093001142 0.0057990756 0.05373852 0.0056149755 0.053095479 0.9926514 -0.090268612
1099588679.2453 0.99320269 -0.093903065 0.0058607198 0.054225054 0.0056708641 0.053566568 0.99229413 -0.090920627
1109584905.6604 0.99321079 -0.094845355 0.0059577338 0.054717261 0.0057809008 0.054071896 0.99194574 -0.091782659
1119581132.0755 0.99317873 -0.096055001 0.0060112998 0.055255059 0.0058228904 0.054571442 0.99174052 -0.092198998
1129577358.4906 0.99295831 -0.097040594 0.0061152317 0.055795927 0.0059439838 0.055070303 0.99147689 -0.092866093
1139573584.9057 0.99257147 -0.098163366 0.0062570088 0.056233227 0.0060851574 0.055540454 0.99162418 -0.093743056
1149569811.3208 0.99237555 -0.099148557 0.0064021023 0.056720406 0.0061950805 0.056010835 0.99157739 -0.09473715
1159566037.7358 0.99207288 -0.099962264 0.0064725634 0.057159044 0.0062768236 0.056457542 0.99167383 -0.095842034
1169562264.1509 0.99185735 -0.10069084 0.0065371171 0.057615086 0.0063768234 0.05693255 0.99142647 -0.096840978
1179558490.566 0.99173671 -0.1014818 0.0066260104 0.058136433 0.0064369319 0.057431284 0.99120903 -0.097667694
1189554716.9811 0.99168587 -0.10238099 0.0067017535 0.05860813 0.0065655448 0.057893794 0.99085158 -0.09827593
1199550943.3962 0.99156606 -0.10341081 0.0067737568 0.059137627 0.0066426191 0.058358219 0.99062836 -0.09876135
1209547169.8113 0.99138099 -0.10447289 0.0069016377 0.05960184 0.0067489129 0.058803972 0.99053252 -0.099171981
1219543396.2264 0.99108398 -0.10548912 0.0069984654 0.060117971 0.0068388544 0.059357002 0.99056822 -0.099795595
1229539622.6415 0.99068272 -0.10641173 0.0071442481 0.06061504 0.0069583841 0.059841175 0.99070317 -0.10068592
1239535849.0566 0.99032396 -0.10735908 0.0072643682 0.061059438 0.0071008299 0.060292922 0.99067998 -0.10180253
1249532075.4717 0.98999226 -0.10819013 0.0073609054 0.061532464 0.0072279046 0.060723338 0.99044007 -0.10282058
1259528301.8868 0.98976219 -0.10884008 0.007479975 0.062035777 0.0073589683 0.06120009 0.99013197 -0.10384366
1269524528.3019 0.98948836 -0.1096991 0.0076344851 0.062487487 0.0075139124 0.061657798 0.9898631 -0.10473081
1279520754.717 0.98908222 -0.1105101 0.0077410089 0.062914521 0.0076037655 0.062014978 0.98945647 -0.10533535
1289516981.1321 0.98898351 -0.11154947 0.0078393463 0.063351661 0.0076994598 0.062486921 0.98945433 -0.10591498
1299513207.5472 0.98848224 -0.11242783 0.007924892 0.063825831 0.0077314805 0.06293752 0.98949736 -0.10634762
1309509433.9623 0.98791718 -0.11335593 0.0079957945 0.064247578 0.0078324564 0.063361488 0.98957229 -0.10718784
1319505660.3774 0.9873988 -0.11414717 0.0080671515 0.064757928 0.0078756977 0.063830614 0.9895764 -0.10802574
1329501886.7925 0.98708987 -0.1149728 0.0081691388 0.065213636 0.007994609 0.064289093 0.98950583 -0.10918009
1339498113.2075 0.98673826 -0.11560231 0.008266788 0.065675057 0.0080611445 0.06474176 0.98897523 -0.11004636
1349494339.6226 0.9865616 -0.11642424 0.0083179437 0.066137895 0.0080899047 0.065217726 0.98854154 -0.11075586
1359490566.0377 0.98634255 -0.11712438 0.0084029045 0.066673309 0.0081548505 0.065705277 0.98825264 -0.1114769
1369486792.4528 0.98609626 -0.11785319 0.0084698927 0.067215979 0.0082479008 0.066203967 0.98800594 -0.11205256
1379483018.8679 0.98577952 -0.11863004 0.0085953288 0.067689709 0.0082941158 0.066651277 0.98796391 -0.11258805
1389479245.283 0.98526478 -0.11929047 0.0086846147 0.068170987 0.0084270723 0.06718073 0.98791397 -0.11342123
1399475471.6981 0.98474973 -0.11971655 0.0087419171 0.068686381 0.0084683243 0.06768091 0.98808187 -0.11416495
1409471698.1132 0.98449516 -0.1201726 0.0089156749 0.069212914 0.0085788555 0.068195812 0.9879297 -0.11516573
1419467924.5283 0.98416221 -0.12057632 0.0089511126 0.069760725 0.0086395591 0.068728812 0.98775947 -0.1159772
1429464150.9434 0.98398185 -0.12109381 0.0090800654 0.070288435 0.008756198 0.069245048 0.98756111 -0.11665687
1439460377.3585 0.984115 -0.121776 0.0092174392 0.070843302 0.0088980459 0.06980478 0.9871552 -0.11715351
1449456603.7736 0.98399776 -0.12246336 0.0094260387 0.071418978 0.0090427864 0.07034526 0.98693901 -0.11755984
1459452830.1887 0.98391283 -0.12337428 0.0095965154 0.071973935 0.0092282891 0.070912831 0.98702377 -0.11807173
1469449056.6038 0.98388159 -0.12426555 0.0098223761 0.072432764 0.0094431229 0.071419679 0.98723692 -0.11889508
1479445283.0189 0.9836961 -0.1251059 0.010032984 0.072871856 0.0096231289 0.071845889 0.9872275 -0.11996298
1489441509.434 0.9834969 -0.12571067 0.010285851 0.073339015 0.0098418128 0.072304592 0.98698729 -0.12103593
1499437735.8491 0.98328662 -0.12617615 0.01043395 0.073753893 0.010021828 0.072684102 0.98680097 -0.12193272
1509433962.2642 0.98319501 -0.12676656 0.010581099 0.074148878 0.010144197 0.073118947 0.98652709 -0.12277195
1519430188.6792 0.98326808 -0.12742624 0.010751365 0.074584082 0.010279763 0.073492169 0.986413 -0.12348151
1529426415.0943 0.98312879 -0.1282399 0.010832615 0.074986003 0.010411784 0.073929608 0.9862119 -0.12401366
1539422641.5094 0.98305452 -0.12923393 0.010962713 0.075462572 0.010481257 0.074410044 0.9862709 -0.12456578
1549418867.9245 0.98281401 -0.13018128 0.011160835 0.075911641 0.010681419 0.074839249 0.98640525 -0.12549673
1559415094.3396 0.98262185 -0.13100076 0.01127471 0.076312728 0.010775659 0.075284757 0.98651916 -0.1262885
1569411320.7547 0.98237211 -0.13196571 0.011413116 0.07670702 0.010853376 0.075672351 0.98626292 -0.12720931
1579407547.1698 0.98221791 -0.13264634 0.011450433 0.077082403 0.010997517 0.076071516 0.98585713 -0.12821516
1589403773.5849 0.98214328 -0.13325185 0.011535693 0.077484027 0.011089657 0.076465555 0.98549867 -0.12909371
1599400000 0.9820298 -0.13387972 0.011572318 0.077969596 0.011110129 0.076966785 0.98512954 -0.12972659
1609396226.4151 0.98196679 -0.13468191 0.011658225 0.078474209 0.011125785 0.077372693 0.98487222 -0.13034879
1619392452.8302 0.98190391 -0.13544485 0.01177991 0.078930244 0.011165285 0.077888459 0.98484814 -0.13097322
1629388679.2453 0.98160928 -0.13637054 0.011836577 0.079406932 0.011247205 0.078472584 0.98499513 -0.13161829
1639384905.6604 0.98125678 -0.13713211 0.011898678 0.079974368 0.011369561 0.078971699 0.98512709 -0.1326628
1649381132.0755 0.98094296 -0.13788992 0.012022693 0.080480777 0.011425506 0.079493582 0.98498082 -0.13375646
1659377358.4906 0.98054916 -0.13887483 0.012079269 0.080974579 0.011570606 0.079979949 0.98486328 -0.13476384
1669373584.9057 0.98050547 -0.13944939 0.012225334 0.081546739 0.0117102 0.080537997 0.98451769 -0.13548976
1679369811.3208 0.98043942 -0.14027181 0.012353953 0.082048759 0.01182811 0.081019297 0.9841001 -0.13620542
1689366037.7358 0.98040885 -0.1410484 0.01250219 0.082526669 0.011963196 0.081592441 0.9839555 -0.13661444
1699362264.1509 0.98046869 -0.14188266 0.012653853 0.083067521 0.012132102 0.082098305 0.9840346 -0.13720334
1709358490.566 0.98019093 -0.14275219 0.012880333 0.083583809 0.012259211 0.082625791 0.98392618 -0.13782784
1719354716.9811 0.97974467 -0.14347762 0.013006289 0.084057093 0.012451548 0.083127514 0.98388344 -0.13878733
1729350943.3962 0.97937012 -0.14414734 0.013226619 0.084607109 0.012656508 0.083645113 0.98380005 -0.13985938
1739347169.8113 0.97914642 -0.14458671 0.013403269 0.08511468 0.012852888 0.084111921 0.98364806 -0.14073563
1749343396.2264 0.97882283 -0.14500204 0.013614338 0.085481927 0.013022147 0.084557191 0.98331153 -0.14177307
