!Keysight Technologies,N5222B,MY61253708,A.15.00.15
!Date: Wednesday, June 19, 2024 09:11:27
!Correction: S11(C  2-Port  ) 
!S21(C  2-Port  ) 
!S12(C  2-Port  ) 
!S22(C  2-Port  ) 
!S2P File: Measurements: S11, S21, S12, S22:
# Hz S  RI   R 50
10000000 0.99856389 -0.0026776195 0.00017070491 0.0004490515 0.00024369065 0.00052979711 0.99850029 -0.0010662675
19996226.415094 0.9990828 -0.002289176 -5.442783e-005 0.0006903141 -6.2419858e-005 0.00069438014 0.99915779 -0.0021513999
29992452.830189 0.9996891 -0.0025339723 7.5844408e-005 0.00099888165 -1.2205564e-005 0.0010081995 0.99953198 -0.0027136505
39988679.245283 1.0001264 -0.0030734837 1.0935342e-005 0.0013890484 -8.5600768e-006 0.0013312615 0.99968034 -0.0031969845
49984905.660377 1.0001589 -0.0038271248 1.2126577e-005 0.0016907093 -3.5877689e-005 0.0017010277 0.99983943 -0.0037301779
59981132.075472 1.0002902 -0.004781276 3.2563112e-006 0.0020667205 -3.6499696e-006 0.002073925 0.99974984 -0.0042737126
69977358.490566 1.000102 -0.0053318776 5.1559706e-005 0.0023669719 9.7485099e-007 0.0024324455 0.99962276 -0.0048449151
79973584.90566 0.99986583 -0.0058548748 1.8982799e-005 0.0027643645 1.66432e-005 0.0027693976 0.99939293 -0.0052737594
89969811.320755 0.99983013 -0.0060418546 6.5402128e-007 0.0030848966 3.2189884e-005 0.0030956925 0.99952793 -0.0055967569
99966037.735849 1.000046 -0.0068134069 5.0335424e-005 0.0034467103 2.7960632e-005 0.0034563846 0.99960566 -0.0064000189
109962264.15094 1.0000819 -0.0077510327 1.9083498e-005 0.0037627905 3.7784921e-005 0.0038103168 0.99961764 -0.007245034
119958490.56604 1.0000978 -0.0087557137 4.6491157e-005 0.0041099847 3.083027e-005 0.0041493359 0.99963653 -0.0081998408
129954716.98113 1.0000577 -0.0097571015 3.6307611e-005 0.0044446704 5.0909235e-005 0.0044942885 0.99963266 -0.0091289878
139950943.39623 0.99996114 -0.010593787 5.8304242e-005 0.0048084338 6.1684492e-005 0.004841547 0.99954581 -0.0098698977
149947169.81132 0.99984437 -0.011274159 6.7620305e-005 0.0051382789 5.0205737e-005 0.0051800385 0.99946952 -0.010482013
159943396.22642 0.99984884 -0.011828303 5.3324504e-005 0.0055023553 6.5808883e-005 0.0055343276 0.99956179 -0.010937691
169939622.64151 0.99978209 -0.012159169 8.9942652e-005 0.0058258171 7.6018914e-005 0.0058694044 0.99964142 -0.01139383
179935849.0566 0.99984878 -0.012418658 9.2946342e-005 0.0061956393 6.7021116e-005 0.0062036649 0.99952799 -0.011804968
189932075.4717 0.99995196 -0.01325959 9.7097363e-005 0.0065438105 6.4746942e-005 0.0065945294 0.99978852 -0.012373358
199928301.88679 0.99993831 -0.014113098 9.3288487e-005 0.0068402812 9.0429559e-005 0.0068944851 0.9995876 -0.013278484
209924528.30189 0.99967742 -0.014798656 0.00010733225 0.0071991347 0.00010779826 0.0072551067 0.99936712 -0.01405482
219920754.71698 0.99972224 -0.015694499 0.00011953106 0.0075424695 0.00013322523 0.007592069 0.99919724 -0.014731646
229916981.13208 0.99940526 -0.016579092 0.00010603387 0.0078744106 0.00012772367 0.007949803 0.99915767 -0.015516162
239913207.54717 0.9993214 -0.017158043 0.00016738544 0.0082231332 0.00015509294 0.0082980022 0.99912769 -0.016187642
249909433.96226 0.99938655 -0.017806649 0.00012892555 0.0085643921 0.00015401142 0.008635588 0.99924725 -0.016869158
259905660.37736 0.99943429 -0.018460065 0.00015584612 0.0089372927 0.00015753368 0.0089667113 0.99950171 -0.017466336
269901886.79245 0.9996255 -0.019168213 0.00018824346 0.0092662601 0.00016277563 0.0093474118 0.99978024 -0.018151328
279898113.20755 0.99984205 -0.019772023 0.00019306573 0.0096113291 0.00012273341 0.0096844612 0.99963874 -0.018858582
289894339.62264 0.99973345 -0.020606875 0.00022225175 0.009920219 0.00019403361 0.0099911038 0.9995203 -0.019715726
299890566.03774 0.99954796 -0.021163166 0.00020567002 0.010321148 0.00020668493 0.010370403 0.99937171 -0.020170152
309886792.45283 0.99936318 -0.021672957 0.00024154247 0.010635204 0.00023831869 0.010714053 0.99917305 -0.020591788
319883018.86792 0.9992795 -0.022370815 0.00024537323 0.010979346 0.00026710052 0.011048523 0.99933112 -0.021181017
329879245.28302 0.99931347 -0.023072332 0.00024471758 0.011281867 0.00026963465 0.011419646 0.99941278 -0.021918386
339875471.69811 0.99921912 -0.023773655 0.00030448567 0.011685911 0.00024935859 0.011720295 0.99933308 -0.022700511
349871698.11321 0.99936253 -0.024666488 0.00027908431 0.012005983 0.00031241938 0.012086544 0.99927896 -0.023607999
359867924.5283 0.99923772 -0.025429338 0.00033340789 0.012301823 0.00032981904 0.012447335 0.99924213 -0.024588764
369864150.9434 0.99941701 -0.026283175 0.00032143435 0.012671501 0.00038504344 0.012799169 0.99925601 -0.025297493
379860377.35849 0.99927944 -0.027060926 0.00035701878 0.013000594 0.00033548172 0.013091128 0.99918532 -0.025958613
389856603.77358 0.9993149 -0.027616143 0.00039283279 0.013346303 0.00039348658 0.013432499 0.99911189 -0.026407272
399852830.18868 0.99910986 -0.028199017 0.00039633969 0.013719854 0.0003684219 0.013773507 0.99918365 -0.026902944
409849056.60377 0.99905378 -0.028623179 0.00038737452 0.014066312 0.00039346021 0.014134008 0.99917412 -0.027382206
419845283.01887 0.99909556 -0.029090971 0.00041538104 0.014390454 0.0004470516 0.014522932 0.9992553 -0.028036654
429841509.43396 0.99917412 -0.029768288 0.00043391623 0.014730003 0.00047101825 0.01482898 0.99941456 -0.028794408
439837735.84906 0.99901921 -0.030694097 0.0004846903 0.015066722 0.00046701287 0.015187002 0.99920136 -0.029818773
449833962.26415 0.99904114 -0.031521648 0.00051232846 0.015373887 0.00051795505 0.015487954 0.99880582 -0.030600309
459830188.67925 0.99886161 -0.032280892 0.00049761264 0.01567832 0.00049647316 0.015808526 0.99862957 -0.031368196
469826415.09434 0.99876958 -0.033115387 0.00048508402 0.016055234 0.00053269183 0.016206561 0.99843663 -0.031924129
479822641.50943 0.99872667 -0.033702917 0.00053750561 0.01641053 0.00053860503 0.016540188 0.99840069 -0.032366239
489818867.92453 0.99876457 -0.034255177 0.00059537496 0.016783398 0.0005922867 0.016889894 0.99870813 -0.032847464
499815094.33962 0.99890542 -0.034873039 0.0006070463 0.017088816 0.00058509782 0.017212315 0.99910212 -0.03350693
509811320.75472 0.99899542 -0.035305411 0.0006678552 0.01744022 0.00059337809 0.01752417 0.99928951 -0.034366895
519807547.16981 0.99892902 -0.035884202 0.00067131314 0.017812494 0.00063261949 0.017931409 0.99916631 -0.035220504
529803773.58491 0.99890411 -0.036580801 0.00063011795 0.018088503 0.00063966028 0.018257488 0.99889541 -0.035744697
539800000 0.99891251 -0.037358552 0.00063990219 0.018472021 0.0006417674 0.018605305 0.99874192 -0.036408633
549796226.41509 0.9987359 -0.038150847 0.0007101451 0.018808814 0.00069452729 0.018978257 0.99858642 -0.036923826
559792452.83019 0.99843454 -0.038912386 0.00071341917 0.019161027 0.00070192944 0.019262046 0.99841452 -0.037446529
569788679.24528 0.99833328 -0.039623976 0.00073211361 0.019493401 0.00071027083 0.01963068 0.99856514 -0.038260609
579784905.66038 0.99832165 -0.04020372 0.00073734601 0.019852379 0.00077496469 0.019978544 0.99874401 -0.038932733
589781132.07547 0.99841893 -0.040876895 0.00082742143 0.020213358 0.00082642119 0.020371787 0.99888557 -0.039855391
599777358.49057 0.99853641 -0.041538805 0.00083185267 0.020542104 0.00087079126 0.02072503 0.99884444 -0.040697157
609773584.90566 0.9986276 -0.042291127 0.00090063288 0.020849414 0.00090779254 0.021035776 0.99874729 -0.041588325
619769811.32075 0.99889016 -0.043004781 0.00092605362 0.021183318 0.00094224839 0.021347949 0.99861658 -0.042117178
629766037.73585 0.99874091 -0.043634146 0.00097318552 0.021515597 0.00097000599 0.021700967 0.99850476 -0.042626858
639762264.15094 0.99842483 -0.044306457 0.0010036728 0.021806538 0.00098214019 0.021991948 0.99824893 -0.043052763
649758490.56604 0.99830067 -0.044960245 0.00099369604 0.022158079 0.0010000947 0.022331845 0.99833405 -0.043505594
659754716.98113 0.99809641 -0.045427352 0.0010237852 0.022483451 0.00099474471 0.022710359 0.99840593 -0.044124901
669750943.39623 0.99811828 -0.045969725 0.00098393532 0.022856684 0.0010148128 0.023049545 0.99854946 -0.044968992
679747169.81132 0.99810755 -0.046667956 0.0010517889 0.023236742 0.0010582616 0.023391891 0.99850082 -0.045877896
689743396.22642 0.99829459 -0.047517657 0.0011188984 0.023530982 0.0011356063 0.023764472 0.9982444 -0.046917528
699739622.64151 0.99843162 -0.048345923 0.0011680964 0.023881186 0.0011583241 0.024086991 0.9981631 -0.047562808
709735849.0566 0.99835038 -0.049276769 0.0011850169 0.024234379 0.0012195965 0.024401426 0.99784511 -0.048251927
719732075.4717 0.99825251 -0.049929172 0.0012737652 0.024540223 0.0012671351 0.024715729 0.99799412 -0.048811257
729728301.88679 0.99813509 -0.050471693 0.0012411866 0.024880104 0.0012920024 0.025114939 0.99811172 -0.049278557
739724528.30189 0.99795657 -0.051041633 0.0012795846 0.025211349 0.0012699808 0.025430214 0.99827713 -0.049993068
749720754.71698 0.99795526 -0.051687524 0.0013616686 0.025528092 0.0013257726 0.02576923 0.99829125 -0.050647169
759716981.13208 0.99795938 -0.052156955 0.0013620965 0.025862508 0.0013831034 0.026094802 0.99825191 -0.051413089
769713207.54717 0.99790418 -0.052916765 0.0014097486 0.026240163 0.0013673985 0.026429942 0.99792933 -0.052179337
779709433.96226 0.99810719 -0.053487089 0.0014362709 0.026552929 0.0014717043 0.026796158 0.99771732 -0.052873094
789705660.37736 0.99792653 -0.054487973 0.0014605187 0.026885655 0.0014630128 0.027071983 0.99741596 -0.053556561
799701886.79245 0.99794722 -0.055392712 0.0015317108 0.027202221 0.0015453082 0.027451215 0.99728036 -0.054189146
809698113.20755 0.99785858 -0.055976972 0.0015265069 0.0275431 0.0015663013 0.027775111 0.99738288 -0.054647386
819694339.62264 0.99772042 -0.05660814 0.0015590726 0.027848627 0.0015612384 0.028080311 0.99753499 -0.055241138
829690566.03774 0.99767113 -0.057316899 0.0016024038 0.028206969 0.0016036779 0.028446006 0.99773157 -0.056133837
839686792.45283 0.99775064 -0.057768673 0.0016288888 0.028525375 0.001660279 0.028784953 0.99781621 -0.057024032
849683018.86792 0.9978357 -0.058416419 0.001660449 0.028900027 0.0016727443 0.029073823 0.99764735 -0.057787836
859679245.28302 0.99788392 -0.059044242 0.0017017061 0.029255718 0.0016977303 0.029482225 0.99742091 -0.05839324
869675471.69811 0.99775159 -0.059873432 0.0017271386 0.029498259 0.0017680107 0.029779719 0.99700218 -0.058888048
879671698.11321 0.99762785 -0.060561702 0.001784517 0.029866219 0.0018127088 0.030101255 0.99701464 -0.059358291
889667924.5283 0.99748653 -0.061394602 0.0018178625 0.030160798 0.0018371586 0.030444302 0.99685645 -0.059869945
899664150.9434 0.99724478 -0.06215173 0.0018384503 0.030481478 0.0018470744 0.03080946 0.99689323 -0.060540617
909660377.35849 0.99727875 -0.062815398 0.0018836195 0.030844864 0.0018640514 0.031113714 0.9971143 -0.061454713
919656603.77358 0.99741757 -0.063526377 0.0018618177 0.031168457 0.001891227 0.031462684 0.99704486 -0.062414259
929652830.18868 0.99737275 -0.064217061 0.0019274531 0.031499792 0.0019354643 0.031757243 0.99687135 -0.06331867
939649056.60377 0.99759042 -0.064911157 0.0019089421 0.031815223 0.0019310592 0.032063022 0.99676394 -0.063967824
949645283.01887 0.99754262 -0.065757766 0.0019415433 0.032163657 0.0019792374 0.032451063 0.99649346 -0.064550407
959641509.43396 0.99743056 -0.066431552 0.0019832533 0.032542333 0.0019980865 0.032811608 0.9964031 -0.064949512
969637735.84906 0.99732459 -0.067126691 0.0020472342 0.032889791 0.0020540077 0.033195257 0.99643266 -0.065386176
979633962.26415 0.99708927 -0.067944445 0.0021010705 0.033183824 0.0021138729 0.033538528 0.99646425 -0.066015303
989630188.67925 0.99711263 -0.068424344 0.0021464499 0.033531092 0.0021531079 0.033846859 0.99662238 -0.066690981
999626415.09434 0.99724525 -0.069147319 0.0021661799 0.033884652 0.0021972489 0.03417775 0.99660575 -0.067523092
1009622641.5094 0.99726981 -0.069713384 0.002192257 0.034212597 0.0022084666 0.034527045 0.99642915 -0.068411469
1019618867.9245 0.99722183 -0.070629448 0.0022147391 0.034576032 0.0022905902 0.034880266 0.99619985 -0.069243506
1029615094.3396 0.99726081 -0.071535051 0.0023017302 0.034872979 0.0023218878 0.035167444 0.99585223 -0.069854975
1039611320.7547 0.99730909 -0.07245639 0.002351094 0.035187814 0.0023535956 0.035495892 0.99576002 -0.070473105
1049607547.1698 0.9971447 -0.073411696 0.0023897744 0.0355036 0.0023969829 0.035842601 0.99572223 -0.071080983
1059603773.5849 0.99698186 -0.074199766 0.0023824787 0.035807718 0.0024408549 0.036139965 0.99572653 -0.071735233
1069600000 0.99677527 -0.074645817 0.002411548 0.036151394 0.00246346 0.036453392 0.99589819 -0.072418123
1079596226.4151 0.9967922 -0.075359829 0.0024443222 0.036483388 0.0024830829 0.036861435 0.99594611 -0.073188797
1089592452.8302 0.99678212 -0.076042771 0.0024639806 0.036815904 0.0025385916 0.037143573 0.99578893 -0.073931813
1099588679.2453 0.99684823 -0.076695859 0.0024800561 0.037153382 0.0025307406 0.037480682 0.99541509 -0.07457152
1109584905.6604 0.99697667 -0.077486172 0.0024999604 0.037541926 0.0025749151 0.037858743 0.99514568 -0.075114205
1119581132.0755 0.99689347 -0.078595936 0.0025332663 0.037845146 0.0025782394 0.038192194 0.99503279 -0.075552166
1129577358.4906 0.99666202 -0.079338044 0.002576882 0.038213924 0.002646625 0.038580187 0.99484533 -0.075994313
1139573584.9057 0.99644971 -0.080281287 0.0026729172 0.038550563 0.0027122842 0.038905755 0.99498641 -0.076705098
1149569811.3208 0.99637061 -0.081155047 0.0026875248 0.038908526 0.002783078 0.039241552 0.99507928 -0.077517934
1159566037.7358 0.99607992 -0.081772506 0.002738703 0.039219379 0.0027855206 0.039566163 0.99516004 -0.078531891
1169562264.1509 0.99591231 -0.082513034 0.0027327873 0.039550547 0.0027928147 0.039872665 0.99502301 -0.079361528
1179558490.566 0.99593812 -0.083174348 0.002756733 0.039901696 0.0028402118 0.040269904 0.9949075 -0.08005549
1189554716.9811 0.99584115 -0.083937526 0.0027767029 0.040260501 0.0029121451 0.040604509 0.99453151 -0.08053869
1199550943.3962 0.99582648 -0.084881574 0.0028256178 0.040636398 0.0029538199 0.041000046 0.99447161 -0.080926359
1209547169.8113 0.99570566 -0.08575666 0.002860589 0.040931139 0.0029913513 0.041266121 0.99427438 -0.08129926
1219543396.2264 0.99546075 -0.086654723 0.0029357704 0.041341342 0.0030505848 0.041647151 0.99436504 -0.081721067
1229539622.6415 0.99515867 -0.087398916 0.0030087326 0.04168389 0.0031359252 0.042004801 0.99448705 -0.082427591
1239535849.0566 0.99494439 -0.088040292 0.0030531734 0.041977018 0.0031983741 0.042336151 0.99467307 -0.083427072
1249532075.4717 0.99450177 -0.088862337 0.0031422696 0.042313125 0.0032706149 0.042669922 0.9944886 -0.084330261
1259528301.8868 0.99433613 -0.08932209 0.0031554271 0.042657893 0.0033132024 0.042990297 0.99426037 -0.085124761
1269524528.3019 0.99418789 -0.090097517 0.0032411683 0.042965114 0.0033862256 0.043286681 0.99396324 -0.085761905
1279520754.717 0.99380004 -0.090782888 0.0033091391 0.0432702 0.0034629945 0.043576699 0.99371487 -0.086346507
1289516981.1321 0.99373251 -0.091694683 0.003325847 0.043591343 0.0034568729 0.043885246 0.99378282 -0.086800903
1299513207.5472 0.99338615 -0.092485189 0.0033023525 0.043892764 0.0034783166 0.044223569 0.99386692 -0.087174833
1309509433.9623 0.99295056 -0.093253344 0.0033629527 0.044203904 0.0035015903 0.04452372 0.99395764 -0.08794488
1319505660.3774 0.99246907 -0.093943223 0.0033663316 0.044534035 0.0035113767 0.044825092 0.99399787 -0.088555932
1329501886.7925 0.99221879 -0.094566464 0.0033788029 0.044864625 0.0035511944 0.045197297 0.99399936 -0.089615613
1339498113.2075 0.99194062 -0.095151395 0.0033805761 0.045195155 0.0035652341 0.045496255 0.99361932 -0.090265036
1349494339.6226 0.99172789 -0.095696516 0.0033773049 0.045575578 0.0035236902 0.045850195 0.99317735 -0.09090472
1359490566.0377 0.9916777 -0.096352339 0.003410697 0.045950428 0.0035538618 0.046203859 0.99296588 -0.091461062
1369486792.4528 0.9914912 -0.096853137 0.0034123175 0.046340022 0.0035796687 0.046592023 0.99281579 -0.091897577
1379483018.8679 0.99118811 -0.097383767 0.0034486155 0.046681274 0.003573315 0.046966098 0.99286723 -0.092287958
1389479245.283 0.99083263 -0.098001361 0.0034989994 0.047049478 0.0036158562 0.047368634 0.99283737 -0.092922688
1399475471.6981 0.99041557 -0.098386467 0.0035308395 0.047446843 0.0036212429 0.047715906 0.99299526 -0.093612701
1409471698.1132 0.9900732 -0.098711349 0.0035715774 0.047833078 0.0036674677 0.048100013 0.99303561 -0.094489202
1419467924.5283 0.98987025 -0.099041283 0.0036046915 0.04818967 0.0037004268 0.04847743 0.99285209 -0.095196068
1429464150.9434 0.98965573 -0.099529773 0.003655253 0.048632741 0.0036972575 0.048911747 0.99270034 -0.095755041
1439460377.3585 0.98984194 -0.099916428 0.0037312293 0.049076032 0.003775103 0.049295329 0.99245167 -0.096036032
1449456603.7736 0.98988032 -0.10051548 0.0038385559 0.049487147 0.0038922457 0.049763046 0.99228394 -0.09641178
1459452830.1887 0.98994124 -0.10127172 0.0039960574 0.049896009 0.0040084366 0.050163072 0.9924556 -0.096772403
1469449056.6038 0.98993134 -0.10186079 0.0041418308 0.050240494 0.004185603 0.050507471 0.99271625 -0.097469747
1479445283.0189 0.98980165 -0.10262588 0.0042829961 0.050523303 0.0043248669 0.050789144 0.99271291 -0.098380558
1489441509.434 0.9896093 -0.10305542 0.0044024698 0.05080865 0.004475154 0.051154878 0.99252057 -0.099325508
1499437735.8491 0.98949701 -0.10337475 0.0045041386 0.051126774 0.0045477599 0.051430438 0.99252987 -0.10015273
1509433962.2642 0.98943084 -0.10395615 0.0046074828 0.051428877 0.0046171001 0.051722389 0.99235564 -0.10082518
1519430188.6792 0.98958606 -0.10447016 0.0046577677 0.051669043 0.0047151037 0.05195922 0.99214077 -0.10138446
1529426415.0943 0.98941791 -0.10508892 0.0047320221 0.051973578 0.0047596712 0.052289285 0.99208915 -0.1018092
1539422641.5094 0.98955983 -0.10587443 0.0047593024 0.05229257 0.0048157983 0.052608427 0.99214548 -0.10229431
1549418867.9245 0.98941958 -0.10677862 0.0048453212 0.0525993 0.0048446422 0.052902084 0.99234444 -0.10297838
1559415094.3396 0.98925292 -0.10748586 0.0049674548 0.05286777 0.0048889089 0.053201817 0.99251866 -0.10369784
1569411320.7547 0.98908323 -0.10832734 0.0049893791 0.053184275 0.0049731648 0.053516913 0.99241614 -0.10451071
1579407547.1698 0.98901272 -0.10877751 0.00496588 0.053432733 0.0049799951 0.053810704 0.99198461 -0.1053516
1589403773.5849 0.98898888 -0.10927215 0.0049417298 0.053748161 0.0049974769 0.054088917 0.99174488 -0.1061542
1599400000 0.98893851 -0.1097537 0.0049897451 0.054038063 0.0049957708 0.054439869 0.99146473 -0.10658634
1609396226.4151 0.98891324 -0.11044549 0.0049926192 0.054375481 0.004964984 0.054733675 0.99125731 -0.10708393
1619392452.8302 0.98886013 -0.11104077 0.0050255787 0.054756038 0.004938649 0.055089839 0.99123442 -0.10748515
1629388679.2453 0.98873973 -0.1117599 0.0050136037 0.055101082 0.004986478 0.055516452 0.99142408 -0.10803077
1639384905.6604 0.98840433 -0.11243746 0.0050463504 0.055449933 0.0050008004 0.055873375 0.99172467 -0.10895518
1649381132.0755 0.98819041 -0.11308131 0.0050744489 0.055843405 0.005004853 0.056254815 0.99168932 -0.10990381
1659377358.4906 0.98802352 -0.11391094 0.0050541759 0.056215398 0.0050386805 0.056597047 0.99165761 -0.1108084
1669373584.9057 0.98795569 -0.11438285 0.0050988384 0.056599967 0.0051336014 0.057027027 0.99134994 -0.11141779
1679369811.3208 0.98800045 -0.11508946 0.005158551 0.056988772 0.0051292423 0.057386007 0.99108315 -0.11205992
1689366037.7358 0.98801732 -0.11577114 0.0052128658 0.057332881 0.0052120648 0.057765491 0.99093246 -0.11234948
1699362264.1509 0.98817217 -0.1162466 0.0052441619 0.057762425 0.0052721174 0.058223505 0.99113584 -0.11268705
1709358490.566 0.98805684 -0.11694908 0.0053463299 0.058162373 0.0053429436 0.058557518 0.99116349 -0.11332643
1719354716.9811 0.98772657 -0.11759928 0.0053810384 0.058489561 0.0053977855 0.05898815 0.99121279 -0.11398637
1729350943.3962 0.98736763 -0.11814004 0.0054736193 0.058917165 0.0055146664 0.059308819 0.9912734 -0.114941
