!Keysight Technologies,N5222B,MY61253708,A.15.00.15
!Date: Wednesday, June 19, 2024 09:45:22
!Correction: S11(C  2-Port  ) 
!S21(C  2-Port  ) 
!S12(C  2-Port  ) 
!S22(C  2-Port  ) 
!S2P File: Measurements: S11, S21, S12, S22:
# Hz S  RI   R 50
10000000 0.99866545 -0.0024901927 5.22677e-005 0.00039992703 0.00015364743 0.00019497932 0.99886072 -0.0015451014
19996226.415094 0.99884945 -0.0030225515 8.1960694e-005 0.00053343095 1.0031479e-005 0.00059590337 0.99899983 -0.0033494234
29992452.830189 0.99973279 -0.0024462342 -9.1561815e-006 0.00092775904 -8.019786e-005 0.00099136424 0.9993977 -0.0027824938
39988679.245283 1.0000927 -0.0029839724 7.5593241e-005 0.0013364875 -2.7190821e-005 0.0013127074 0.99970239 -0.0031380951
49984905.660377 1.0002279 -0.0036474466 5.4260192e-005 0.0016508084 2.087187e-005 0.0017191409 0.99985361 -0.0036281943
59981132.075472 1.0003908 -0.0045940876 4.4022221e-005 0.0020148477 -6.0869497e-006 0.0020199169 0.99984151 -0.0042535067
69977358.490566 1.0002218 -0.005147256 4.3731441e-005 0.0023095149 2.5753321e-005 0.0023296983 0.99973208 -0.0048254393
79973584.90566 0.99995512 -0.0057618022 1.9494444e-005 0.0026715142 1.6551814e-005 0.0026485573 0.99941671 -0.0053068697
89969811.320755 0.99993879 -0.0058526397 1.0690186e-005 0.0029739465 8.0990139e-006 0.0030078229 0.99963737 -0.0055128932
99966037.735849 1.0001454 -0.0065787584 3.0973984e-005 0.0033346429 1.9040308e-006 0.0032986666 0.99967957 -0.0063375831
109962264.15094 1.0001931 -0.0074789673 4.2071391e-005 0.0036266714 3.1278469e-005 0.0036864376 0.99967641 -0.0071510077
119958490.56604 1.0001938 -0.0084080994 2.6292633e-005 0.003951529 3.2849028e-005 0.0040024607 0.99970365 -0.0080160797
129954716.98113 1.0001336 -0.009393096 3.4575001e-005 0.0043098819 3.5412959e-005 0.0043158485 0.99969554 -0.0089086592
139950943.39623 1.0000827 -0.010156706 6.4972126e-005 0.0046150079 5.2950258e-005 0.0046415199 0.99959111 -0.0096871033
149947169.81132 0.99995464 -0.010844111 2.792594e-005 0.0049427915 6.152736e-005 0.0049804151 0.99956334 -0.010278314
159943396.22642 0.99992985 -0.011390418 6.4306892e-005 0.0052779336 6.3157873e-005 0.0053168349 0.99964058 -0.010717273
169939622.64151 0.99989808 -0.011783928 6.2125851e-005 0.0056337263 5.045865e-005 0.00567846 0.99966705 -0.011189222
179935849.0566 0.99998844 -0.012008011 6.4503751e-005 0.0059831766 7.4292067e-005 0.0060074953 0.99960029 -0.011564672
189932075.4717 1.0000635 -0.012770653 7.543806e-005 0.0062821098 0.00010541733 0.0063349805 0.99975717 -0.0121032
199928301.88679 1.0000248 -0.013634086 0.0001057873 0.006607689 6.818166e-005 0.0066430871 0.99964917 -0.012980282
209924528.30189 0.99982113 -0.01423268 9.0372982e-005 0.0069149267 8.5271546e-005 0.0070111002 0.99948084 -0.013620064
219920754.71698 0.9999038 -0.015006572 0.00013573561 0.0072754361 9.3006995e-005 0.0073226881 0.99936682 -0.014280021
229916981.13208 0.99966484 -0.015918106 9.9097379e-005 0.0076018046 0.00013561407 0.0076604341 0.99934101 -0.015134037
239913207.54717 0.99952507 -0.016577667 0.00015337931 0.0079171071 0.00014211924 0.0080302507 0.99927181 -0.015816279
249909433.96226 0.99958146 -0.017175525 0.00013926392 0.0082355542 0.00014677085 0.0083435103 0.99934465 -0.016447723
259905660.37736 0.9995867 -0.01783365 0.00018300023 0.0085835429 0.00011505606 0.0087093385 0.99949849 -0.017003804
269901886.79245 0.9998439 -0.018403903 0.00014205487 0.0089274291 0.00015713961 0.0089623332 0.99990618 -0.017824635
279898113.20755 0.99985659 -0.019067749 0.00014792383 0.0092662098 0.00017348561 0.0093415016 0.99974066 -0.018485725
289894339.62264 0.99971354 -0.019806743 0.00017269515 0.0096184649 0.00017947238 0.0096462741 0.99964601 -0.019216627
299890566.03774 0.99983013 -0.020308137 0.00017334451 0.0099462597 0.00015155994 0.010008152 0.99947339 -0.019741029
309886792.45283 0.99959821 -0.020857304 0.00017590472 0.010207309 0.00020364835 0.010313138 0.99929917 -0.02013474
319883018.86792 0.99960065 -0.021545082 0.00022705924 0.010537777 0.00026952242 0.010703044 0.99936098 -0.020633996
329879245.28302 0.99956429 -0.022342592 0.00021230616 0.010934084 0.00025193859 0.010980513 0.99954569 -0.021401227
339875471.69811 0.9995867 -0.023017362 0.00028689567 0.011208261 0.00023349584 0.011305629 0.9993934 -0.022220179
349871698.11321 0.99968171 -0.023934603 0.00023733941 0.011557504 0.00028333976 0.011670535 0.99940801 -0.023119092
359867924.5283 0.99946487 -0.024659514 0.00027481094 0.011871403 0.00026486814 0.011982296 0.99932885 -0.023997635
369864150.9434 0.99968702 -0.025532007 0.00029173284 0.012222228 0.00032538828 0.012358345 0.99934769 -0.024656087
379860377.35849 0.99965715 -0.026102513 0.00032304507 0.01253865 0.00031685084 0.012667163 0.99928528 -0.025369823
389856603.77358 0.99950904 -0.026700377 0.00036946405 0.012847274 0.00039124908 0.012967215 0.99932289 -0.025786221
399852830.18868 0.9992981 -0.027401865 0.00038891286 0.013188028 0.00039469171 0.013287834 0.99934542 -0.026279688
409849056.60377 0.99926621 -0.027770514 0.00038381197 0.013535758 0.00037206782 0.013670876 0.99931759 -0.026777145
419845283.01887 0.99914217 -0.028260797 0.00036674738 0.013898201 0.00036455132 0.013987244 0.99934459 -0.027300179
429841509.43396 0.99925816 -0.02883473 0.00040125148 0.014135512 0.00042577181 0.014309166 0.99958235 -0.02801761
439837735.84906 0.99909616 -0.029688299 0.00042695191 0.014517567 0.0004163204 0.014653699 0.99930674 -0.029020265
449833962.26415 0.99904138 -0.030579656 0.00044023013 0.014855725 0.00046103681 0.014930877 0.99899614 -0.029872209
459830188.67925 0.99894631 -0.031281799 0.00044199079 0.01514837 0.00045911875 0.015278377 0.99882627 -0.030587345
469826415.09434 0.99879998 -0.032012612 0.00049283635 0.01548706 0.00042940257 0.01561587 0.99861151 -0.031137824
479822641.50943 0.99878758 -0.032586135 0.00050052186 0.015812613 0.00048631337 0.0159772 0.99860883 -0.031622574
489818867.92453 0.99884558 -0.033066243 0.00052368874 0.016170435 0.00051591732 0.01631272 0.99892044 -0.032164574
499815094.33962 0.99888188 -0.033759028 0.00054344768 0.016481021 0.00054724002 0.016638316 0.99923766 -0.032745153
509811320.75472 0.99909735 -0.034127988 0.00056318549 0.016794087 0.0005780611 0.016908767 0.99926823 -0.03352277
519807547.16981 0.99891251 -0.034759939 0.00056970166 0.017107906 0.00054644095 0.017260952 0.9992727 -0.03430143
529803773.58491 0.99893463 -0.035282612 0.00061130896 0.017449502 0.00063131656 0.01761267 0.99901462 -0.034872293
539800000 0.99902779 -0.035941422 0.0005966716 0.017797666 0.00061586476 0.017962141 0.9988429 -0.03562896
549796226.41509 0.99886805 -0.036743611 0.00057622045 0.018131008 0.0006431709 0.018309938 0.99876511 -0.036059827
559792452.83019 0.99867141 -0.037452996 0.00070716068 0.018447442 0.00067053735 0.018632255 0.99862444 -0.036571711
569788679.24528 0.9985404 -0.038102716 0.00069167791 0.018765492 0.00071547274 0.019002637 0.99874234 -0.037299573
579784905.66038 0.99846536 -0.038699105 0.00070833496 0.019153493 0.00076306507 0.019271528 0.99887609 -0.038060993
589781132.07547 0.99864805 -0.039311737 0.00077182055 0.019454425 0.00073396135 0.01966143 0.9989906 -0.038968056
599777358.49057 0.99874967 -0.039977103 0.00080246013 0.019793618 0.00076614134 0.019970682 0.99899894 -0.039683789
609773584.90566 0.99895167 -0.040833004 0.00079908222 0.020087183 0.00084785366 0.020289628 0.99880242 -0.040514454
619769811.32075 0.99895477 -0.041426301 0.00083866483 0.02041913 0.00087476242 0.020599665 0.99876684 -0.041086406
629766037.73585 0.99883759 -0.042080462 0.00088316109 0.020731669 0.00090237241 0.020945182 0.9985795 -0.041639626
639762264.15094 0.99864209 -0.042650834 0.00089946506 0.021061877 0.00091128191 0.021225346 0.99845374 -0.042093903
649758490.56604 0.99857241 -0.043345228 0.00089347642 0.021330159 0.00093544135 0.021601928 0.99853081 -0.042499214
659754716.98113 0.99848509 -0.043772876 0.00091760792 0.021726754 0.00092695653 0.021917284 0.99862593 -0.043083161
669750943.39623 0.99845719 -0.044272304 0.00093673123 0.022054199 0.00094805099 0.022246977 0.99865758 -0.043839008
679747169.81132 0.99833864 -0.045051768 0.0009607363 0.022411473 0.00096769317 0.022625832 0.99858522 -0.044792399
689743396.22642 0.99859118 -0.045844525 0.001022405 0.022746442 0.0010549854 0.022939388 0.99843955 -0.045758158
699739622.64151 0.99867517 -0.046622902 0.0010847123 0.023049038 0.0010606516 0.023257472 0.99836862 -0.046434104
709735849.0566 0.99865258 -0.047517098 0.0011143842 0.023396727 0.0011064631 0.023560656 0.99815762 -0.04706493
719732075.4717 0.99847543 -0.048174411 0.0011242866 0.023678973 0.0011440548 0.023871476 0.99826002 -0.047669351
729728301.88679 0.99837315 -0.048805863 0.0011780942 0.024003213 0.0011550616 0.024235148 0.99829376 -0.048068285
739724528.30189 0.99829656 -0.049425825 0.0011938368 0.024357973 0.0012100437 0.024581101 0.99847865 -0.048796877
749720754.71698 0.99830598 -0.049936086 0.0012590815 0.024658049 0.0012374884 0.024868349 0.99841261 -0.049494177
759716981.13208 0.99836743 -0.050478756 0.0012779841 0.024966579 0.0012542829 0.02520347 0.9984268 -0.050266623
769713207.54717 0.99820024 -0.051186234 0.0012812801 0.025263783 0.0012967465 0.025533605 0.99816549 -0.050946653
779709433.96226 0.99840242 -0.051756598 0.0012881778 0.025615372 0.001327845 0.025866272 0.99791372 -0.051556412
789705660.37736 0.99827671 -0.052732259 0.0013657082 0.025919549 0.0013963263 0.026154086 0.99766397 -0.052325338
799701886.79245 0.99818814 -0.053472906 0.0013518976 0.02625588 0.0013704039 0.026492037 0.99757087 -0.052890748
809698113.20755 0.99813098 -0.054087698 0.0014004197 0.02655595 0.0013957487 0.026784595 0.99765748 -0.053297952
819694339.62264 0.99798423 -0.054717898 0.0014277217 0.026870415 0.0014423099 0.027170764 0.99775326 -0.053912997
829690566.03774 0.99793124 -0.055407882 0.00144976 0.027218103 0.001478238 0.027461726 0.99793059 -0.05480516
839686792.45283 0.9980104 -0.055726916 0.0014699646 0.027526546 0.0015299735 0.02778467 0.99802518 -0.055633217
849683018.86792 0.99809283 -0.056460306 0.0015329986 0.027885968 0.0015486553 0.028128661 0.99793184 -0.056413427
859679245.28302 0.99810666 -0.057180434 0.0015739342 0.028171379 0.0015550358 0.028424561 0.99771017 -0.057044566
869675471.69811 0.99802583 -0.057881862 0.0016534943 0.028528625 0.0016067149 0.028784193 0.99734366 -0.057550609
879671698.11321 0.99794227 -0.058497172 0.0016265493 0.028795337 0.0016309454 0.029081127 0.99730378 -0.057981052
889667924.5283 0.99779111 -0.05931735 0.0016650744 0.029108241 0.0016682399 0.029374251 0.99714106 -0.058487147
899664150.9434 0.99757779 -0.060012698 0.0016825711 0.029429162 0.0017057341 0.029685201 0.99721575 -0.059056729
909660377.35849 0.99757779 -0.060741022 0.001681977 0.029764088 0.0017162077 0.030050607 0.99738127 -0.05994086
919656603.77358 0.99769819 -0.061347961 0.0017658938 0.030073514 0.0017563854 0.030375209 0.99737632 -0.060847223
929652830.18868 0.99767667 -0.062051713 0.0017457427 0.030366741 0.0017970856 0.030678108 0.99714994 -0.06176579
939649056.60377 0.99782425 -0.062671244 0.0017468268 0.030723311 0.0018057898 0.031014439 0.99703526 -0.062477529
949645283.01887 0.99786741 -0.063503243 0.001757096 0.031068632 0.0018005146 0.031331308 0.99685055 -0.06301114
959641509.43396 0.9977352 -0.06422779 0.0018022424 0.031411406 0.0018408261 0.031696327 0.99673069 -0.063475549
969637735.84906 0.9976517 -0.064921945 0.0018440504 0.031744741 0.0018842267 0.032042224 0.99675918 -0.063900203
979633962.26415 0.9974283 -0.065652706 0.0019059135 0.032030955 0.0019379361 0.032376897 0.99680394 -0.064499781
989630188.67925 0.99751621 -0.066207558 0.0019850684 0.032353576 0.0019762712 0.032671165 0.99700487 -0.065122306
999626415.09434 0.99765897 -0.066805363 0.0019672504 0.032690398 0.0020118337 0.033017948 0.99694246 -0.065907866
1009622641.5094 0.99763244 -0.067454726 0.001989508 0.033024274 0.0020519691 0.033382695 0.99678904 -0.066691801
1019618867.9245 0.99760932 -0.068227604 0.0020436472 0.033354342 0.0021085958 0.033682112 0.99651885 -0.067603454
1029615094.3396 0.99766445 -0.069160342 0.0021099634 0.033685058 0.0021559503 0.03396263 0.99621636 -0.068148911
1039611320.7547 0.99767494 -0.069927454 0.0021424498 0.033933476 0.0021899976 0.034275997 0.99620914 -0.06878835
1049607547.1698 0.99753141 -0.070974916 0.0021623613 0.034264334 0.0022185901 0.034621652 0.99612164 -0.069468871
1059603773.5849 0.99736679 -0.071575373 0.002174966 0.034540582 0.0022522733 0.034878626 0.99607837 -0.069962472
1069600000 0.99725366 -0.072284132 0.0022000717 0.034887414 0.0022679362 0.035224631 0.99625707 -0.070659429
1079596226.4151 0.99724686 -0.072846025 0.0022168881 0.035220806 0.0022649574 0.0355375 0.99624974 -0.071421936
1089592452.8302 0.99728423 -0.073542118 0.0022432189 0.035547968 0.0022739368 0.035870086 0.99620265 -0.072181225
1099588679.2453 0.99731219 -0.074243516 0.0022236314 0.035862885 0.0023232661 0.036209382 0.99581891 -0.072825551
1109584905.6604 0.99736285 -0.075000122 0.002292376 0.03621557 0.0023490461 0.036572289 0.99563229 -0.073407635
1119581132.0755 0.99735153 -0.076051399 0.0022503221 0.036535002 0.0023723333 0.036908854 0.99541795 -0.073808163
1129577358.4906 0.99715078 -0.076649636 0.002325708 0.036900327 0.0024422705 0.037238821 0.99535275 -0.074208796
1139573584.9057 0.99690378 -0.077567846 0.0023799026 0.037220184 0.0024699811 0.037604112 0.99540293 -0.07490164
1149569811.3208 0.99681234 -0.078454122 0.002441877 0.037538268 0.0025193368 0.037904616 0.99552041 -0.075580731
1159566037.7358 0.99656475 -0.079156965 0.0024989154 0.037873093 0.0025746915 0.038221531 0.99559438 -0.076620191
1169562264.1509 0.99650133 -0.079702675 0.0024796203 0.03816507 0.002551429 0.038548388 0.99547625 -0.077343941
1179558490.566 0.99639976 -0.080508381 0.0024921354 0.038507737 0.0025968945 0.038906556 0.99531537 -0.078103773
1189554716.9811 0.99644852 -0.081262082 0.0025180979 0.038870025 0.0026445435 0.039216742 0.99514538 -0.078640759
1199550943.3962 0.99638003 -0.082066864 0.0025680382 0.039227702 0.0027106237 0.03955787 0.99482656 -0.07909888
1209547169.8113 0.99617696 -0.083018139 0.00264432 0.039576739 0.0027400628 0.039895687 0.99478376 -0.079422444
1219543396.2264 0.99595964 -0.08381635 0.0026740059 0.039893314 0.0027876711 0.040282048 0.99490273 -0.079803526
1229539622.6415 0.99574292 -0.084611565 0.0027381144 0.040238019 0.0028613377 0.040572826 0.99504757 -0.080479562
1239535849.0566 0.99549937 -0.085172087 0.0027973466 0.040535063 0.0029130084 0.040919747 0.99517423 -0.08134225
1249532075.4717 0.99517351 -0.085871957 0.0028163351 0.040842336 0.0029804844 0.041208141 0.99501103 -0.082245931
1259528301.8868 0.99500531 -0.086399853 0.0028777253 0.041180789 0.0030107424 0.041525502 0.99478632 -0.083062142
1269524528.3019 0.99475837 -0.087134659 0.0029670894 0.041501246 0.003115708 0.04183073 0.99458486 -0.083762079
1279520754.717 0.99439436 -0.087865017 0.0030166802 0.041778885 0.0031889183 0.042073175 0.9942162 -0.084338501
1289516981.1321 0.99434888 -0.088693947 0.0030120099 0.042068005 0.0031717299 0.042396966 0.99432307 -0.08474493
1299513207.5472 0.99398428 -0.089544624 0.0030331984 0.042390116 0.0032109432 0.042706929 0.9944371 -0.08510527
1309509433.9623 0.99355578 -0.090177149 0.0030517131 0.042675991 0.0032196222 0.043005515 0.99451071 -0.085882336
1319505660.3774 0.99326092 -0.091061503 0.0030366573 0.043024197 0.0032088617 0.043328632 0.9946062 -0.086460978
1329501886.7925 0.9929561 -0.091639996 0.0030883923 0.043358903 0.0032487772 0.043682385 0.99456382 -0.087498009
1339498113.2075 0.99266696 -0.092066288 0.0031082602 0.043655604 0.0032397145 0.04399243 0.99419123 -0.08816582
1349494339.6226 0.99252731 -0.092616782 0.003073703 0.044009957 0.003236589 0.044296756 0.99381971 -0.088851422
1359490566.0377 0.99236023 -0.093209952 0.0031120982 0.044382539 0.0032210518 0.044662684 0.99369889 -0.089325279
1369486792.4528 0.99214816 -0.093696952 0.0031055892 0.044728234 0.0032231156 0.045021389 0.99344516 -0.089722633
1379483018.8679 0.99188203 -0.094292238 0.0031220627 0.04508245 0.0032505095 0.045387976 0.99342555 -0.090082332
1389479245.283 0.99152648 -0.094876051 0.0031925645 0.04542505 0.0032774862 0.0457539 0.99347574 -0.090774238
1399475471.6981 0.99109238 -0.095233232 0.0031787846 0.045806486 0.0032780822 0.046093285 0.99360275 -0.091412097
1409471698.1132 0.99092132 -0.095624946 0.0032517035 0.046195779 0.00331651 0.046481449 0.99367326 -0.092306718
1419467924.5283 0.99071032 -0.095947236 0.0032580346 0.046585925 0.0033467021 0.046869971 0.9934752 -0.093044817
1429464150.9434 0.99053478 -0.096385002 0.0032790359 0.046961993 0.003427105 0.047250383 0.99326098 -0.093510151
1439460377.3585 0.99072874 -0.096815184 0.0033552675 0.047416512 0.0034601307 0.047687341 0.99311453 -0.093875602
1449456603.7736 0.9906733 -0.097389638 0.0034488961 0.047790244 0.0035330215 0.048088469 0.99301004 -0.094220191
1459452830.1887 0.99074769 -0.098106652 0.0036282223 0.048182458 0.0036616977 0.048484776 0.99311602 -0.094611049
1469449056.6038 0.9906981 -0.098677695 0.0037578102 0.048543107 0.0038060211 0.048818927 0.99329382 -0.095192373
1479445283.0189 0.99064898 -0.099294722 0.0038966704 0.048787601 0.0039571719 0.049100611 0.99337322 -0.096089661
1489441509.434 0.99049842 -0.099798948 0.0040147249 0.04916003 0.0040846411 0.049408142 0.99324226 -0.096933514
1499437735.8491 0.99042976 -0.10011771 0.0041650794 0.049431194 0.004199015 0.04970172 0.99314344 -0.097737491
1509433962.2642 0.99047571 -0.10064207 0.0042357948 0.049688209 0.0042208121 0.050014772 0.99298835 -0.098467976
1519430188.6792 0.99053168 -0.10123339 0.0042705778 0.049981613 0.0043072086 0.0502785 0.99294198 -0.099036843
1529426415.0943 0.99037039 -0.10184437 0.0043390524 0.050231636 0.0043505654 0.050540343 0.99278164 -0.099552184
1539422641.5094 0.99053085 -0.10266129 0.004406414 0.050503403 0.0044447985 0.050873436 0.99282771 -0.099960744
1549418867.9245 0.99028659 -0.10345536 0.0044669518 0.050821081 0.0045150621 0.05112727 0.99304938 -0.10067499
1559415094.3396 0.99026608 -0.10411406 0.004513843 0.051105861 0.0044924188 0.051434465 0.99318886 -0.10135406
1569411320.7547 0.99002212 -0.10492674 0.0045658732 0.051331405 0.0045306729 0.051724944 0.99316156 -0.10211049
1579407547.1698 0.99001211 -0.10529634 0.0045467047 0.051628903 0.004584169 0.051997069 0.99276352 -0.10301413
1589403773.5849 0.9899413 -0.10585895 0.0045466945 0.051879615 0.0045946687 0.052282557 0.99248898 -0.10369825
1599400000 0.9898684 -0.10638452 0.0045972411 0.052176297 0.0045746984 0.052596226 0.9922033 -0.10407519
1609396226.4151 0.9898625 -0.10703677 0.0045428136 0.05256357 0.0045702206 0.052896034 0.99195427 -0.10467289
1619392452.8302 0.98985851 -0.10770255 0.0045735855 0.052913286 0.0045474935 0.053259585 0.99194854 -0.10509571
1629388679.2453 0.98966873 -0.10832608 0.0045620948 0.053218219 0.0046004318 0.05366417 0.9921459 -0.10563564
1639384905.6604 0.98941433 -0.10897069 0.004531878 0.053551622 0.0045660548 0.05400534 0.99243176 -0.10644296
1649381132.0755 0.98921371 -0.10963789 0.0046253596 0.05393368 0.0046057701 0.054391932 0.99241984 -0.10731211
1659377358.4906 0.98901469 -0.11044985 0.0045923013 0.054280993 0.0045753662 0.054751363 0.99234313 -0.10820794
1669373584.9057 0.98902351 -0.11087533 0.0046369657 0.054690629 0.0046359901 0.055067685 0.99210447 -0.10880626
1679369811.3208 0.98908579 -0.11148658 0.0047002034 0.055058822 0.0046978341 0.055494174 0.99181312 -0.10945672
1689366037.7358 0.98904079 -0.11223012 0.0047691278 0.055440009 0.0047456454 0.055866055 0.99170363 -0.1097005
1699362264.1509 0.98928005 -0.11277427 0.0048029097 0.055782367 0.0048150253 0.05627083 0.99187285 -0.11016785
1709358490.566 0.988994 -0.11340572 0.0048553143 0.056144252 0.0048835743 0.056628175 0.99184638 -0.11071244
1719354716.9811 0.98869526 -0.11402941 0.004888257 0.056539163 0.0049134567 0.057033859 0.99192631 -0.11136284
