!Keysight Technologies,N5222B,MY61253708,A.15.00.15
!Date: Wednesday, June 19, 2024 09:52:32
!Correction: S11(C  2-Port  ) 
!S21(C  2-Port  ) 
!S12(C  2-Port  ) 
!S22(C  2-Port  ) 
!S2P File: Measurements: S11, S21, S12, S22:
# Hz S  RI   R 50
10000000 0.99878383 -0.0030995607 -0.00034799005 0.00043477648 -0.00018864716 0.00031429841 0.99819434 -0.0016990602
19996226.415094 0.99968523 -0.0034514964 3.9062666e-005 0.00066549703 1.9233354e-005 0.00070895534 1.0002546 -0.0033405721
29992452.830189 0.99971139 -0.0024796426 -4.1337757e-005 0.00098553824 1.8359686e-005 0.0010201659 0.9994722 -0.0026643872
39988679.245283 1.0000389 -0.0029602945 -5.9071477e-005 0.0013583996 -2.4665685e-005 0.0013381783 0.99970597 -0.0030971766
49984905.660377 1.0001929 -0.00366804 1.5016936e-005 0.0016162081 -5.7328143e-006 0.0016263714 0.99981546 -0.0035861433
59981132.075472 1.0004034 -0.0045365393 3.0588883e-005 0.0019941744 1.7354265e-005 0.0019700499 0.9997474 -0.0042232275
69977358.490566 1.0001951 -0.0050925314 -9.8542187e-006 0.0022784413 5.8631147e-005 0.0023378092 0.99967515 -0.0047435183
79973584.90566 0.99993145 -0.0057412386 -1.2001256e-006 0.0026413272 8.5656065e-006 0.0026727847 0.99936724 -0.0052320361
89969811.320755 0.99993831 -0.005851984 2.0032399e-005 0.0029900782 4.088867e-005 0.0029772036 0.99960005 -0.0054792166
99966037.735849 1.0001987 -0.0066564381 4.2824075e-005 0.0033113318 8.1364997e-006 0.0033361914 0.99968529 -0.0062231421
109962264.15094 1.0001649 -0.0074959248 4.6544999e-005 0.003654731 1.362816e-005 0.0036572285 0.99967706 -0.0070592314
119958490.56604 1.0002279 -0.008423686 4.2649102e-005 0.0039683203 2.6401132e-005 0.0040029138 0.99972248 -0.0078863204
129954716.98113 1.0001426 -0.0093317032 3.2610609e-005 0.0042721275 5.4071541e-005 0.0043163681 0.99972552 -0.0087711513
139950943.39623 1.0000679 -0.010122124 3.7382328e-005 0.0046286862 3.5401565e-005 0.0046408093 0.99963981 -0.0094898231
149947169.81132 0.99996924 -0.010814786 3.2438198e-005 0.0049772635 3.5717618e-005 0.0049804193 0.99958581 -0.010079592
159943396.22642 0.99989295 -0.011359423 3.9415201e-005 0.0053015398 4.4947956e-005 0.0053103687 0.99964625 -0.010566115
169939622.64151 0.99984562 -0.011765055 6.3425279e-005 0.0056408667 6.702519e-005 0.0056583476 0.99969667 -0.010992602
179935849.0566 0.99996889 -0.012050241 7.2797062e-005 0.0059248507 7.0476555e-005 0.0059799445 0.99960536 -0.011354089
189932075.4717 1.0000634 -0.012841642 6.8058493e-005 0.0063113063 9.3692448e-005 0.0062951497 0.99981761 -0.011911482
199928301.88679 0.9999724 -0.013613135 6.9304951e-005 0.0066022868 8.2302606e-005 0.0066393148 0.99973029 -0.012792557
209924528.30189 0.99974638 -0.014174044 7.8481971e-005 0.0069366242 0.00010209961 0.0069782296 0.99951106 -0.013482749
219920754.71698 0.99986029 -0.014982909 0.00012301118 0.0072860559 0.000141392 0.0072984505 0.99938035 -0.014047056
229916981.13208 0.9996798 -0.015896559 0.000104937 0.0075951666 0.00013364386 0.0076476638 0.9993608 -0.014850289
239913207.54717 0.99955457 -0.016489111 0.00012459843 0.0079073533 0.00012770371 0.0079629757 0.99936569 -0.015574818
249909433.96226 0.99957091 -0.017175168 0.00013983669 0.0082508 0.00014552358 0.0083019044 0.99940026 -0.016227305
259905660.37736 0.99972636 -0.017755568 0.00018403865 0.0085797487 0.00013857661 0.0086078243 0.99958986 -0.016792059
269901886.79245 0.99968433 -0.018458128 0.00015650387 0.0089387223 0.00018685777 0.0089525199 0.99993438 -0.017474398
279898113.20755 0.99989045 -0.019140378 0.00016589323 0.0092326365 0.00019167154 0.0093153724 0.99975628 -0.018214941
289894339.62264 0.99980807 -0.019896269 0.00021570316 0.0096109249 0.00017104065 0.0096704885 0.99964285 -0.018943906
299890566.03774 0.9997592 -0.02046147 0.00013888627 0.0098947184 0.00018087844 0.009962556 0.99940628 -0.019385517
309886792.45283 0.99958211 -0.020927563 0.00021566154 0.01024454 0.00020268781 0.010283729 0.9993549 -0.01972153
319883018.86792 0.99959695 -0.021579236 0.0001895912 0.01057384 0.00024757721 0.010601399 0.99943006 -0.020333618
329879245.28302 0.99954772 -0.022361964 0.00025920104 0.010877454 0.00024240045 0.010979654 0.99955297 -0.021120995
339875471.69811 0.99944335 -0.023062266 0.00026161375 0.011214054 0.00024318998 0.011293557 0.99950218 -0.02189561
349871698.11321 0.99962223 -0.023844391 0.00026762905 0.011569683 0.0002832918 0.011646542 0.99950117 -0.022782356
359867924.5283 0.99947548 -0.024683625 0.00029497966 0.01191055 0.00031739986 0.011923397 0.99947196 -0.023730814
369864150.9434 0.99965721 -0.025457233 0.00032094144 0.012197085 0.00028544641 0.012267958 0.99947017 -0.024420232
379860377.35849 0.99954319 -0.026094556 0.00031229621 0.012569769 0.00034432276 0.012612614 0.99936283 -0.025139138
389856603.77358 0.99944067 -0.026621878 0.00033812737 0.012855681 0.00031851744 0.012946419 0.99934399 -0.025599867
399852830.18868 0.99929243 -0.027266949 0.00037139747 0.013170495 0.0003601918 0.013265041 0.99937034 -0.026091993
409849056.60377 0.99924511 -0.027715258 0.00038145701 0.013527928 0.00036043194 0.013591437 0.99927026 -0.02660499
419845283.01887 0.99920225 -0.02816236 0.00038268324 0.013853728 0.00038079266 0.013946548 0.99926943 -0.027159214
429841509.43396 0.99923527 -0.02888304 0.00040170178 0.014175378 0.00042531407 0.014270318 0.9994548 -0.027857959
439837735.84906 0.99919492 -0.029776096 0.00042176002 0.014496149 0.00044246844 0.014592318 0.99919581 -0.028788358
449833962.26415 0.99913269 -0.030589551 0.00045113824 0.014819018 0.00044749165 0.014889439 0.99888074 -0.029632658
459830188.67925 0.99895829 -0.031233996 0.0004581078 0.015159648 0.00045859022 0.015210591 0.99858558 -0.030271977
469826415.09434 0.99889809 -0.03200236 0.00048184255 0.015514067 0.00047088321 0.015597903 0.99836797 -0.030792713
479822641.50943 0.99880958 -0.032578848 0.0005214347 0.015815971 0.00048125838 0.015939713 0.99838471 -0.03127715
489818867.92453 0.99894905 -0.033127964 0.00052982057 0.01614536 0.00052623823 0.016270638 0.9986124 -0.031713367
499815094.33962 0.99894547 -0.033807576 0.00055192038 0.016489223 0.0005750386 0.016567344 0.99888682 -0.032278746
509811320.75472 0.99906111 -0.03420116 0.00059674494 0.016816031 0.00056533457 0.016871609 0.99905199 -0.033071321
519807547.16981 0.99897039 -0.034730226 0.00061390223 0.017128028 0.0005392707 0.017224606 0.99906474 -0.033795685
529803773.58491 0.99895549 -0.035287857 0.00059564691 0.017466523 0.00061782449 0.017571032 0.99883258 -0.034278452
539800000 0.99912012 -0.03598401 0.00061377138 0.017767819 0.00058847666 0.01790821 0.99870539 -0.034982651
549796226.41509 0.99881023 -0.036812156 0.00059025967 0.018115902 0.00064129196 0.018196879 0.99854034 -0.035365909
559792452.83019 0.99875653 -0.037510008 0.00067258999 0.018447338 0.00066469423 0.01860857 0.9985708 -0.035953939
569788679.24528 0.99861419 -0.038180888 0.00068332441 0.01879645 0.00067705289 0.01887233 0.99873942 -0.036625892
579784905.66038 0.99864268 -0.038814694 0.00070323772 0.019151369 0.00071785878 0.019218942 0.99879599 -0.037413239
589781132.07547 0.99870622 -0.039401382 0.00076031685 0.019444644 0.00076728221 0.019570602 0.99888021 -0.03825897
599777358.49057 0.99879664 -0.040026128 0.00079557393 0.019780753 0.00073324889 0.019911712 0.99894881 -0.039054394
609773584.90566 0.99891341 -0.040755272 0.0008101376 0.020112669 0.00080161402 0.020222912 0.99873644 -0.03984306
619769811.32075 0.99894035 -0.041421592 0.00083086267 0.020424359 0.00085598417 0.020553624 0.99876106 -0.040395826
629766037.73585 0.99882495 -0.042125225 0.00088554621 0.020721458 0.00085494481 0.020827908 0.99858797 -0.040906221
639762264.15094 0.99866819 -0.042780489 0.00090187695 0.021035455 0.0008999072 0.021158127 0.99847519 -0.041393906
649758490.56604 0.99856579 -0.043402985 0.00091745099 0.021326629 0.00087886583 0.02149532 0.99859244 -0.041864172
659754716.98113 0.99838108 -0.043846965 0.0008941628 0.021721147 0.00091275293 0.021822033 0.99855459 -0.042402297
669750943.39623 0.9984467 -0.044385582 0.00094792806 0.022063937 0.00093188277 0.022207761 0.99867815 -0.043174475
679747169.81132 0.99840474 -0.045061842 0.0009733839 0.022400532 0.00098482228 0.022544103 0.99870306 -0.044091091
689743396.22642 0.99852872 -0.045973152 0.00099370349 0.022735182 0.0010476252 0.022876054 0.99852574 -0.045093536
699739622.64151 0.99860835 -0.046688229 0.0010405295 0.0230435 0.0010360535 0.023200771 0.99844474 -0.04574576
709735849.0566 0.99862015 -0.047569335 0.001124171 0.023368156 0.0011227598 0.023496959 0.99818891 -0.04639142
719732075.4717 0.99851078 -0.048310339 0.0011099349 0.023667987 0.0011126208 0.023799254 0.99827957 -0.046946555
729728301.88679 0.9984616 -0.048795164 0.0011836309 0.024011593 0.0011420641 0.024154127 0.99827856 -0.047431171
739724528.30189 0.99833286 -0.049491122 0.0011771377 0.024310665 0.001172157 0.024466336 0.99849617 -0.048110873
749720754.71698 0.99823755 -0.050001264 0.0012092344 0.024623999 0.0012384132 0.024788182 0.99849653 -0.048810869
759716981.13208 0.99834609 -0.050478309 0.0012473324 0.024969321 0.0012383666 0.025136318 0.9984203 -0.049647242
769713207.54717 0.9982419 -0.051259816 0.0012564529 0.025261816 0.0012741638 0.025426434 0.99820459 -0.050274551
779709433.96226 0.9983657 -0.051842913 0.0013013941 0.025605751 0.0013019782 0.025753969 0.99797118 -0.050940808
789705660.37736 0.99825329 -0.052689254 0.0013485039 0.025936019 0.0013541896 0.026069341 0.99763721 -0.051639736
799701886.79245 0.99816167 -0.053475201 0.0013710437 0.026240304 0.0013438351 0.026399579 0.99758875 -0.052191317
809698113.20755 0.99813074 -0.054073304 0.0013775725 0.026565861 0.0013869822 0.026729936 0.99760878 -0.052682757
819694339.62264 0.99796999 -0.054755628 0.0014203074 0.026879443 0.0014213067 0.027046353 0.99769717 -0.053235382
829690566.03774 0.99798691 -0.055359513 0.001455741 0.027213704 0.0014876658 0.027392007 0.99792278 -0.054186016
839686792.45283 0.99803501 -0.055857331 0.00147575 0.027538944 0.001507102 0.027697435 0.9979651 -0.054961205
849683018.86792 0.99812138 -0.056485862 0.0014957918 0.027842861 0.0015108942 0.028024832 0.99781972 -0.055692621
859679245.28302 0.99811506 -0.057175189 0.001531071 0.028172247 0.0015435023 0.028352063 0.99757004 -0.05628401
869675471.69811 0.99805605 -0.057933182 0.0015951693 0.02848164 0.0015793592 0.028671332 0.99726826 -0.056856692
879671698.11321 0.99799281 -0.058542378 0.0016261089 0.028798796 0.0016330122 0.028959665 0.99724936 -0.057277232
889667924.5283 0.99780738 -0.059366763 0.001660049 0.029107545 0.0016534394 0.029289795 0.99710876 -0.057700336
899664150.9434 0.99762422 -0.059978396 0.0016469536 0.029419664 0.0016624657 0.029610585 0.99712396 -0.058317572
909660377.35849 0.99769241 -0.060675338 0.0017141299 0.029768609 0.0017075366 0.029919993 0.99729067 -0.059146106
919656603.77358 0.99772912 -0.061351031 0.001692968 0.030074509 0.0017215898 0.030240186 0.99724686 -0.060000807
929652830.18868 0.99775869 -0.062122464 0.0017663445 0.030375704 0.0017624181 0.030582275 0.99712735 -0.060892105
939649056.60377 0.99789613 -0.06275335 0.001744261 0.030674698 0.0017505763 0.030889198 0.99695897 -0.061596751
949645283.01887 0.99775785 -0.063554794 0.0017313135 0.031034907 0.0017819358 0.031253528 0.99674845 -0.062107876
959641509.43396 0.9977358 -0.064238429 0.0017850501 0.03138344 0.0018213401 0.031589132 0.99667954 -0.062641531
969637735.84906 0.99770784 -0.064928144 0.0018497249 0.031737845 0.0018747002 0.031925283 0.9966836 -0.062941819
979633962.26415 0.99752265 -0.06567765 0.001882212 0.032030396 0.001904649 0.032230813 0.99673289 -0.063615136
989630188.67925 0.99756503 -0.066175729 0.0019323919 0.032357752 0.0019334964 0.032560457 0.99693292 -0.064276785
999626415.09434 0.99762821 -0.066861331 0.0019833623 0.03266133 0.001974144 0.032902092 0.99686909 -0.064995021
1009622641.5094 0.99765438 -0.067429721 0.0019789152 0.03299357 0.0020184033 0.033243358 0.99666625 -0.065830514
1019618867.9245 0.99772263 -0.068269849 0.0020536934 0.033339046 0.0020961738 0.033552423 0.99650222 -0.066688761
1029615094.3396 0.99772358 -0.069138795 0.0020929584 0.033655465 0.0021664212 0.033833042 0.99616468 -0.067234308
1039611320.7547 0.99768597 -0.070010513 0.0021264916 0.033961155 0.0021446496 0.03416077 0.99612546 -0.067927241
1049607547.1698 0.99755877 -0.070917666 0.0021408303 0.034213595 0.0021830304 0.034467682 0.99608123 -0.068575606
1059603773.5849 0.99749285 -0.071645647 0.0021854434 0.034553569 0.0022126408 0.034794632 0.99612367 -0.068998694
1069600000 0.99726754 -0.072285831 0.0021748133 0.03484755 0.0022091223 0.035098929 0.99625021 -0.069758952
1079596226.4151 0.99726331 -0.072897039 0.0021834415 0.035192866 0.0022365567 0.03542288 0.99618566 -0.070424229
1089592452.8302 0.9972614 -0.073553801 0.0022313818 0.035508949 0.0022822544 0.035781316 0.99621904 -0.071257561
1099588679.2453 0.9973104 -0.074261725 0.0022601783 0.035851054 0.0022896715 0.036070518 0.99583918 -0.071873903
1109584905.6604 0.99741083 -0.075031906 0.0022676848 0.036192801 0.002322658 0.036425471 0.99565417 -0.072453007
1119581132.0755 0.99734473 -0.076013625 0.0022995262 0.036533117 0.0023380728 0.03676961 0.99547422 -0.072860107
1129577358.4906 0.99716312 -0.076680511 0.0023243856 0.036874518 0.0023980774 0.037140451 0.9953202 -0.073266655
1139573584.9057 0.99697238 -0.077571899 0.0023595048 0.037191436 0.0024323994 0.037467368 0.99543929 -0.073947757
1149569811.3208 0.99687386 -0.078445725 0.0024084267 0.037545543 0.0024961811 0.037790038 0.99555957 -0.074656606
1159566037.7358 0.99666846 -0.079144955 0.0024658805 0.037835803 0.0025311029 0.038082015 0.99562889 -0.075641125
1169562264.1509 0.99642771 -0.079771876 0.0024883337 0.03813754 0.0025146287 0.038393393 0.99549693 -0.076456994
1179558490.566 0.99643248 -0.080549672 0.002459395 0.038502004 0.0025423528 0.03877762 0.99539042 -0.077128626
1189554716.9811 0.99643981 -0.081275135 0.0025063781 0.038832091 0.0026401877 0.039109338 0.99511915 -0.077733725
1199550943.3962 0.99641675 -0.082128823 0.0025615487 0.03922081 0.0026631411 0.039444964 0.99493235 -0.078122497
1209547169.8113 0.99619138 -0.083052218 0.0025994955 0.039505616 0.0027197339 0.039748825 0.99484074 -0.078477561
1219543396.2264 0.99608773 -0.083790392 0.0026606373 0.039912656 0.0027418789 0.040127885 0.99493289 -0.078855783
1229539622.6415 0.9958784 -0.084569693 0.0027048793 0.040196523 0.0027983803 0.040434338 0.99503112 -0.079502195
1239535849.0566 0.99562407 -0.085217386 0.0027731471 0.040518578 0.0028950963 0.040773213 0.99521297 -0.080432117
1249532075.4717 0.99526751 -0.085921824 0.0028236457 0.040822361 0.0029619478 0.041088033 0.99501967 -0.081155226
1259528301.8868 0.99500912 -0.086428255 0.0028905142 0.041176055 0.0029954128 0.041377269 0.99478626 -0.082055628
1269524528.3019 0.99488717 -0.087224156 0.0029611699 0.041470669 0.0030704383 0.041678175 0.99457991 -0.082791895
1279520754.717 0.99452519 -0.087914012 0.0029884661 0.04175498 0.0031105222 0.041971445 0.99426955 -0.083294809
1289516981.1321 0.9944312 -0.088707626 0.0030052746 0.042036884 0.003123017 0.042252257 0.99428469 -0.083787024
1299513207.5472 0.99401593 -0.089619905 0.0030276645 0.042363051 0.0031403862 0.042596083 0.99441051 -0.084208518
1309509433.9623 0.99369335 -0.090354234 0.0030434681 0.042658031 0.0031678062 0.042885147 0.99452651 -0.084893182
1319505660.3774 0.99330485 -0.091026455 0.0030327076 0.04300021 0.0031609992 0.043200087 0.99464232 -0.085572883
1329501886.7925 0.99308145 -0.09165886 0.0030560717 0.043333504 0.0031813458 0.043523222 0.99464595 -0.086440593
1339498113.2075 0.99279249 -0.092093021 0.0030892259 0.043657687 0.003192002 0.043832645 0.9942196 -0.087140143
1349494339.6226 0.99259591 -0.092778333 0.0030727386 0.043982942 0.0031805919 0.044136975 0.99386805 -0.087739937
1359490566.0377 0.99252439 -0.093286991 0.0030959994 0.044331655 0.0031860992 0.044515997 0.99368787 -0.088228524
1369486792.4528 0.99226892 -0.093773186 0.0031125601 0.044722058 0.0031872047 0.044868294 0.99349773 -0.088681281
1379483018.8679 0.99195677 -0.094363526 0.0031023426 0.045059483 0.0032348717 0.045206755 0.99348652 -0.089033023
1389479245.283 0.99163532 -0.094933838 0.0031775776 0.045421269 0.0032429993 0.045606546 0.99349964 -0.089765072
1399475471.6981 0.99117875 -0.095254779 0.0031695366 0.045766994 0.0032616165 0.045922518 0.99372637 -0.090387821
1409471698.1132 0.9909631 -0.095748946 0.0032000914 0.046174124 0.0033054529 0.046312205 0.99370492 -0.091204233
1419467924.5283 0.99080896 -0.095972717 0.0032602968 0.0465343 0.0033110846 0.046714205 0.99350256 -0.09193036
1429464150.9434 0.99064434 -0.096434712 0.0032692831 0.046948254 0.0033398718 0.047093455 0.99331814 -0.092430949
1439460377.3585 0.99080276 -0.096870989 0.0033620894 0.047403719 0.0034473594 0.047543757 0.99321574 -0.092884779
1449456603.7736 0.99077994 -0.097415462 0.0034579132 0.047766604 0.0035141641 0.047920614 0.99304473 -0.093205899
1459452830.1887 0.99085236 -0.098154068 0.0036164746 0.048150204 0.0036274493 0.048300657 0.99318433 -0.093444765
1469449056.6038 0.99085063 -0.098734707 0.0037575616 0.048491005 0.0037773661 0.048635803 0.99338961 -0.09410277
1479445283.0189 0.99063987 -0.099366888 0.0039334171 0.048830234 0.0038820289 0.048946064 0.99351937 -0.094969481
1489441509.434 0.99059641 -0.099897146 0.0040135924 0.049093045 0.0040823184 0.049264684 0.99337745 -0.095832407
1499437735.8491 0.99051231 -0.10020339 0.0041411258 0.049387164 0.0041445624 0.049529254 0.99325049 -0.09661606
1509433962.2642 0.99043757 -0.10072358 0.0041947556 0.049641706 0.0042143674 0.049795199 0.99310106 -0.097353287
1519430188.6792 0.99057198 -0.10135838 0.0042750761 0.049904443 0.0042878743 0.05008534 0.99296099 -0.098019779
1529426415.0943 0.99046433 -0.10197514 0.00430323 0.050198723 0.0043124855 0.050371274 0.99288607 -0.09836337
1539422641.5094 0.99049032 -0.10278892 0.0043799919 0.050504509 0.0043788129 0.050689645 0.99297261 -0.098917566
1549418867.9245 0.99034679 -0.10355429 0.0044549005 0.050754696 0.0044288058 0.050960179 0.99320042 -0.099587515
1559415094.3396 0.99024594 -0.10415453 0.0044990685 0.051049359 0.0045084022 0.051269457 0.99324536 -0.10020444
1569411320.7547 0.9901014 -0.10498163 0.0045059975 0.051304091 0.0044987183 0.051554039 0.99318582 -0.1010333
1579407547.1698 0.99001354 -0.10541464 0.0045493892 0.051625881 0.0045079859 0.051837351 0.99290991 -0.10183221
1589403773.5849 0.9900682 -0.10598335 0.0045362618 0.051923584 0.0045523942 0.052132577 0.99270189 -0.10255349
1599400000 0.9899382 -0.10648984 0.0045510698 0.052194219 0.0045294603 0.052441329 0.99240309 -0.10295027
1609396226.4151 0.99001598 -0.10713439 0.0045391871 0.052558441 0.0044928454 0.052749701 0.99214876 -0.10355335
1619392452.8302 0.98990685 -0.10778812 0.0045613293 0.052854359 0.0045329072 0.053083479 0.99210751 -0.10398692
1629388679.2453 0.98968214 -0.10839665 0.0045381524 0.0532245 0.0045251567 0.053480946 0.99231017 -0.10448927
1639384905.6604 0.98950243 -0.10912147 0.0045713838 0.053574141 0.0045497455 0.05380661 0.99260688 -0.10536122
1649381132.0755 0.9892354 -0.10978514 0.0045525953 0.053928606 0.0045755021 0.054177217 0.9925561 -0.10621628
1659377358.4906 0.98911548 -0.11057234 0.0045875628 0.054301925 0.0045561288 0.054602005 0.99249935 -0.10711688
1669373584.9057 0.98903251 -0.11098099 0.0046740966 0.054674327 0.0046015522 0.054921851 0.99227893 -0.10780211
1679369811.3208 0.98905575 -0.11157978 0.0046460582 0.054999564 0.0046680244 0.055305392 0.9920432 -0.1082525
1689366037.7358 0.98909438 -0.11228174 0.0047134534 0.055363126 0.004686838 0.055680901 0.99190891 -0.10863641
1699362264.1509 0.98921055 -0.11276907 0.004778442 0.055779297 0.0047428431 0.05607247 0.9920069 -0.10907851
1709358490.566 0.98906744 -0.11346973 0.0048262309 0.056132495 0.0047976654 0.056399476 0.99202901 -0.10964549
1719354716.9811 0.98881501 -0.11411303 0.0048760362 0.05650229 0.0048634894 0.056805715 0.99208426 -0.11030772
