!Keysight Technologies,N5222B,MY61253708,A.15.00.15
!Date: Wednesday, June 19, 2024 08:39:59
!Correction: S11(C  2-Port  ) 
!S21(C  2-Port  ) 
!S12(C  2-Port  ) 
!S22(C  2-Port  ) 
!S2P File: Measurements: S11, S21, S12, S22:
# Hz S  RI   R 50
10000000 0.99851787 -0.0026842058 0.00024301962 0.00084695278 -0.00012598085 0.0004627395 0.99888766 -0.0010017157
19996226.415094 0.99915099 -0.0021772683 5.7505851e-005 0.00098109897 7.0101261e-005 0.00094021659 0.99941468 -0.0023581684
29992452.830189 0.99978 -0.0029747486 -3.5670237e-005 0.0015107419 -4.9540802e-005 0.0015787135 0.99940312 -0.0030936897
39988679.245283 1.0000356 -0.0037641525 4.5679219e-005 0.0021199274 4.206218e-005 0.002046373 0.99964476 -0.0037894845
49984905.660377 1.0001098 -0.0047177374 -1.4871708e-005 0.0025911322 2.5094952e-005 0.0024736654 0.99973679 -0.0045554936
59981132.075472 1.0002826 -0.0056811273 9.2339702e-005 0.003043887 -1.4590099e-005 0.0030400753 0.99964267 -0.0052879751
69977358.490566 0.99996519 -0.0063681174 7.202565e-005 0.0035217034 4.920119e-005 0.003482803 0.99957651 -0.0058699865
79973584.90566 0.99972916 -0.0070091188 2.7731992e-005 0.004114076 4.9640075e-005 0.0040216264 0.99939156 -0.0065508485
89969811.320755 0.99969459 -0.0075045824 7.5327232e-005 0.0045891879 5.6813005e-005 0.0045074178 0.99936795 -0.0071193576
99966037.735849 0.99984068 -0.0084180385 5.5339187e-005 0.0051141349 6.1163097e-005 0.0050331173 0.99945074 -0.0080049634
109962264.15094 0.99997199 -0.0094980299 0.00011162693 0.0056155575 8.6607994e-005 0.0055325893 0.99949777 -0.0089759082
119958490.56604 0.99996972 -0.010711163 0.00010631653 0.006114292 0.00010136724 0.00600893 0.99950182 -0.010094911
129954716.98113 0.9999181 -0.011889011 9.9593308e-005 0.0066482197 0.00012307963 0.0065204366 0.99947977 -0.011199892
139950943.39623 0.99982202 -0.012906481 0.00014199028 0.0071159992 0.0001383562 0.0070136962 0.99937016 -0.012089502
149947169.81132 0.99969339 -0.013700634 0.00014914176 0.0076291799 0.00013548695 0.0074942093 0.9993217 -0.012845635
159943396.22642 0.99966884 -0.014391154 0.00016971026 0.0081610912 0.00016101031 0.0080000367 0.99940526 -0.013444692
169939622.64151 0.99968225 -0.014878049 0.00018382713 0.0086500179 0.00017492345 0.0085126106 0.99949187 -0.014045432
179935849.0566 0.99965286 -0.015390992 0.00017732917 0.0091470154 0.0002096605 0.0090139052 0.99946111 -0.014579415
189932075.4717 0.99975336 -0.016278476 0.00024364516 0.0096774083 0.00020342786 0.0095244814 0.99963087 -0.015416443
199928301.88679 0.99967873 -0.017266601 0.00025700522 0.010161383 0.00024244376 0.010019953 0.99946737 -0.016417772
209924528.30189 0.99942237 -0.018339515 0.00028389285 0.010729136 0.00026625115 0.010522979 0.99920863 -0.017362505
219920754.71698 0.99914479 -0.019299924 0.00051593222 0.011137513 0.00044529745 0.010987532 0.99881822 -0.018287718
229916981.13208 0.99903309 -0.020285845 0.00031968532 0.01162676 0.00030859001 0.011455256 0.99881083 -0.019141495
239913207.54717 0.99893403 -0.021160748 0.00036790463 0.012142332 0.00033537307 0.011953447 0.99885273 -0.019996429
249909433.96226 0.99898815 -0.021980762 0.00037576957 0.012670161 0.0003630612 0.012470741 0.9989543 -0.02082032
259905660.37736 0.99908304 -0.022708744 0.00042980537 0.013162505 0.00031133741 0.012983989 0.99924076 -0.021563768
269901886.79245 0.99929982 -0.023478881 0.00047953799 0.013707018 0.00041923742 0.013478922 0.99951148 -0.022387624
279898113.20755 0.99944729 -0.024373591 0.00051483046 0.014153465 0.00046398654 0.013929619 0.9993642 -0.023272753
289894339.62264 0.99941981 -0.025367498 0.00053040776 0.014679 0.00043718424 0.014471464 0.99919921 -0.024250746
299890566.03774 0.99928135 -0.025999129 0.00054703979 0.015205331 0.00052575907 0.014970522 0.99891371 -0.024897635
309886792.45283 0.99890268 -0.026839785 0.00056350394 0.015706142 0.00050993054 0.01546888 0.9987157 -0.025568254
319883018.86792 0.99871683 -0.027577013 0.0005776803 0.016216625 0.00055672508 0.015931629 0.99883735 -0.026164174
329879245.28302 0.99861366 -0.02845338 0.0006079888 0.016690157 0.00058072852 0.016451811 0.99887335 -0.027062953
339875471.69811 0.99860537 -0.029386066 0.00069021992 0.017225631 0.00065866159 0.016936142 0.99872774 -0.027953275
349871698.11321 0.99881822 -0.03033787 0.00073034456 0.017724881 0.00063874526 0.017480265 0.99888283 -0.02909863
359867924.5283 0.99869466 -0.031389117 0.00074700452 0.018235676 0.0006785132 0.017914133 0.9988575 -0.030215859
369864150.9434 0.99889702 -0.032357782 0.00081177335 0.018726168 0.00078525161 0.018440081 0.99884802 -0.031046599
379860377.35849 0.99879265 -0.03326337 0.00085048564 0.019222111 0.00080294604 0.018926727 0.99871308 -0.031986624
389856603.77358 0.99869859 -0.033907235 0.00092280377 0.019727618 0.00085161999 0.019423716 0.99871129 -0.032522112
399852830.18868 0.99842143 -0.034662694 0.00090185227 0.020214111 0.00082501722 0.019902032 0.99863464 -0.033081412
409849056.60377 0.99838048 -0.035239734 0.00094900082 0.020714326 0.00090687233 0.020440821 0.99865472 -0.033716846
419845283.01887 0.99832886 -0.035946995 0.0010204781 0.021217162 0.00096425042 0.020922128 0.99865472 -0.034471065
429841509.43396 0.99831212 -0.036762118 0.0010568863 0.021731274 0.0010445556 0.021422848 0.99878711 -0.035361528
439837735.84906 0.99830961 -0.037849888 0.0011912603 0.022189388 0.0011264998 0.021888431 0.99851149 -0.036565706
449833962.26415 0.99827152 -0.038880914 0.0011774148 0.022667142 0.001107377 0.022322392 0.99818552 -0.037527204
459830188.67925 0.99804068 -0.039861739 0.0012042122 0.023186279 0.0011432795 0.022805665 0.99801189 -0.038388819
469826415.09434 0.99798071 -0.040792286 0.0012259372 0.023657423 0.0011757375 0.023302522 0.9977414 -0.039150417
479822641.50943 0.99788368 -0.041661173 0.0013088004 0.024158986 0.0012288126 0.02384962 0.9978044 -0.039829426
489818867.92453 0.99793065 -0.042287022 0.0013579195 0.024702309 0.0012440039 0.024330568 0.99811184 -0.04053548
499815094.33962 0.99799275 -0.042912215 0.0014154715 0.025223291 0.0013315538 0.024832768 0.99838179 -0.041316241
509811320.75472 0.99815363 -0.043577574 0.0014628513 0.025659924 0.00136402 0.025290824 0.9984507 -0.042355929
519807547.16981 0.99808371 -0.044327021 0.001490972 0.026141336 0.0014199158 0.02579304 0.99845445 -0.043298692
529803773.58491 0.99792707 -0.045201451 0.0015611071 0.026678581 0.0014587687 0.026309904 0.99810123 -0.044101208
539800000 0.99788201 -0.046034381 0.0015878007 0.027190141 0.0015470777 0.026789822 0.99786764 -0.044932067
549796226.41509 0.99759424 -0.047047347 0.0016666693 0.027679108 0.0015320177 0.027267372 0.99755359 -0.045552552
559792452.83019 0.99735159 -0.048112005 0.0017366596 0.028227624 0.0015981924 0.027791562 0.99736917 -0.046282977
569788679.24528 0.99715656 -0.048834443 0.0017590914 0.028708639 0.0016774395 0.02831661 0.9975788 -0.047116995
579784905.66038 0.99709284 -0.04962375 0.00183557 0.029252628 0.0017259433 0.028772658 0.99772787 -0.047985852
589781132.07547 0.9972524 -0.050486505 0.0018907813 0.029717686 0.0017956449 0.029260209 0.99779958 -0.049044013
599777358.49057 0.99736762 -0.051289111 0.001939455 0.030243311 0.0018650647 0.029848795 0.99780428 -0.050040156
609773584.90566 0.99752748 -0.052164014 0.0020589926 0.030743092 0.0019824053 0.03025597 0.99752235 -0.051098753
619769811.32075 0.99749827 -0.05307883 0.0021750927 0.031185927 0.0020850748 0.03074353 0.99741608 -0.05173862
629766037.73585 0.99722207 -0.053864777 0.0022885771 0.031645432 0.0021810271 0.031158159 0.99717855 -0.052338928
639762264.15094 0.99698025 -0.054668143 0.0022710017 0.03208014 0.0021703499 0.031614088 0.9969722 -0.052938521
649758490.56604 0.99681926 -0.055343986 0.002298086 0.032567464 0.0021675979 0.032155983 0.99709988 -0.0535319
659754716.98113 0.99661505 -0.056020588 0.0023460733 0.033081152 0.0022245571 0.032628745 0.99708247 -0.054262638
669750943.39623 0.99652171 -0.056738496 0.0023866901 0.03357346 0.0022544237 0.033138812 0.99712825 -0.055193275
679747169.81132 0.99654025 -0.05768615 0.0025115237 0.034120407 0.0023904801 0.033653636 0.99701363 -0.056401923
689743396.22642 0.99672031 -0.058726937 0.0025818888 0.034617547 0.0024673017 0.034144267 0.99681813 -0.057543188
699739622.64151 0.99681228 -0.059679538 0.0026710061 0.035096858 0.002490445 0.034616772 0.99669683 -0.058386028
709735849.0566 0.99673706 -0.060751922 0.0027087156 0.035590328 0.0026275215 0.035066854 0.99642056 -0.059221543
719732075.4717 0.99657166 -0.061595321 0.002813166 0.036070686 0.0026709335 0.035552051 0.99653131 -0.059856206
729728301.88679 0.99641579 -0.06224981 0.0028540511 0.036530066 0.0027509239 0.036036298 0.99644876 -0.060412973
739724528.30189 0.99626344 -0.063012585 0.0029294947 0.037056644 0.0028014416 0.03656337 0.99663448 -0.061218813
749720754.71698 0.9961127 -0.063588202 0.0030533466 0.037513524 0.0028944802 0.037032202 0.9966687 -0.06211713
759716981.13208 0.9960779 -0.064323306 0.0031005051 0.038003016 0.0029489584 0.037476033 0.99660468 -0.06308195
769713207.54717 0.99604458 -0.065193951 0.003172786 0.038505603 0.0030318014 0.037952542 0.99623454 -0.063977987
779709433.96226 0.99609756 -0.066074133 0.0032596355 0.038951796 0.0031314986 0.038439006 0.99592954 -0.064754501
789705660.37736 0.99596721 -0.067180663 0.0033466183 0.039469354 0.0032203523 0.038888313 0.99558413 -0.065673321
799701886.79245 0.99590045 -0.068208486 0.0033719912 0.039930906 0.0032849275 0.03938017 0.99551165 -0.066397727
809698113.20755 0.99575043 -0.06896016 0.0034491834 0.040387638 0.0033103889 0.039835677 0.9955886 -0.066914707
819694339.62264 0.99551189 -0.069761083 0.0035449406 0.040835686 0.0033744527 0.040347293 0.9956333 -0.067706198
829690566.03774 0.9955644 -0.070535988 0.0036289338 0.041370001 0.0034212228 0.040821224 0.99589574 -0.068834692
839686792.45283 0.99553323 -0.071177542 0.0036707604 0.041864704 0.0035208492 0.041342657 0.99585992 -0.069803953
849683018.86792 0.99571061 -0.071944989 0.0037580619 0.042406101 0.0035820052 0.041815627 0.99571371 -0.070663162
859679245.28302 0.99561024 -0.07282111 0.0038455967 0.042888187 0.0036747549 0.042318635 0.99540216 -0.071492881
869675471.69811 0.99546349 -0.073761135 0.0039645024 0.043411411 0.0037546698 0.042764165 0.99507737 -0.072174221
879671698.11321 0.9952178 -0.074590497 0.0040089018 0.043870889 0.0038471289 0.043269351 0.99491262 -0.072763637
889667924.5283 0.99493676 -0.075674206 0.0041336231 0.044347554 0.0039631194 0.043761566 0.9946692 -0.073478341
899664150.9434 0.99465877 -0.076544285 0.0042937659 0.044840075 0.0041055623 0.044224307 0.99458277 -0.074294329
909660377.35849 0.99454552 -0.077336147 0.004430091 0.045207366 0.0042328164 0.044602659 0.99473459 -0.07531783
919656603.77358 0.99464703 -0.078148603 0.004467689 0.04563719 0.0042362562 0.045039464 0.9947561 -0.076357707
929652830.18868 0.99465883 -0.078984797 0.004511958 0.046046786 0.0043198243 0.045489483 0.99452293 -0.077276289
939649056.60377 0.9947632 -0.07979539 0.0045234542 0.046506435 0.0043426668 0.045974158 0.99434358 -0.078196347
949645283.01887 0.99481064 -0.080709942 0.004549101 0.047033414 0.0043613049 0.046456609 0.99406314 -0.078917556
959641509.43396 0.99463868 -0.081518143 0.0046171565 0.047601976 0.0044121798 0.046983417 0.99397171 -0.07946077
969637735.84906 0.99448669 -0.08248201 0.0047229975 0.048073001 0.004504675 0.047467463 0.99400973 -0.079992324
979633962.26415 0.99428439 -0.083276719 0.0048179617 0.048545353 0.0046034837 0.047938854 0.99390966 -0.080827013
989630188.67925 0.99418628 -0.083998948 0.0048904754 0.049038108 0.0046851151 0.048461892 0.99408478 -0.081595242
999626415.09434 0.99424332 -0.08483994 0.0049732309 0.049523313 0.0047622491 0.04896342 0.99390221 -0.082627892
1009622641.5094 0.99410969 -0.085703567 0.0050548716 0.050056197 0.0048526935 0.049487468 0.99375153 -0.08373262
1019618867.9245 0.99414796 -0.086835176 0.0051658382 0.050547343 0.0049708863 0.049941652 0.99340844 -0.084773809
1029615094.3396 0.99418056 -0.087869614 0.005288789 0.051033095 0.0050924812 0.05039227 0.99298859 -0.085484087
1039611320.7547 0.99405634 -0.088996023 0.0053876936 0.051479906 0.0051678028 0.050867014 0.99283803 -0.086302608
1049607547.1698 0.99386996 -0.090011455 0.0055032019 0.051952228 0.0052842055 0.051319938 0.99283856 -0.087062448
1059603773.5849 0.99358857 -0.090932578 0.0055794567 0.052381311 0.0053733941 0.051786896 0.99269259 -0.087701112
1069600000 0.99334103 -0.091571361 0.0056239609 0.052837107 0.0054740757 0.052230906 0.99279881 -0.088591278
1079596226.4151 0.99324137 -0.092363827 0.005721366 0.053330947 0.0055399421 0.052689552 0.99282032 -0.08947546
1089592452.8302 0.99317878 -0.093090162 0.0057761436 0.053809926 0.0056546684 0.053153377 0.99270099 -0.090287432
1099588679.2453 0.99318314 -0.093895704 0.0058860127 0.054309953 0.0056867301 0.053639151 0.99220693 -0.091084272
1109584905.6604 0.99324894 -0.094894901 0.0059422096 0.054795358 0.0057656355 0.054147195 0.99188548 -0.091764525
1119581132.0755 0.99314499 -0.096131854 0.0060222615 0.055280656 0.0058449134 0.054636404 0.99168378 -0.092383429
1129577358.4906 0.99294555 -0.097144097 0.0061425455 0.055787299 0.0059394147 0.055141855 0.99154401 -0.092938125
1139573584.9057 0.99265945 -0.098189235 0.0062377192 0.056271076 0.006045917 0.055579461 0.9914943 -0.093812287
1149569811.3208 0.99242538 -0.099168591 0.0063686934 0.056724932 0.0062100063 0.056106616 0.99164575 -0.094730161
1159566037.7358 0.99203503 -0.099990696 0.0064754989 0.057184856 0.0062868483 0.056526255 0.99167967 -0.095882595
1169562264.1509 0.99186337 -0.10073352 0.0065079834 0.057664588 0.0063553341 0.057001077 0.99140358 -0.096842051
1179558490.566 0.99179643 -0.10162464 0.0065779351 0.058164168 0.0064607565 0.057508089 0.99121732 -0.097629964
1189554716.9811 0.99172175 -0.10241848 0.0067014862 0.058673095 0.0065297401 0.057981204 0.99084687 -0.098262101
1199550943.3962 0.9915837 -0.10341156 0.0067726746 0.059160825 0.0066454783 0.058465965 0.99064684 -0.098876297
1209547169.8113 0.99138242 -0.10451621 0.0069116382 0.05966514 0.0067579588 0.058909521 0.99052757 -0.099271595
1219543396.2264 0.99103349 -0.10554735 0.007015734 0.060151182 0.0068623195 0.059452135 0.99051297 -0.099854767
1229539622.6415 0.99073708 -0.10650927 0.0071360655 0.060662404 0.0069774799 0.059949122 0.99059075 -0.10072887
1239535849.0566 0.99032712 -0.10742491 0.0072748922 0.061116762 0.0071307253 0.060365308 0.9906441 -0.10189036
1249532075.4717 0.99001098 -0.10826074 0.0073949448 0.061578613 0.0072249714 0.060819864 0.9904353 -0.10288201
1259528301.8868 0.98978615 -0.10887694 0.0075099599 0.062060826 0.0073540229 0.061283022 0.99006999 -0.1039567
1269524528.3019 0.98951542 -0.10973817 0.0076211933 0.062514342 0.0074618869 0.061725806 0.98982859 -0.10472471
1279520754.717 0.98915774 -0.11061814 0.0077679781 0.062964261 0.0075752363 0.062128872 0.98945755 -0.10535513
1289516981.1321 0.98891461 -0.11157358 0.0078278929 0.063413166 0.0076556858 0.062557742 0.98949993 -0.10600299
1299513207.5472 0.9884932 -0.11254823 0.0078872629 0.063850202 0.0077391285 0.062999897 0.98966229 -0.10645425
1309509433.9623 0.98793584 -0.1133378 0.0079602413 0.064303875 0.0078068152 0.063464478 0.98963773 -0.10731445
1319505660.3774 0.98750186 -0.11424161 0.0080440277 0.064809032 0.0078959037 0.063895844 0.989568 -0.10808699
1329501886.7925 0.98713601 -0.1150519 0.0081252418 0.065277547 0.0079914387 0.064371683 0.98948181 -0.10924152
1339498113.2075 0.98673701 -0.11566249 0.008237781 0.065735355 0.0080557447 0.064849481 0.98898017 -0.11010545
1349494339.6226 0.98659992 -0.11648483 0.0082741827 0.066254251 0.0080717932 0.065319046 0.9885422 -0.11088392
1359490566.0377 0.98636836 -0.11723346 0.0083770826 0.066755541 0.0081866812 0.065796569 0.98827147 -0.11148986
1369486792.4528 0.98613083 -0.11797544 0.00842789 0.067251995 0.0081954263 0.066314392 0.98804879 -0.11217785
1379483018.8679 0.9857673 -0.11868704 0.0085733291 0.067772008 0.008305138 0.066770405 0.98804218 -0.11264078
1389479245.283 0.98533535 -0.11937952 0.0087054148 0.068311147 0.008398911 0.067305155 0.98793358 -0.11347085
1399475471.6981 0.98483115 -0.11988783 0.0087204501 0.068745218 0.0084914193 0.067830153 0.98807597 -0.11428952
1409471698.1132 0.98450029 -0.12032631 0.0088607427 0.069277488 0.0085713882 0.068320535 0.98799735 -0.11518146
1419467924.5283 0.984227 -0.12071142 0.0089605991 0.069815136 0.0086311139 0.068837777 0.98774821 -0.11604622
1429464150.9434 0.98397142 -0.12124407 0.009062646 0.070365548 0.0087747667 0.069398403 0.98758811 -0.11666808
1439460377.3585 0.98409528 -0.12190296 0.0092383772 0.070928924 0.0088778986 0.069961026 0.98727822 -0.11724244
1449456603.7736 0.98408109 -0.1225632 0.009396933 0.071486205 0.009022777 0.070487835 0.98696345 -0.11765477
1459452830.1887 0.98401046 -0.12353662 0.0096219573 0.072059207 0.0092068836 0.071038887 0.98712754 -0.11815426
1469449056.6038 0.98385853 -0.12436876 0.0098569095 0.072473884 0.0094218645 0.071503684 0.98724377 -0.1189819
1479445283.0189 0.98365301 -0.12524474 0.010065611 0.072961606 0.0096430024 0.07196486 0.98728919 -0.12009536
1489441509.434 0.98341668 -0.12582496 0.010223186 0.073383078 0.0098296721 0.072420821 0.98702717 -0.12104735
1499437735.8491 0.98325276 -0.12627313 0.010466246 0.073828161 0.010063127 0.072817713 0.98680937 -0.1220817
1509433962.2642 0.98313314 -0.12688452 0.010568723 0.074216962 0.010155821 0.073251829 0.98655766 -0.12294559
1519430188.6792 0.98323804 -0.12755698 0.010752989 0.074684694 0.010294816 0.073623106 0.98631722 -0.12354273
1529426415.0943 0.98309749 -0.12835655 0.01085927 0.075070806 0.010385999 0.074081004 0.98629403 -0.12404644
1539422641.5094 0.9830358 -0.12931696 0.010969695 0.075527504 0.010519594 0.074502759 0.98635846 -0.1247168
1549418867.9245 0.98285973 -0.13020554 0.011113682 0.075930819 0.010673065 0.074951187 0.98649406 -0.1256039
1559415094.3396 0.98257792 -0.1310547 0.011287242 0.076311223 0.010754742 0.075357094 0.98651838 -0.12641257
1569411320.7547 0.98239708 -0.13203327 0.011368711 0.076731272 0.010902472 0.075782634 0.98635596 -0.12738083
1579407547.1698 0.98225117 -0.13273668 0.011453774 0.077134624 0.010971479 0.07616771 0.98585957 -0.12832555
1589403773.5849 0.98213661 -0.13343534 0.011497278 0.077576026 0.011046153 0.076621115 0.98557162 -0.12914398
1599400000 0.98204154 -0.13396955 0.011575337 0.07804545 0.011044133 0.07704401 0.98516166 -0.12974197
1609396226.4151 0.9820056 -0.13479586 0.011640991 0.078525402 0.011129771 0.077509478 0.98484898 -0.13047493
1619392452.8302 0.98189402 -0.13551477 0.011738906 0.079010516 0.011196472 0.078051113 0.98495579 -0.13100836
1629388679.2453 0.98157358 -0.13638958 0.011812253 0.079500116 0.011271309 0.078546606 0.98503065 -0.13170397
1639384905.6604 0.98129171 -0.1372409 0.011896067 0.079982005 0.011380632 0.079061642 0.98519516 -0.13273998
1649381132.0755 0.98086387 -0.13804972 0.012042761 0.080498375 0.011483012 0.079583153 0.98509026 -0.13382757
1659377358.4906 0.98064339 -0.13892281 0.01208657 0.081049599 0.01155851 0.080140173 0.98502076 -0.13477686
1669373584.9057 0.98058963 -0.13954307 0.012204233 0.081590816 0.011676776 0.080646001 0.98452508 -0.13561374
1679369811.3208 0.98052865 -0.14039852 0.012356076 0.082136102 0.011825124 0.081123292 0.9842152 -0.13622007
1689366037.7358 0.98041761 -0.14121738 0.01252329 0.082604825 0.011911184 0.081645951 0.98391944 -0.13668928
1699362264.1509 0.98051167 -0.14195879 0.012651889 0.083108619 0.012051446 0.082186729 0.98401988 -0.13725896
1709358490.566 0.98025143 -0.1427698 0.012793319 0.083668709 0.01227402 0.082741186 0.98402303 -0.13795155
1719354716.9811 0.97985303 -0.1435363 0.012971807 0.084153354 0.012434166 0.083245561 0.9839322 -0.13883024
1729350943.3962 0.9794004 -0.14425144 0.013159359 0.084652551 0.012609152 0.083735213 0.98380369 -0.13984942
1739347169.8113 0.97918206 -0.14471309 0.013348264 0.085131228 0.012839084 0.084191822 0.98368192 -0.14090903
