!Keysight Technologies,N5222B,MY61253708,A.15.00.15
!Date: Wednesday, June 19, 2024 08:43:04
!Correction: S11(C  2-Port  ) 
!S21(C  2-Port  ) 
!S12(C  2-Port  ) 
!S22(C  2-Port  ) 
!S2P File: Measurements: S11, S21, S12, S22:
# Hz S  RI   R 50
10000000 0.99872589 -0.0022219419 -0.00011381901 0.00027616252 -0.00013995936 0.00072118826 0.99879646 -0.0004620254
19996226.415094 0.99911296 -0.0020156503 7.2065974e-005 0.00093482179 -0.00011445911 0.00078398478 0.9993273 -0.0022733808
29992452.830189 0.99983227 -0.0026400983 0.00012150253 0.0011737916 -4.5106659e-005 0.0011434864 0.99937654 -0.0029495955
39988679.245283 1.000092 -0.0034415871 2.3873261e-005 0.0016201083 1.643307e-005 0.0015741783 0.99966502 -0.0034680516
49984905.660377 1.0001616 -0.00423792 -6.4016203e-006 0.0020264115 5.4364966e-005 0.0020268199 0.99974728 -0.0040869117
59981132.075472 1.0002569 -0.0050722957 -6.9845701e-005 0.0024580876 5.4639298e-005 0.0024679708 0.99971181 -0.0046355426
69977358.490566 1.0000359 -0.0056900587 1.643008e-005 0.0028529742 1.362351e-005 0.0028684714 0.99955422 -0.0052143391
79973584.90566 0.99980319 -0.006208092 1.9218191e-005 0.0033069693 1.282047e-005 0.0032412908 0.99935794 -0.0058068037
89969811.320755 0.99982035 -0.0065895021 3.7237536e-005 0.0036855848 2.2729393e-005 0.0036920218 0.99947393 -0.0062330663
99966037.735849 0.99996507 -0.0073266774 3.448379e-005 0.0040990803 2.4235691e-005 0.0040706815 0.99949002 -0.0070702583
109962264.15094 1.0000004 -0.0083675236 4.9620285e-005 0.0044696731 5.1808427e-005 0.0044950731 0.99952257 -0.0079464018
119958490.56604 1.0000643 -0.0093994737 5.1425304e-005 0.0048940354 5.1089097e-005 0.0048873504 0.99955392 -0.0089539886
129954716.98113 1.0000243 -0.010566354 5.36351e-005 0.0053072888 6.7705521e-005 0.0052923062 0.99957204 -0.0099713802
139950943.39623 0.99992597 -0.01151436 7.9278165e-005 0.0056960369 6.4160107e-005 0.0057150694 0.99942982 -0.010786178
149947169.81132 0.99975896 -0.012188494 7.8225508e-005 0.0061070304 7.7372883e-005 0.006111281 0.99938792 -0.011458904
159943396.22642 0.99972415 -0.012789518 0.00010974659 0.0065017357 9.1020484e-005 0.0065230699 0.99951512 -0.011964977
169939622.64151 0.99977714 -0.013167083 0.00010867883 0.0069042584 0.00010895613 0.0069310246 0.99960142 -0.012429573
179935849.0566 0.99975961 -0.01356104 0.00010741432 0.0073075374 0.00015418651 0.0073513333 0.99954575 -0.012909919
189932075.4717 0.99983895 -0.014378875 0.00016009435 0.0077153058 0.00013127574 0.007734918 0.99967664 -0.013649672
199928301.88679 0.9998548 -0.015313745 0.00014923722 0.0081300568 0.00013129832 0.0081355646 0.99959648 -0.014577299
209924528.30189 0.99961191 -0.016222313 0.00017240143 0.0085516591 0.00016627333 0.0085449414 0.99933434 -0.015423611
219920754.71698 0.99953151 -0.0170739 0.00016561197 0.0089415601 0.00018286798 0.0089495266 0.99915957 -0.016213745
229916981.13208 0.99922216 -0.018034339 0.00019208039 0.0093559064 0.00018230616 0.0093246335 0.99899518 -0.017073393
239913207.54717 0.99909049 -0.018709892 0.00019727822 0.0097488677 0.00022105567 0.0097422199 0.99897516 -0.01779406
249909433.96226 0.99917805 -0.0194498 0.00022056489 0.010143946 0.00022110296 0.010162428 0.99912322 -0.018514365
259905660.37736 0.99922121 -0.020098537 0.00022966694 0.010578975 0.00021449523 0.010640941 0.99937075 -0.019132465
269901886.79245 0.99953473 -0.020725101 0.00021542422 0.010930948 0.00023168162 0.010945989 0.99964142 -0.019918218
279898113.20755 0.99972963 -0.021538541 0.00030337111 0.011358391 0.0002846017 0.011356215 0.99952203 -0.02074565
289894339.62264 0.99952304 -0.022503525 0.00030624587 0.011764767 0.0002811309 0.011841185 0.99950671 -0.021539956
299890566.03774 0.99956447 -0.022981972 0.00031105452 0.012177417 0.00029508234 0.012190075 0.99920022 -0.022126049
309886792.45283 0.99914843 -0.023766547 0.0003568416 0.01256728 0.00035542797 0.01256697 0.99895579 -0.022687256
319883018.86792 0.99911201 -0.02439481 0.00033079507 0.012965612 0.00042488752 0.013028139 0.99899566 -0.023271888
329879245.28302 0.99905086 -0.025087565 0.00036352733 0.013398782 0.00038269162 0.013365016 0.99906409 -0.023966908
339875471.69811 0.99894422 -0.025926799 0.00040245056 0.013797577 0.00039992062 0.013826149 0.99915105 -0.024871103
349871698.11321 0.99913156 -0.026789069 0.00045225304 0.014220102 0.00044374308 0.014249741 0.99909037 -0.025852144
359867924.5283 0.99900305 -0.027668118 0.0004136418 0.014611673 0.00047636963 0.014603266 0.99905813 -0.02685073
369864150.9434 0.9992401 -0.028684169 0.00048829219 0.01502304 0.00048261764 0.015039291 0.99910164 -0.02774322
379860377.35849 0.9991312 -0.029409111 0.00053031347 0.0153892 0.00050686696 0.015421398 0.99897403 -0.02845493
389856603.77358 0.99900424 -0.030003756 0.00053692749 0.015801828 0.00052663172 0.015803644 0.99897456 -0.028942764
399852830.18868 0.9988026 -0.030697584 0.0005405182 0.016171748 0.00053788768 0.016244886 0.99900854 -0.029482961
409849056.60377 0.99879175 -0.031203179 0.00061346561 0.016664157 0.00057248783 0.016625633 0.99903065 -0.029978231
419845283.01887 0.99869251 -0.031677336 0.00059978897 0.017029576 0.00063663861 0.017036932 0.99909061 -0.030656457
429841509.43396 0.99885017 -0.032439232 0.00066614244 0.017425545 0.00063592289 0.017469758 0.99916613 -0.031534046
439837735.84906 0.99868667 -0.03342329 0.00070702983 0.017815022 0.00071948231 0.017834166 0.99895388 -0.032521114
449833962.26415 0.99868548 -0.034399122 0.00073461607 0.018191958 0.0007145796 0.01818677 0.99861449 -0.033317327
459830188.67925 0.99859691 -0.035248607 0.00070933346 0.018590406 0.0007006675 0.018607374 0.99846232 -0.034311146
469826415.09434 0.99848014 -0.03614217 0.00075822603 0.018988857 0.00072034774 0.019004667 0.99818259 -0.034859151
479822641.50943 0.9983505 -0.036807679 0.00076994114 0.019411551 0.00073964288 0.019485967 0.99820095 -0.035453089
489818867.92453 0.99847704 -0.037327915 0.00082326028 0.019832022 0.0008054357 0.019832227 0.9986245 -0.036082208
499815094.33962 0.99859899 -0.038009495 0.00086133461 0.020169798 0.00082331523 0.020224977 0.99886596 -0.036794156
509811320.75472 0.99875653 -0.038525254 0.00087561761 0.020627096 0.00084496383 0.020621276 0.99907565 -0.037646689
519807547.16981 0.99868536 -0.039135396 0.00092201866 0.020964794 0.00089153368 0.02103376 0.99899125 -0.038460672
529803773.58491 0.99857289 -0.039901793 0.00092633907 0.021434322 0.0009151604 0.021408176 0.99870002 -0.039205819
539800000 0.99851036 -0.040677056 0.00097226817 0.021830067 0.00096516381 0.021846211 0.99837166 -0.039994687
549796226.41509 0.99834573 -0.041674405 0.00096547371 0.022290844 0.0010003652 0.022279404 0.99811733 -0.040568352
559792452.83019 0.99806142 -0.042574346 0.0010837708 0.022632007 0.0010114554 0.022676364 0.9979769 -0.04111284
569788679.24528 0.99786568 -0.043263555 0.0011409032 0.023067314 0.0010328693 0.023085095 0.99818569 -0.041937262
579784905.66038 0.99783242 -0.04386121 0.001107035 0.023431806 0.001066329 0.023482233 0.99832064 -0.04274758
589781132.07547 0.99800801 -0.04456389 0.001165933 0.023905238 0.0011432096 0.023885107 0.99845564 -0.043711573
599777358.49057 0.99825227 -0.045266896 0.0012339829 0.024271987 0.0011674091 0.024323955 0.99851167 -0.044601709
609773584.90566 0.9984085 -0.04615052 0.0013095086 0.024724204 0.0012448044 0.024758663 0.99833429 -0.045575157
619769811.32075 0.99840152 -0.046893328 0.0013724649 0.025087453 0.0013636602 0.025129376 0.99819958 -0.04610458
629766037.73585 0.99815071 -0.047658086 0.0014214171 0.025435016 0.0013957275 0.025429986 0.99795979 -0.046673805
639762264.15094 0.99791729 -0.048351467 0.0014460701 0.025796302 0.001418177 0.025815843 0.99783206 -0.047179297
649758490.56604 0.99766505 -0.048970908 0.001425704 0.02618367 0.0014003394 0.026200354 0.99785674 -0.047653332
659754716.98113 0.9975583 -0.049542427 0.00142546 0.026590316 0.0014189854 0.02660181 0.997922 -0.04831624
669750943.39623 0.9975298 -0.050073385 0.0014562048 0.027017668 0.0014250688 0.02706846 0.9979924 -0.049200118
679747169.81132 0.99756223 -0.050994072 0.0015078223 0.027463112 0.001475985 0.027503058 0.99796569 -0.050266005
689743396.22642 0.99776095 -0.051870674 0.0015657796 0.027842939 0.001598523 0.027894178 0.99775445 -0.05127424
699739622.64151 0.9978317 -0.05272755 0.0016279295 0.028249295 0.0016094511 0.028277177 0.99766231 -0.052099496
709735849.0566 0.99782002 -0.053723484 0.0017167164 0.028610904 0.001697175 0.028673518 0.99732411 -0.052769706
719732075.4717 0.99759066 -0.054563731 0.0017364426 0.02904566 0.0016925996 0.029058818 0.9974426 -0.053396404
729728301.88679 0.99758047 -0.055121064 0.0017651021 0.029428056 0.0017903307 0.029465795 0.99752927 -0.05387181
739724528.30189 0.99735445 -0.055798456 0.0018035886 0.029810783 0.0018200525 0.02987754 0.99770081 -0.054575235
749720754.71698 0.99728507 -0.056337312 0.0018909615 0.03020373 0.0018459097 0.03024995 0.99769384 -0.055370107
759716981.13208 0.997343 -0.056902677 0.0019267369 0.030607017 0.001921542 0.030643733 0.99761337 -0.056278586
769713207.54717 0.99723178 -0.057683229 0.001979311 0.030958038 0.0019701775 0.031038549 0.99733424 -0.056965172
779709433.96226 0.99739796 -0.058460135 0.0020282706 0.03137904 0.0020378351 0.031404924 0.99699384 -0.057750855
789705660.37736 0.99728346 -0.059526831 0.0021039685 0.031776041 0.0020659948 0.03177657 0.99677593 -0.058552593
799701886.79245 0.99721748 -0.060362875 0.0021182355 0.032148719 0.0021196464 0.032168515 0.99662393 -0.059167385
809698113.20755 0.99709141 -0.06107378 0.0021744706 0.032511726 0.0021595065 0.032567076 0.99672872 -0.059703544
819694339.62264 0.99691492 -0.061839998 0.0021996675 0.032904696 0.0021861922 0.032970499 0.99687535 -0.060460761
829690566.03774 0.9968679 -0.062477559 0.0022188332 0.033277392 0.0022240048 0.033358965 0.99711192 -0.061405301
839686792.45283 0.99698687 -0.062898874 0.0022745254 0.033703074 0.0022485284 0.033779964 0.99721366 -0.062358439
849683018.86792 0.99705583 -0.063623793 0.0023300829 0.034099493 0.0022960459 0.034198392 0.99697626 -0.063083962
859679245.28302 0.99708772 -0.064397842 0.0024116971 0.034522854 0.0023948485 0.034564756 0.99666238 -0.063750535
869675471.69811 0.99693811 -0.065299869 0.0024504801 0.034949586 0.0024290141 0.034961142 0.99634409 -0.064447105
879671698.11321 0.99688113 -0.066050783 0.0025001157 0.035272527 0.0024613007 0.035363562 0.99628001 -0.06490846
889667924.5283 0.99653614 -0.067023754 0.0025568968 0.035653573 0.0025392044 0.035699405 0.99614084 -0.065522045
899664150.9434 0.99642885 -0.067868948 0.0025772694 0.036057752 0.0025910847 0.036141098 0.99616158 -0.06625399
909660377.35849 0.99632317 -0.068592384 0.0026192358 0.03647466 0.0026183538 0.036531448 0.99636114 -0.067251444
919656603.77358 0.99645543 -0.069298849 0.0027199192 0.036816556 0.0026501967 0.036925036 0.99630541 -0.06816189
929652830.18868 0.99636459 -0.070107162 0.0027426686 0.037224554 0.0026976727 0.037281968 0.99610406 -0.069160938
939649056.60377 0.9965899 -0.070704728 0.002762462 0.037595622 0.0027599717 0.03768101 0.99591184 -0.069912732
949645283.01887 0.996571 -0.071674809 0.002752732 0.037956282 0.0027357999 0.038029633 0.99563694 -0.070503056
959641509.43396 0.99643689 -0.072468191 0.0028279722 0.038410019 0.0028091166 0.038479127 0.995525 -0.071045786
969637735.84906 0.99638093 -0.07323873 0.0029172003 0.038836818 0.0028730799 0.038912814 0.99554491 -0.07145685
979633962.26415 0.9961201 -0.073954247 0.0029737703 0.039197128 0.0029403567 0.039286748 0.99562746 -0.072175905
989630188.67925 0.99618793 -0.07458353 0.0029768338 0.039594214 0.0030015334 0.039702516 0.99576193 -0.072849452
999626415.09434 0.99614871 -0.075350016 0.0030903947 0.039988048 0.0030399095 0.040119205 0.9956485 -0.073862582
1009622641.5094 0.9962706 -0.076071903 0.0031241151 0.040402643 0.0031246413 0.040551521 0.99545288 -0.074823305
1019618867.9245 0.99625719 -0.077029049 0.003190354 0.040823862 0.0032421011 0.040927891 0.99518096 -0.075717911
1029615094.3396 0.99621701 -0.078045875 0.0032697897 0.041185662 0.0032870583 0.041290518 0.99477762 -0.076380044
1039611320.7547 0.99618644 -0.079074144 0.0033212164 0.041556101 0.0033356892 0.041648321 0.99474788 -0.077117741
1049607547.1698 0.99601001 -0.07996016 0.0034270086 0.041936744 0.0033852721 0.042044383 0.99474317 -0.077762224
1059603773.5849 0.99580336 -0.080752611 0.0034592235 0.04228361 0.003452627 0.042415716 0.99470496 -0.078387231
1069600000 0.9955157 -0.081405878 0.0034777988 0.04265628 0.0034849215 0.042765718 0.99476254 -0.079176366
1079596226.4151 0.99546176 -0.082039721 0.0035351897 0.043036569 0.0035429122 0.043159403 0.99471349 -0.079962544
1089592452.8302 0.99545777 -0.082721859 0.0035587754 0.043458518 0.0035898807 0.043581929 0.99470019 -0.080721855
1099588679.2453 0.99550635 -0.083429426 0.003579177 0.043849267 0.0036202222 0.043953203 0.99426043 -0.081445545
1109584905.6604 0.9956767 -0.084260195 0.0036308663 0.044253115 0.003682361 0.04438816 0.99397469 -0.082079187
1119581132.0755 0.9955231 -0.085478298 0.0037177755 0.044642702 0.0036983429 0.044785112 0.99380887 -0.082532071
1129577358.4906 0.99545223 -0.086423844 0.0037301257 0.045100216 0.003773842 0.045241728 0.99363679 -0.08313325
1139573584.9057 0.99508274 -0.087335259 0.0037884619 0.04549066 0.0038266517 0.045604296 0.99373716 -0.083890617
1149569811.3208 0.9949376 -0.088325717 0.0039092745 0.045868427 0.0039461297 0.045980152 0.99387652 -0.084721901
1159566037.7358 0.99464774 -0.089018494 0.0039239414 0.046270248 0.0040214565 0.046376981 0.99391526 -0.085802138
1169562264.1509 0.99450994 -0.089775622 0.0040033683 0.046629202 0.0040175896 0.046759106 0.9937849 -0.086671919
1179558490.566 0.99448198 -0.090478227 0.0039838869 0.047072269 0.0041013709 0.047192149 0.99352074 -0.087364107
1189554716.9811 0.99445438 -0.091169834 0.0040327907 0.047460914 0.0041464539 0.047585696 0.99321336 -0.087953836
1199550943.3962 0.99437964 -0.092118323 0.004106082 0.047908463 0.0042428281 0.04798127 0.99296254 -0.088394195
1209547169.8113 0.99414653 -0.093085468 0.0042005014 0.048274413 0.0042731799 0.048367102 0.99295914 -0.088853762
1219543396.2264 0.99384266 -0.093996644 0.0042751939 0.048703067 0.0043417965 0.048816592 0.99306703 -0.089251153
1229539622.6415 0.99363023 -0.09497866 0.004374899 0.049088653 0.0044492334 0.049187697 0.99314547 -0.090063453
1239535849.0566 0.99318516 -0.095741004 0.0044161137 0.049490221 0.0045262091 0.049568813 0.99320167 -0.091121465
1249532075.4717 0.99294645 -0.096501291 0.0045245998 0.049863808 0.0046116957 0.049915247 0.99297583 -0.092069916
1259528301.8868 0.9927175 -0.097051352 0.0045833085 0.050237492 0.004710909 0.050354324 0.99275327 -0.092978358
1269524528.3019 0.99255675 -0.097869247 0.0046497807 0.050655674 0.0047992487 0.050693937 0.99245781 -0.093717575
1279520754.717 0.99222201 -0.098585621 0.0047579948 0.050970651 0.0048611048 0.051023133 0.99217886 -0.094324149
1289516981.1321 0.99202466 -0.099512994 0.0048152283 0.051313054 0.0049221981 0.051372729 0.99226636 -0.094832748
1299513207.5472 0.99167871 -0.10041115 0.0048195738 0.051728562 0.0049049798 0.051752068 0.99231035 -0.095219225
1309509433.9623 0.99119222 -0.10120024 0.0048999172 0.052059956 0.0049737729 0.052123118 0.99240226 -0.096026987
1319505660.3774 0.99072093 -0.10196351 0.0048809275 0.052491222 0.0050078426 0.052511655 0.99237877 -0.096782759
1329501886.7925 0.99037397 -0.10262173 0.0049585588 0.052891038 0.005033372 0.052854426 0.99241984 -0.097783178
1339498113.2075 0.99014014 -0.10320154 0.0050055366 0.05324978 0.0051127318 0.053256296 0.99188507 -0.098573446
1349494339.6226 0.98986185 -0.10387903 0.0050121462 0.053686641 0.0051086713 0.053672101 0.99149883 -0.099211887
1359490566.0377 0.98980665 -0.10457984 0.0050254185 0.054092385 0.0051266328 0.054106012 0.99125683 -0.099896073
1369486792.4528 0.98964316 -0.10520226 0.0050774198 0.054562546 0.0051592495 0.05451078 0.99105662 -0.10039243
1379483018.8679 0.98927027 -0.10588053 0.0051304591 0.054925345 0.0052121333 0.054919567 0.99108386 -0.10077019
1389479245.283 0.98882663 -0.10646281 0.0052381027 0.055373173 0.0052611362 0.05536104 0.99102449 -0.10163689
1399475471.6981 0.98839521 -0.10688645 0.0052624624 0.055806883 0.0053146593 0.055812865 0.99125791 -0.10232949
1409471698.1132 0.9879787 -0.10724923 0.0053425226 0.056234024 0.0053518945 0.056232564 0.99116498 -0.10314789
1419467924.5283 0.9878484 -0.10754773 0.0053527486 0.056692868 0.0053945668 0.056657225 0.99092549 -0.10391429
1429464150.9434 0.98770881 -0.10804164 0.0054458585 0.057123706 0.0054601692 0.057142984 0.99077535 -0.10451746
1439460377.3585 0.98783225 -0.10856707 0.0055197608 0.057639401 0.0055517051 0.05760099 0.99057883 -0.1048961
1449456603.7736 0.98781013 -0.1092239 0.0056812372 0.058103088 0.0056720143 0.058093216 0.99036157 -0.10529518
1459452830.1887 0.98786652 -0.11003253 0.005844323 0.058593184 0.005822191 0.058570549 0.99049509 -0.1056805
1469449056.6038 0.98771179 -0.11082244 0.0060232151 0.058982752 0.0059394781 0.058989175 0.99068296 -0.10646489
1479445283.0189 0.98764384 -0.11154033 0.0061805751 0.059338398 0.0061329324 0.059298906 0.99071097 -0.10741001
1489441509.434 0.98751116 -0.11218891 0.0063326787 0.059696369 0.0062839389 0.059712805 0.99051583 -0.10849455
1499437735.8491 0.98730707 -0.1124337 0.0064702369 0.060090974 0.0064243004 0.059993844 0.99038559 -0.1093401
1509433962.2642 0.98728704 -0.11300997 0.0065839933 0.060393177 0.0065465532 0.060385562 0.99014735 -0.11009581
1519430188.6792 0.98736584 -0.11360419 0.00665229 0.060740314 0.0066217296 0.060710538 0.99005425 -0.11065853
1529426415.0943 0.98736 -0.11435732 0.0067305267 0.06107825 0.0066970177 0.061093979 0.98992872 -0.11121544
1539422641.5094 0.9873423 -0.11522934 0.0068057887 0.061439056 0.0067517278 0.061419308 0.99005347 -0.11169307
1549418867.9245 0.987167 -0.11609231 0.0069374628 0.06179478 0.0068486519 0.061790686 0.99024844 -0.11243172
1559415094.3396 0.98694932 -0.11684549 0.0070165116 0.06211888 0.006887069 0.062178656 0.99035585 -0.11322397
1569411320.7547 0.98673487 -0.11773327 0.0070565306 0.062467836 0.0070195533 0.062511832 0.99017978 -0.11404692
1579407547.1698 0.98658317 -0.11828312 0.0070869606 0.062791876 0.007046856 0.062861465 0.98981202 -0.11501734
1589403773.5849 0.98653221 -0.118862 0.0071267299 0.063132532 0.0070723183 0.063212417 0.98954022 -0.11572587
1599400000 0.98650348 -0.11943713 0.0071786046 0.063511513 0.0070880726 0.063558139 0.98901695 -0.11636221
1609396226.4151 0.98652822 -0.12009333 0.0071653631 0.063901603 0.0070745363 0.063924193 0.98890305 -0.11686572
1619392452.8302 0.98644674 -0.12089357 0.0072430056 0.064331137 0.0071172751 0.064359359 0.98887354 -0.11739886
1629388679.2453 0.98626357 -0.12159637 0.0072393324 0.064727768 0.0071182493 0.064818166 0.9891187 -0.11800924
1639384905.6604 0.98592961 -0.12235419 0.0073001431 0.065196216 0.0071725398 0.065292709 0.98938072 -0.11899727
1649381132.0755 0.98563629 -0.12321788 0.0073498227 0.065613829 0.0072679222 0.065733053 0.98931277 -0.1198425
1659377358.4906 0.98540717 -0.12401897 0.0073911306 0.06606181 0.0073123276 0.066175744 0.98915493 -0.12088117
1669373584.9057 0.98537552 -0.1244792 0.0074539143 0.066509426 0.0073722256 0.066602804 0.98883331 -0.12160671
1679369811.3208 0.98533154 -0.12513262 0.0075281858 0.06695506 0.007445097 0.067047596 0.98854131 -0.12222609
1689366037.7358 0.98530114 -0.12592089 0.0076557938 0.067380041 0.0075401571 0.067491427 0.98829681 -0.12255839
1699362264.1509 0.98551965 -0.12665488 0.0077775735 0.067842163 0.0076300278 0.067975082 0.98848784 -0.12310486
1709358490.566 0.9853195 -0.12734668 0.0078270696 0.068278998 0.0077465586 0.068424053 0.98849195 -0.12370011
1719354716.9811 0.98491716 -0.12804887 0.0079366472 0.068690188 0.0078504626 0.068808265 0.9884606 -0.12447867
1729350943.3962 0.98453432 -0.12869188 0.0081234444 0.069086909 0.0080204066 0.06927143 0.98841572 -0.12550101
1739347169.8113 0.98435479 -0.1290081 0.0082486272 0.069559202 0.0081693362 0.069759019 0.98835635 -0.12641494
