!Keysight Technologies,N5222B,MY61253708,A.15.00.15
!Date: Wednesday, June 19, 2024 09:36:45
!Correction: S11(C  2-Port  ) 
!S21(C  2-Port  ) 
!S12(C  2-Port  ) 
!S22(C  2-Port  ) 
!S2P File: Measurements: S11, S21, S12, S22:
# Hz S  RI   R 50
10000000 0.99842983 -0.0022307038 -4.8375477e-005 0.00032631494 4.3141321e-005 0.00046061468 0.99850035 -0.0010654628
19996226.415094 0.99894679 -0.0025337636 0.00014250462 0.00057635084 0.00012783176 0.00075725769 0.99905968 -0.0024680495
29992452.830189 0.99978751 -0.002461791 5.0521892e-005 0.00106446 4.2513624e-005 0.00097417296 0.99936646 -0.0026602745
39988679.245283 1.0000342 -0.003056705 2.5897985e-005 0.0013402202 -4.5947672e-007 0.0013763385 0.99964362 -0.003157407
49984905.660377 1.0001678 -0.0037092268 6.327813e-006 0.0016786109 -2.844783e-006 0.0016817194 0.9998033 -0.0036734641
59981132.075472 1.0003421 -0.0045528412 2.9732473e-007 0.0019660867 1.4960649e-005 0.0020023151 0.99979591 -0.0042255819
69977358.490566 1.0001026 -0.005126575 4.4148444e-005 0.0023251963 6.9960151e-005 0.0023666271 0.99966592 -0.0047902428
79973584.90566 0.99985677 -0.0057006776 1.2435252e-005 0.0026742625 1.3531535e-005 0.0026815792 0.99934947 -0.0053262711
89969811.320755 0.99989831 -0.0058772862 1.5922589e-005 0.0029883557 -6.8723457e-006 0.003012575 0.99957955 -0.005556196
99966037.735849 1.0000888 -0.0066237301 3.3667544e-005 0.0033537527 2.7341361e-005 0.0033368808 0.9996087 -0.0063403696
109962264.15094 1.0000976 -0.0075238496 2.3676781e-005 0.0036315685 3.818993e-005 0.0036876958 0.99964118 -0.0071309656
119958490.56604 1.0001261 -0.0084632039 3.572728e-005 0.0039919741 5.4817297e-005 0.003994205 0.99965382 -0.0080375969
129954716.98113 1.0000875 -0.0093976557 5.0452305e-005 0.0042987945 3.0940166e-005 0.0043683327 0.99965364 -0.0089581311
139950943.39623 1.0000305 -0.01023186 4.6055124e-005 0.0046605025 6.2076826e-005 0.0047033629 0.99956763 -0.0096662119
149947169.81132 0.99990797 -0.010869145 4.5882072e-005 0.0049873348 5.4696342e-005 0.0050001186 0.99951589 -0.010292441
159943396.22642 0.99986446 -0.011464804 6.8552326e-005 0.005325444 7.0413342e-005 0.0053709722 0.99957126 -0.010768056
169939622.64151 0.99987036 -0.011789151 6.5714354e-005 0.0056535872 5.1702722e-005 0.0056997677 0.99961537 -0.011195593
179935849.0566 0.99993372 -0.012089044 3.9860606e-005 0.0059876307 8.3916588e-005 0.0060377517 0.99957663 -0.011596769
189932075.4717 1.0000376 -0.01284045 8.9243753e-005 0.0063235518 0.00010833237 0.0063629635 0.99974424 -0.012145221
199928301.88679 0.99994993 -0.01365006 9.8849647e-005 0.0066601792 0.00010008097 0.0067230798 0.99960351 -0.013071477
209924528.30189 0.99972606 -0.014313534 0.0001002854 0.0069842446 8.1761624e-005 0.0070169624 0.99939591 -0.013732046
219920754.71698 0.99976516 -0.015100837 0.00013443525 0.0073632458 9.7178156e-005 0.0073624989 0.99932742 -0.014393717
229916981.13208 0.99961191 -0.015989661 0.00012661377 0.0076339114 0.00011483231 0.0077155712 0.99925685 -0.015199393
239913207.54717 0.99941093 -0.016653787 0.00014615565 0.0079940632 0.00010995551 0.0080442391 0.99924499 -0.015919659
249909433.96226 0.99945462 -0.017257392 0.00013811258 0.0083031561 0.00014610076 0.0083701499 0.99930298 -0.016502947
259905660.37736 0.99958843 -0.017855823 0.00015993603 0.0086477622 0.00014190655 0.0086990232 0.99950105 -0.017128021
269901886.79245 0.99968004 -0.018649459 0.00017010188 0.0090022646 0.00014264509 0.0090128332 0.99987578 -0.017807409
279898113.20755 0.99966019 -0.019189328 0.00019741943 0.0093203429 0.00019294419 0.0094054295 0.99966735 -0.018564135
289894339.62264 0.99970698 -0.019949734 0.00020494079 0.0096104648 0.00023344997 0.0097200898 0.99959493 -0.019361436
299890566.03774 0.99970269 -0.020424366 0.00016980129 0.0099595962 0.00019809906 0.010073703 0.99936241 -0.019785881
309886792.45283 0.9994148 -0.021024704 0.00018954731 0.010297846 0.00024548464 0.010401073 0.99920356 -0.020230852
319883018.86792 0.99948746 -0.021538585 0.00017987983 0.010676175 0.00024036178 0.010706952 0.99940372 -0.020643264
329879245.28302 0.99949712 -0.022418529 0.00027126586 0.010983339 0.00024718931 0.011078534 0.99944252 -0.02140379
339875471.69811 0.99933767 -0.023175813 0.00024762598 0.011319971 0.00030040136 0.011387078 0.99938697 -0.022203416
349871698.11321 0.99964726 -0.024039626 0.00033871992 0.011647922 0.000275383 0.011702747 0.99933267 -0.023136884
359867924.5283 0.9993394 -0.024882734 0.00032244669 0.011938217 0.00029024063 0.012071235 0.9993301 -0.02403453
369864150.9434 0.99965537 -0.025611013 0.00029267161 0.012255428 0.00035772636 0.012357023 0.99930894 -0.024855345
379860377.35849 0.99958783 -0.026278824 0.00033830409 0.012614697 0.00034105591 0.012708792 0.99926895 -0.02540341
389856603.77358 0.99937296 -0.026901871 0.00034123333 0.012931252 0.00031113299 0.013051616 0.99924421 -0.025901556
399852830.18868 0.99914867 -0.027428806 0.00038088486 0.01331214 0.00037854398 0.013371998 0.99933612 -0.026392996
409849056.60377 0.99917901 -0.027842928 0.00038814498 0.013606193 0.00039084535 0.013728668 0.99932379 -0.026812764
419845283.01887 0.99917054 -0.028339952 0.0004149084 0.013902054 0.00039529754 0.014063806 0.99934542 -0.027405292
429841509.43396 0.99911797 -0.028935581 0.00040770276 0.014279068 0.00040978193 0.014404187 0.999502 -0.028145939
439837735.84906 0.99906737 -0.029876351 0.00046967762 0.014581876 0.00047782669 0.014755789 0.9993248 -0.029155225
449833962.26415 0.99895811 -0.030710578 0.00045193266 0.014859845 0.00043972768 0.015032548 0.99897599 -0.029922009
459830188.67925 0.99885988 -0.031432599 0.00045334408 0.015219176 0.00043092854 0.01536179 0.99875641 -0.030767083
469826415.09434 0.99879938 -0.032158226 0.00043669157 0.015589614 0.00049132528 0.015719183 0.99853754 -0.031269342
479822641.50943 0.99871391 -0.032736994 0.00052277907 0.015935047 0.00049574114 0.016046919 0.99860215 -0.031748861
489818867.92453 0.99872625 -0.033287346 0.00052704895 0.016215498 0.00052489061 0.016361061 0.99888301 -0.032317638
499815094.33962 0.99883044 -0.03386429 0.00057278899 0.016568163 0.00056277867 0.01672628 0.99920607 -0.032879323
509811320.75472 0.99892181 -0.034285024 0.0005791419 0.016896382 0.00057455967 0.017054845 0.99931258 -0.033702757
519807547.16981 0.99883252 -0.034797937 0.00061417837 0.017251974 0.00056428462 0.017393084 0.99925101 -0.034502864
529803773.58491 0.9990052 -0.035364002 0.00062398054 0.017580129 0.00056701526 0.017732788 0.99900991 -0.035093397
539800000 0.99898499 -0.036226973 0.00063977926 0.017886151 0.00066623953 0.018081376 0.99890113 -0.03575179
549796226.41509 0.99882078 -0.036868751 0.00061357161 0.018280221 0.00067578396 0.01841085 0.99869347 -0.036292791
559792452.83019 0.99849403 -0.037673503 0.0006553987 0.018595532 0.00069257058 0.018757822 0.99859691 -0.036742657
569788679.24528 0.99843812 -0.038317204 0.00067935977 0.018928228 0.00071599893 0.019068548 0.99872071 -0.037541956
579784905.66038 0.99843735 -0.03891471 0.00074453058 0.019245632 0.00067969668 0.019389767 0.99887848 -0.038289934
589781132.07547 0.99853688 -0.039569199 0.00071968045 0.019556493 0.00072896294 0.019716389 0.99903345 -0.039153725
599777358.49057 0.99862641 -0.040231228 0.00078253262 0.019902946 0.00079833064 0.020092705 0.99899095 -0.03992334
609773584.90566 0.99880612 -0.040978361 0.00077524583 0.020268932 0.00081266067 0.020406574 0.99886471 -0.040761679
619769811.32075 0.99896002 -0.041603506 0.00086136162 0.020551354 0.0008840356 0.02069037 0.99870855 -0.041392863
629766037.73585 0.99873352 -0.042267799 0.00089569669 0.020851646 0.00092128478 0.021040382 0.99857128 -0.041848451
639762264.15094 0.99858797 -0.042981103 0.00094095315 0.021201549 0.00087432191 0.02133435 0.99839091 -0.042294607
649758490.56604 0.9984048 -0.043618098 0.00092182867 0.021488342 0.00092820171 0.021699516 0.99849892 -0.042798072
659754716.98113 0.99827933 -0.043879598 0.00090013631 0.021844288 0.00093191676 0.022101192 0.99853194 -0.043335557
669750943.39623 0.99831074 -0.044567108 0.00096770283 0.022178011 0.00095470436 0.022365643 0.99857301 -0.044048429
679747169.81132 0.99838293 -0.045339406 0.00098282937 0.022531779 0.00099951483 0.022732683 0.99848634 -0.045042649
689743396.22642 0.9984833 -0.046118796 0.0010333322 0.022874799 0.0010412196 0.023069762 0.99835312 -0.046030581
699739622.64151 0.99860394 -0.046891063 0.0010885699 0.023190185 0.0010877838 0.023399899 0.99833739 -0.046671122
709735849.0566 0.99858963 -0.047796667 0.0011251512 0.023505777 0.0011346382 0.023717081 0.99804431 -0.047318511
719732075.4717 0.99846435 -0.048470438 0.0011542719 0.023806341 0.0011193054 0.023998959 0.99815148 -0.047901273
729728301.88679 0.99836397 -0.049009621 0.0011503585 0.024161674 0.0011700988 0.024396546 0.99817598 -0.048355103
739724528.30189 0.99829376 -0.049677685 0.0012000524 0.024472997 0.0012250533 0.024656752 0.99835175 -0.048994943
749720754.71698 0.99812049 -0.050239921 0.0012334818 0.024765491 0.0012643789 0.025026623 0.99843341 -0.049695432
759716981.13208 0.99818897 -0.050686717 0.0012829714 0.025114805 0.0012773126 0.025328141 0.99836206 -0.050466508
769713207.54717 0.99811035 -0.051433325 0.0012918394 0.025423095 0.0013161674 0.025646755 0.99808633 -0.051196247
779709433.96226 0.99828702 -0.052031316 0.0012980276 0.025775615 0.0013603596 0.026014743 0.99789244 -0.051867548
789705660.37736 0.99814004 -0.053007245 0.0013752524 0.026095401 0.0013633268 0.026309129 0.99761164 -0.052483559
799701886.79245 0.99808919 -0.053730339 0.0014215317 0.026401937 0.0014064386 0.026629608 0.99744332 -0.053101391
809698113.20755 0.99799621 -0.054363891 0.0014191442 0.026720645 0.0014296039 0.026971012 0.99755549 -0.053587988
819694339.62264 0.99785894 -0.054986566 0.0014624181 0.027048238 0.0014417609 0.027300324 0.99768275 -0.054167837
829690566.03774 0.99781048 -0.055581242 0.0014924742 0.027342729 0.0015119761 0.02761073 0.99795216 -0.055142909
839686792.45283 0.9979229 -0.056013376 0.0015008259 0.027665708 0.0015322142 0.027943322 0.99797726 -0.055939585
849683018.86792 0.99804962 -0.056767866 0.0015258431 0.028008215 0.0015554049 0.028274225 0.99785405 -0.056649029
859679245.28302 0.99799091 -0.057440132 0.0015893793 0.028340135 0.0015910799 0.028591108 0.99757659 -0.057289541
869675471.69811 0.9979465 -0.058199555 0.0016424395 0.028661026 0.0016469834 0.028910194 0.99730676 -0.057851076
879671698.11321 0.99788457 -0.05883307 0.0016550338 0.028944612 0.0016775636 0.029233566 0.997244 -0.058297191
889667924.5283 0.99763328 -0.05968383 0.0017156471 0.029277045 0.0017162841 0.029565282 0.99710488 -0.058830917
899664150.9434 0.99755704 -0.060363919 0.0016929423 0.029609313 0.0017085206 0.029867887 0.99718696 -0.059436262
909660377.35849 0.99748629 -0.061070323 0.0017167693 0.029955668 0.0017437786 0.030205578 0.99726093 -0.060260013
919656603.77358 0.99749035 -0.061681047 0.0017538625 0.030260241 0.0017728377 0.030512935 0.9972797 -0.061205178
929652830.18868 0.99755257 -0.062373251 0.0017855847 0.030554414 0.0018096082 0.030854974 0.99713719 -0.062046289
939649056.60377 0.99775994 -0.063047558 0.0018001925 0.030890891 0.0017939238 0.03114688 0.9969945 -0.062766969
949645283.01887 0.99774253 -0.063890122 0.0018053129 0.031228147 0.0018131458 0.031510957 0.99675936 -0.063305065
959641509.43396 0.9976114 -0.064597279 0.0018507792 0.031584475 0.0018733526 0.031878341 0.99665952 -0.063800186
969637735.84906 0.99753165 -0.065247238 0.0018701404 0.031912133 0.0018952638 0.032226257 0.99665713 -0.064255446
979633962.26415 0.99732804 -0.065967709 0.0019264326 0.032218099 0.0019614098 0.032551371 0.99670196 -0.064815998
989630188.67925 0.99738026 -0.066566974 0.0019546123 0.032542679 0.001994296 0.032866966 0.9969604 -0.065402597
999626415.09434 0.99743468 -0.06711486 0.0020179562 0.032866299 0.0020444058 0.033218443 0.99683726 -0.066288322
1009622641.5094 0.99749947 -0.067791671 0.0020302674 0.03319376 0.002054383 0.03352933 0.99665827 -0.067036137
1019618867.9245 0.997531 -0.068558425 0.0020754565 0.033546176 0.0021248679 0.033845115 0.99647534 -0.067954317
1029615094.3396 0.99758053 -0.069526047 0.0021545151 0.033850174 0.0021901028 0.034163006 0.99607813 -0.068538934
1039611320.7547 0.99755371 -0.070343137 0.0021878416 0.034120318 0.0022152187 0.034474462 0.99606556 -0.06914258
1049607547.1698 0.99747938 -0.071320921 0.00220792 0.034439825 0.0022350529 0.034803852 0.99604934 -0.069787621
1059603773.5849 0.99731672 -0.072000027 0.0022470215 0.034746878 0.0022658128 0.035095397 0.99600708 -0.070320994
1069600000 0.99711257 -0.072551697 0.0022503966 0.035064135 0.0022575743 0.035407279 0.99620491 -0.071071655
1079596226.4151 0.99712563 -0.07325536 0.002259762 0.035395812 0.0023030294 0.035727791 0.99617881 -0.071867861
1089592452.8302 0.99713099 -0.073906004 0.0022641113 0.035718936 0.0023337742 0.036102578 0.99605805 -0.072593182
1099588679.2453 0.99712843 -0.074596256 0.002306575 0.036045417 0.0023723636 0.036408454 0.99582094 -0.073192298
1109584905.6604 0.9972012 -0.07535997 0.0022930549 0.036399115 0.0023530619 0.036751255 0.99550527 -0.073744461
1119581132.0755 0.99716991 -0.076282993 0.002342965 0.036729105 0.0024078717 0.037115619 0.99539411 -0.074150383
1129577358.4906 0.99707913 -0.077092439 0.0023872722 0.037096161 0.0024211109 0.037457243 0.99526459 -0.074535817
1139573584.9057 0.99680227 -0.078038007 0.0024189986 0.037413597 0.0024900334 0.037791863 0.99539614 -0.075254023
1149569811.3208 0.99666405 -0.078943327 0.0024666192 0.037754495 0.0025647406 0.038127486 0.99546695 -0.076013565
1159566037.7358 0.99646163 -0.079552382 0.0025002966 0.038031228 0.0025877682 0.038433105 0.99557847 -0.077000052
1169562264.1509 0.99640334 -0.080170631 0.002510637 0.038362734 0.0026062187 0.038787268 0.9954083 -0.077855438
1179558490.566 0.99628961 -0.080983728 0.00253064 0.038728572 0.0026335234 0.03912982 0.99527353 -0.078529619
1189554716.9811 0.99630868 -0.081667781 0.0025646333 0.039081711 0.0026766369 0.039444193 0.99497622 -0.079027027
1199550943.3962 0.99619591 -0.082482934 0.0026371256 0.039445288 0.0027640685 0.039791964 0.99478012 -0.079415649
1209547169.8113 0.99601811 -0.083414495 0.002672974 0.039764855 0.0027746847 0.040115625 0.9947288 -0.079803005
1219543396.2264 0.99580824 -0.084210902 0.0027047032 0.040115424 0.002830938 0.040486388 0.99475771 -0.080252737
1229539622.6415 0.99553353 -0.084978551 0.0027860347 0.040432006 0.0029122904 0.040834509 0.99491 -0.080923975
1239535849.0566 0.99524361 -0.085721523 0.0028118379 0.040742591 0.0029776469 0.041140772 0.99510205 -0.0818066
1249532075.4717 0.9950155 -0.086343795 0.002883536 0.041061882 0.0030289369 0.041463863 0.99489033 -0.082604811
1259528301.8868 0.99473923 -0.086861283 0.0029398389 0.041423731 0.0030837338 0.04178118 0.99463117 -0.083505511
1269524528.3019 0.99457711 -0.087661505 0.0030150656 0.041740246 0.0031388849 0.042060908 0.9944154 -0.084172308
1279520754.717 0.99428707 -0.088336155 0.0030782381 0.042019632 0.00319531 0.04233646 0.99415219 -0.084726393
1289516981.1321 0.99410212 -0.089187533 0.0030811895 0.042303909 0.0032030446 0.042638928 0.9942261 -0.08514294
1299513207.5472 0.99381417 -0.090000689 0.0031102523 0.042614389 0.003231816 0.042919595 0.99431467 -0.085605085
1309509433.9623 0.99333733 -0.090762973 0.0030989079 0.04294879 0.0032763202 0.04327134 0.99442601 -0.086319372
1319505660.3774 0.99301165 -0.091449693 0.003091827 0.043246329 0.0032247687 0.043589938 0.99446154 -0.086942941
1329501886.7925 0.99273348 -0.092043728 0.0031236839 0.043566018 0.0032260679 0.043910392 0.99449587 -0.087884575
1339498113.2075 0.99245465 -0.092622101 0.0031618243 0.043899115 0.0033079218 0.044215772 0.99405706 -0.088589966
1349494339.6226 0.99225783 -0.093135737 0.0031196773 0.044242945 0.003266518 0.044526163 0.99361175 -0.089160316
1359490566.0377 0.99219018 -0.093705624 0.0030947253 0.044609316 0.0033044592 0.044886082 0.99353826 -0.089700997
1369486792.4528 0.99194819 -0.094298959 0.0031739064 0.044946279 0.0032926463 0.045248445 0.9932881 -0.090171635
1379483018.8679 0.99168718 -0.094808526 0.0031750982 0.045358203 0.0033064173 0.045607843 0.99326187 -0.090553209
1389479245.283 0.99132872 -0.095377266 0.0032473877 0.045714151 0.0033924319 0.045980878 0.99325734 -0.091246963
1399475471.6981 0.99094212 -0.095726132 0.0032676198 0.046016343 0.0033463743 0.046382643 0.99343455 -0.091917992
1409471698.1132 0.99065572 -0.096141316 0.0032634635 0.046458062 0.0033845489 0.04675974 0.99346936 -0.092734143
1419467924.5283 0.99038017 -0.096332073 0.0032790992 0.046803128 0.0033795442 0.047127485 0.99330807 -0.093394756
1429464150.9434 0.99022174 -0.096814483 0.0033542812 0.047200099 0.003456166 0.047500186 0.99313402 -0.093942076
1439460377.3585 0.99046159 -0.097290337 0.0034419587 0.047637075 0.0035142768 0.047955699 0.99294841 -0.094362423
1449456603.7736 0.99050891 -0.097780138 0.0035175877 0.048031993 0.0036220783 0.048325527 0.99284416 -0.094750926
1459452830.1887 0.99052203 -0.098540545 0.003654873 0.048455391 0.0037290659 0.048730679 0.99292684 -0.094989449
1469449056.6038 0.99050862 -0.099169612 0.0038310224 0.048770979 0.0039239489 0.049083687 0.99316746 -0.095626712
1479445283.0189 0.99035096 -0.099750757 0.0039230431 0.049056958 0.0040088678 0.049396824 0.99323779 -0.0964894
1489441509.434 0.99022698 -0.10031575 0.0041042287 0.049424618 0.004143117 0.049738385 0.99305701 -0.097387999
1499437735.8491 0.99011034 -0.1006436 0.0042063296 0.049659085 0.0042346437 0.049986281 0.99301982 -0.098267376
1509433962.2642 0.99017382 -0.1011256 0.0043079252 0.049942017 0.0043105311 0.050302867 0.99279803 -0.098948255
1519430188.6792 0.9901967 -0.10166848 0.0043701865 0.050190959 0.0043893773 0.050537087 0.9926914 -0.099501491
1529426415.0943 0.99013829 -0.10238904 0.0043946095 0.050507795 0.0044158529 0.050830282 0.99266374 -0.099874318
1539422641.5094 0.99020964 -0.10322282 0.0044673239 0.050775621 0.0045004115 0.05116285 0.99268413 -0.10040644
1549418867.9245 0.98999578 -0.10397728 0.0045048185 0.051076811 0.0045734365 0.051419113 0.99290037 -0.10114938
1559415094.3396 0.98991883 -0.10463595 0.0045718979 0.051361844 0.004602192 0.051738966 0.99301022 -0.10182631
1569411320.7547 0.98984814 -0.10548861 0.0046381559 0.051642351 0.004620323 0.051993456 0.99295831 -0.10259864
1579407547.1698 0.98980552 -0.10588896 0.0046112393 0.051900625 0.0046097725 0.052265752 0.99267429 -0.1034281
1589403773.5849 0.98966855 -0.10639432 0.0046335682 0.052189637 0.0046329629 0.052586153 0.992342 -0.10410604
1599400000 0.98954278 -0.1069476 0.0046282075 0.052491076 0.0046346812 0.05291032 0.99196911 -0.10451376
1609396226.4151 0.98953187 -0.10758057 0.0045961998 0.052845903 0.0046218419 0.053207204 0.99177736 -0.10508621
1619392452.8302 0.98957109 -0.10815439 0.0046534594 0.053162195 0.004612064 0.053581238 0.99178195 -0.10551044
1629388679.2453 0.98934865 -0.10880303 0.0046219788 0.053470705 0.0046645328 0.053923607 0.99201143 -0.10611185
1639384905.6604 0.98912311 -0.10947986 0.0046002478 0.053850874 0.0046239821 0.054320212 0.99221808 -0.10694437
1649381132.0755 0.98894197 -0.11017594 0.0046677366 0.054222472 0.004658496 0.054655947 0.99224055 -0.10787153
1659377358.4906 0.9888218 -0.11093748 0.0046552997 0.054593965 0.0046927761 0.055069938 0.99219072 -0.1087532
1669373584.9057 0.98879158 -0.11138461 0.0047194599 0.054980379 0.004749205 0.05541084 0.99186122 -0.10933173
1679369811.3208 0.98878539 -0.11204562 0.0048009893 0.055324398 0.0047748927 0.055749472 0.99171615 -0.10989448
1689366037.7358 0.98882675 -0.11270326 0.0047814827 0.055736635 0.0047937166 0.056196086 0.99156225 -0.11022711
1699362264.1509 0.98887491 -0.11328398 0.0048147468 0.056064591 0.0048470767 0.056548912 0.99169743 -0.1105905
1709358490.566 0.98873585 -0.11390296 0.004920424 0.05643525 0.0049319314 0.056930672 0.99164075 -0.11122285
1719354716.9811 0.9884693 -0.11456189 0.0049627498 0.056869283 0.005007932 0.057327844 0.9917717 -0.11182016
