!Keysight Technologies,N5222B,MY61253708,A.15.00.15
!Date: Wednesday, June 19, 2024 08:36:17
!Correction: S11(C  2-Port  ) 
!S21(C  2-Port  ) 
!S12(C  2-Port  ) 
!S22(C  2-Port  ) 
!S2P File: Measurements: S11, S21, S12, S22:
# Hz S  RI   R 50
10000000 0.99886739 -0.0021211803 0.00040577876 0.00096107455 -0.00022307498 0.00078170438 0.9986738 -0.00093251467
19996226.415094 0.99909168 -0.0026454926 0.00020402583 0.001125965 8.542015e-005 0.0013568203 0.99929661 -0.0026135445
29992452.830189 0.99970216 -0.0032238364 2.8750568e-005 0.0018089182 -1.0572432e-005 0.0017787507 0.99949324 -0.0035520792
39988679.245283 1.0000242 -0.0041378289 8.9277164e-006 0.0024391133 2.4746172e-005 0.0023954131 0.99961382 -0.004211992
49984905.660377 1.0001308 -0.0051543415 -6.3254265e-006 0.0030101093 1.5445286e-005 0.0030251169 0.99970198 -0.0050856769
59981132.075472 1.0001335 -0.0061773062 1.8999795e-005 0.0036372044 2.1754298e-005 0.0036123334 0.99962521 -0.0058252215
69977358.490566 0.99992979 -0.0070004743 5.753155e-005 0.004183996 1.3118159e-005 0.0041638231 0.99950337 -0.0065538138
79973584.90566 0.99968648 -0.0078388453 4.4612098e-005 0.004778963 5.5026496e-005 0.0048048976 0.99928677 -0.0073511302
89969811.320755 0.99967933 -0.0084060133 4.4344692e-005 0.0054082852 2.9865885e-005 0.0054009343 0.99936098 -0.0079833865
99966037.735849 0.99987531 -0.0093920827 9.6457428e-005 0.0059830872 8.8622677e-005 0.0059982073 0.99940419 -0.0089707077
109962264.15094 0.99984401 -0.010563985 0.00010177854 0.0066006095 9.4335759e-005 0.0066201501 0.99946588 -0.010105491
119958490.56604 0.99991012 -0.011810452 0.00014130888 0.0072184652 0.00010011275 0.0072007179 0.99947011 -0.011302054
129954716.98113 0.99983943 -0.01312688 0.00013048993 0.0078027351 0.00011853641 0.0077921739 0.99940449 -0.012499452
139950943.39623 0.99978894 -0.014260348 0.00011714398 0.0083826669 0.000141885 0.008403372 0.9993155 -0.013507597
149947169.81132 0.99958843 -0.015159458 0.00017183553 0.0089915805 0.00017001876 0.0089996364 0.99926698 -0.014364809
159943396.22642 0.99959981 -0.015894502 0.00017841486 0.0096080396 0.00018782075 0.0096088145 0.99933565 -0.015047371
169939622.64151 0.99959546 -0.016495734 0.00022179366 0.010181808 0.0002292844 0.010215581 0.99944383 -0.015734054
179935849.0566 0.99963397 -0.017078519 0.00025197538 0.0107958 0.00023344462 0.010830186 0.99935395 -0.016401678
189932075.4717 0.99967116 -0.018070668 0.00025368575 0.011420792 0.00028054742 0.011411214 0.99950248 -0.017317891
199928301.88679 0.99962699 -0.019237667 0.00030572526 0.012016182 0.00032493891 0.012022793 0.99936783 -0.018408209
209924528.30189 0.99928337 -0.020237759 0.00035630679 0.012613133 0.00036370114 0.01267447 0.9991188 -0.019522637
219920754.71698 0.9989593 -0.021393627 0.00071565155 0.013148246 0.0007248302 0.013166491 0.99857193 -0.02048865
229916981.13208 0.99894965 -0.022464782 0.00039285142 0.013684612 0.00039202813 0.013712132 0.99869645 -0.021436155
239913207.54717 0.99883848 -0.023373809 0.00041300984 0.014328469 0.00044180269 0.014368539 0.99872863 -0.022382306
249909433.96226 0.99888706 -0.024226397 0.00045727985 0.014925107 0.00045959 0.014946138 0.99883318 -0.023265451
259905660.37736 0.99889374 -0.025155485 0.00046588015 0.015522664 0.0005239998 0.01562444 0.99904317 -0.024227828
269901886.79245 0.99912715 -0.025954783 0.00050202035 0.016139641 0.00050948025 0.016136311 0.99936068 -0.025074765
279898113.20755 0.99929374 -0.026995361 0.00060257292 0.016754521 0.00062053208 0.016748359 0.99920315 -0.026029006
289894339.62264 0.99920475 -0.027966827 0.00058896933 0.017330963 0.00067434926 0.01732773 0.99906802 -0.027091086
299890566.03774 0.99911261 -0.028870225 0.00062593538 0.017929841 0.00060340017 0.017975558 0.99887085 -0.027940333
309886792.45283 0.99874753 -0.029752471 0.00069050328 0.018516868 0.00066600193 0.018574415 0.99849445 -0.028674975
319883018.86792 0.99856281 -0.030685812 0.00076257344 0.019126229 0.00074774958 0.01916204 0.99855626 -0.029339373
329879245.28302 0.9984597 -0.031571746 0.00077988394 0.019755358 0.00076858141 0.019757241 0.99860346 -0.030310631
339875471.69811 0.99828476 -0.032514878 0.00082784961 0.02033239 0.0008196698 0.020364212 0.99859947 -0.031350546
349871698.11321 0.99860454 -0.033670604 0.00087365927 0.020906301 0.00081268186 0.020960839 0.99860144 -0.032546312
359867924.5283 0.99844569 -0.034674168 0.0008917572 0.021467473 0.00092685781 0.021503393 0.99860644 -0.033811212
369864150.9434 0.99869418 -0.03581062 0.00097110122 0.022126988 0.00096351467 0.022150984 0.99858636 -0.034791291
379860377.35849 0.99854296 -0.036711559 0.0010479263 0.022710228 0.0010311119 0.022736967 0.99850965 -0.035768613
389856603.77358 0.99840873 -0.037559211 0.0010809312 0.023300238 0.0010854006 0.023297025 0.99833459 -0.036438167
399852830.18868 0.99823022 -0.038403034 0.0010778774 0.023879338 0.0011422141 0.023895212 0.99837679 -0.037104875
409849056.60377 0.99815834 -0.03913689 0.0012399674 0.02443232 0.0011606613 0.024501598 0.99836046 -0.037822384
419845283.01887 0.99802512 -0.039745122 0.0012434358 0.025065487 0.0012253746 0.025101986 0.99836439 -0.0386509
429841509.43396 0.9980197 -0.04080084 0.0013360297 0.02566169 0.0013070125 0.02566037 0.99844563 -0.039725155
439837735.84906 0.99786156 -0.041846059 0.0013623519 0.026284542 0.0013855186 0.026273854 0.99818969 -0.040960893
449833962.26415 0.99781239 -0.043051034 0.001486626 0.026866015 0.001436519 0.026895221 0.99786168 -0.042070001
459830188.67925 0.99769855 -0.044067472 0.0014996529 0.027428452 0.0014771717 0.027434271 0.99763262 -0.043078303
469826415.09434 0.99762392 -0.045113534 0.0015604226 0.028034566 0.0015555816 0.028052881 0.99730384 -0.043856412
479822641.50943 0.99739099 -0.046031199 0.0016457378 0.028616173 0.0016026434 0.028633509 0.99734443 -0.044633478
489818867.92453 0.99752659 -0.046758085 0.0017119134 0.029210892 0.0016837455 0.029215917 0.99763733 -0.045394987
499815094.33962 0.99756521 -0.047514021 0.0017650332 0.029772721 0.0017586909 0.029821645 0.99797398 -0.046301484
509811320.75472 0.99764353 -0.048228398 0.0018191139 0.030371387 0.0018166045 0.030376425 0.99802405 -0.047392476
519807547.16981 0.99761236 -0.049106628 0.0018964382 0.031008825 0.0018498832 0.030970128 0.99797374 -0.048446596
529803773.58491 0.9975754 -0.050155342 0.0019645691 0.031539112 0.0019317484 0.03158601 0.99761486 -0.049305588
539800000 0.99735981 -0.051083878 0.0020498037 0.032203637 0.0019935817 0.032189928 0.99736255 -0.050309882
549796226.41509 0.99714929 -0.052176952 0.0020999368 0.032773584 0.0020955168 0.03276182 0.99703038 -0.051008552
559792452.83019 0.99682343 -0.053144485 0.0021619508 0.033328645 0.0021428028 0.033348605 0.99687207 -0.051769376
569788679.24528 0.99663299 -0.054163903 0.0022040186 0.033955652 0.0022421759 0.033995435 0.9969486 -0.052786738
579784905.66038 0.99662524 -0.054977387 0.0023238286 0.034478839 0.0022866433 0.034577657 0.99713445 -0.053686149
589781132.07547 0.99669021 -0.0558635 0.0024114009 0.035106383 0.0024177739 0.035161149 0.99725372 -0.054890066
599777358.49057 0.99685818 -0.056789964 0.002489862 0.0357132 0.002472748 0.035714269 0.99717784 -0.055975139
609773584.90566 0.99700445 -0.057823986 0.00258394 0.036320146 0.0025720422 0.036340468 0.9969781 -0.057182938
619769811.32075 0.99690026 -0.058767349 0.0026868582 0.036871169 0.0026319446 0.036898162 0.99680722 -0.057890922
629766037.73585 0.99669284 -0.059628278 0.0027855188 0.037476059 0.0027232785 0.037449516 0.99655986 -0.058685601
639762264.15094 0.99639899 -0.060552076 0.0028325147 0.038014706 0.0027976963 0.038032696 0.99632192 -0.059339762
649758490.56604 0.99614722 -0.061469853 0.0029105665 0.038567599 0.0028906912 0.038648184 0.99635506 -0.059961706
659754716.98113 0.99589121 -0.062123805 0.0029558633 0.039203443 0.0029343516 0.039239638 0.99631143 -0.060884178
669750943.39623 0.9958145 -0.062863141 0.0030761855 0.039757036 0.003032662 0.0398155 0.99627399 -0.061893314
679747169.81132 0.99581391 -0.063961349 0.0031314804 0.04039605 0.0031473218 0.040438466 0.9962377 -0.063249514
689743396.22642 0.99603093 -0.065034688 0.0032730531 0.040982738 0.003246285 0.040980753 0.99598408 -0.064414769
699739622.64151 0.99603999 -0.066141665 0.0033430867 0.041587628 0.003358271 0.041593716 0.99579549 -0.065369666
709735849.0566 0.99599147 -0.06729269 0.0034978411 0.042126596 0.0034608708 0.042128317 0.99558145 -0.066210531
719732075.4717 0.99579036 -0.068146437 0.0035683736 0.042676631 0.0035433238 0.042737931 0.99559116 -0.067010462
729728301.88679 0.99564123 -0.068911374 0.0036541279 0.043267787 0.0036364123 0.043317199 0.9956364 -0.067654073
739724528.30189 0.99530256 -0.069726646 0.0037467722 0.043834988 0.0037332801 0.043873671 0.99578738 -0.068638206
749720754.71698 0.99518561 -0.07050097 0.0038182051 0.044435341 0.0038469317 0.044472437 0.99572277 -0.069606319
759716981.13208 0.99522948 -0.07125324 0.0039522648 0.04499492 0.0039382 0.045056079 0.9956162 -0.070631623
769713207.54717 0.99506301 -0.072217017 0.0040356964 0.045563724 0.004038848 0.045633987 0.99522495 -0.071595788
779709433.96226 0.9951812 -0.073232353 0.0041266284 0.046184812 0.0041619651 0.046224471 0.99489117 -0.072506689
789705660.37736 0.99497253 -0.074555635 0.0042901635 0.046796288 0.0042230189 0.046754252 0.99457181 -0.073443562
799701886.79245 0.99484456 -0.075603247 0.0043381676 0.047335394 0.0043280516 0.047369443 0.99439782 -0.074338406
809698113.20755 0.99482054 -0.076444402 0.0044794502 0.047921933 0.0044340319 0.047942806 0.99439561 -0.075077444
819694339.62264 0.9945153 -0.077370748 0.0045298766 0.048478935 0.0045196284 0.048567835 0.99445546 -0.075964391
829690566.03774 0.99450183 -0.078170359 0.004620323 0.049042173 0.0046457164 0.049126998 0.99468106 -0.077123344
839686792.45283 0.99439454 -0.078815818 0.0047341399 0.049657725 0.0047259387 0.049722373 0.99467069 -0.07815367
849683018.86792 0.99447858 -0.079730295 0.0048169605 0.050280828 0.0048732995 0.050280083 0.99449086 -0.079215549
859679245.28302 0.99442792 -0.08074677 0.0049784966 0.050865486 0.0049740411 0.050875232 0.99403501 -0.080049932
869675471.69811 0.99420369 -0.081829309 0.0051208064 0.051484685 0.0050999988 0.051499516 0.9936347 -0.080879539
879671698.11321 0.99401754 -0.082826249 0.0052464586 0.052044667 0.0052451422 0.05209168 0.9935019 -0.081575818
889667924.5283 0.99361587 -0.083952218 0.0054622917 0.052647229 0.0054120291 0.052702051 0.99320042 -0.082398355
899664150.9434 0.99315834 -0.084972948 0.0056837723 0.053192243 0.0056788996 0.053269532 0.99301445 -0.083304852
909660377.35849 0.99297959 -0.085612029 0.0059354259 0.053495575 0.005895488 0.053552177 0.99301285 -0.084142402
919656603.77358 0.99325103 -0.086390883 0.005810163 0.053925686 0.005804548 0.054037996 0.99311697 -0.085300058
929652830.18868 0.99330008 -0.087380618 0.0058309231 0.054518186 0.0058210045 0.054587394 0.99294454 -0.086464435
939649056.60377 0.99345982 -0.088308901 0.0058759544 0.055119276 0.0058598388 0.055191286 0.99284834 -0.08743608
949645283.01887 0.9932965 -0.089422703 0.0059331097 0.055750862 0.0058975746 0.055809848 0.99245846 -0.088188872
959641509.43396 0.99320692 -0.090369791 0.0060096346 0.056390148 0.0060389545 0.056422617 0.99237049 -0.08889249
969637735.84906 0.9929437 -0.0913513 0.0061630569 0.057005763 0.0061404351 0.057066996 0.9923104 -0.089509457
979633962.26415 0.99266082 -0.092341989 0.0063086976 0.057560869 0.0062903333 0.057642214 0.99223852 -0.090372726
989630188.67925 0.99258637 -0.093020692 0.0064306948 0.058109064 0.0063935593 0.058241181 0.99233949 -0.09133473
999626415.09434 0.99249756 -0.093942761 0.0065286513 0.058675252 0.0065565333 0.058871746 0.99220872 -0.09251219
1009622641.5094 0.99254137 -0.094966784 0.0066405321 0.059298608 0.0066380296 0.059409276 0.99195564 -0.093581274
1019618867.9245 0.99249679 -0.096164107 0.0067862673 0.05987544 0.0067968112 0.05997166 0.99153215 -0.094706222
1029615094.3396 0.99246401 -0.097374499 0.0069133136 0.060479119 0.0069245007 0.060532615 0.9911055 -0.095567226
1039611320.7547 0.99238569 -0.098531336 0.007078046 0.061031394 0.0070882794 0.061083231 0.99099559 -0.09653154
1049607547.1698 0.99211776 -0.099625975 0.0071919267 0.061588973 0.0071604829 0.061634462 0.99087822 -0.097268566
1059603773.5849 0.99187529 -0.10052097 0.0072897952 0.062101945 0.0073081516 0.062203936 0.99080443 -0.098035723
1069600000 0.99148381 -0.10137972 0.0074021481 0.062652916 0.0074333083 0.062783092 0.99087709 -0.099044204
1079596226.4151 0.99132979 -0.10216215 0.0074897921 0.063209355 0.0075962152 0.063337125 0.9907366 -0.10000344
1089592452.8302 0.99126589 -0.10304341 0.0076455204 0.063809253 0.0076929443 0.063906416 0.99054003 -0.10100856
1099588679.2453 0.99121606 -0.10402077 0.0077503882 0.06435883 0.0077857394 0.064488791 0.99008644 -0.10187694
1109584905.6604 0.99129677 -0.1050391 0.0079044066 0.064966686 0.0079568438 0.065068513 0.98972666 -0.10260281
1119581132.0755 0.99110359 -0.10639316 0.0080112452 0.065554105 0.0080635995 0.065656774 0.98948932 -0.10330184
1129577358.4906 0.9907425 -0.10749879 0.0081726369 0.066171043 0.008236533 0.066256404 0.98927701 -0.10399383
1139573584.9057 0.99036449 -0.10863739 0.0082942061 0.066699184 0.0083793793 0.066826835 0.98928851 -0.10493815
1149569811.3208 0.99018711 -0.10969691 0.0084398109 0.067238763 0.008518558 0.067365669 0.9893229 -0.10598959
1159566037.7358 0.98988754 -0.11052695 0.0085787587 0.067812875 0.0086928997 0.06793157 0.98930323 -0.10730955
1169562264.1509 0.98959178 -0.11134183 0.0086795799 0.068287164 0.0087815635 0.068457805 0.9890213 -0.10826948
1179558490.566 0.98946601 -0.11236929 0.0087927403 0.068920821 0.008889392 0.069053277 0.98876852 -0.1091283
1189554716.9811 0.98941344 -0.11332104 0.0089281853 0.069535486 0.0090399664 0.069581933 0.98833448 -0.10985336
1199550943.3962 0.98924434 -0.11436155 0.0090380069 0.070148788 0.0092019048 0.07016807 0.98810083 -0.11052763
1209547169.8113 0.98891377 -0.11551772 0.0092068482 0.070718214 0.009345701 0.070694983 0.98794365 -0.11103909
1219543396.2264 0.98860574 -0.11667065 0.0093738921 0.071278334 0.0094700698 0.071351215 0.98788732 -0.1116913
1229539622.6415 0.98822844 -0.11766678 0.0095093716 0.071798116 0.0096580014 0.071930841 0.98795915 -0.11271009
1239535849.0566 0.98772013 -0.11862013 0.0096727479 0.072376966 0.0098233633 0.072506689 0.98797417 -0.11391091
1249532075.4717 0.98748374 -0.11959915 0.0098620057 0.072978877 0.010012181 0.073011719 0.98761344 -0.11508409
1259528301.8868 0.98710871 -0.1203486 0.0099855885 0.07353507 0.010177594 0.073555365 0.98722672 -0.1161685
1269524528.3019 0.98683518 -0.12127811 0.010171071 0.074079946 0.010366336 0.074123397 0.9868924 -0.11706915
1279520754.717 0.98641914 -0.12220962 0.010346871 0.074606918 0.010496625 0.074539185 0.98654115 -0.11783525
1289516981.1321 0.98611361 -0.12329787 0.010464583 0.075124934 0.010639351 0.075092964 0.98658317 -0.11843359
1299513207.5472 0.98563558 -0.12431845 0.010577731 0.075653665 0.010716647 0.075616419 0.98655057 -0.11904734
1309509433.9623 0.98509932 -0.12520945 0.010708724 0.076213636 0.010869511 0.07617452 0.98654974 -0.11995642
1319505660.3774 0.98462737 -0.1261476 0.010810181 0.076822698 0.010997633 0.076746121 0.98647141 -0.12089825
1329501886.7925 0.98424757 -0.12701869 0.010917403 0.077338718 0.011129543 0.077295616 0.98636234 -0.1221565
1339498113.2075 0.98385412 -0.12776104 0.011073714 0.077852525 0.011237394 0.07783547 0.98577178 -0.12304518
1349494339.6226 0.98354822 -0.12864304 0.01117264 0.078437038 0.011321775 0.078364283 0.98527503 -0.12394205
1359490566.0377 0.98336041 -0.1295397 0.01130126 0.079081662 0.011459474 0.078971252 0.9849869 -0.12465522
1369486792.4528 0.98301208 -0.13029811 0.011437908 0.079717427 0.011558767 0.079504877 0.98464966 -0.12539041
1379483018.8679 0.98262435 -0.13109484 0.011597473 0.080271579 0.011694033 0.080111392 0.98462194 -0.12595034
1389479245.283 0.98221487 -0.13187581 0.011767138 0.080852687 0.011840088 0.080726288 0.98448932 -0.12692812
1399475471.6981 0.98160827 -0.1323972 0.011866588 0.081418186 0.011919554 0.081307545 0.98456675 -0.12780872
1409471698.1132 0.98126107 -0.13294128 0.01202955 0.082039811 0.01208264 0.081962571 0.98447788 -0.12888387
1419467924.5283 0.98088413 -0.13340633 0.012097238 0.082604878 0.012214825 0.082561113 0.9840982 -0.12972084
1429464150.9434 0.98064375 -0.13411558 0.012287643 0.083301112 0.012388747 0.083143435 0.98391807 -0.13053113
1439460377.3585 0.98071373 -0.1347283 0.012533197 0.083965629 0.012518404 0.083813056 0.98354924 -0.13107654
1449456603.7736 0.98054409 -0.13564916 0.012731006 0.084648751 0.012730716 0.084416419 0.9833079 -0.13161714
1459452830.1887 0.98044693 -0.13670388 0.01303795 0.085248291 0.012957577 0.0850958 0.9833228 -0.13225076
1469449056.6038 0.98036307 -0.13759217 0.01331993 0.085815638 0.013255205 0.085666209 0.98338562 -0.13311791
1479445283.0189 0.98006719 -0.13855895 0.013537415 0.086330481 0.013484067 0.08619415 0.98336399 -0.13430253
1489441509.434 0.97987056 -0.1392189 0.013818204 0.08686085 0.013811648 0.086749904 0.98306209 -0.13551313
1499437735.8491 0.97952795 -0.1397461 0.014058018 0.087373376 0.014005223 0.087261625 0.98281521 -0.13655183
1509433962.2642 0.97945118 -0.14044619 0.01426851 0.087852828 0.014239337 0.087746218 0.98252016 -0.13744183
1519430188.6792 0.97948605 -0.14117631 0.014476536 0.088355437 0.014390279 0.088217162 0.98227942 -0.13815469
1529426415.0943 0.97932601 -0.1420885 0.014706098 0.088882029 0.014533639 0.088719979 0.98203337 -0.13876316
1539422641.5094 0.97919238 -0.14305574 0.014825379 0.089381382 0.01473996 0.089272887 0.98207527 -0.13942334
1549418867.9245 0.97886413 -0.14422545 0.015128976 0.089881249 0.014914505 0.089787409 0.98209709 -0.14039765
1559415094.3396 0.97859859 -0.14504054 0.015262604 0.090316653 0.015097354 0.090257555 0.98203522 -0.14129537
1569411320.7547 0.97834963 -0.14603089 0.015433041 0.090803087 0.015299419 0.090779752 0.98192471 -0.14227197
1579407547.1698 0.9780581 -0.14669338 0.015540924 0.091283329 0.015470941 0.091257736 0.9813351 -0.14336157
1589403773.5849 0.97793734 -0.14749235 0.015605513 0.091758236 0.015519023 0.091732144 0.98101526 -0.1442582
1599400000 0.9778713 -0.14816234 0.015703881 0.092296712 0.015615065 0.0922499 0.98048741 -0.14493477
1609396226.4151 0.97770095 -0.14907223 0.015766431 0.092837565 0.015698567 0.092810109 0.98024285 -0.14573321
1619392452.8302 0.97759813 -0.14988285 0.015948523 0.093432985 0.015749265 0.093404129 0.9802025 -0.14636043
1629388679.2453 0.9772011 -0.15087888 0.01607265 0.094000131 0.015898231 0.094024293 0.98029578 -0.14714471
1639384905.6604 0.97687978 -0.15172823 0.016251445 0.094614103 0.016115515 0.094622359 0.98044324 -0.14833453
1649381132.0755 0.97640604 -0.15260559 0.016359681 0.09515807 0.016232906 0.095229834 0.98021305 -0.14944059
1659377358.4906 0.97610849 -0.15362024 0.016532116 0.095780388 0.016415343 0.095824867 0.98003626 -0.15055472
1669373584.9057 0.97597349 -0.15432832 0.016718064 0.096399918 0.016576057 0.096411407 0.97966266 -0.1514008
1679369811.3208 0.97594702 -0.15519474 0.016856268 0.096959248 0.016727811 0.096983723 0.97924614 -0.15204708
1689366037.7358 0.97577775 -0.15605894 0.01709893 0.097579509 0.016906939 0.097592831 0.97891617 -0.15259025
1699362264.1509 0.97585785 -0.1569864 0.017259901 0.098205365 0.017083472 0.098204099 0.97909856 -0.15331037
1709358490.566 0.97551495 -0.15781327 0.017425533 0.098779567 0.017300721 0.09882874 0.978962 -0.15406336
1719354716.9811 0.97506356 -0.15867111 0.017642412 0.099367023 0.017449986 0.099410065 0.97876859 -0.1550408
1729350943.3962 0.97459048 -0.15943778 0.017860059 0.099971063 0.017724993 0.10009046 0.97872448 -0.15614787
1739347169.8113 0.97439539 -0.16005637 0.018078674 0.10057737 0.017987777 0.10067307 0.97854632 -0.15737976
1749343396.2264 0.9740448 -0.16067359 0.018356323 0.10112646 0.01817571 0.10123312 0.97818553 -0.15837368
