!Keysight Technologies,N5222B,MY61253708,A.15.00.15
!Date: Wednesday, June 19, 2024 09:44:08
!Correction: S11(C  2-Port  ) 
!S21(C  2-Port  ) 
!S12(C  2-Port  ) 
!S22(C  2-Port  ) 
!S2P File: Measurements: S11, S21, S12, S22:
# Hz S  RI   R 50
10000000 0.99877506 -0.0024785697 -0.00029145676 0.00061336107 -0.00027042915 0.00019969539 0.99821389 -0.0010594428
19996226.415094 0.99881113 -0.0027957559 5.8746577e-005 0.00077348383 1.2077071e-005 0.00076572155 0.9989444 -0.0030906498
29992452.830189 0.99976659 -0.0024736226 -4.3381442e-005 0.0010076377 -1.180367e-005 0.0010951482 0.99947268 -0.0026138723
39988679.245283 1.000115 -0.003010571 1.1954209e-005 0.0012749447 -2.3691493e-005 0.0013643383 0.9996506 -0.0030819029
49984905.660377 1.0001643 -0.0036687851 -1.9289088e-005 0.0016774462 -3.5132165e-005 0.0016667091 0.99979728 -0.0036388636
59981132.075472 1.0003972 -0.0045599639 3.2849784e-005 0.002015094 1.8417253e-005 0.0019936927 0.9997977 -0.0042611957
69977358.490566 1.000192 -0.005171692 7.8614794e-006 0.0023743445 4.9263785e-005 0.0023337335 0.99967313 -0.0048364922
79973584.90566 0.99997038 -0.0057465136 -5.8914302e-006 0.0026568328 7.9999445e-006 0.0026617423 0.99937534 -0.0053281784
89969811.320755 0.99998701 -0.0058720708 4.9462891e-005 0.0029652857 4.3930486e-005 0.0029987902 0.99955618 -0.0055125356
99966037.735849 1.0001835 -0.0065825284 3.5951496e-005 0.0033270097 8.30309e-006 0.0033147696 0.99962455 -0.0063443929
109962264.15094 1.0001757 -0.0075229257 2.6962371e-005 0.0036434885 4.5721536e-006 0.0036770755 0.99966407 -0.0071420819
119958490.56604 1.000173 -0.0084011853 8.9784153e-006 0.0039845295 2.54974e-005 0.0040033916 0.99965978 -0.008033365
129954716.98113 1.000149 -0.0093609393 4.1401014e-005 0.0042764135 4.2440137e-005 0.0043296376 0.99965453 -0.0088931918
139950943.39623 1.0001067 -0.010176875 5.8293823e-005 0.0046211923 5.6257151e-005 0.0046692542 0.99957752 -0.00967158
149947169.81132 0.99995559 -0.010842621 5.8394158e-005 0.0049676145 5.2673277e-005 0.0049939589 0.9995243 -0.01028651
159943396.22642 0.99994302 -0.011385173 6.0990686e-005 0.0053021852 6.7192828e-005 0.0053332164 0.99962163 -0.010755211
169939622.64151 0.99990124 -0.011757597 5.8973266e-005 0.0056242812 4.2578846e-005 0.0056734858 0.99966925 -0.011195242
179935849.0566 0.99998289 -0.012029201 7.1725342e-005 0.0059688408 5.9268437e-005 0.0060300264 0.99955505 -0.011565685
189932075.4717 1.0001036 -0.012826234 5.9157144e-005 0.0063004568 9.9333702e-005 0.0063285399 0.9997803 -0.012127191
199928301.88679 1.0000352 -0.013612717 0.0001044001 0.0066037192 9.8643708e-005 0.0066615669 0.99968165 -0.012950271
209924528.30189 0.99973232 -0.014135644 8.3632185e-005 0.0069596651 0.0001154287 0.0069935475 0.99944001 -0.013697371
219920754.71698 0.99988925 -0.015042782 0.00010515889 0.0072983215 9.2304312e-005 0.0073373606 0.9993192 -0.014326632
229916981.13208 0.99962515 -0.015991151 0.00013799616 0.0076293368 0.00012381957 0.0076691722 0.99932474 -0.015170783
239913207.54717 0.99948907 -0.016538799 0.00014941566 0.0079264659 0.00011965728 0.0080122165 0.99925333 -0.015858971
249909433.96226 0.99952817 -0.017211705 0.00013448228 0.0082582096 0.0001246843 0.0083368262 0.99934828 -0.016466737
259905660.37736 0.99958003 -0.017761886 0.00015477324 0.0086067654 0.00012447126 0.0086742062 0.99960256 -0.017127991
269901886.79245 0.9998402 -0.018388107 0.00018177973 0.0089850696 0.00017948856 0.0089695994 0.99992216 -0.017742544
279898113.20755 0.99974281 -0.019205391 0.00017146161 0.0092776865 0.00017314521 0.0093355654 0.99972874 -0.018517122
289894339.62264 0.99975622 -0.019818425 0.00020372169 0.0095939469 0.00017789984 0.0096427128 0.99963325 -0.019350827
299890566.03774 0.99976921 -0.020416856 0.0001644853 0.009900244 0.00016374909 0.010009507 0.99928021 -0.019698381
309886792.45283 0.99956727 -0.020866603 0.00017485418 0.010204722 0.00020037463 0.010339586 0.99928969 -0.020149626
319883018.86792 0.99970299 -0.021598279 0.00020459108 0.010626304 0.00024341745 0.01065386 0.9993645 -0.020645827
329879245.28302 0.99968696 -0.02231741 0.00023920694 0.010920832 0.00024600234 0.011014801 0.99949849 -0.021436512
339875471.69811 0.9994182 -0.023010969 0.0002935318 0.011239449 0.00023278047 0.011364376 0.99937534 -0.022153728
349871698.11321 0.99966991 -0.023838162 0.00033201021 0.01157513 0.00027307332 0.011673978 0.99937344 -0.023123115
359867924.5283 0.99942136 -0.02470839 0.00032416778 0.011867629 0.00028871652 0.011993618 0.99938452 -0.024020731
369864150.9434 0.99967152 -0.025473028 0.00034482894 0.012253464 0.00033747475 0.012345713 0.99923843 -0.024664789
379860377.35849 0.9994964 -0.026130274 0.00036602258 0.012557901 0.0003456769 0.01265284 0.99921739 -0.025363266
389856603.77358 0.99945343 -0.026680529 0.00033189775 0.012894876 0.00033915183 0.01300781 0.9993217 -0.025787503
399852830.18868 0.99929225 -0.027311921 0.00037254719 0.013229191 0.00034952536 0.013314098 0.99937987 -0.026276201
409849056.60377 0.99922848 -0.02783389 0.00038885733 0.013489105 0.00039204097 0.013611867 0.9993819 -0.026813323
419845283.01887 0.99914014 -0.028246701 0.00038731005 0.013878724 0.00036930293 0.013994524 0.99938393 -0.027342439
429841509.43396 0.9992795 -0.028874755 0.00039627217 0.014215078 0.00043811183 0.014370976 0.99956506 -0.028105617
439837735.84906 0.99923098 -0.029754549 0.00042262301 0.01454778 0.00043898087 0.014696937 0.99931878 -0.02908282
449833962.26415 0.99904168 -0.030539662 0.00045265071 0.014852745 0.00047284923 0.014989755 0.99898809 -0.029895097
459830188.67925 0.99891877 -0.031290084 0.00046390668 0.015161768 0.00042137131 0.015276542 0.99883425 -0.030587286
469826415.09434 0.99884355 -0.031999052 0.00050151953 0.015524465 0.00045768078 0.015635516 0.9985227 -0.031191617
479822641.50943 0.99879187 -0.032580972 0.00046780799 0.015888844 0.00051799486 0.016014295 0.99860495 -0.031648554
489818867.92453 0.99884558 -0.03310594 0.00052865641 0.016184255 0.00057056919 0.016352888 0.99887037 -0.032251656
499815094.33962 0.99895644 -0.033877552 0.00056389347 0.016486851 0.0005783271 0.01665156 0.99917269 -0.032763302
509811320.75472 0.99908876 -0.034161031 0.00054819399 0.016837336 0.00057673082 0.017003346 0.99930167 -0.033639234
519807547.16981 0.99893594 -0.034741133 0.00060504209 0.017162772 0.00053743133 0.017285859 0.99919462 -0.034385383
529803773.58491 0.99890232 -0.035354733 0.00062740687 0.017453656 0.00063087884 0.017624151 0.99899721 -0.034914076
539800000 0.99905002 -0.035935953 0.00063970871 0.017781451 0.00060589216 0.017968317 0.99882215 -0.035627007
549796226.41509 0.99880475 -0.036739796 0.00060973177 0.018150585 0.00063768215 0.018319106 0.99870366 -0.036058813
559792452.83019 0.99865043 -0.037413061 0.00064997468 0.018483253 0.00066962186 0.018612599 0.99856353 -0.036575109
569788679.24528 0.99849266 -0.038145304 0.00068202801 0.018814171 0.00067876466 0.01896793 0.998676 -0.037401766
579784905.66038 0.99846697 -0.038763769 0.0007321618 0.019147988 0.00074009702 0.019274848 0.99883431 -0.038099594
589781132.07547 0.99865967 -0.039395094 0.00074330159 0.019473342 0.00075914711 0.019635029 0.99897039 -0.038980275
599777358.49057 0.99877435 -0.039995402 0.00074598193 0.0197825 0.00079741422 0.019981623 0.99895692 -0.039815873
609773584.90566 0.9987641 -0.040839121 0.00080351694 0.020143252 0.00076705869 0.020329572 0.99880481 -0.040638283
619769811.32075 0.99898601 -0.041445017 0.00080949022 0.020477286 0.00088064605 0.020601716 0.99877942 -0.041151106
629766037.73585 0.99885237 -0.042176694 0.00090403669 0.020764492 0.00088507775 0.020918444 0.99854666 -0.041685879
639762264.15094 0.99873924 -0.042797595 0.00089000561 0.021052476 0.0009205367 0.021314472 0.99851632 -0.042169139
649758490.56604 0.99868292 -0.043307498 0.0009130477 0.021396305 0.0008677002 0.02155548 0.99848771 -0.042603329
659754716.98113 0.99844652 -0.043748468 0.00091434177 0.021741908 0.00092259236 0.021889336 0.99853277 -0.043137342
669750943.39623 0.99843454 -0.044318706 0.00090433657 0.022071995 0.00091909477 0.022279618 0.99864459 -0.043913037
679747169.81132 0.99845678 -0.045198426 0.00098229852 0.022428691 0.00098000665 0.022635391 0.99859029 -0.044823289
689743396.22642 0.99855375 -0.045882612 0.0010334384 0.022770461 0.0010383725 0.022949504 0.99843395 -0.045757145
699739622.64151 0.99866086 -0.0466699 0.0010752529 0.02306672 0.0010666559 0.023275854 0.99833059 -0.046444833
709735849.0566 0.99863291 -0.047541328 0.0010954951 0.023379089 0.0011278715 0.023620654 0.9980951 -0.047079325
719732075.4717 0.99857712 -0.048192918 0.0011527287 0.023746429 0.0011271532 0.023913899 0.99822927 -0.047633737
729728301.88679 0.9985013 -0.048770517 0.001162746 0.024020562 0.0011620782 0.024235845 0.9981752 -0.048105806
739724528.30189 0.99828857 -0.049413681 0.0011907155 0.024360362 0.0011822507 0.024544224 0.99838674 -0.048846051
749720754.71698 0.99833965 -0.049965292 0.0012121373 0.024683457 0.0012357552 0.024879903 0.99841297 -0.049529612
759716981.13208 0.99831104 -0.050534844 0.001261021 0.025003824 0.0012677843 0.025223628 0.99837518 -0.05027777
769713207.54717 0.99825883 -0.051228732 0.00129651 0.025319183 0.0012963852 0.0255451 0.99813974 -0.050973713
779709433.96226 0.99845338 -0.051892467 0.0013129205 0.025638344 0.001339001 0.025864488 0.99788469 -0.051600538
789705660.37736 0.99825382 -0.052742243 0.0013421727 0.02594007 0.001356517 0.026177019 0.99767828 -0.052289635
799701886.79245 0.99821186 -0.053513259 0.001399111 0.026263986 0.0014100261 0.026515562 0.99757886 -0.052850157
809698113.20755 0.99812782 -0.054104581 0.0013933934 0.026570842 0.0014169503 0.026834033 0.99753547 -0.053403273
819694339.62264 0.99798906 -0.054819793 0.0014509163 0.026907803 0.0014499202 0.02715914 0.99777073 -0.053934664
829690566.03774 0.9979589 -0.055360645 0.0014527077 0.02723721 0.0014577741 0.027496269 0.99802923 -0.054906726
839686792.45283 0.99798119 -0.055800885 0.0014935988 0.027568087 0.0015055202 0.027831998 0.9980467 -0.055647463
849683018.86792 0.99812031 -0.056533508 0.0015322352 0.02789701 0.0015659179 0.028172521 0.99788582 -0.056430258
859679245.28302 0.99807781 -0.057224691 0.0015722029 0.028192881 0.0015681274 0.028489217 0.99768221 -0.057062775
869675471.69811 0.99800599 -0.057981044 0.0016023098 0.028539829 0.0016098283 0.028800478 0.99728513 -0.057583839
879671698.11321 0.99796617 -0.058583491 0.0016642507 0.028821697 0.0016906697 0.029090272 0.99733007 -0.058019005
889667924.5283 0.99774766 -0.059425235 0.0016478077 0.029161599 0.0017023981 0.029434472 0.99704236 -0.058466077
899664150.9434 0.9976871 -0.060050845 0.0016817348 0.0294792 0.001716963 0.0297554 0.99714828 -0.059166312
909660377.35849 0.99760145 -0.060760692 0.0017198585 0.029792359 0.0017323666 0.030084858 0.9972946 -0.059975922
919656603.77358 0.99769413 -0.061396465 0.0017292486 0.030094208 0.0017481237 0.030384246 0.99730355 -0.060884923
929652830.18868 0.99764097 -0.062127233 0.0017541777 0.030439071 0.0017678402 0.030693445 0.99714649 -0.061789274
939649056.60377 0.99789095 -0.062761903 0.0017704535 0.030740891 0.0018165195 0.031026561 0.99705267 -0.062494725
949645283.01887 0.99780548 -0.063525923 0.0017825369 0.031067679 0.001821214 0.031358477 0.99678713 -0.063020825
959641509.43396 0.99771935 -0.06419906 0.0017993264 0.031427912 0.0018677395 0.031717598 0.99673891 -0.063571841
969637735.84906 0.99763286 -0.064978927 0.0018658675 0.031783193 0.0018871883 0.032068349 0.9967978 -0.06390202
979633962.26415 0.99751681 -0.065719508 0.001919199 0.032093182 0.0019400972 0.032348637 0.99677098 -0.064537436
989630188.67925 0.99751914 -0.066229254 0.001941436 0.03239676 0.0019779066 0.032721687 0.99695688 -0.065144449
999626415.09434 0.99760783 -0.066794366 0.0019601937 0.032699406 0.0019814111 0.033014014 0.99690318 -0.065957695
1009622641.5094 0.99755192 -0.067413539 0.0020076977 0.03302322 0.002027927 0.033381354 0.9967525 -0.066822663
1019618867.9245 0.99765956 -0.068305328 0.0020643249 0.033376161 0.0021364377 0.033698838 0.99649942 -0.067676365
1029615094.3396 0.99771929 -0.069224745 0.00210346 0.033695251 0.0021591717 0.033976898 0.99609524 -0.068221509
1039611320.7547 0.99762982 -0.070102513 0.0021410557 0.033992492 0.0021812357 0.034302276 0.99606538 -0.068888068
1049607547.1698 0.99755335 -0.07097891 0.0021733725 0.034275007 0.0022238491 0.034586564 0.99606347 -0.069524363
1059603773.5849 0.99736416 -0.071647048 0.002208556 0.034565005 0.0022473745 0.034909353 0.99606681 -0.070018858
1069600000 0.99724799 -0.07230559 0.0022109644 0.03492412 0.0022696359 0.035253473 0.996216 -0.070774615
1079596226.4151 0.99715883 -0.072952799 0.0022214642 0.035211377 0.0022869753 0.035548843 0.99620485 -0.071462713
1089592452.8302 0.99720991 -0.073548645 0.0022412427 0.035551943 0.0023009647 0.035899542 0.99618351 -0.072202355
1099588679.2453 0.99727404 -0.074364185 0.0022558738 0.035882231 0.0023308676 0.036239807 0.9958694 -0.072818846
1109584905.6604 0.99742585 -0.075068831 0.0022639977 0.036208063 0.0023405505 0.036587764 0.99560672 -0.073474318
1119581132.0755 0.99737918 -0.07602416 0.0023105606 0.036539674 0.0024162247 0.036917575 0.99541467 -0.073854819
1129577358.4906 0.9971925 -0.076754719 0.0023046322 0.036923315 0.0024008099 0.037288889 0.99529338 -0.074276596
1139573584.9057 0.99692875 -0.077632397 0.0023733219 0.037235282 0.0024992414 0.037610445 0.99541235 -0.074888945
1149569811.3208 0.99684614 -0.078515939 0.0024493576 0.03758271 0.0025590579 0.03790462 0.9955669 -0.075682469
1159566037.7358 0.99665213 -0.079205394 0.0024685329 0.037888452 0.0025862893 0.038233921 0.99559355 -0.076659322
1169562264.1509 0.99645412 -0.079837322 0.0024621971 0.038177803 0.0025776811 0.038553432 0.99543536 -0.077430725
1179558490.566 0.99644381 -0.080535516 0.0025142226 0.038537171 0.0025926253 0.038927477 0.99528402 -0.078146711
1189554716.9811 0.9963845 -0.081375897 0.0025467789 0.038880683 0.0026721749 0.039232165 0.9949826 -0.078734875
1199550943.3962 0.99636149 -0.0822016 0.0025703348 0.03925664 0.0026971735 0.039631926 0.99490929 -0.079199463
1209547169.8113 0.99619007 -0.083117411 0.0026358217 0.039559543 0.0027453452 0.039918356 0.99482107 -0.079474851
1219543396.2264 0.99596286 -0.083878711 0.0026787003 0.039902635 0.0027894224 0.040294863 0.99491382 -0.079829216
1229539622.6415 0.99571741 -0.084675282 0.0027106479 0.040242888 0.0028666109 0.040617481 0.99502277 -0.080565274
1239535849.0566 0.99544108 -0.085293591 0.0028058682 0.040537663 0.002935118 0.040916707 0.99514878 -0.08145076
1249532075.4717 0.99510098 -0.085961655 0.0028249982 0.040890757 0.0030219851 0.041261278 0.99496335 -0.08226265
1259528301.8868 0.99493968 -0.086448789 0.0028876606 0.041231129 0.0030694399 0.041565359 0.99465239 -0.083120942
1269524528.3019 0.99480033 -0.08724457 0.0029635653 0.041527711 0.0031023156 0.041848429 0.99456823 -0.083854526
1279520754.717 0.99442482 -0.087899372 0.0030210386 0.04183805 0.0031366674 0.042116936 0.9942317 -0.084393755
1289516981.1321 0.99436551 -0.088784575 0.0030211275 0.042124923 0.003188136 0.042398579 0.9942944 -0.084856898
1299513207.5472 0.99399316 -0.089649647 0.0030194148 0.042433728 0.003170738 0.042770572 0.99445897 -0.085235506
1309509433.9623 0.99347878 -0.090354219 0.0030607926 0.04273285 0.0032189842 0.043052759 0.99456102 -0.085944667
1319505660.3774 0.99325246 -0.091056153 0.0030661393 0.04304048 0.0032023983 0.043381367 0.99459577 -0.086574689
1329501886.7925 0.99292666 -0.091679305 0.0030937456 0.043398619 0.0032338239 0.043705329 0.99450672 -0.087491989
1339498113.2075 0.99264276 -0.092243254 0.0031208983 0.043705124 0.0032615978 0.044003401 0.99409068 -0.088261366
1349494339.6226 0.99254489 -0.092759356 0.0030946629 0.044016168 0.0032081963 0.044360738 0.99371278 -0.088859096
1359490566.0377 0.99236417 -0.09337613 0.0030944813 0.044383027 0.0032310318 0.044722416 0.99363285 -0.089329153
1369486792.4528 0.99218696 -0.09389475 0.0031094113 0.044769432 0.0032332912 0.045068122 0.99337959 -0.089802623
1379483018.8679 0.99189097 -0.094376244 0.0031192885 0.045108158 0.0032751546 0.045373719 0.9933517 -0.090141922
1389479245.283 0.99153072 -0.094936788 0.0031986218 0.045504179 0.0032915436 0.045786776 0.99335241 -0.090849638
1399475471.6981 0.99109787 -0.095380455 0.0032001641 0.045842547 0.0033374056 0.046123251 0.99353856 -0.091472119
1409471698.1132 0.99086624 -0.09575969 0.0032184166 0.046219189 0.0033610829 0.04651086 0.99352056 -0.092326805
1419467924.5283 0.99071068 -0.095986009 0.0032726182 0.04660099 0.0033627981 0.046925966 0.99343342 -0.093010634
1429464150.9434 0.99059808 -0.096428156 0.0033168532 0.047000084 0.0033877827 0.047306668 0.99335277 -0.093591779
1439460377.3585 0.99071765 -0.096954599 0.0033739703 0.04745907 0.0034645423 0.047731411 0.99302834 -0.093981862
1449456603.7736 0.99067855 -0.097475633 0.003474921 0.047846548 0.0035941619 0.048129864 0.99291903 -0.094333276
1459452830.1887 0.99070686 -0.098121077 0.0036253743 0.04823127 0.0036695097 0.048507359 0.99303228 -0.094538152
1469449056.6038 0.99072313 -0.098826438 0.0037947651 0.048554536 0.0038396614 0.048846122 0.99328882 -0.095259517
1479445283.0189 0.9906072 -0.099373326 0.0039344495 0.048852403 0.003966738 0.049196795 0.99336672 -0.096178412
1489441509.434 0.9905014 -0.099827707 0.0040044319 0.049167454 0.0040953662 0.049488015 0.99319005 -0.097052097
1499437735.8491 0.99037099 -0.10020849 0.0041459091 0.049426768 0.004173778 0.049757339 0.99311084 -0.097792298
1509433962.2642 0.99026161 -0.10074151 0.0042383773 0.049695339 0.0042776125 0.050029315 0.99301136 -0.098583139
1519430188.6792 0.99045205 -0.10132924 0.0042968597 0.049967576 0.0043207426 0.050300665 0.99280649 -0.099168688
1529426415.0943 0.99037325 -0.10197684 0.0043346342 0.050265245 0.0043762233 0.05058635 0.992764 -0.099597156
1539422641.5094 0.99038446 -0.10273159 0.0044067674 0.05056325 0.0044322629 0.050903287 0.99282038 -0.10002548
1549418867.9245 0.99029499 -0.10346526 0.0044627031 0.050874628 0.0044852719 0.051156543 0.99302828 -0.10075654
1559415094.3396 0.99015486 -0.10418677 0.0045410581 0.051127624 0.0045154523 0.051469523 0.99310899 -0.1014165
1569411320.7547 0.99006486 -0.10498396 0.004569429 0.051406085 0.0045500305 0.051780604 0.99310404 -0.10220379
1579407547.1698 0.9899562 -0.10550815 0.004584637 0.051681492 0.0045535485 0.052058566 0.99276835 -0.10302337
1589403773.5849 0.98994619 -0.10599473 0.0045837648 0.051971376 0.0045992602 0.052374493 0.99253547 -0.10372776
1599400000 0.98989105 -0.10653797 0.0045652315 0.052268621 0.0045298468 0.05267828 0.99215186 -0.10416844
1609396226.4151 0.98990464 -0.10711323 0.0045599556 0.052601833 0.0045622285 0.052951653 0.99194962 -0.10475799
1619392452.8302 0.989856 -0.10767129 0.0045663714 0.052904945 0.0045896675 0.0532878 0.99199057 -0.10516438
1629388679.2453 0.98968631 -0.1084404 0.0045848433 0.053252716 0.0045807716 0.053673889 0.99211419 -0.10569066
1639384905.6604 0.98941308 -0.10900694 0.0045842873 0.053573385 0.0045880931 0.054025412 0.99235839 -0.10652673
1649381132.0755 0.98915386 -0.10969883 0.0045801606 0.053981602 0.0046088528 0.054411165 0.9922204 -0.10744396
1659377358.4906 0.98904848 -0.11052769 0.0046461318 0.054333664 0.0046576206 0.054778606 0.99227655 -0.10825366
1669373584.9057 0.98900741 -0.11099717 0.0046837097 0.054734275 0.0046421145 0.055178475 0.99205637 -0.10896657
1679369811.3208 0.98909581 -0.11167496 0.0047013033 0.055120219 0.0047241542 0.055553824 0.99178588 -0.10944936
1689366037.7358 0.98911119 -0.11219072 0.0047587156 0.055502385 0.0047494229 0.0559007 0.99155194 -0.1098451
1699362264.1509 0.98915762 -0.1128065 0.0048095742 0.055835344 0.0047840308 0.056251861 0.99178088 -0.11023341
1709358490.566 0.9890902 -0.11347076 0.0048624491 0.056211185 0.004840401 0.056666169 0.99184984 -0.11069717
1719354716.9811 0.98878193 -0.11405531 0.0049027968 0.05653251 0.0049418639 0.057052255 0.99187982 -0.11149353
1729350943.3962 0.98848122 -0.1146906 0.0049949847 0.056966774 0.0049727019 0.057471313 0.99193174 -0.11233971
