!Keysight Technologies,N5222B,MY61253708,A.15.00.15
!Date: Wednesday, June 19, 2024 09:12:41
!Correction: S11(C  2-Port  ) 
!S21(C  2-Port  ) 
!S12(C  2-Port  ) 
!S22(C  2-Port  ) 
!S2P File: Measurements: S11, S21, S12, S22:
# Hz S  RI   R 50
10000000 0.99860287 -0.002704829 0.00019992737 0.00041513235 -0.00011225745 0.00040195591 0.99862838 -0.0013555586
19996226.415094 0.99905241 -0.0021516085 2.2852968e-005 0.00090076058 8.3822379e-005 0.00060877623 0.99940628 -0.00208655
29992452.830189 0.99983925 -0.0024043918 4.0546322e-005 0.00096981629 1.0065734e-005 0.0010397551 0.99953544 -0.0026951134
39988679.245283 1.0000242 -0.0030747205 -1.1985801e-005 0.0013483431 -1.6362159e-005 0.0013918292 0.99960613 -0.0031468272
49984905.660377 1.0002121 -0.00385499 3.7118618e-005 0.0017466669 -9.453448e-006 0.0017292455 0.99974042 -0.0037566423
59981132.075472 1.0003326 -0.0047646165 3.1912932e-005 0.0020384151 6.1764149e-007 0.0020563232 0.99976242 -0.0043373704
69977358.490566 1.0001414 -0.0053175259 -5.4825174e-005 0.0023960907 3.2070311e-005 0.0023808056 0.99961275 -0.0048134122
79973584.90566 0.99989802 -0.0058269799 1.3906974e-005 0.0027203178 4.876731e-005 0.0027618259 0.99933541 -0.0053544343
89969811.320755 0.99990189 -0.006075561 3.6990969e-006 0.003092228 -9.3001872e-006 0.0031115012 0.99949473 -0.0056537092
99966037.735849 1.0000906 -0.0068710595 2.8695387e-005 0.0034245963 2.1573913e-005 0.0034794388 0.99959284 -0.0064597726
109962264.15094 1.0001224 -0.0077793598 -6.5902714e-007 0.0037490556 6.5001659e-006 0.0037941239 0.99959457 -0.0072910488
119958490.56604 1.0001607 -0.0087611675 3.6484795e-005 0.0041242265 3.3932505e-005 0.0041454718 0.99962425 -0.0081970394
129954716.98113 1.0001099 -0.0097732246 6.2006759e-005 0.0044434587 5.9688813e-005 0.0044915131 0.99960393 -0.009129405
139950943.39623 0.99999911 -0.010570826 4.4193177e-005 0.0048056412 6.0408944e-005 0.0048388233 0.99950761 -0.0098858457
149947169.81132 0.99989271 -0.011275381 7.1743736e-005 0.0051218816 6.3438434e-005 0.0051652943 0.99943131 -0.01049602
159943396.22642 0.99983746 -0.011820465 6.1236788e-005 0.0054997364 5.837623e-005 0.0055175768 0.99951935 -0.010959476
169939622.64151 0.99985176 -0.01215408 8.0123893e-005 0.0058204131 5.6786754e-005 0.0058716042 0.99959826 -0.011383846
179935849.0566 0.99987906 -0.012449831 8.7360153e-005 0.0061630858 8.2082115e-005 0.0061945086 0.99950421 -0.011777371
189932075.4717 1.0000167 -0.01323244 0.00011252309 0.0065010972 7.367041e-005 0.0065469821 0.99974263 -0.012405813
199928301.88679 0.9999122 -0.014159143 8.9240842e-005 0.0068489136 0.00013816275 0.0069102133 0.99963874 -0.013289809
209924528.30189 0.999681 -0.014764756 0.00012403086 0.0072060749 0.00011511007 0.0072225672 0.99941993 -0.014038607
219920754.71698 0.99976188 -0.015666038 0.00011818204 0.0075267348 0.00012602913 0.0075962925 0.99919176 -0.014749676
229916981.13208 0.99943215 -0.016539931 0.00010442245 0.0078831371 0.00015108427 0.0079281591 0.99911302 -0.015515447
239913207.54717 0.99934572 -0.017161369 0.00013913526 0.0081954999 0.00015483146 0.0082684802 0.99911058 -0.016201044
249909433.96226 0.99940509 -0.017864913 0.00016646995 0.0085466504 0.00015055295 0.0086055109 0.99924451 -0.016861051
259905660.37736 0.99944711 -0.018428594 0.00020583719 0.0088619897 0.00013996847 0.0089583956 0.99941945 -0.017359346
269901886.79245 0.999614 -0.01902543 0.00018548849 0.0092101898 0.00017164741 0.0093366215 0.99968994 -0.018202364
279898113.20755 0.99979371 -0.01975514 0.00015048962 0.009593511 0.00017754245 0.0096444748 0.99962944 -0.018829376
289894339.62264 0.99973583 -0.020534605 0.00017822301 0.009938281 0.00019982085 0.009966515 0.99946547 -0.019666463
299890566.03774 0.99964082 -0.021026611 0.00027304934 0.010218399 0.0002347976 0.010399637 0.9993186 -0.020087838
309886792.45283 0.99934518 -0.021655366 0.00021195435 0.010581755 0.00023405708 0.010674131 0.99915934 -0.020557053
319883018.86792 0.99935788 -0.022329777 0.00026731798 0.010935977 0.00023644185 0.011037719 0.99927676 -0.021075249
329879245.28302 0.99929279 -0.022973388 0.00022923294 0.011276879 0.00029589282 0.011367586 0.99938369 -0.021868914
339875471.69811 0.99928349 -0.02385138 0.00027103769 0.011626914 0.00031064835 0.01170527 0.99924845 -0.022659354
349871698.11321 0.99941796 -0.024692357 0.00029683602 0.011962227 0.00032723555 0.012024389 0.99932891 -0.023626
359867924.5283 0.99925435 -0.025507122 0.00032486161 0.012270248 0.00035030115 0.012402235 0.99928325 -0.02449137
369864150.9434 0.99952155 -0.026169121 0.00034619099 0.012653657 0.00033599697 0.012747535 0.99927932 -0.025277585
379860377.35849 0.99929881 -0.027024508 0.0003260551 0.012984266 0.00037305919 0.013094212 0.9991501 -0.026016936
389856603.77358 0.99936056 -0.027594477 0.0004004091 0.013342051 0.00041866675 0.013422066 0.99913728 -0.026393443
399852830.18868 0.99908447 -0.028077692 0.00042255456 0.013628928 0.00037678005 0.013772836 0.99921411 -0.026958525
409849056.60377 0.99908513 -0.028680172 0.00041143465 0.013998122 0.00041613053 0.014128824 0.99922168 -0.027361611
419845283.01887 0.99918216 -0.029022396 0.00040817307 0.014293686 0.00042436784 0.014448002 0.99927282 -0.02794522
429841509.43396 0.99928832 -0.029674411 0.0004188139 0.014663895 0.00049880985 0.014807144 0.99933082 -0.028753489
439837735.84906 0.99910915 -0.030605376 0.0004741865 0.015006432 0.0004803522 0.015126329 0.99920684 -0.029694915
449833962.26415 0.99914736 -0.031504005 0.00050648116 0.015357953 0.00052854093 0.015422171 0.99882692 -0.030544668
459830188.67925 0.99895769 -0.032208681 0.00052157557 0.015685285 0.00047871657 0.015768768 0.99857545 -0.031294942
469826415.09434 0.99885887 -0.033125192 0.00049505709 0.016073737 0.00053415354 0.016164601 0.99832189 -0.031784892
479822641.50943 0.99873251 -0.033673726 0.00058125565 0.01638595 0.00056869816 0.016516428 0.99837047 -0.032311425
489818867.92453 0.99886358 -0.034292787 0.00055482378 0.016706292 0.00060493499 0.016878638 0.99874061 -0.032879025
499815094.33962 0.99892402 -0.034908503 0.00061913673 0.017066322 0.00059125479 0.017212551 0.99900675 -0.03352198
509811320.75472 0.99901181 -0.03534586 0.00066070643 0.017406473 0.00063424534 0.017575234 0.99912715 -0.034340151
519807547.16981 0.99899137 -0.035930991 0.00065398682 0.017734213 0.00060344581 0.017847762 0.99912995 -0.035142511
529803773.58491 0.99893916 -0.036542803 0.00065988023 0.018083625 0.00065432023 0.018201871 0.9988572 -0.035724282
539800000 0.9989683 -0.037258461 0.00070806476 0.018408071 0.00067243725 0.018533906 0.99865097 -0.036426306
549796226.41509 0.99873859 -0.038187385 0.00070578745 0.018757679 0.00067760004 0.018934887 0.99844247 -0.036905438
559792452.83019 0.99852872 -0.038905203 0.00074734353 0.019100677 0.0007314356 0.019228395 0.99841022 -0.037385225
569788679.24528 0.9983936 -0.039627254 0.00076336693 0.01946182 0.0007051616 0.019595016 0.9985261 -0.038200766
579784905.66038 0.99835837 -0.04016345 0.00080161158 0.019794775 0.00079240231 0.019973105 0.99872369 -0.038936667
589781132.07547 0.99850202 -0.040853441 0.0008255057 0.02011078 0.00080667622 0.020285277 0.99881566 -0.039824605
599777358.49057 0.99868476 -0.04147467 0.0008878177 0.020473359 0.00087602623 0.020630132 0.99881768 -0.040647328
609773584.90566 0.9987492 -0.042192426 0.00087954698 0.020870132 0.00090111577 0.021020003 0.99873585 -0.041509107
619769811.32075 0.99887913 -0.042962372 0.00092157349 0.021131026 0.00094120065 0.021321926 0.99862188 -0.042091548
629766037.73585 0.99863613 -0.043617159 0.00095991325 0.021454662 0.0009812722 0.021637885 0.99836642 -0.042543977
639762264.15094 0.99848115 -0.044255316 0.0010014127 0.021791013 0.00097693759 0.021962086 0.99823678 -0.04295513
649758490.56604 0.99834418 -0.044924572 0.00099026458 0.022127774 0.00098463241 0.022275832 0.99837381 -0.04355076
659754716.98113 0.99814868 -0.045432985 0.00099908467 0.022489201 0.0010170098 0.022625614 0.99832058 -0.044077724
669750943.39623 0.99828833 -0.045901835 0.0010009343 0.022816785 0.00099991541 0.022999834 0.99840963 -0.044918954
679747169.81132 0.99813801 -0.046707842 0.0010867775 0.023175305 0.0010560438 0.023375774 0.99837595 -0.045925729
689743396.22642 0.99835372 -0.047470033 0.0010970552 0.023541253 0.0011384487 0.023699187 0.9981966 -0.04678151
699739622.64151 0.99843252 -0.04832834 0.0011561122 0.023862012 0.001184742 0.024022745 0.99812627 -0.047554046
709735849.0566 0.99846882 -0.049190298 0.001205333 0.024151014 0.0012122162 0.024358986 0.99785417 -0.048165083
719732075.4717 0.99824095 -0.049942762 0.0012484957 0.024519863 0.0012226379 0.024686767 0.99793768 -0.048685133
729728301.88679 0.99812877 -0.050443649 0.0012910012 0.024816908 0.0012468416 0.025048623 0.99801326 -0.049203992
739724528.30189 0.99806869 -0.05105117 0.0012933328 0.025177766 0.0012825886 0.025415529 0.99813396 -0.049895898
749720754.71698 0.99800038 -0.05165489 0.0013346747 0.025459133 0.0013292972 0.025720483 0.99816799 -0.050577581
759716981.13208 0.99805558 -0.052135825 0.0013710111 0.025819268 0.0013345834 0.026044462 0.99815774 -0.051429987
769713207.54717 0.99791974 -0.052888453 0.0013978872 0.026161514 0.0014000004 0.026358049 0.99791658 -0.052138269
779709433.96226 0.99814796 -0.053506076 0.0014207544 0.026484255 0.0014582895 0.026699174 0.99763936 -0.05280111
789705660.37736 0.99801803 -0.054468334 0.0014576912 0.026807956 0.001472312 0.027035287 0.99734187 -0.053503007
799701886.79245 0.99796367 -0.055293918 0.0015006717 0.027142107 0.0014956286 0.027374242 0.99722713 -0.054115206
809698113.20755 0.99790716 -0.055913314 0.0015415326 0.027480882 0.0015303693 0.027723813 0.99733591 -0.054553375
819694339.62264 0.99772793 -0.056622028 0.0015460537 0.027820369 0.0015679286 0.028022682 0.99746746 -0.055142224
829690566.03774 0.99775583 -0.057187855 0.0015864521 0.028108977 0.0015921211 0.028369065 0.99765444 -0.056067705
839686792.45283 0.99778718 -0.057634801 0.0015997346 0.028461546 0.0016036155 0.028718956 0.99779749 -0.056937307
849683018.86792 0.99783975 -0.058288157 0.0016249823 0.028818769 0.0016439068 0.029075809 0.99761152 -0.057682671
859679245.28302 0.99787158 -0.059007734 0.0016625812 0.029131493 0.0016937573 0.029389761 0.99730325 -0.058314413
869675471.69811 0.99781382 -0.059768796 0.0017502876 0.029471532 0.001753429 0.02970968 0.99695587 -0.058885992
879671698.11321 0.99763614 -0.060538113 0.0017528676 0.029778194 0.0018207878 0.030053817 0.99703419 -0.059252243
889667924.5283 0.99751639 -0.061346471 0.0018234812 0.030133985 0.0018209228 0.030376138 0.99687815 -0.059769988
899664150.9434 0.99736512 -0.062083691 0.0018199896 0.030461121 0.0018089591 0.03070363 0.99690461 -0.060384125
909660377.35849 0.99733019 -0.062770098 0.0018543783 0.030768527 0.0018684049 0.031038631 0.99703544 -0.061311021
919656603.77358 0.99745083 -0.063438326 0.0018905043 0.031102395 0.0019000042 0.031381376 0.99700832 -0.062292293
929652830.18868 0.99738967 -0.06416449 0.0019271364 0.031399995 0.0019639581 0.031702776 0.99686289 -0.063152492
939649056.60377 0.99759477 -0.064814448 0.001926953 0.031728391 0.0019480921 0.032040242 0.99672735 -0.063872606
949645283.01887 0.9975605 -0.065587789 0.0019156069 0.032122448 0.0019522575 0.032380041 0.99649262 -0.064478539
959641509.43396 0.99747324 -0.066355556 0.0019595958 0.032476816 0.0020062048 0.032722145 0.99643046 -0.064956993
969637735.84906 0.99731016 -0.067050129 0.002008006 0.032802701 0.0020093974 0.033105634 0.99643874 -0.065270066
979633962.26415 0.99720305 -0.067841806 0.0020590364 0.033121668 0.0020849558 0.033411946 0.9964242 -0.065968998
989630188.67925 0.99719751 -0.068353504 0.0021227784 0.033478051 0.0021479419 0.033767145 0.99666065 -0.066569328
999626415.09434 0.99722183 -0.0690175 0.0021377914 0.033796594 0.0021576192 0.034105264 0.99661034 -0.067459434
1009622641.5094 0.99733984 -0.069676071 0.0021696519 0.034150597 0.002224165 0.034472458 0.99636835 -0.06833975
1019618867.9245 0.99740958 -0.070555836 0.0022390634 0.034496766 0.0022331243 0.034800116 0.99610561 -0.069207132
1029615094.3396 0.99735498 -0.071535081 0.0022901222 0.034804728 0.002343934 0.035100967 0.99576461 -0.069789439
1039611320.7547 0.99735713 -0.072320402 0.0023369687 0.035108656 0.0023539942 0.035415027 0.99568224 -0.070440263
1049607547.1698 0.99723041 -0.073355168 0.0023720334 0.03540374 0.0023950143 0.035740569 0.99574721 -0.071006253
1059603773.5849 0.99709296 -0.07409212 0.0023911679 0.035709765 0.0024312669 0.036074013 0.99572289 -0.071596414
1069600000 0.99689221 -0.074648321 0.0024045631 0.036054287 0.0024458189 0.036366474 0.99583143 -0.072316378
1079596226.4151 0.9968369 -0.075285703 0.0024130684 0.036414973 0.0024684682 0.036741834 0.99585015 -0.073114917
1089592452.8302 0.99682182 -0.075969875 0.0024546059 0.036728933 0.0025229016 0.037056994 0.99574512 -0.073866934
1099588679.2453 0.99692339 -0.076663047 0.0024723392 0.037050545 0.0025216583 0.037415504 0.99541694 -0.07450369
1109584905.6604 0.99690825 -0.077449962 0.0024740016 0.037397049 0.0025583347 0.037769832 0.99519551 -0.07509698
1119581132.0755 0.99698311 -0.078501791 0.0024938588 0.037759602 0.0025755931 0.038114712 0.99495274 -0.075394258
1129577358.4906 0.99681723 -0.079259604 0.0025648288 0.03816019 0.0026173666 0.038480308 0.99486136 -0.075939476
1139573584.9057 0.99652958 -0.080164522 0.0026103826 0.03847298 0.0026594643 0.038855888 0.994932 -0.07657817
1149569811.3208 0.99640465 -0.081066549 0.0026577639 0.038843706 0.002720237 0.039171539 0.99508244 -0.077345856
1159566037.7358 0.99616736 -0.081705958 0.0026922505 0.03911186 0.0027995761 0.039486684 0.99516684 -0.078421175
1169562264.1509 0.99593306 -0.082356453 0.0026862919 0.039439864 0.0027897339 0.039825048 0.99500692 -0.07919383
1179558490.566 0.99594671 -0.083153225 0.0027295179 0.039828792 0.0028546988 0.0401925 0.99486482 -0.079950154
1189554716.9811 0.9959501 -0.083851129 0.0027738847 0.040182751 0.0029042214 0.040509123 0.99456662 -0.080479622
1199550943.3962 0.99588138 -0.084708393 0.00281634 0.040512323 0.002939038 0.04086367 0.99442548 -0.080848813
1209547169.8113 0.9956944 -0.085624859 0.0028634388 0.04087666 0.0029851496 0.041187055 0.99431032 -0.081208602
1219543396.2264 0.99555755 -0.086482599 0.0029150113 0.041230813 0.0030338648 0.041591488 0.99440247 -0.081611007
1229539622.6415 0.99521279 -0.087366104 0.0029793903 0.041568398 0.0030857082 0.041948088 0.99455607 -0.082343042
1239535849.0566 0.99491715 -0.088031054 0.0030536689 0.041889809 0.0032056104 0.04222732 0.99462134 -0.083347142
1249532075.4717 0.99464285 -0.088702127 0.0031055005 0.042227749 0.0032425022 0.042550676 0.9944768 -0.084095463
1259528301.8868 0.99446917 -0.089220762 0.0031768437 0.04258161 0.0032907389 0.042889465 0.99424738 -0.085070252
1269524528.3019 0.99430609 -0.089985698 0.0032108687 0.042872153 0.0033805016 0.043204404 0.99394393 -0.085720152
1279520754.717 0.99396449 -0.090697549 0.0032802804 0.043134779 0.0034215001 0.043474916 0.99370748 -0.086207919
1289516981.1321 0.99380124 -0.091500789 0.0033053495 0.043480698 0.0034333393 0.043792859 0.99371809 -0.086689472
1299513207.5472 0.99353695 -0.092358619 0.0033260062 0.043807551 0.0034818668 0.044115517 0.99387956 -0.08713153
1309509433.9623 0.99290305 -0.093102366 0.0033234097 0.044118524 0.0034625893 0.044395875 0.99395317 -0.087838873
1319505660.3774 0.99259639 -0.09385176 0.0033444501 0.044473749 0.0034835711 0.044706836 0.9939844 -0.088514611
1329501886.7925 0.99238658 -0.094517738 0.0033795722 0.044791818 0.0034994464 0.045084663 0.99396908 -0.089447558
1339498113.2075 0.99198163 -0.095095187 0.0033753403 0.045121707 0.0035428498 0.045419641 0.99353164 -0.090172499
1349494339.6226 0.99182367 -0.095559917 0.0033639534 0.045446124 0.0035399063 0.04576467 0.99322492 -0.090823188
1359490566.0377 0.99179178 -0.096120268 0.0034021847 0.045862995 0.0035560988 0.046142407 0.99298644 -0.091314763
1369486792.4528 0.9914692 -0.096823126 0.003414968 0.046200406 0.0035376325 0.046469547 0.99276906 -0.091760099
1379483018.8679 0.99118322 -0.097297437 0.0034335027 0.046559237 0.0035447204 0.046824217 0.99277341 -0.092091359
1389479245.283 0.9909029 -0.09785822 0.0034835823 0.046949212 0.0035717599 0.047215555 0.99281549 -0.092839092
1399475471.6981 0.9904387 -0.098279476 0.0034938008 0.047343768 0.0036148429 0.047598347 0.99299741 -0.093559861
1409471698.1132 0.99004936 -0.098654069 0.003532765 0.0477001 0.0036380365 0.047982775 0.9930352 -0.094307832
1419467924.5283 0.98991191 -0.098970473 0.0035724929 0.048140272 0.0036755195 0.048392329 0.99279642 -0.095039457
1429464150.9434 0.98990417 -0.09933266 0.0036037918 0.048507139 0.0037018992 0.048765115 0.99268204 -0.095677644
1439460377.3585 0.98998183 -0.099816039 0.0037244279 0.048959546 0.0037629716 0.049261618 0.99241203 -0.09600538
1449456603.7736 0.98988008 -0.10040362 0.0037927255 0.049374539 0.0038663298 0.049629606 0.99231946 -0.096278906
1459452830.1887 0.98988962 -0.1011039 0.0039652567 0.049771637 0.0040054396 0.05007188 0.99242842 -0.096682549
1469449056.6038 0.99000907 -0.10186222 0.0041289926 0.05012903 0.0041817632 0.050428461 0.99262154 -0.097296059
1479445283.0189 0.9899044 -0.10247154 0.0042524692 0.050428249 0.0042724707 0.050684076 0.99267745 -0.098285146
1489441509.434 0.98971879 -0.10298663 0.0043559987 0.050695039 0.0044499282 0.051030949 0.99259412 -0.099103272
1499437735.8491 0.98955011 -0.10325685 0.0044772439 0.051052831 0.0045478847 0.051309567 0.99252462 -0.10000318
1509433962.2642 0.98957163 -0.10379162 0.0045739589 0.051293656 0.0045852484 0.051564686 0.99228364 -0.10069449
1519430188.6792 0.98967683 -0.1043267 0.0046285931 0.051565289 0.0046830438 0.051883169 0.99211681 -0.10128558
1529426415.0943 0.9895944 -0.10507578 0.0047002882 0.051866077 0.0047399048 0.052177511 0.99203753 -0.10169038
1539422641.5094 0.98968011 -0.10579985 0.0047662356 0.052182849 0.0047741118 0.052479979 0.99221385 -0.10211758
1549418867.9245 0.98953742 -0.1066515 0.0048637139 0.052458346 0.0048771175 0.052805211 0.9923479 -0.10291298
1559415094.3396 0.98937094 -0.10726145 0.0048601665 0.052760798 0.0049002264 0.053123757 0.99258316 -0.1035229
1569411320.7547 0.98916018 -0.10813664 0.0049341228 0.053062357 0.0049283244 0.053399786 0.99241555 -0.10443297
1579407547.1698 0.98915887 -0.10861357 0.0049539483 0.053335488 0.0049687834 0.053702231 0.99204379 -0.10524055
1589403773.5849 0.98904037 -0.10920891 0.0049527008 0.053641953 0.0050099902 0.053985201 0.99185789 -0.10596389
1599400000 0.98898947 -0.10966998 0.0049543157 0.053931806 0.0049969852 0.054260872 0.99138421 -0.10647538
1609396226.4151 0.98902518 -0.11027965 0.0049352609 0.054292746 0.0049438411 0.05464869 0.99125618 -0.10693528
1619392452.8302 0.98899734 -0.11086768 0.0049327128 0.05466184 0.0049431734 0.055026516 0.99114805 -0.10745376
1629388679.2453 0.98874652 -0.11163202 0.0049926359 0.054981217 0.0049474556 0.055391818 0.99148893 -0.10797107
1639384905.6604 0.98858637 -0.11234027 0.0049783415 0.055340845 0.0049562189 0.055750098 0.99166769 -0.10875087
1649381132.0755 0.98830414 -0.113013 0.0049951151 0.055737771 0.0050583612 0.056119207 0.99167544 -0.10974768
1659377358.4906 0.98814893 -0.1137661 0.0050286837 0.056094926 0.0050679706 0.056495383 0.99161053 -0.1106607
1669373584.9057 0.98804885 -0.1142533 0.005070942 0.056447975 0.0051056291 0.056898497 0.99137729 -0.11137307
1679369811.3208 0.98810887 -0.11491059 0.0051468778 0.056850698 0.0051473584 0.057284191 0.99109995 -0.1118508
1689366037.7358 0.98807406 -0.11552685 0.0051939674 0.057254173 0.0051516332 0.057656646 0.99085927 -0.11221153
1699362264.1509 0.98826551 -0.11617361 0.0052318657 0.057650313 0.0052135149 0.058032934 0.99111718 -0.1126142
1709358490.566 0.98812443 -0.11683691 0.0053304601 0.058047444 0.0053042891 0.058487523 0.99116874 -0.1131531
1719354716.9811 0.98781079 -0.1174497 0.0053903051 0.058408648 0.0053759292 0.058851484 0.99119645 -0.11382303
1729350943.3962 0.98742086 -0.11802667 0.0054729935 0.05874243 0.0054993462 0.059263449 0.99127907 -0.11472693
