!Keysight Technologies,N5222B,MY61253708,A.15.00.15
!Date: Wednesday, June 19, 2024 08:44:18
!Correction: S11(C  2-Port  ) 
!S21(C  2-Port  ) 
!S12(C  2-Port  ) 
!S22(C  2-Port  ) 
!S2P File: Measurements: S11, S21, S12, S22:
# Hz S  RI   R 50
10000000 0.99879372 -0.0021487176 -0.00047749415 0.00026622732 0.00021176263 0.00031866797 0.99832928 -0.0010481775
19996226.415094 0.99906278 -0.0022079051 -5.1941373e-005 0.00065828313 -7.036567e-005 0.00074094802 0.99929124 -0.0021749139
29992452.830189 0.99982178 -0.0025348961 5.2538555e-005 0.0012084076 4.4951739e-005 0.001172786 0.99955463 -0.0028962493
39988679.245283 1.0001272 -0.0033482015 -8.3025516e-006 0.0016098373 2.9583243e-005 0.0015867215 0.99963689 -0.0034258217
49984905.660377 1.0001619 -0.0041559041 4.2781583e-005 0.0019813185 1.1683209e-005 0.0020058309 0.99973655 -0.0040242374
59981132.075472 1.0002447 -0.0049340427 3.0206051e-005 0.0023892424 1.3894518e-005 0.0023681312 0.99977171 -0.0046191514
69977358.490566 0.99999595 -0.0055670179 3.6678932e-005 0.0027459881 8.7388835e-006 0.0027557479 0.99953955 -0.0051872954
79973584.90566 0.99980992 -0.0061420202 4.5506167e-005 0.0031730211 1.1524302e-005 0.0031536825 0.99938416 -0.0057257116
89969811.320755 0.99978697 -0.0064756274 -1.484307e-005 0.0035927319 1.4913967e-005 0.0035326805 0.99945092 -0.0061436594
99966037.735849 0.99995244 -0.0072300732 3.3305376e-005 0.0039555896 2.610276e-005 0.0039599491 0.99946785 -0.0069215447
109962264.15094 0.99999356 -0.008204937 4.3157779e-005 0.0043618348 4.5698194e-005 0.0043402854 0.9995414 -0.0078609884
119958490.56604 1.0000353 -0.0093030632 5.816808e-005 0.0047296598 4.9695605e-005 0.0047813281 0.99955809 -0.0088480413
129954716.98113 1.0000105 -0.010432929 3.6335783e-005 0.0051422683 6.0930499e-005 0.0051292605 0.9995681 -0.0098029971
139950943.39623 0.9999001 -0.011304304 4.2711952e-005 0.005535108 7.7147459e-005 0.0055308696 0.99944836 -0.010654517
149947169.81132 0.99976027 -0.012037516 8.6792745e-005 0.0059343381 7.9852529e-005 0.0059412047 0.99938667 -0.011270434
159943396.22642 0.99973154 -0.012540668 9.7484328e-005 0.006310124 0.00010281196 0.006330627 0.99950469 -0.011803329
169939622.64151 0.99975032 -0.013012134 0.00010442699 0.0067097209 9.4726216e-005 0.0067315456 0.99957138 -0.012230285
179935849.0566 0.9998104 -0.01331538 0.0001080113 0.007115663 0.00011805329 0.0071054809 0.99952561 -0.012726367
189932075.4717 0.99989426 -0.014111876 0.00012698816 0.0075043961 0.00012180069 0.0075251935 0.99971759 -0.013425052
199928301.88679 0.99986434 -0.015067667 0.00016026734 0.0078872554 0.00013952376 0.0079005351 0.99956083 -0.014319301
209924528.30189 0.99962103 -0.015858322 0.00018238428 0.0083151124 0.00017769809 0.0082836635 0.99932563 -0.015170023
219920754.71698 0.99950761 -0.016823679 0.00018335879 0.0086658914 0.00020837132 0.0086933365 0.99911278 -0.015954822
229916981.13208 0.99923986 -0.017724872 0.00017493404 0.0090662949 0.00017681252 0.009103328 0.99897915 -0.016753137
239913207.54717 0.99915028 -0.018463608 0.0001819992 0.009469755 0.00017872715 0.0094903801 0.99897134 -0.017524153
249909433.96226 0.99925023 -0.019111425 0.00021092338 0.0098494552 0.0002089066 0.0098776417 0.9991219 -0.018226177
259905660.37736 0.99931669 -0.019862443 0.00020516198 0.010276916 0.00020807236 0.010297716 0.99925214 -0.018929273
269901886.79245 0.99955708 -0.02046296 0.00023783417 0.010693537 0.00023955549 0.010699799 0.99964058 -0.019643053
279898113.20755 0.99965268 -0.021179631 0.00026251259 0.011024189 0.00026382902 0.011118515 0.99954462 -0.020432249
289894339.62264 0.99962831 -0.022101671 0.00026458269 0.011406856 0.00022368412 0.011422765 0.99938786 -0.021226674
299890566.03774 0.99946201 -0.022619188 0.00032452028 0.011786639 0.0002513784 0.011877066 0.99909961 -0.021737188
309886792.45283 0.99910474 -0.023328379 0.00032803672 0.01223706 0.00025201892 0.012283429 0.99900907 -0.022289485
319883018.86792 0.99902213 -0.023953378 0.0003714147 0.012644063 0.00039301207 0.012623722 0.99904853 -0.022908092
329879245.28302 0.99903929 -0.024700046 0.00037692813 0.013009048 0.00038241968 0.013042253 0.99913716 -0.023545802
339875471.69811 0.99889755 -0.025503844 0.00041981367 0.013421115 0.00037625921 0.013426683 0.99911422 -0.024532616
349871698.11321 0.99915802 -0.026477456 0.0004501245 0.013792862 0.00040246313 0.013858132 0.99913204 -0.025497437
359867924.5283 0.99908358 -0.027336657 0.00046910299 0.014180891 0.00046975585 0.014231562 0.99915862 -0.026548386
369864150.9434 0.99924827 -0.028217494 0.0004323232 0.014595507 0.00041528163 0.014604021 0.99908918 -0.02724123
379860377.35849 0.99918109 -0.02894938 0.00045033591 0.014975099 0.00046642683 0.015024466 0.99903238 -0.028098822
389856603.77358 0.99905324 -0.029570013 0.00049868785 0.015355084 0.00051330402 0.01541364 0.99891901 -0.028490335
399852830.18868 0.99889517 -0.030228466 0.0005408451 0.015750105 0.000495499 0.015770769 0.9989894 -0.029033571
409849056.60377 0.9988721 -0.030712938 0.00053481403 0.016115254 0.00053655426 0.016207056 0.99904168 -0.029520426
419845283.01887 0.99884057 -0.031255752 0.00059942203 0.016501807 0.00058134412 0.016580364 0.99897879 -0.030220866
429841509.43396 0.99885941 -0.031883508 0.0006350521 0.016949028 0.00061017415 0.016992414 0.99920368 -0.031056911
439837735.84906 0.99872541 -0.032918721 0.00070233806 0.017306704 0.00069189607 0.017341778 0.99897254 -0.031997338
449833962.26415 0.99876368 -0.033868968 0.00064062746 0.017618569 0.00069183391 0.017716069 0.99862701 -0.032949746
459830188.67925 0.99862468 -0.034760237 0.00067342632 0.018056009 0.00066929497 0.018103115 0.99845999 -0.033769041
469826415.09434 0.99853653 -0.035613 0.00068901386 0.018443421 0.00066303555 0.018505719 0.99819911 -0.03439799
479822641.50943 0.99840981 -0.036247469 0.00075091352 0.018839428 0.0007195326 0.018937649 0.99832296 -0.034908138
489818867.92453 0.9985795 -0.03679353 0.00077076722 0.019259593 0.00077387504 0.019325655 0.99862617 -0.035521477
499815094.33962 0.99862075 -0.037361652 0.00078651728 0.01963149 0.00080249179 0.01970809 0.99889755 -0.036186993
509811320.75472 0.99875158 -0.037940346 0.00084502413 0.020022312 0.00086319138 0.02005738 0.99910098 -0.037054837
519807547.16981 0.99872756 -0.038613319 0.00082302839 0.020404581 0.00077858102 0.020510614 0.99902868 -0.037982017
529803773.58491 0.99867284 -0.039257914 0.00088515691 0.020789091 0.00085799675 0.020870533 0.99874681 -0.038666248
539800000 0.99862754 -0.040120333 0.00091991643 0.02124818 0.00089154579 0.021272067 0.9985078 -0.03946811
549796226.41509 0.99837065 -0.041058779 0.00092419982 0.021632105 0.00095795514 0.02166429 0.99820858 -0.039995402
559792452.83019 0.99809587 -0.041861475 0.00098836236 0.022028424 0.0009713266 0.022120345 0.99812806 -0.040512621
569788679.24528 0.99794436 -0.042583704 0.00098627666 0.022388166 0.0009713918 0.022466376 0.99824876 -0.041325212
579784905.66038 0.99787349 -0.04321751 0.0010072857 0.022830527 0.0010177039 0.022853537 0.99840873 -0.04206907
589781132.07547 0.99810344 -0.043884188 0.0010811342 0.023194877 0.0011011157 0.023295522 0.99859053 -0.043063492
599777358.49057 0.99811941 -0.044557005 0.0011017825 0.023568517 0.0011323458 0.02368388 0.99856937 -0.044010043
609773584.90566 0.99842238 -0.045485176 0.001188145 0.023998495 0.0012126481 0.024091976 0.99840713 -0.044965208
619769811.32075 0.99842459 -0.046233088 0.0012746332 0.024383761 0.0012939693 0.024448767 0.9982996 -0.045473188
629766037.73585 0.9981454 -0.046893954 0.0013163658 0.024717757 0.0013515819 0.02479649 0.99798 -0.045965016
639762264.15094 0.99799865 -0.047594711 0.0013407082 0.025022028 0.0012957738 0.025130391 0.99788159 -0.046467215
649758490.56604 0.99785787 -0.048306018 0.0013133637 0.025433887 0.0013187574 0.025540899 0.99795961 -0.047050372
659754716.98113 0.99768353 -0.048757344 0.0013474524 0.025838528 0.0013542902 0.025922816 0.99801087 -0.047603458
669750943.39623 0.99758828 -0.049353778 0.0013853339 0.026261177 0.0013800906 0.026325962 0.99800038 -0.048521459
679747169.81132 0.99770886 -0.050193533 0.0014126278 0.026644694 0.0014183406 0.026733642 0.99804103 -0.049554344
689743396.22642 0.9977867 -0.051137984 0.0014476059 0.027038105 0.001466047 0.02715211 0.99782348 -0.050569981
699739622.64151 0.99796367 -0.051945865 0.0015036212 0.027460802 0.0015014792 0.027515173 0.99778783 -0.051355034
709735849.0566 0.99796349 -0.052882671 0.0015958252 0.027821027 0.0015842791 0.027934132 0.9974345 -0.052021213
719732075.4717 0.99779642 -0.053670794 0.0016428698 0.028191822 0.0016401345 0.028293487 0.99754488 -0.052656233
729728301.88679 0.99768901 -0.054303229 0.0017310707 0.028569371 0.001655546 0.028675571 0.99762774 -0.053142875
739724528.30189 0.99753809 -0.05494599 0.0017145434 0.028965073 0.0017206809 0.02903422 0.99779946 -0.05387643
749720754.71698 0.99745107 -0.055455536 0.0017718077 0.029333686 0.0017613745 0.029442461 0.99779385 -0.054583877
759716981.13208 0.99737465 -0.055975199 0.0018244516 0.029713728 0.0017647063 0.029820353 0.99776638 -0.055418074
769713207.54717 0.9973352 -0.056821823 0.0018574474 0.030104697 0.0018769493 0.03021311 0.99741966 -0.056208193
779709433.96226 0.99753141 -0.057536088 0.001902565 0.03046423 0.0018979551 0.030550957 0.99713916 -0.056959651
789705660.37736 0.99733716 -0.058571279 0.0019645374 0.030837117 0.0019792644 0.030948263 0.99686599 -0.057763189
799701886.79245 0.99736518 -0.059488058 0.0020009903 0.031226821 0.0019832011 0.03132692 0.99678993 -0.058373481
809698113.20755 0.99728125 -0.060135052 0.0020620697 0.031578276 0.0020206468 0.031687018 0.9967947 -0.058908239
819694339.62264 0.99707872 -0.060808897 0.0020523183 0.031933997 0.0020621372 0.03207 0.99692816 -0.059526592
829690566.03774 0.99712431 -0.061534196 0.0020961333 0.032341469 0.002072731 0.032470673 0.99723363 -0.060497791
839686792.45283 0.99712813 -0.061932087 0.0021449197 0.032741535 0.0021406356 0.03283402 0.99726582 -0.061368257
849683018.86792 0.99725062 -0.062695302 0.002194453 0.033157524 0.0021682719 0.033257272 0.99715906 -0.062192731
859679245.28302 0.99725658 -0.063447863 0.0022294046 0.033535697 0.0022283616 0.033667404 0.99679017 -0.062883317
869675471.69811 0.9971227 -0.064321309 0.002329668 0.033901695 0.0023067081 0.034009825 0.99642175 -0.063429594
879671698.11321 0.9969632 -0.065012276 0.00233954 0.034274839 0.0023569984 0.034399942 0.99639487 -0.063945629
889667924.5283 0.99682361 -0.065973252 0.0024348153 0.03466804 0.0024049645 0.034766138 0.99625021 -0.064615905
899664150.9434 0.99655557 -0.066775024 0.0024572909 0.035007805 0.0024368092 0.035196301 0.99637127 -0.06523034
909660377.35849 0.99656975 -0.067572266 0.0025106906 0.035401814 0.0024682735 0.035538234 0.99644935 -0.066247746
919656603.77358 0.99662018 -0.068246946 0.0025559207 0.035782047 0.0025231722 0.035951316 0.99646175 -0.067191526
929652830.18868 0.99654782 -0.068999141 0.0025713313 0.036106668 0.0025880206 0.036255874 0.996207 -0.068208337
939649056.60377 0.99678242 -0.06970647 0.002614771 0.036472477 0.002594755 0.03663126 0.99606973 -0.068948001
949645283.01887 0.99674517 -0.070638709 0.0026064999 0.036887955 0.0025951094 0.037047837 0.99578124 -0.069532275
959641509.43396 0.99673635 -0.071359307 0.0026676198 0.037303299 0.0026447512 0.037434302 0.99577802 -0.070069522
969637735.84906 0.99651021 -0.072072178 0.0027234387 0.037680622 0.0027145185 0.037883554 0.99575305 -0.070388436
979633962.26415 0.99635649 -0.072827935 0.0028156936 0.038088378 0.0028150985 0.038251411 0.99581432 -0.071194582
989630188.67925 0.99629635 -0.073439419 0.0028234487 0.038463622 0.0028131427 0.038637839 0.99597931 -0.071887404
999626415.09434 0.99630487 -0.074184775 0.0028614141 0.038848959 0.0028736591 0.039067477 0.99584031 -0.072758168
1009622641.5094 0.99625248 -0.074937284 0.0029141856 0.039269231 0.0029538767 0.039456967 0.99568707 -0.073717624
1019618867.9245 0.99638319 -0.075841337 0.0030188435 0.039634865 0.0030426672 0.039812926 0.995435 -0.074742481
1029615094.3396 0.99645746 -0.076908469 0.0030750409 0.040017541 0.0031063277 0.040167291 0.99498397 -0.075306833
1039611320.7547 0.99638331 -0.07785058 0.0031377487 0.040370367 0.0031642839 0.040562492 0.99486184 -0.076024145
1049607547.1698 0.99620366 -0.078795537 0.0031952271 0.040748194 0.0031906751 0.040937964 0.99484813 -0.076639622
1059603773.5849 0.99600476 -0.079495847 0.0032341834 0.041088939 0.0032709017 0.041276485 0.99486643 -0.077315748
1069600000 0.99573863 -0.080198586 0.0032557957 0.041461062 0.0033131409 0.041669793 0.99501467 -0.077987015
1079596226.4151 0.99571848 -0.080867112 0.0033075879 0.04184581 0.0033409344 0.042030074 0.99495673 -0.078885347
1089592452.8302 0.99576372 -0.081498384 0.0033204406 0.042244203 0.0033860514 0.042424858 0.99485987 -0.079605579
1099588679.2453 0.99572182 -0.08220762 0.0033697486 0.04258357 0.0034013093 0.042779528 0.99447966 -0.080252409
1109584905.6604 0.99586344 -0.083126724 0.0034219306 0.043002583 0.0034407787 0.043203618 0.99421817 -0.080921888
1119581132.0755 0.9958185 -0.084165722 0.0034300541 0.043384034 0.0035152957 0.043599416 0.99401778 -0.081350781
1129577358.4906 0.9955188 -0.08510989 0.0034979861 0.04383086 0.0035535041 0.044014528 0.99388665 -0.081879318
1139573584.9057 0.9953078 -0.086072326 0.0035743266 0.044205327 0.0036514606 0.044385225 0.99399287 -0.082671702
1149569811.3208 0.99516124 -0.087009311 0.0036512297 0.044568297 0.003704167 0.044777192 0.99414039 -0.083430737
1159566037.7358 0.99497128 -0.087703735 0.0037062857 0.044937588 0.0037465785 0.045139492 0.99414408 -0.084627599
1169562264.1509 0.99477005 -0.088337868 0.0037210677 0.045316473 0.0037963521 0.045508262 0.9939692 -0.085387707
1179558490.566 0.99473995 -0.089134857 0.0037286279 0.045739543 0.0038470584 0.045956586 0.99379188 -0.08622735
1189554716.9811 0.99474198 -0.089937836 0.0038072756 0.046127461 0.0039353408 0.046313867 0.99347234 -0.086660922
1199550943.3962 0.9946202 -0.090860188 0.0038619414 0.046559531 0.0039691813 0.046698436 0.99326468 -0.087222755
1209547169.8113 0.9944123 -0.091782033 0.0039383387 0.046921961 0.0040320549 0.047088563 0.99317014 -0.087527603
1219543396.2264 0.99420846 -0.092707582 0.0039971829 0.047311716 0.0040916177 0.047520414 0.99323279 -0.087980069
1229539622.6415 0.99380434 -0.093550175 0.0041031204 0.047704227 0.0041925609 0.047897369 0.99337649 -0.088887662
1239535849.0566 0.99353349 -0.0943425 0.004184477 0.048068855 0.0042900639 0.04828392 0.99346852 -0.089887142
1249532075.4717 0.99322742 -0.095085673 0.0042502531 0.048462048 0.0043589408 0.048595726 0.9932726 -0.090724714
1259528301.8868 0.993025 -0.095627844 0.0043083057 0.048841573 0.0044612773 0.049002074 0.99290216 -0.091667742
1269524528.3019 0.9928695 -0.096413612 0.0043723825 0.049197521 0.004528027 0.049372479 0.9927476 -0.092390954
1279520754.717 0.99243265 -0.097209059 0.0044737146 0.049522478 0.0045985375 0.049658857 0.99244046 -0.09299282
1289516981.1321 0.99231625 -0.098057836 0.0044922885 0.049898773 0.0046202745 0.049996596 0.99252951 -0.093410254
1299513207.5472 0.99193764 -0.098970383 0.004519973 0.05027625 0.0046580993 0.05040212 0.99260557 -0.093851268
1309509433.9623 0.9914279 -0.099699795 0.0045594051 0.0506371 0.0047007622 0.050741926 0.99273056 -0.094652563
1319505660.3774 0.99107158 -0.10050675 0.0045975782 0.051022898 0.0046977047 0.051132549 0.99274665 -0.09538269
1329501886.7925 0.9907608 -0.10117471 0.004638562 0.051389866 0.0047497395 0.051512077 0.99262536 -0.096350163
1339498113.2075 0.99038166 -0.10171899 0.0046818927 0.051779464 0.0048092082 0.05185077 0.9921723 -0.097150803
1349494339.6226 0.9902401 -0.10233826 0.0046705538 0.052176259 0.0047813733 0.052281458 0.99184823 -0.097809017
1359490566.0377 0.99012983 -0.10310611 0.0047004875 0.052559368 0.0048237331 0.052648872 0.99154198 -0.098445445
1369486792.4528 0.98988432 -0.10374597 0.0047447309 0.053031005 0.0048758574 0.053061843 0.99136072 -0.098971844
1379483018.8679 0.98956972 -0.10433335 0.0047931126 0.053436536 0.0048893304 0.05349594 0.99137473 -0.099336743
1389479245.283 0.98921525 -0.10488972 0.0048434045 0.053855583 0.0049307644 0.053922798 0.99129844 -0.10014445
1399475471.6981 0.98870033 -0.10542223 0.0049053561 0.054268464 0.0049886089 0.054330118 0.99148828 -0.10082051
1409471698.1132 0.98840821 -0.10579377 0.0049787192 0.054671068 0.0050461874 0.054759827 0.99155051 -0.10173745
1419467924.5283 0.98818356 -0.10601562 0.0049869865 0.055118959 0.0050621424 0.055174969 0.99123919 -0.10249224
1429464150.9434 0.9880814 -0.10648209 0.0050645489 0.055572651 0.0051230267 0.05565051 0.99108958 -0.10306105
1439460377.3585 0.98824024 -0.10700777 0.0051367087 0.056065373 0.0051748203 0.056096274 0.99087721 -0.10344122
1449456603.7736 0.98823118 -0.10770018 0.0052665491 0.056533519 0.0053102868 0.056586333 0.99073535 -0.10383616
1459452830.1887 0.98820281 -0.10848722 0.0054563507 0.056982253 0.0054499414 0.057035267 0.99087906 -0.10421714
1469449056.6038 0.98822069 -0.10928205 0.005645914 0.057363249 0.0055826977 0.057447523 0.99098825 -0.10492104
1479445283.0189 0.98807055 -0.10993507 0.0057977252 0.057687983 0.0057508019 0.057837907 0.99107122 -0.10594551
1489441509.434 0.98792338 -0.11053276 0.0059441943 0.058074541 0.00595171 0.05814442 0.99098516 -0.10686371
1499437735.8491 0.98765016 -0.11083615 0.0060547646 0.058414072 0.0060653333 0.058480646 0.99084592 -0.10775787
1509433962.2642 0.9876985 -0.11132793 0.0061902683 0.058727685 0.0061333557 0.058826674 0.99057072 -0.10858174
1519430188.6792 0.98776519 -0.1119248 0.0062359925 0.059075855 0.0062432382 0.059144527 0.9904356 -0.10912099
1529426415.0943 0.98776913 -0.11271021 0.0063374769 0.059385918 0.006302584 0.059473857 0.99034369 -0.10954124
1539422641.5094 0.98777103 -0.11355774 0.0064709834 0.059752245 0.0063121119 0.059840798 0.99040371 -0.11001774
1549418867.9245 0.98759437 -0.1144422 0.0065105623 0.060080264 0.006456526 0.060203504 0.99063402 -0.11089395
1559415094.3396 0.98730892 -0.11514503 0.0066210162 0.06038316 0.0065141227 0.060557485 0.99074423 -0.11157417
1569411320.7547 0.98712313 -0.11606562 0.0066548102 0.060775556 0.0066127954 0.060895823 0.99057901 -0.11247656
1579407547.1698 0.98704398 -0.1165971 0.0066828094 0.061067272 0.0066417083 0.061210003 0.99017775 -0.11335601
1589403773.5849 0.98709619 -0.11714435 0.0067488439 0.06140963 0.0066597536 0.061618421 0.98994708 -0.1141848
1599400000 0.98693585 -0.11773083 0.0067415498 0.061812758 0.0066261645 0.061926179 0.98948228 -0.1146805
1609396226.4151 0.98690885 -0.11838663 0.006756857 0.062164709 0.006664685 0.062284794 0.9893232 -0.11518559
1619392452.8302 0.9869138 -0.11915469 0.0068057459 0.062537953 0.0066634808 0.062705517 0.98927778 -0.11573455
1629388679.2453 0.98668128 -0.11991969 0.0068087131 0.062968709 0.0067608394 0.063120432 0.98958588 -0.11629403
1639384905.6604 0.98641443 -0.12053602 0.0068209083 0.063393809 0.0067337276 0.063581429 0.9897269 -0.11723141
1649381132.0755 0.98605239 -0.12126589 0.0068895631 0.063814074 0.0067992229 0.06403508 0.98970056 -0.11831731
1659377358.4906 0.98588884 -0.12218642 0.0069349557 0.064227566 0.0068854764 0.06441588 0.98966289 -0.11919674
1669373584.9057 0.98583853 -0.12262941 0.0069950963 0.064687632 0.0069313678 0.064822339 0.98920262 -0.11992197
1679369811.3208 0.98581612 -0.12339945 0.0070681069 0.065097652 0.0069853403 0.065303162 0.98906791 -0.12045643
1689366037.7358 0.98580503 -0.12413758 0.0071208086 0.065543093 0.0070773326 0.065770634 0.98879492 -0.12081251
1699362264.1509 0.98590815 -0.12478366 0.0072232196 0.065941021 0.0071697375 0.066203661 0.98899305 -0.12127171
1709358490.566 0.98576182 -0.12548257 0.0073093856 0.066391334 0.0072528692 0.066665798 0.98889613 -0.1219039
1719354716.9811 0.98543322 -0.12621596 0.0074705761 0.066782445 0.0073856916 0.067088291 0.98899209 -0.12270758
1729350943.3962 0.98506278 -0.12675533 0.0075686313 0.067233063 0.0075485967 0.067491375 0.98897702 -0.12366164
