!Keysight Technologies,N5222B,MY61253708,A.15.00.15
!Date: Wednesday, June 19, 2024 10:07:57
!Correction: S11(C  2-Port  ) 
!S21(C  2-Port  ) 
!S12(C  2-Port  ) 
!S22(C  2-Port  ) 
!S2P File: Measurements: S11, S21, S12, S22:
# Hz S  RI   R 50
10000000 0.99873924 -0.0028612018 2.0101754e-005 0.00050528499 0.00017138009 0.00028161227 0.9986046 -0.0014880002
19996226.415094 1.0003064 -0.002721101 -2.6539783e-006 0.0006126184 -2.3918925e-005 0.00069203426 1.000206 -0.0027018487
29992452.830189 0.99974757 -0.002418071 2.7890637e-005 0.0009387965 -3.9332546e-005 0.00095674786 0.99938518 -0.0026775301
39988679.245283 1.000107 -0.002968967 1.1762429e-005 0.0012996898 2.9841933e-005 0.0012620598 0.99973172 -0.0030515045
49984905.660377 1.0002323 -0.0036141276 -1.7129118e-005 0.0016636366 -2.5657937e-006 0.0016738477 0.99984896 -0.0036349893
59981132.075472 1.0004131 -0.0044658482 3.8606639e-005 0.0019587069 7.374736e-006 0.0020190983 0.99983937 -0.0041927099
69977358.490566 1.0002599 -0.0050941259 3.7005186e-005 0.0022593974 5.4853277e-005 0.002275652 0.99974346 -0.0048327707
79973584.90566 1.0000174 -0.0056515932 1.5534111e-005 0.0026026568 3.2729818e-005 0.0026485245 0.99938434 -0.0052612424
89969811.320755 1.000039 -0.0057250559 4.4156332e-007 0.0029184544 -8.9578098e-006 0.0029644351 0.99963474 -0.0054751337
99966037.735849 1.0002319 -0.006512031 1.6165548e-005 0.0032992389 6.697257e-006 0.0033052051 0.99971265 -0.0062638223
109962264.15094 1.0002561 -0.0073727369 4.6146219e-005 0.0036203973 2.699421e-005 0.0036100654 0.99965036 -0.007033661
119958490.56604 1.0002627 -0.0082794428 3.3940305e-005 0.0039252322 1.6072765e-005 0.0039557815 0.99971956 -0.007889986
129954716.98113 1.000231 -0.0091893077 2.4867943e-005 0.0042314669 3.8535683e-005 0.0042616962 0.99974012 -0.0087717474
139950943.39623 1.0001436 -0.0099586807 4.1610256e-005 0.00458663 2.9575254e-005 0.0046126111 0.99965668 -0.0095199104
149947169.81132 1.000012 -0.010641605 3.2812823e-005 0.0049204146 4.737475e-005 0.0049314238 0.9996084 -0.01012966
159943396.22642 1.0000005 -0.011201203 7.0916954e-005 0.0052374331 4.6407338e-005 0.0052589495 0.99966764 -0.010598332
169939622.64151 0.99996006 -0.011596642 5.77803e-005 0.005564319 6.2671897e-005 0.0055837575 0.99970591 -0.011041827
179935849.0566 0.99996316 -0.011865854 5.1812036e-005 0.0058892588 7.863366e-005 0.0059172683 0.99955535 -0.011418313
189932075.4717 1.000147 -0.012701392 8.4131258e-005 0.0062160585 0.0001011698 0.0062637981 0.99979007 -0.011961043
199928301.88679 1.0000741 -0.013392836 7.7749602e-005 0.0065527353 9.2455652e-005 0.0065897577 0.99965221 -0.012823075
209924528.30189 0.9997704 -0.014001772 8.4719853e-005 0.006876702 0.0001034356 0.0068966523 0.999461 -0.013468876
219920754.71698 0.9999885 -0.014831841 9.9036144e-005 0.0072065983 0.00010727393 0.0072503379 0.99941009 -0.014063567
229916981.13208 0.99974447 -0.015671551 0.00012747711 0.007542084 0.00011398806 0.007565842 0.99943697 -0.014862508
239913207.54717 0.99964011 -0.016265649 0.00012246954 0.0078303479 0.00013268662 0.0078993663 0.99935597 -0.015601067
249909433.96226 0.99963814 -0.016918153 0.00012461748 0.0081704976 0.00012689759 0.008224925 0.99942529 -0.016203791
259905660.37736 0.99969566 -0.017555863 0.00015152199 0.0085032824 0.00015758676 0.0085065439 0.99962622 -0.016765267
269901886.79245 0.99990833 -0.018267065 0.00014771346 0.0088597648 0.00014010002 0.0089225387 0.99991339 -0.017492816
279898113.20755 0.99996209 -0.018807739 0.0001396439 0.0091421418 0.00017887121 0.0092068501 0.99977911 -0.018274054
289894339.62264 0.99979281 -0.019612432 0.00017494382 0.0094619282 0.00016580569 0.0095249657 0.9996599 -0.018993139
299890566.03774 0.99982381 -0.020083785 0.00014602439 0.0097779734 0.00020521763 0.0098780878 0.99945903 -0.019441694
309886792.45283 0.99974579 -0.020591058 0.00016225141 0.010167784 0.00017568958 0.010203593 0.99939787 -0.019871704
319883018.86792 0.99967635 -0.021273375 0.00021556113 0.01046495 0.00023861276 0.010502364 0.99951589 -0.020330817
329879245.28302 0.99980414 -0.021974653 0.00022567576 0.010809945 0.00026302319 0.010859603 0.99962634 -0.021074772
339875471.69811 0.99972302 -0.02275271 0.00025895529 0.011125672 0.00022318761 0.011156308 0.99950427 -0.02188126
349871698.11321 0.99978578 -0.023596197 0.00026837573 0.01144552 0.00025448762 0.011524996 0.99948478 -0.022792727
359867924.5283 0.99958718 -0.024348408 0.0003067255 0.011784722 0.00029392401 0.011843511 0.99941289 -0.023686767
369864150.9434 0.99978131 -0.025155485 0.00029425952 0.012071646 0.00025762781 0.012179445 0.99938673 -0.024360299
379860377.35849 0.99965751 -0.025845692 0.00031520217 0.012413635 0.0002938672 0.012465188 0.99936122 -0.025008529
389856603.77358 0.99962348 -0.026466012 0.00030457741 0.012752004 0.00033394666 0.012781818 0.99941945 -0.025513291
399852830.18868 0.99942881 -0.027070701 0.00029664254 0.013051806 0.00035137823 0.013124821 0.99945116 -0.026008487
409849056.60377 0.99930036 -0.027568826 0.00035527279 0.013426432 0.00033937578 0.013471182 0.99939233 -0.026513016
419845283.01887 0.9992801 -0.028039068 0.00042099366 0.013718327 0.0003885664 0.013795212 0.99933392 -0.027025759
429841509.43396 0.99937779 -0.028617918 0.00037861103 0.014040554 0.00039377017 0.014141371 0.99962521 -0.027780384
439837735.84906 0.99917853 -0.029502437 0.00042037212 0.014377593 0.0004517457 0.014431401 0.99932456 -0.028727069
449833962.26415 0.99904954 -0.030326784 0.00042995252 0.014688052 0.00046316674 0.014731897 0.99903744 -0.029508889
459830188.67925 0.99892294 -0.030916661 0.00045556203 0.015000889 0.00043478981 0.015058429 0.99879229 -0.030189246
469826415.09434 0.99880868 -0.031623751 0.0004491997 0.015371943 0.00044338405 0.015438664 0.99848628 -0.030798107
479822641.50943 0.99870765 -0.032102615 0.00047760829 0.015683968 0.00047794194 0.015780568 0.99856383 -0.031226836
489818867.92453 0.99880999 -0.032672971 0.00053548114 0.016033107 0.00053530093 0.016080167 0.99886978 -0.031733096
499815094.33962 0.99886918 -0.033243775 0.00052603567 0.016316887 0.00053628115 0.016387012 0.99916053 -0.032306463
509811320.75472 0.99895042 -0.033724818 0.00057363353 0.016649965 0.00057191757 0.016724596 0.99924707 -0.033075456
519807547.16981 0.99886191 -0.034173995 0.00057736319 0.016946539 0.00054077944 0.017043183 0.99917519 -0.033742547
529803773.58491 0.99889123 -0.034710824 0.00060243066 0.017315816 0.00061324984 0.017408393 0.99895102 -0.034437776
539800000 0.9990133 -0.035413191 0.00061947433 0.01767898 0.00062232278 0.017706627 0.99888074 -0.035009161
549796226.41509 0.99887711 -0.036217064 0.00061418256 0.017955827 0.00061400514 0.018025555 0.9987728 -0.03552562
559792452.83019 0.99874866 -0.036809802 0.00062050764 0.01826755 0.00068814959 0.018380374 0.99863517 -0.035993963
569788679.24528 0.99856037 -0.03758052 0.00066902395 0.018633932 0.00066656712 0.018664289 0.99886835 -0.03677088
579784905.66038 0.99853903 -0.038096063 0.00069733744 0.018949538 0.00067532843 0.019034039 0.99893349 -0.037468836
589781132.07547 0.99870992 -0.038759857 0.0007465966 0.019239461 0.00074544176 0.019349795 0.99895382 -0.038266689
599777358.49057 0.99881738 -0.039333642 0.0007408103 0.019556545 0.00073669478 0.019710716 0.99902338 -0.039095402
609773584.90566 0.99887669 -0.040124469 0.00073995645 0.019922586 0.00078646035 0.019992653 0.99894524 -0.039924271
619769811.32075 0.99909914 -0.040796012 0.00081237499 0.020257326 0.00082298694 0.020330882 0.99887586 -0.040498227
629766037.73585 0.99892724 -0.041495323 0.00085931458 0.020540193 0.00084778294 0.020617928 0.99865055 -0.040997148
639762264.15094 0.99871016 -0.042103991 0.00085519743 0.020840561 0.00088649243 0.020947527 0.99855042 -0.041517496
649758490.56604 0.99871957 -0.042703822 0.00089308107 0.02114529 0.00088248961 0.021280568 0.99863207 -0.041907623
659754716.98113 0.99850571 -0.043169886 0.00087503623 0.021516226 0.00088570919 0.02162559 0.99866343 -0.04252395
669750943.39623 0.99849302 -0.043619663 0.00091090705 0.021852843 0.00090848235 0.021979013 0.99871033 -0.04317084
679747169.81132 0.99852818 -0.044416845 0.00093140104 0.022192981 0.00092664722 0.022339121 0.99866724 -0.044169284
689743396.22642 0.99872673 -0.045218259 0.0010071676 0.022540225 0.0010158196 0.02263231 0.99854708 -0.045076549
699739622.64151 0.99883974 -0.046048135 0.0010500252 0.022844424 0.0010222429 0.022955943 0.99844086 -0.04572776
709735849.0566 0.99878275 -0.046842664 0.0010719214 0.023146164 0.0010905017 0.023275662 0.99816507 -0.046426371
719732075.4717 0.99861276 -0.047591835 0.0010533379 0.023474075 0.0010994826 0.023571214 0.99832201 -0.047019511
729728301.88679 0.99850225 -0.048150212 0.0011505885 0.023815956 0.0011309264 0.023895729 0.99835682 -0.047481716
739724528.30189 0.99845928 -0.048814744 0.0011723805 0.024086937 0.0011575851 0.024219045 0.99849015 -0.048115209
749720754.71698 0.99842441 -0.049348116 0.0012291651 0.024409443 0.0012179129 0.02452643 0.99851632 -0.048798934
759716981.13208 0.99844611 -0.049907386 0.0012273723 0.024722476 0.0012214892 0.024829919 0.99847889 -0.049613357
769713207.54717 0.99834955 -0.050602913 0.0012270352 0.025036283 0.0012681102 0.025168672 0.9982335 -0.050227076
779709433.96226 0.99859715 -0.051151916 0.0012639527 0.025380585 0.0013010503 0.025513195 0.99800849 -0.050868578
789705660.37736 0.99834764 -0.052018613 0.0013049189 0.025676049 0.0013319897 0.025787123 0.99774086 -0.051632971
799701886.79245 0.99830949 -0.05287084 0.0013591042 0.025984697 0.0013455981 0.026140377 0.99765444 -0.052242905
809698113.20755 0.99819809 -0.053387523 0.0013541575 0.026305953 0.0013728132 0.026463645 0.99769336 -0.052668437
819694339.62264 0.99801773 -0.054085106 0.0013970369 0.026618378 0.0013897233 0.026778407 0.99780703 -0.053186864
829690566.03774 0.99804068 -0.054663211 0.0014497489 0.026951477 0.0014446164 0.027096316 0.99798453 -0.054027915
839686792.45283 0.99806905 -0.055105656 0.0014542164 0.027251482 0.001456216 0.027392868 0.99806774 -0.054921776
849683018.86792 0.9981764 -0.055785596 0.0014623464 0.027633369 0.0014846784 0.027737172 0.99797362 -0.055569492
859679245.28302 0.99814129 -0.05654487 0.0015023155 0.027901139 0.0015060473 0.02806906 0.99770939 -0.056235909
869675471.69811 0.99810588 -0.057197988 0.0015772879 0.028238196 0.001565122 0.028376739 0.99739432 -0.056782663
879671698.11321 0.99796301 -0.057857879 0.00159314 0.028512686 0.0016090772 0.028698435 0.99739915 -0.057202563
889667924.5283 0.99781746 -0.058602005 0.0016317945 0.028826006 0.0016352627 0.028985919 0.99722332 -0.057694733
899664150.9434 0.99770534 -0.059201092 0.0016262298 0.029138923 0.0016431557 0.029296873 0.99726737 -0.058268696
909660377.35849 0.99767673 -0.059915379 0.0016811686 0.029473588 0.0016875505 0.029623233 0.99741942 -0.059167013
919656603.77358 0.99770057 -0.060572252 0.0017117569 0.029797116 0.0016951417 0.029954078 0.99741435 -0.059988856
929652830.18868 0.9976815 -0.061308235 0.0017203717 0.030121598 0.0017305277 0.03027191 0.99728304 -0.060768843
939649056.60377 0.99786758 -0.061878562 0.0016945917 0.030401736 0.001732124 0.030563699 0.99712175 -0.061566681
949645283.01887 0.99776816 -0.062755242 0.0017255278 0.030744229 0.0017287487 0.03090615 0.99686635 -0.062107861
959641509.43396 0.997787 -0.063404977 0.00175469 0.031092785 0.0017814133 0.031258177 0.99682242 -0.062635899
969637735.84906 0.99771094 -0.064117163 0.0018071057 0.031440549 0.0018404024 0.03161177 0.99684107 -0.063001543
979633962.26415 0.99762201 -0.064890884 0.0018755235 0.031723175 0.0018764941 0.031921227 0.99686879 -0.063653596
989630188.67925 0.99762583 -0.065285206 0.0018924968 0.032058533 0.0019118488 0.032251775 0.99708211 -0.064227194
999626415.09434 0.99768698 -0.065936446 0.0019344026 0.032397851 0.0019457825 0.032568462 0.99700779 -0.065015614
1009622641.5094 0.99769455 -0.066569775 0.0019352161 0.032704957 0.0019631144 0.032900538 0.99684495 -0.065782532
1019618867.9245 0.99777633 -0.067342952 0.0020138184 0.033015963 0.0020539942 0.033226512 0.99660152 -0.066616163
1029615094.3396 0.99770653 -0.068234533 0.0020512026 0.033337846 0.0020785891 0.033508338 0.99629056 -0.067171156
1039611320.7547 0.99776626 -0.069031447 0.0021052314 0.033625897 0.002100178 0.033824518 0.996279 -0.067881703
1049607547.1698 0.99762541 -0.069979027 0.0021265107 0.033892594 0.0021325601 0.034108017 0.99621385 -0.068411089
1059603773.5849 0.99757475 -0.070653588 0.0021429015 0.034219299 0.0021666009 0.034425855 0.99619597 -0.069017977
1069600000 0.99736357 -0.071297377 0.0021252939 0.034519453 0.0021755695 0.034738306 0.99634492 -0.069718301
1079596226.4151 0.99733043 -0.072023869 0.0021386012 0.034860753 0.0021870206 0.035059959 0.99634188 -0.070502907
1089592452.8302 0.99739134 -0.072649956 0.0021773363 0.035203923 0.0022447538 0.035400793 0.9962799 -0.071182311
1099588679.2453 0.99744678 -0.073303789 0.0021889657 0.03553962 0.0022497494 0.035711743 0.99597383 -0.071834505
1109584905.6604 0.99745542 -0.074101105 0.0022127274 0.035854835 0.0022746725 0.036043294 0.99576014 -0.072385401
1119581132.0755 0.99746597 -0.075045422 0.0022528544 0.036181722 0.002304161 0.036388934 0.99559993 -0.072793975
1129577358.4906 0.9973768 -0.075745225 0.0022812169 0.036530789 0.0023436751 0.036724191 0.99548167 -0.073211819
1139573584.9057 0.99705547 -0.076622784 0.0023080651 0.036872245 0.0023757694 0.037091423 0.99552822 -0.073881596
1149569811.3208 0.99698776 -0.077438869 0.0023778644 0.037181504 0.0024251519 0.037391491 0.99565154 -0.074525632
1159566037.7358 0.99676013 -0.078165531 0.0024047429 0.037477084 0.0024658218 0.037680011 0.99580991 -0.07558319
1169562264.1509 0.99665773 -0.078822255 0.0024109166 0.037792817 0.0024744794 0.038013179 0.99562216 -0.0763596
1179558490.566 0.99658483 -0.079607666 0.0024185136 0.038138248 0.0025097437 0.038372666 0.99547815 -0.077071428
1189554716.9811 0.99664342 -0.080339432 0.0024512261 0.0384949 0.0025453195 0.038688835 0.99526465 -0.077623665
1199550943.3962 0.99645686 -0.081111014 0.0024892371 0.038852789 0.0025894195 0.039022677 0.99508262 -0.078045607
1209547169.8113 0.99631405 -0.082009509 0.0025498113 0.039164022 0.0026496798 0.039331831 0.99499732 -0.078412518
1219543396.2264 0.99616569 -0.082765341 0.0025790669 0.039498214 0.0026874123 0.03971127 0.99506968 -0.078793466
1229539622.6415 0.99590945 -0.083631426 0.0026589334 0.039848045 0.0027568713 0.04004335 0.99515188 -0.079412371
1239535849.0566 0.99561441 -0.084186018 0.0027177241 0.040150676 0.0028126556 0.040376056 0.99530321 -0.080336034
1249532075.4717 0.99535275 -0.084920272 0.0027459199 0.040474318 0.0028901126 0.040697142 0.9952026 -0.081156887
1259528301.8868 0.99513531 -0.085399449 0.0028304271 0.040784765 0.002943268 0.040988378 0.99493635 -0.082036883
1269524528.3019 0.9950332 -0.086100817 0.002884618 0.041115407 0.0030019162 0.041254491 0.99474847 -0.082634091
1279520754.717 0.99468124 -0.08683987 0.0028969538 0.041362111 0.0030468395 0.041558128 0.99450678 -0.083217196
1289516981.1321 0.99452668 -0.08767882 0.0029415572 0.041670009 0.0030356329 0.041842319 0.9945659 -0.083663464
1299513207.5472 0.99425554 -0.088463843 0.0029549804 0.04196813 0.0030710548 0.042141005 0.99465251 -0.084082246
1309509433.9623 0.99378812 -0.089197904 0.0029669283 0.04226527 0.0031045582 0.042439807 0.99475425 -0.084838614
1319505660.3774 0.99346095 -0.089938939 0.0029741274 0.042613678 0.003079663 0.042739678 0.99475271 -0.085466266
1329501886.7925 0.99320042 -0.09055379 0.0029902086 0.042964809 0.0031202771 0.043090038 0.99475002 -0.086392224
1339498113.2075 0.99293023 -0.091080934 0.0030102115 0.043246243 0.0031481758 0.043414287 0.99439347 -0.087099791
1349494339.6226 0.99271446 -0.091697983 0.0029850965 0.043597247 0.0031179637 0.043756675 0.99403536 -0.087663911
1359490566.0377 0.99268401 -0.092190862 0.003009636 0.043937683 0.0031321403 0.04407566 0.99386799 -0.088166565
1369486792.4528 0.99245322 -0.092666417 0.0029993942 0.044276942 0.0031204196 0.044409018 0.99374717 -0.088594317
1379483018.8679 0.99218053 -0.093225859 0.0030324813 0.044673897 0.0031305959 0.044757336 0.99365771 -0.088942058
1389479245.283 0.99188423 -0.093775243 0.0031011682 0.045046479 0.0031953417 0.045146361 0.99367821 -0.089595199
1399475471.6981 0.99142396 -0.094253391 0.0030941032 0.045385227 0.0031689238 0.045489483 0.99388158 -0.090322763
1409471698.1132 0.99109459 -0.094596773 0.0031410027 0.045745298 0.0032116256 0.045875564 0.99394488 -0.091133468
1419467924.5283 0.99098653 -0.094869882 0.0031637475 0.046106644 0.0032242965 0.046233907 0.99365914 -0.091859311
1429464150.9434 0.99085575 -0.095317721 0.0032092631 0.046517674 0.0032764077 0.046661779 0.99361086 -0.092370659
1439460377.3585 0.99099755 -0.09579879 0.0033050021 0.046967354 0.0033363504 0.047061313 0.99335992 -0.092785001
1449456603.7736 0.99101007 -0.096354961 0.0033649905 0.047362 0.003431906 0.047437098 0.99320644 -0.093085065
1459452830.1887 0.99103951 -0.096934021 0.0034880824 0.047770888 0.0035270397 0.047860347 0.99336773 -0.093424499
1469449056.6038 0.99103284 -0.09762314 0.0036444273 0.048059419 0.0036981255 0.048181839 0.99363327 -0.093981564
1479445283.0189 0.99095118 -0.098206766 0.0038015449 0.048371255 0.0038407168 0.048503801 0.99371457 -0.094902739
1489441509.434 0.99088931 -0.09870559 0.0039475672 0.048664991 0.0039496515 0.048760969 0.99349916 -0.095757127
1499437735.8491 0.99074429 -0.099055171 0.0040413719 0.048945881 0.0040443093 0.04906106 0.99347568 -0.096562147
1509433962.2642 0.99069798 -0.09959878 0.0041243746 0.049180903 0.0040991474 0.049332764 0.99327856 -0.097215056
1519430188.6792 0.99084556 -0.10016811 0.0041700955 0.049458433 0.0041800775 0.049584687 0.99311912 -0.097857952
1529426415.0943 0.99074543 -0.10079086 0.0042401329 0.049723536 0.004226137 0.049868271 0.9931283 -0.098275661
1539422641.5094 0.99076915 -0.10161278 0.0042995699 0.05004112 0.004297405 0.05017579 0.99317223 -0.098737739
1549418867.9245 0.99064016 -0.10239254 0.0043435078 0.050322935 0.0043494245 0.050455563 0.9932794 -0.099512652
1559415094.3396 0.99055791 -0.10296762 0.0044101309 0.050580703 0.0043945014 0.050755739 0.99341255 -0.10015103
1569411320.7547 0.99039954 -0.10376324 0.0044393875 0.050847508 0.0043634856 0.051031779 0.99340355 -0.10087918
1579407547.1698 0.99034452 -0.10421745 0.0044601467 0.051118061 0.0044275993 0.051337402 0.99303043 -0.10170548
1589403773.5849 0.99025381 -0.10476354 0.0044680554 0.051443174 0.0044301655 0.051599696 0.99280763 -0.10244966
1599400000 0.99031949 -0.10532725 0.0044387775 0.051757611 0.0044213915 0.051860526 0.99247748 -0.10287267
1609396226.4151 0.99020201 -0.10593105 0.0044066124 0.052073024 0.0044280095 0.052261516 0.9923203 -0.10335972
1619392452.8302 0.99013221 -0.10654438 0.0044311583 0.052379046 0.0044306293 0.052568503 0.99221748 -0.10387176
1629388679.2453 0.98998666 -0.10725009 0.0044759549 0.052763581 0.0044245217 0.052923918 0.99247515 -0.1043345
1639384905.6604 0.98969275 -0.10780169 0.0044786609 0.053113382 0.0044068154 0.053307902 0.99271822 -0.1052255
1649381132.0755 0.98960006 -0.10856417 0.0044766553 0.053437576 0.0044601988 0.053642623 0.99263614 -0.10609365
1659377358.4906 0.9894284 -0.10933289 0.004497854 0.053753812 0.0044808462 0.054007553 0.99258894 -0.1070112
1669373584.9057 0.98932612 -0.10975786 0.0045072217 0.054175265 0.0045021251 0.054400694 0.99239618 -0.10762952
1679369811.3208 0.98938978 -0.1103985 0.0045555159 0.054490253 0.0045298077 0.054763142 0.99214679 -0.10817418
1689366037.7358 0.98934525 -0.11097568 0.0046373717 0.054915577 0.0045743734 0.055137385 0.99197245 -0.10851264
1699362264.1509 0.98952395 -0.11156154 0.0046593426 0.055280406 0.0046368437 0.055534139 0.99224836 -0.10885802
1709358490.566 0.989447 -0.11227046 0.0047268393 0.055606119 0.0046941647 0.05590545 0.99224985 -0.10943203
1719354716.9811 0.98910296 -0.11280835 0.0047660563 0.056007642 0.0047184154 0.05625134 0.99227238 -0.11006147
