!Keysight Technologies,N5222B,MY61253708,A.15.00.15
!Date: Wednesday, June 19, 2024 10:34:08
!Correction: S11(C  2-Port  ) 
!S21(C  2-Port  ) 
!S12(C  2-Port  ) 
!S22(C  2-Port  ) 
!S2P File: Measurements: S11, S21, S12, S22:
# Hz S  RI   R 50
10000000 0.99836683 -0.0030919313 -0.0001610108 0.00037987161 5.2289837e-005 0.0002597291 0.99832964 -0.0020097494
19996226.415094 0.99985135 -0.0022619665 0.00013029779 0.00065874099 5.6281569e-006 0.0006767892 0.99992788 -0.002425015
29992452.830189 0.99956715 -0.0025368333 1.69751e-005 0.00090613007 -1.5211001e-005 0.00096314464 0.99940443 -0.0027443469
39988679.245283 0.9999848 -0.0030337423 3.9064093e-005 0.0013155328 -3.5587771e-005 0.001302451 0.99977058 -0.0031238794
49984905.660377 1.0002301 -0.0037112534 2.8687064e-006 0.0016000691 2.1757733e-005 0.0016584385 0.99990916 -0.003588438
59981132.075472 1.0004677 -0.0045472085 2.6470283e-005 0.001936018 5.0533738e-005 0.0019784831 0.99996078 -0.0041555464
69977358.490566 1.0002035 -0.0051338635 8.6684013e-006 0.0022914181 2.7945021e-005 0.0022527764 0.99982369 -0.004695151
79973584.90566 0.99988067 -0.0056703091 7.6725846e-006 0.0025607008 5.4047443e-005 0.0025652433 0.9994458 -0.0051246583
89969811.320755 0.99994147 -0.0057585537 2.7954811e-006 0.0029359031 2.8113602e-005 0.0029132396 0.99968064 -0.0052779615
99966037.735849 1.0001571 -0.0064255446 2.7816452e-005 0.0032507321 2.4653913e-005 0.0032518795 0.99977326 -0.006036073
109962264.15094 1.0001521 -0.0073184818 2.7991773e-005 0.0035647796 1.7633196e-005 0.0035757211 0.99979717 -0.006845668
119958490.56604 1.0002099 -0.0082282126 3.1502452e-005 0.0038657691 4.4391607e-005 0.0038910217 0.99986398 -0.007728219
129954716.98113 1.0001752 -0.0092195868 3.9095874e-005 0.0042064632 2.682535e-005 0.0042167976 0.9998529 -0.008611232
139950943.39623 1.0001006 -0.010023408 4.6772984e-005 0.0045269732 4.3069813e-005 0.0045464928 0.99974948 -0.0093533266
149947169.81132 0.99994349 -0.010693431 4.7069276e-005 0.004858139 5.7932455e-005 0.0048508798 0.99968421 -0.009919703
159943396.22642 0.99991906 -0.011205763 6.3939951e-005 0.0051876917 3.811717e-005 0.0051949429 0.99976504 -0.010347575
169939622.64151 0.99989945 -0.011552647 6.433652e-005 0.005509452 5.7306199e-005 0.0055214232 0.99979496 -0.010754496
179935849.0566 0.99993467 -0.011785924 4.8604212e-005 0.0058130897 7.0658047e-005 0.0058238078 0.99971592 -0.011083454
189932075.4717 1.0000681 -0.012539506 7.9196645e-005 0.0061488543 6.6130655e-005 0.0061689029 0.99993306 -0.011600405
199928301.88679 0.99994963 -0.013366759 7.0559094e-005 0.0064609707 0.00012822356 0.0064883074 0.99990284 -0.012461066
209924528.30189 0.99975365 -0.013857394 7.8551355e-005 0.0068012457 8.6994842e-005 0.0068023209 0.99958706 -0.013143316
219920754.71698 0.99987793 -0.01459375 9.4162999e-005 0.0071043153 9.0615125e-005 0.0071546957 0.99951059 -0.013783664
229916981.13208 0.99968421 -0.015538156 0.00011998997 0.0074259127 9.6989563e-005 0.0074552 0.99946809 -0.014564514
239913207.54717 0.99951154 -0.016252849 0.00013778095 0.0077728783 0.00011658104 0.0077767037 0.99943304 -0.015261676
249909433.96226 0.99954909 -0.016813099 0.00012194342 0.008071905 0.00013501174 0.0080934688 0.99952811 -0.015805125
259905660.37736 0.99967879 -0.017433047 0.00012755115 0.0084023224 0.00012894627 0.0084398324 0.99970555 -0.016305834
269901886.79245 0.99985588 -0.01802057 0.00019185944 0.0087261572 0.00017289433 0.0087628746 1.0001051 -0.017049924
279898113.20755 0.99993324 -0.018631175 0.00017332355 0.009032364 0.00015750178 0.0090871099 1.0000045 -0.017808571
289894339.62264 0.99996388 -0.019402534 0.00018546125 0.009329129 0.00018263003 0.0093983198 0.99987769 -0.018543005
299890566.03774 0.99983758 -0.019895852 0.00019549765 0.0097200321 0.000193296 0.0097356718 0.99956167 -0.018939018
309886792.45283 0.99959105 -0.020495087 0.00017213845 0.010036225 0.00021641515 0.010075636 0.99947876 -0.019412518
319883018.86792 0.99963522 -0.021174818 0.00024247216 0.01035141 0.00022115279 0.010411941 0.99963963 -0.01984036
329879245.28302 0.99968743 -0.021877021 0.00020235172 0.010700881 0.00022714213 0.010682235 0.99975038 -0.020567447
339875471.69811 0.99953324 -0.022587918 0.00027657906 0.010967395 0.00022980699 0.011011845 0.99973297 -0.021425687
349871698.11321 0.99975717 -0.023443699 0.00030227588 0.011322618 0.00025645993 0.011355951 0.99967343 -0.022332281
359867924.5283 0.99957752 -0.024241775 0.00031358656 0.011656508 0.00025507808 0.011669694 0.99966288 -0.023300409
369864150.9434 0.99973255 -0.025002092 0.00029795035 0.012012427 0.00028660591 0.012004399 0.99969208 -0.024029583
379860377.35849 0.99964142 -0.025803298 0.00030522514 0.012293507 0.00032138056 0.012307008 0.99959135 -0.024718761
389856603.77358 0.99946415 -0.026329964 0.00032735243 0.01259244 0.00034450321 0.012629815 0.99954808 -0.025202721
399852830.18868 0.99933994 -0.026912004 0.00035538012 0.012938852 0.00034840545 0.012962482 0.99964094 -0.025666833
409849056.60377 0.99927384 -0.027308559 0.00036133823 0.013216008 0.00035592809 0.01330096 0.99949986 -0.026249211
419845283.01887 0.99918163 -0.027797788 0.00033515971 0.013576346 0.00035607535 0.013609774 0.99941778 -0.02684018
429841509.43396 0.9992249 -0.028465092 0.00040342892 0.013878134 0.00041053677 0.013960257 0.99954033 -0.027548641
439837735.84906 0.99907488 -0.029322326 0.00039639231 0.014187394 0.00043734314 0.014260422 0.99933892 -0.028680414
449833962.26415 0.99893975 -0.030241847 0.00043646386 0.014516624 0.00044302084 0.014523407 0.99876875 -0.029352754
459830188.67925 0.99874121 -0.03081724 0.00043114787 0.014831497 0.0004173019 0.014871732 0.99843001 -0.029932857
469826415.09434 0.99865985 -0.031564504 0.00047324039 0.01517563 0.00043447129 0.01519056 0.99809486 -0.030387372
479822641.50943 0.99862057 -0.032018565 0.00048780034 0.015483211 0.00047209312 0.015563071 0.9982065 -0.030728981
489818867.92453 0.9987632 -0.032537639 0.00047206786 0.015815433 0.00054005813 0.015901092 0.99839401 -0.031153977
499815094.33962 0.99878085 -0.03305763 0.00053697964 0.016143801 0.00052672857 0.01618729 0.99865252 -0.031649113
509811320.75472 0.99888486 -0.033506837 0.00055913464 0.016446508 0.0005307399 0.016499935 0.99884701 -0.032287113
519807547.16981 0.99881899 -0.033938676 0.00056325551 0.016722254 0.00055187615 0.016781976 0.99886996 -0.033030599
529803773.58491 0.99881178 -0.034500182 0.00055639306 0.017067198 0.00057094451 0.017130904 0.99857402 -0.033540279
539800000 0.99891508 -0.035186544 0.00057947449 0.01741025 0.00059425295 0.017459193 0.99848968 -0.034182042
549796226.41509 0.99870372 -0.035992473 0.00059728511 0.017731264 0.00062497985 0.017776266 0.99832255 -0.034507483
559792452.83019 0.99853534 -0.036697477 0.00060502253 0.01806153 0.00064950343 0.018123545 0.99836338 -0.03496784
569788679.24528 0.99841082 -0.037343979 0.00066336617 0.018398212 0.00065627741 0.018447448 0.99858773 -0.035648942
579784905.66038 0.99839604 -0.03787972 0.00069945934 0.018711373 0.00068391254 0.01879173 0.99875689 -0.036323883
589781132.07547 0.99853897 -0.038508445 0.00070547219 0.01906807 0.00070571713 0.019082502 0.99887073 -0.037244946
599777358.49057 0.99869782 -0.039116323 0.0007369481 0.019349054 0.0007367041 0.019442342 0.99898577 -0.037967771
609773584.90566 0.99884778 -0.039836079 0.00073508715 0.019665143 0.00079217507 0.019734403 0.9988057 -0.038839802
619769811.32075 0.9989084 -0.040588588 0.00077896612 0.020003285 0.00080498355 0.020071251 0.99881619 -0.039354324
629766037.73585 0.99886781 -0.041228801 0.00080489181 0.020322356 0.00080642663 0.020379502 0.99863166 -0.039821506
639762264.15094 0.99862617 -0.041834012 0.00082890806 0.020588024 0.00082004257 0.02067228 0.99846393 -0.040330872
649758490.56604 0.99855173 -0.04241617 0.00086313859 0.020926658 0.00084249303 0.020969946 0.99860191 -0.040685669
659754716.98113 0.99837506 -0.042871326 0.00087112654 0.021266159 0.00083167478 0.02132722 0.99872935 -0.041250408
669750943.39623 0.99838388 -0.043320984 0.00088782096 0.021579375 0.00087044109 0.021658603 0.99891222 -0.042068332
679747169.81132 0.99842024 -0.044076063 0.00090971787 0.021916259 0.00095012668 0.022001356 0.99883693 -0.043067835
689743396.22642 0.9985913 -0.044983804 0.00099312607 0.022271026 0.00096741039 0.022309635 0.99868113 -0.044003367
699739622.64151 0.99872273 -0.045766383 0.0010119854 0.022593854 0.0010229088 0.022655182 0.99865144 -0.044682741
709735849.0566 0.99870604 -0.046654068 0.0010738543 0.022887897 0.00107271 0.02292948 0.9983725 -0.045317091
719732075.4717 0.9985739 -0.047331303 0.0010793493 0.023191672 0.0010750685 0.023275655 0.99839073 -0.045923203
729728301.88679 0.998469 -0.047858864 0.0010759402 0.023487948 0.0010991879 0.023558961 0.99848497 -0.046407104
739724528.30189 0.99840212 -0.048471957 0.001150772 0.023816811 0.0011306587 0.023898995 0.99870282 -0.047077134
749720754.71698 0.9982565 -0.048989609 0.0011797058 0.02410903 0.0011722129 0.024211626 0.99871802 -0.047835484
759716981.13208 0.99829489 -0.0495193 0.0011783782 0.024442321 0.0012011863 0.024505848 0.99863064 -0.048608065
769713207.54717 0.99823743 -0.050191432 0.0012057172 0.024754534 0.0012128009 0.024856284 0.99842644 -0.049361676
779709433.96226 0.99837303 -0.050863408 0.0012513077 0.025075791 0.0012522596 0.025153298 0.99807805 -0.049935974
789705660.37736 0.99821186 -0.051796019 0.0012527239 0.025388185 0.0012855828 0.025461806 0.99780178 -0.050646454
799701886.79245 0.99823254 -0.05251649 0.0012946334 0.02566614 0.0013238583 0.025748091 0.99770117 -0.051263124
809698113.20755 0.99810004 -0.053105593 0.001345678 0.02602407 0.0013337766 0.026102593 0.99770755 -0.05172649
819694339.62264 0.99792027 -0.053790003 0.001360313 0.026296094 0.0013576737 0.026411595 0.99781972 -0.052266389
829690566.03774 0.99791926 -0.054386854 0.0014072452 0.026634121 0.0013658619 0.026733458 0.99799705 -0.05308935
839686792.45283 0.99786377 -0.054763526 0.0014289194 0.026941478 0.0014143516 0.027037509 0.9980334 -0.053937167
849683018.86792 0.99802822 -0.055398501 0.001436396 0.027278276 0.0014612176 0.027370423 0.9978599 -0.054657422
859679245.28302 0.99799699 -0.056059152 0.0014651101 0.027593438 0.001493223 0.02765907 0.99766624 -0.055162936
869675471.69811 0.99791503 -0.056809783 0.0015367931 0.027900033 0.0015504099 0.027979709 0.99721754 -0.055704713
879671698.11321 0.99790788 -0.057436731 0.0015869172 0.028195715 0.0015693054 0.028294891 0.9972415 -0.056064561
889667924.5283 0.99767733 -0.058245748 0.0015788488 0.028495505 0.0015808195 0.02861274 0.99704754 -0.056579292
899664150.9434 0.99754918 -0.059004456 0.0015945239 0.028803317 0.0015858747 0.028909434 0.99715698 -0.057146728
909660377.35849 0.99755454 -0.059577569 0.0016034618 0.029120065 0.0016183043 0.029205816 0.99730563 -0.057990462
919656603.77358 0.99764627 -0.060231954 0.0016582059 0.029478187 0.0016637533 0.029542001 0.99731988 -0.058927953
929652830.18868 0.99759758 -0.060889006 0.0016653435 0.029726103 0.0016738838 0.029854927 0.99707252 -0.059680998
939649056.60377 0.99781966 -0.061528951 0.0016727652 0.030048879 0.001685136 0.030154336 0.99697524 -0.060323209
949645283.01887 0.99779719 -0.062296715 0.0016700834 0.030355761 0.001694585 0.030496681 0.99673539 -0.060922101
959641509.43396 0.99771798 -0.06305474 0.0016923221 0.030715298 0.0017389273 0.030812211 0.99665964 -0.061333328
969637735.84906 0.99754405 -0.06370753 0.0017663212 0.03108171 0.0017386833 0.031146426 0.9967432 -0.061656177
979633962.26415 0.99745721 -0.06438902 0.0018137787 0.031353191 0.0018519568 0.031471655 0.99680454 -0.062298574
989630188.67925 0.99745601 -0.064911693 0.0018535461 0.031684529 0.0018404359 0.0318042 0.9969368 -0.062813312
999626415.09434 0.99753457 -0.065462857 0.0018593194 0.031985849 0.0018854039 0.03213365 0.99693239 -0.063653916
1009622641.5094 0.99750495 -0.066123784 0.0019120607 0.032305673 0.0019364883 0.032472406 0.99684149 -0.064488351
1019618867.9245 0.99767739 -0.066925988 0.0019369335 0.032634672 0.0019682753 0.032774664 0.99654406 -0.06535323
1029615094.3396 0.99766469 -0.06788519 0.002026625 0.03292061 0.0020396924 0.033059187 0.99619442 -0.065845668
1039611320.7547 0.99767071 -0.068674892 0.0020544967 0.0332398 0.0020578867 0.033363722 0.99617118 -0.06648761
1049607547.1698 0.99754143 -0.069501713 0.0020797083 0.03352901 0.0020586425 0.033645399 0.99614906 -0.067041792
1059603773.5849 0.99735069 -0.070113808 0.0021031126 0.033808142 0.0021101041 0.033965118 0.99614042 -0.067534953
1069600000 0.99722004 -0.070807487 0.0020719515 0.03410048 0.0021038391 0.034258515 0.99636585 -0.06828931
1079596226.4151 0.99717599 -0.071462259 0.0020943163 0.034435365 0.0021504681 0.034568235 0.99640673 -0.069002807
1089592452.8302 0.99727803 -0.072124749 0.0021302039 0.034764308 0.0021717818 0.034900907 0.99633408 -0.069751203
1099588679.2453 0.99726641 -0.072714359 0.0021275766 0.035102848 0.0021834038 0.035221364 0.99602342 -0.070372194
1109584905.6604 0.99742472 -0.073495269 0.002162287 0.035432063 0.0021809116 0.035579834 0.99578774 -0.070915565
1119581132.0755 0.99737912 -0.074454412 0.0021773549 0.035767116 0.0022321246 0.035919346 0.99566001 -0.071308285
1129577358.4906 0.99725282 -0.075271219 0.0022163875 0.036090441 0.0022592694 0.036256045 0.99555397 -0.071798265
1139573584.9057 0.9969672 -0.076177925 0.0022693686 0.036399703 0.0022990797 0.036570009 0.99562937 -0.072456032
1149569811.3208 0.99690127 -0.077038735 0.0023229755 0.036748234 0.0023640965 0.0368868 0.99579114 -0.073158644
1159566037.7358 0.99667376 -0.077665687 0.0023648171 0.037031844 0.0024126554 0.03718048 0.99586046 -0.074162126
1169562264.1509 0.99658012 -0.078273237 0.0023499243 0.037346229 0.0024203882 0.037516057 0.99575317 -0.075009495
1179558490.566 0.99650818 -0.078950174 0.002342517 0.037698455 0.002415444 0.037853595 0.9955917 -0.075673476
1189554716.9811 0.99656594 -0.079694182 0.0023777951 0.038036726 0.0024769241 0.038177997 0.99526978 -0.076185197
1199550943.3962 0.99652964 -0.080482274 0.0024305321 0.038372017 0.00252847 0.038520973 0.99509454 -0.076556742
1209547169.8113 0.9963401 -0.081391692 0.0024651838 0.038689233 0.0025537722 0.03883341 0.99504966 -0.076857477
1219543396.2264 0.99613005 -0.082176074 0.0025129346 0.039043285 0.0026208381 0.039182488 0.99516654 -0.077216431
1229539622.6415 0.99586928 -0.082964152 0.002585249 0.039373815 0.0026766509 0.039514877 0.99526691 -0.077970833
1239535849.0566 0.99556851 -0.083669513 0.0026416462 0.039673306 0.0027603125 0.039826408 0.99538618 -0.07886225
1249532075.4717 0.99532747 -0.084353805 0.0027111426 0.039942402 0.0028340903 0.040121295 0.99526459 -0.07968694
1259528301.8868 0.99515724 -0.084837556 0.0027217697 0.040316902 0.0028426722 0.040407412 0.9950155 -0.080514699
1269524528.3019 0.99502879 -0.085590333 0.0028161043 0.040612631 0.0029151002 0.040742785 0.99479055 -0.08120206
1279520754.717 0.99467731 -0.086238548 0.0028443737 0.040860698 0.0029665912 0.040973656 0.99448454 -0.081718288
1289516981.1321 0.99463993 -0.08698824 0.0028705625 0.041167226 0.0029665148 0.041252553 0.99454755 -0.082126975
1299513207.5472 0.99424708 -0.087913871 0.0028914865 0.041495323 0.0029895194 0.041563503 0.99469459 -0.082478046
1309509433.9623 0.99391663 -0.088558614 0.0029166145 0.041775987 0.0029913727 0.041873064 0.99483103 -0.083220735
1319505660.3774 0.99351621 -0.089251384 0.0028791865 0.04208371 0.0029826667 0.042193718 0.99488741 -0.083866969
1329501886.7925 0.99316519 -0.090012223 0.0028974302 0.042434901 0.0030291621 0.042509757 0.99489945 -0.084861487
1339498113.2075 0.99291724 -0.090520114 0.0029403735 0.042743307 0.0030605318 0.042821467 0.99451417 -0.085561454
1349494339.6226 0.99283361 -0.091008358 0.0029141549 0.043076947 0.0030261865 0.043147128 0.99412286 -0.086137965
1359490566.0377 0.99271226 -0.091648698 0.002920771 0.0434286 0.0030045081 0.043481804 0.99394137 -0.086638778
1369486792.4528 0.99251819 -0.092144728 0.0029320577 0.0437565 0.0030055484 0.043836042 0.99377716 -0.08708027
1379483018.8679 0.99225974 -0.092707679 0.0029487815 0.044132523 0.003023504 0.044169609 0.99383658 -0.087400831
1389479245.283 0.99196315 -0.093254238 0.0029922426 0.044501316 0.0030684154 0.044537921 0.99382627 -0.08807379
1399475471.6981 0.99153155 -0.093632519 0.0030104276 0.044816829 0.003069384 0.044869691 0.99396849 -0.088732094
1409471698.1132 0.99129891 -0.094045572 0.0030402474 0.045228653 0.003093774 0.045277204 0.99401492 -0.089554533
1419467924.5283 0.99100631 -0.094306588 0.0030337647 0.045563348 0.0031163367 0.04562575 0.99392343 -0.090220839
1429464150.9434 0.99090612 -0.094757646 0.0030833129 0.045939803 0.0031456165 0.04601308 0.99372339 -0.090800166
1439460377.3585 0.99112535 -0.095258459 0.0031710658 0.046375103 0.003228588 0.046442743 0.99348307 -0.091139898
1449456603.7736 0.99111116 -0.095742598 0.0032807738 0.046793155 0.0033098785 0.04681503 0.99337167 -0.09148562
1459452830.1887 0.99112606 -0.096444279 0.0034080949 0.047184847 0.0034120213 0.047225952 0.99351847 -0.091797262
1469449056.6038 0.99115366 -0.097137451 0.0035675559 0.047511794 0.0035726633 0.047569256 0.99374151 -0.092418551
1479445283.0189 0.9910478 -0.097830713 0.0037126918 0.047794871 0.0036955185 0.047863815 0.9938634 -0.09342505
1489441509.434 0.99093294 -0.098265946 0.0038383845 0.048120655 0.0038474295 0.048137013 0.99376261 -0.094166189
1499437735.8491 0.99078131 -0.09861809 0.0039324854 0.048385549 0.0039655399 0.048400041 0.99363482 -0.095006347
1509433962.2642 0.99075216 -0.099141508 0.0040111695 0.048623983 0.0040130923 0.048664127 0.99340498 -0.095754743
1519430188.6792 0.99081236 -0.099574834 0.0040535908 0.048882864 0.0040850937 0.048940815 0.99332428 -0.096217126
1529426415.0943 0.99083114 -0.100196 0.004110327 0.049155992 0.0041164011 0.049266674 0.99318933 -0.096686214
1539422641.5094 0.99078166 -0.10111573 0.0041669016 0.049437806 0.0041368846 0.04952975 0.99331897 -0.097114928
1549418867.9245 0.99063885 -0.10186927 0.0042475462 0.049730133 0.0042329095 0.04979125 0.99360585 -0.097865596
1559415094.3396 0.99052143 -0.10252047 0.0042805467 0.050007038 0.0042408183 0.05012466 0.9937402 -0.098571628
1569411320.7547 0.99038947 -0.10335077 0.0043072188 0.050269105 0.0042606294 0.050368167 0.99364549 -0.09936215
1579407547.1698 0.99031109 -0.10374448 0.0043619145 0.050530721 0.0042916797 0.050639354 0.99330354 -0.10023777
1589403773.5849 0.99032122 -0.10431033 0.0043680165 0.050865874 0.0043009967 0.050922856 0.99303961 -0.10094348
1599400000 0.99018139 -0.10477361 0.00433427 0.051115736 0.0043079862 0.051227562 0.99262476 -0.1013799
1609396226.4151 0.99023145 -0.10544276 0.0043190299 0.051414177 0.0042872611 0.051509526 0.9924491 -0.1018893
1619392452.8302 0.99018657 -0.10601637 0.0043339711 0.051755883 0.0042908769 0.051828399 0.99248207 -0.10224524
1629388679.2453 0.98990095 -0.10676399 0.0043482389 0.052108131 0.0042648856 0.052243769 0.99268997 -0.10275021
1639384905.6604 0.98969156 -0.1073906 0.0043493989 0.052441429 0.0042854613 0.052609872 0.99309224 -0.10356359
1649381132.0755 0.9895305 -0.10794526 0.0043559298 0.052772559 0.0043287296 0.052947138 0.99297154 -0.1045644
1659377358.4906 0.9893328 -0.10874555 0.0043763388 0.053131387 0.0043647606 0.053268552 0.99287593 -0.10541686
1669373584.9057 0.98934889 -0.10931944 0.0043652505 0.053516421 0.0043710037 0.053668369 0.99254036 -0.10605678
1679369811.3208 0.98938513 -0.10988793 0.0044827024 0.053905364 0.0044004628 0.054014109 0.99240345 -0.10667112
1689366037.7358 0.98933268 -0.11048144 0.0044846181 0.054255404 0.004469635 0.054389715 0.99227363 -0.10687822
1699362264.1509 0.9894951 -0.11105111 0.0045330236 0.054605324 0.00447358 0.054770935 0.99243975 -0.10732506
1709358490.566 0.98944527 -0.11173759 0.0045842454 0.054954857 0.0045514265 0.05511779 0.99246049 -0.1077885
1719354716.9811 0.98915136 -0.11234218 0.0046619419 0.05529581 0.0045805722 0.055526838 0.9925741 -0.10854292
1729350943.3962 0.98879826 -0.1128459 0.0046735816 0.055717193 0.0046521127 0.05589357 0.99252534 -0.10943398
