!Keysight Technologies,N5222B,MY61253708,A.15.00.15
!Date: Wednesday, June 19, 2024 09:21:56
!Correction: S11(C  2-Port  ) 
!S21(C  2-Port  ) 
!S12(C  2-Port  ) 
!S22(C  2-Port  ) 
!S2P File: Measurements: S11, S21, S12, S22:
# Hz S  RI   R 50
10000000 0.99874276 -0.002885133 5.5707351e-005 0.00029206171 -0.00015714769 0.00020922572 0.99854445 -0.0012707114
19996226.415094 0.99900872 -0.0021702647 -0.00012117228 0.00066707481 0.00012917217 0.00062180916 0.99923134 -0.0023278296
29992452.830189 0.99969262 -0.0025650263 4.1162421e-006 0.0011013569 5.0981471e-006 0.0010197911 0.99945974 -0.002700299
39988679.245283 1.0000627 -0.0030494332 -2.0343316e-005 0.0013734577 3.6018318e-006 0.0013729254 0.9996013 -0.0031240731
49984905.660377 1.0001104 -0.0037986636 1.9900501e-005 0.0016737846 2.9548944e-005 0.0017150429 0.99978822 -0.0037258863
59981132.075472 1.0002937 -0.0046384335 7.5453427e-005 0.0019949933 1.0754447e-006 0.0020647082 0.99970233 -0.0043438971
69977358.490566 1.00006 -0.0051984582 1.4643669e-005 0.0023416905 -1.678698e-006 0.0023687799 0.99965054 -0.0049004443
79973584.90566 0.99982935 -0.0058190227 1.4540274e-007 0.0026766434 3.606861e-005 0.0027162705 0.99930584 -0.0053710341
89969811.320755 0.99982363 -0.0059611201 -2.3346627e-005 0.0030386944 9.0906397e-006 0.0030793522 0.99954653 -0.0056444407
99966037.735849 1.0001042 -0.0067006499 3.6864483e-005 0.0033834027 1.002365e-005 0.0033958573 0.99958676 -0.0064545423
109962264.15094 1.0000707 -0.0076501667 2.7094618e-005 0.0037093768 4.6649249e-005 0.0037308335 0.99956942 -0.0073025525
119958490.56604 1.0000901 -0.0086121857 3.2169744e-005 0.0040552397 1.9359868e-005 0.0040929904 0.9995935 -0.0081836581
129954716.98113 1.0000331 -0.009593606 3.8471189e-005 0.0043994915 4.0596817e-005 0.0044439533 0.9996075 -0.0091002584
139950943.39623 1.0000038 -0.010387057 4.4732078e-005 0.0047430485 4.4844273e-005 0.0047538015 0.99951404 -0.0098694898
149947169.81132 0.99987036 -0.011068702 5.6084478e-005 0.0050819777 5.4433942e-005 0.0051125907 0.99944401 -0.010497183
159943396.22642 0.99980462 -0.011642605 7.3484145e-005 0.0054058488 6.1704312e-005 0.0054611159 0.99955857 -0.010934591
169939622.64151 0.99978065 -0.012020297 8.5280277e-005 0.005756123 7.364864e-005 0.0057888436 0.99960595 -0.011416011
179935849.0566 0.99986273 -0.012261331 7.0253736e-005 0.0061095529 5.4651755e-005 0.0061281412 0.99947613 -0.011776865
189932075.4717 0.9999463 -0.013096958 7.829722e-005 0.0064218882 9.1694994e-005 0.0064725634 0.99973232 -0.012386471
199928301.88679 0.99992186 -0.013923287 9.7092008e-005 0.0067606964 0.00011400308 0.0068289894 0.99964303 -0.01326248
209924528.30189 0.99970514 -0.014559701 9.9324621e-005 0.0070924172 0.00012126716 0.0071349558 0.99936467 -0.013999045
219920754.71698 0.99970293 -0.015432537 0.00013257167 0.0074414341 0.00010622852 0.0074819974 0.99925816 -0.01466772
229916981.13208 0.99946582 -0.016281396 0.00011725421 0.0077967532 0.00014341902 0.0078332303 0.99917436 -0.015486717
239913207.54717 0.99935788 -0.016938193 0.00014776066 0.0080791488 0.00013736995 0.0081658801 0.99914098 -0.016186241
249909433.96226 0.99941516 -0.017598003 0.00015788246 0.0084349653 0.00014868891 0.0085036829 0.99925733 -0.016789436
259905660.37736 0.99943376 -0.018151104 0.00015691947 0.008770179 0.00020684442 0.0088662831 0.9994576 -0.017514884
269901886.79245 0.99965727 -0.018828809 0.00014067336 0.0091097532 0.00016517937 0.0091937212 0.9997853 -0.018102363
279898113.20755 0.99970031 -0.019636422 0.00018938817 0.009458364 0.0001642881 0.0095078815 0.99965465 -0.01892297
289894339.62264 0.99957514 -0.020165831 0.000168656 0.0097577609 0.00022112997 0.0098956469 0.99949908 -0.019706696
299890566.03774 0.9996556 -0.020729184 0.00019012135 0.010110539 0.00021997886 0.010204505 0.99929744 -0.020178586
309886792.45283 0.99939215 -0.021422744 0.0002656256 0.010502269 0.0002226471 0.010524059 0.99912155 -0.020551845
319883018.86792 0.99937159 -0.021998733 0.00021973392 0.010835007 0.00022807438 0.010908345 0.99919963 -0.021113604
329879245.28302 0.99944746 -0.022736728 0.00023756502 0.011118381 0.00027247751 0.011220738 0.99925053 -0.02177012
339875471.69811 0.99933183 -0.023435421 0.00027675484 0.011461573 0.00027893367 0.011560581 0.99925584 -0.022627182
349871698.11321 0.99949729 -0.024319291 0.0003014612 0.011812257 0.00028171018 0.011904613 0.99929506 -0.023523629
359867924.5283 0.9992739 -0.025126874 0.00028363522 0.0121613 0.0003257622 0.012254192 0.99929982 -0.024444193
369864150.9434 0.999493 -0.026010841 0.00034724269 0.01250224 0.00033134711 0.012573888 0.99923265 -0.025206864
379860377.35849 0.999376 -0.026602209 0.00038188114 0.012834229 0.00034143892 0.012908734 0.99914289 -0.025849208
389856603.77358 0.99928415 -0.027283341 0.00036453782 0.013131962 0.0003458471 0.013267403 0.9990896 -0.026233703
399852830.18868 0.99911368 -0.02782315 0.00038133608 0.013462067 0.00037194882 0.013611181 0.99921083 -0.026732087
409849056.60377 0.99902451 -0.028233847 0.0003984241 0.013799326 0.00040332851 0.013964445 0.99923217 -0.027203187
419845283.01887 0.99907613 -0.028717697 0.000395393 0.014146245 0.00041099731 0.014285762 0.99926841 -0.027757376
429841509.43396 0.99910533 -0.029342264 0.00042523444 0.014491603 0.00043440936 0.01458359 0.99942493 -0.028639555
439837735.84906 0.99907154 -0.030299976 0.0004889078 0.014844731 0.00046755222 0.014966615 0.99925596 -0.029597506
449833962.26415 0.99898195 -0.031126499 0.00046237186 0.015129164 0.00048252102 0.015266538 0.99888951 -0.030333102
459830188.67925 0.99880987 -0.031935602 0.00047205854 0.015460771 0.00047629839 0.015622273 0.99881232 -0.031193763
469826415.09434 0.99882281 -0.032665014 0.00048403163 0.015856361 0.00050232466 0.015959132 0.99850804 -0.031768441
479822641.50943 0.99871057 -0.033240572 0.00054086698 0.016176078 0.00049623661 0.016339757 0.99860388 -0.032178298
489818867.92453 0.99869776 -0.033774078 0.0005450123 0.016498297 0.00054344209 0.016679777 0.99885905 -0.032774717
499815094.33962 0.99880618 -0.034382194 0.00059460569 0.016855963 0.00060121389 0.017012097 0.99911362 -0.033398211
509811320.75472 0.99890608 -0.034866586 0.0005756818 0.017194623 0.00053744478 0.017317738 0.99921727 -0.03422169
519807547.16981 0.9989475 -0.035375237 0.0006294921 0.017493038 0.00060477247 0.017668415 0.99920273 -0.035081774
529803773.58491 0.99879086 -0.036025465 0.00063100271 0.017822074 0.00062637962 0.018006064 0.99894106 -0.035700858
539800000 0.99886096 -0.036668316 0.00067488058 0.018221442 0.00068353629 0.018348897 0.99877238 -0.036379412
549796226.41509 0.99870169 -0.037482768 0.00069295848 0.018539803 0.00067748874 0.018695714 0.99855471 -0.036889762
559792452.83019 0.9984538 -0.038360804 0.00073236041 0.018883128 0.00069360062 0.019031063 0.99845564 -0.037362456
569788679.24528 0.9983902 -0.039028287 0.00071765436 0.019195927 0.00070685986 0.019405026 0.99867028 -0.038147777
579784905.66038 0.99826592 -0.039482489 0.00073987443 0.019542916 0.00076248869 0.019738644 0.99877352 -0.038886465
589781132.07547 0.99847257 -0.040220261 0.0007927902 0.019892983 0.00079125445 0.020062471 0.99883628 -0.039764583
599777358.49057 0.99852145 -0.040856123 0.00079319905 0.020268172 0.00079504028 0.0203637 0.99887377 -0.040566295
609773584.90566 0.99871856 -0.041621223 0.00091750082 0.020578915 0.00087582873 0.020756125 0.99873984 -0.04144229
619769811.32075 0.9988054 -0.042272121 0.00089743128 0.020876482 0.00096323434 0.021050029 0.99868876 -0.041972995
629766037.73585 0.99859142 -0.043006808 0.00092960428 0.021200569 0.00096267648 0.021383055 0.99847651 -0.042492777
639762264.15094 0.99840373 -0.043665424 0.00095569436 0.021508139 0.00096643926 0.021686016 0.9982639 -0.042988047
649758490.56604 0.99836516 -0.044233695 0.00096026855 0.021806622 0.0009597363 0.022027973 0.9983387 -0.043371975
659754716.98113 0.99812102 -0.044716656 0.00099430699 0.022190157 0.00097945612 0.022358209 0.99848652 -0.044034749
669750943.39623 0.9980557 -0.045240819 0.00098107522 0.022554701 0.001023592 0.02271953 0.99848855 -0.044773668
679747169.81132 0.99819225 -0.046038501 0.0010297479 0.022901647 0.0010397664 0.023080744 0.99846768 -0.045745984
689743396.22642 0.99831015 -0.046877593 0.0011049667 0.023229618 0.0010901988 0.023398366 0.9982354 -0.04674089
699739622.64151 0.99849439 -0.047618479 0.0011411076 0.023565002 0.0011095535 0.023761529 0.99821746 -0.047433257
709735849.0566 0.99842727 -0.048519067 0.0011937487 0.02389911 0.0011939991 0.024101416 0.99796963 -0.048003055
719732075.4717 0.99832588 -0.049272984 0.0011826148 0.024217425 0.0012258659 0.024409095 0.99803329 -0.04861474
729728301.88679 0.99833202 -0.049782068 0.0012651207 0.024524564 0.0012567602 0.024729837 0.99803042 -0.049026042
739724528.30189 0.9981007 -0.05041942 0.0012683612 0.024852121 0.001281546 0.025074931 0.99823648 -0.049689457
749720754.71698 0.99801719 -0.050951973 0.0012981608 0.025185727 0.0012803669 0.025381543 0.99824101 -0.050423563
759716981.13208 0.99808955 -0.05146122 0.0013260292 0.025479838 0.0013275575 0.025722608 0.99816144 -0.051196456
769713207.54717 0.99790871 -0.052109838 0.001342468 0.025846772 0.0013768058 0.026039287 0.99792969 -0.051908821
779709433.96226 0.9981271 -0.052887361 0.0013768546 0.02614543 0.0014079189 0.026376747 0.99769658 -0.052602112
789705660.37736 0.99798298 -0.053739816 0.0014561107 0.026496647 0.0014184145 0.026729546 0.9974066 -0.053322613
799701886.79245 0.99792492 -0.054576546 0.0014656298 0.026816903 0.0014704345 0.027030319 0.99736553 -0.053913087
809698113.20755 0.99786282 -0.055239275 0.0014899741 0.027146719 0.0014640894 0.027372964 0.99741185 -0.054355174
819694339.62264 0.99777597 -0.055885077 0.001524725 0.027446536 0.0014951262 0.02772888 0.99757856 -0.054990679
829690566.03774 0.99763602 -0.056459606 0.0015295641 0.027812818 0.0015464816 0.0280279 0.99777675 -0.055922329
839686792.45283 0.99772203 -0.056839406 0.0015571155 0.028132942 0.0015768996 0.028350372 0.99784082 -0.056775063
849683018.86792 0.99794728 -0.057576902 0.0016207255 0.028474366 0.0016124379 0.028694432 0.99771106 -0.057495549
859679245.28302 0.99790192 -0.058306217 0.0016279826 0.02879536 0.0016582245 0.029032808 0.99745518 -0.058131903
869675471.69811 0.997787 -0.059100479 0.001711091 0.029102653 0.0016895439 0.029391089 0.99707568 -0.058619916
879671698.11321 0.9976635 -0.05968947 0.0017327813 0.029424276 0.0017635615 0.029674649 0.99700433 -0.059108451
889667924.5283 0.99749792 -0.060537189 0.0017362805 0.029746165 0.0017810222 0.030037615 0.99693364 -0.059661746
899664150.9434 0.99739456 -0.061290473 0.0017838422 0.030087978 0.0017627813 0.030348396 0.99700582 -0.060271144
909660377.35849 0.99733883 -0.061989397 0.0018134261 0.03039135 0.0018154518 0.030661769 0.99716657 -0.061153874
919656603.77358 0.99747038 -0.062638462 0.0018516434 0.030726016 0.0018383958 0.030997379 0.99712265 -0.061994478
929652830.18868 0.99739468 -0.063391209 0.0018826593 0.031036776 0.0018547177 0.031305999 0.99698645 -0.06299299
939649056.60377 0.99759305 -0.064030379 0.0018777056 0.031336971 0.0019024787 0.031634163 0.9968369 -0.063743263
949645283.01887 0.99757224 -0.064841956 0.0018719606 0.031711929 0.0019140014 0.032033667 0.99659425 -0.064295985
959641509.43396 0.99748325 -0.065534443 0.0019090921 0.032070979 0.0019097133 0.03235377 0.99655586 -0.064736068
969637735.84906 0.99738985 -0.066304684 0.001973182 0.032425195 0.0020052074 0.032711074 0.9965418 -0.065107703
979633962.26415 0.99723703 -0.066969089 0.0020258799 0.032730423 0.002050241 0.033014506 0.9965592 -0.065777734
989630188.67925 0.99727565 -0.06750977 0.0020751329 0.033052713 0.0020677596 0.033379372 0.99676293 -0.066392928
999626415.09434 0.99725366 -0.068086237 0.0021009054 0.033390515 0.0021118913 0.03369217 0.99665368 -0.067263007
1009622641.5094 0.99724042 -0.068794891 0.0021212464 0.033733763 0.0021742703 0.034092236 0.99653697 -0.068074033
1019618867.9245 0.99735236 -0.069659173 0.0021911296 0.034060568 0.0022451244 0.034375284 0.99626881 -0.068986237
1029615094.3396 0.99739814 -0.070618242 0.0022316286 0.034370564 0.0022667386 0.034713231 0.99594665 -0.069555342
1039611320.7547 0.99739373 -0.071491152 0.0022610798 0.034710743 0.0023191199 0.034995191 0.99585795 -0.070269048
1049607547.1698 0.99730843 -0.072354414 0.0022899662 0.035000861 0.0023100944 0.035313047 0.99578226 -0.070791207
1059603773.5849 0.99711478 -0.073135287 0.0023178384 0.035291709 0.0023686532 0.035609346 0.99576676 -0.071367621
1069600000 0.9968735 -0.073637694 0.0023322832 0.035607185 0.0023634955 0.035956323 0.99594128 -0.072145045
1079596226.4151 0.9968496 -0.074328758 0.002332963 0.035956748 0.0024072039 0.036285657 0.99593014 -0.0728283
1089592452.8302 0.99682009 -0.075033993 0.0023606531 0.036291961 0.0024566306 0.036630806 0.99589282 -0.073591352
1099588679.2453 0.99691457 -0.075662822 0.0023763236 0.036599591 0.0024502687 0.036981411 0.9955374 -0.074274421
1109584905.6604 0.99703318 -0.076440245 0.0024253689 0.036945205 0.0025036819 0.037317626 0.99527884 -0.074837953
1119581132.0755 0.99699193 -0.077547207 0.0024177893 0.03729938 0.002509648 0.037684347 0.99510896 -0.075255454
1129577358.4906 0.99683774 -0.078288376 0.0024489928 0.037683465 0.0025578402 0.038017116 0.99496049 -0.075657308
1139573584.9057 0.99660748 -0.079191744 0.0025433358 0.038016986 0.0025863834 0.03835791 0.99500346 -0.076409549
1149569811.3208 0.99647957 -0.080016211 0.0025798755 0.038328573 0.0026774984 0.038707066 0.99519765 -0.077135548
1159566037.7358 0.99619037 -0.080738544 0.0026515946 0.038654096 0.0026885355 0.039016631 0.99531054 -0.078122169
1169562264.1509 0.99612093 -0.081299871 0.0026238989 0.038967632 0.00270194 0.039320551 0.99517071 -0.078980982
1179558490.566 0.99602354 -0.082121052 0.0026248472 0.039347358 0.0027340541 0.039682955 0.99502641 -0.079654366
1189554716.9811 0.99603999 -0.082841694 0.0026906971 0.039689183 0.0028163819 0.040040579 0.99466759 -0.080163598
1199550943.3962 0.99593586 -0.083715409 0.0027417187 0.04004661 0.0028462168 0.040388472 0.99454737 -0.080650508
1209547169.8113 0.99574959 -0.084642127 0.0027839467 0.040372204 0.0028850287 0.040734567 0.99444044 -0.080984816
1219543396.2264 0.99555743 -0.085464686 0.0028271452 0.040768202 0.0029408913 0.041096583 0.99454474 -0.081368878
1229539622.6415 0.9952811 -0.086253643 0.0029202159 0.041073244 0.0030261725 0.041459013 0.99464864 -0.082113922
1239535849.0566 0.99498159 -0.086894184 0.002961562 0.041388649 0.0031018769 0.041749567 0.99473572 -0.083028376
1249532075.4717 0.99469411 -0.087559521 0.0030229206 0.041728146 0.0031691203 0.042044275 0.99456471 -0.083851337
1259528301.8868 0.99453139 -0.088101417 0.003057966 0.042060569 0.0032474399 0.042370059 0.99432051 -0.084735453
1269524528.3019 0.99432194 -0.088879883 0.003135914 0.042361706 0.0033040754 0.042667162 0.99405694 -0.085466653
1279520754.717 0.99399459 -0.089628324 0.0031861926 0.042656951 0.0033219038 0.042979605 0.99383348 -0.085975364
1289516981.1321 0.99381495 -0.090444267 0.0032009603 0.042951841 0.0033546053 0.043246113 0.99392271 -0.086410493
1299513207.5472 0.99348354 -0.091251165 0.0032039545 0.043258227 0.0033518225 0.043588191 0.99398911 -0.086830944
1309509433.9623 0.99307632 -0.09190391 0.0032701595 0.043574754 0.0033833655 0.043933038 0.99413127 -0.087607265
1319505660.3774 0.99272019 -0.092728943 0.0032474026 0.043910172 0.0033601737 0.044228218 0.99412322 -0.088131651
1329501886.7925 0.9923681 -0.093310654 0.0032730438 0.044237375 0.0034491234 0.044566777 0.9941532 -0.089153945
1339498113.2075 0.99215269 -0.093809456 0.0033088112 0.044572391 0.0034290701 0.044906668 0.99369222 -0.089843303
1349494339.6226 0.9919914 -0.094308943 0.0032683113 0.044944756 0.0034021935 0.045232814 0.9933598 -0.090459086
1359490566.0377 0.99184382 -0.094980538 0.0032689609 0.045265991 0.0034194589 0.045579962 0.99314457 -0.090985358
1369486792.4528 0.99156034 -0.095543623 0.003295471 0.045661122 0.0034526251 0.045951918 0.99289101 -0.091493845
1379483018.8679 0.99132353 -0.096193679 0.0033237138 0.046020322 0.0034389771 0.046311166 0.99295062 -0.091848597
1389479245.283 0.99105394 -0.096733034 0.0033758432 0.046423975 0.003494231 0.046691373 0.99291861 -0.092535079
1399475471.6981 0.99056149 -0.097095966 0.0033810791 0.046771903 0.0034592673 0.047062024 0.99315995 -0.093199521
1409471698.1132 0.99028206 -0.097470425 0.0034642064 0.047143295 0.0035780128 0.047435716 0.99317634 -0.094079778
1419467924.5283 0.99006039 -0.097730309 0.0034659291 0.047503818 0.0035693813 0.047807593 0.99293935 -0.094754845
1429464150.9434 0.98990846 -0.098170072 0.0034625605 0.047919571 0.0036073066 0.048249718 0.99283344 -0.095292151
1439460377.3585 0.99009573 -0.098600209 0.0035962723 0.048395958 0.0036848802 0.048662908 0.99252927 -0.095676303
1449456603.7736 0.99022359 -0.099208817 0.003732739 0.048828699 0.003772364 0.049056806 0.99239779 -0.095979542
1459452830.1887 0.99009442 -0.099847794 0.0038693119 0.049190532 0.0039038789 0.049494654 0.99257922 -0.09632954
1469449056.6038 0.99017102 -0.10063237 0.0040238444 0.049546335 0.0040368326 0.049822614 0.99286115 -0.097009063
1479445283.0189 0.98998284 -0.10122705 0.004119745 0.049826141 0.0041880356 0.0501252 0.99282587 -0.098005295
1489441509.434 0.98993099 -0.10173038 0.0042701121 0.050151698 0.00432791 0.050471567 0.99276626 -0.098768026
1499437735.8491 0.98974156 -0.10205537 0.0043686144 0.050396986 0.0044606328 0.050741445 0.99258637 -0.09959653
1509433962.2642 0.9897294 -0.10251851 0.0044810497 0.050715279 0.0044513261 0.051011696 0.99243236 -0.1003364
1519430188.6792 0.989784 -0.1030753 0.0045253728 0.050974399 0.0045432653 0.05127928 0.9922477 -0.10092649
1529426415.0943 0.98976743 -0.10371953 0.004560139 0.051238101 0.0046218596 0.051610783 0.99225044 -0.10129711
1539422641.5094 0.98980558 -0.10451122 0.0046224929 0.051541239 0.004676424 0.051865388 0.99231523 -0.10179316
1549418867.9245 0.98962373 -0.10537161 0.0047219461 0.051828817 0.0047571175 0.0522389 0.99261278 -0.1025487
1559415094.3396 0.9894706 -0.10607734 0.0047896393 0.052116849 0.0047686677 0.052471533 0.99264526 -0.10317516
1569411320.7547 0.989389 -0.10686672 0.0048077693 0.052414328 0.0047822865 0.052758366 0.99256778 -0.10407171
1579407547.1698 0.98926777 -0.10735917 0.004811673 0.052682083 0.0048083672 0.053096339 0.99211866 -0.10480301
1589403773.5849 0.98928297 -0.1078833 0.0048437752 0.053025305 0.004860783 0.053375036 0.99199295 -0.10556185
1599400000 0.98928386 -0.10839626 0.0047951229 0.053316146 0.0048476942 0.053668641 0.99151576 -0.10601735
1609396226.4151 0.98921406 -0.10904376 0.0048035854 0.053613972 0.0048308079 0.054016769 0.99126434 -0.10660684
1619392452.8302 0.98912692 -0.10960218 0.0048214663 0.053967588 0.0048283841 0.054356478 0.99137568 -0.10700721
1629388679.2453 0.98888755 -0.11030757 0.004838828 0.054317303 0.0048073214 0.054721586 0.99152875 -0.10751811
1639384905.6604 0.98868221 -0.11100993 0.0048450604 0.054671042 0.0048226132 0.055098761 0.99181646 -0.10836885
1649381132.0755 0.98852879 -0.11168829 0.0048432387 0.055054422 0.0048845261 0.055465728 0.99180681 -0.10937795
1659377358.4906 0.98832512 -0.11240387 0.004883118 0.05544256 0.0048915558 0.055835493 0.99178731 -0.11028022
1669373584.9057 0.98829657 -0.11286888 0.004917955 0.055807393 0.0048846216 0.056221064 0.99135524 -0.11082894
1679369811.3208 0.9883036 -0.1135031 0.0049642576 0.05621032 0.0049837343 0.056618743 0.99118447 -0.11134586
1689366037.7358 0.98833859 -0.11427245 0.0050277766 0.056629166 0.0050392505 0.056983031 0.99099302 -0.11167893
1699362264.1509 0.98843002 -0.1148974 0.0050813602 0.056960702 0.0050772 0.057385761 0.99132073 -0.1121358
1709358490.566 0.98832226 -0.11553201 0.0051135356 0.057334904 0.0051127346 0.057793107 0.99125654 -0.1126229
1719354716.9811 0.98803335 -0.11612788 0.0052041281 0.057683494 0.0051880777 0.058158144 0.99130183 -0.11347723
1729350943.3962 0.98770601 -0.1167452 0.0053332616 0.058077559 0.0052639451 0.058571935 0.99128067 -0.1142666
