!Keysight Technologies,N5222B,MY61253708,A.15.00.15
!Date: Wednesday, June 19, 2024 10:28:46
!Correction: S11(C  2-Port  ) 
!S21(C  2-Port  ) 
!S12(C  2-Port  ) 
!S22(C  2-Port  ) 
!S2P File: Measurements: S11, S21, S12, S22:
# Hz S  RI   R 50
10000000 0.99828523 -0.0031344295 -0.00034216058 0.00033764524 -0.00024914969 0.00036772009 0.99835515 -0.0015124679
19996226.415094 0.99990213 -0.0023407042 -7.6190336e-006 0.00059907115 3.6338344e-005 0.00067426905 1.0000813 -0.0021952391
29992452.830189 0.99967033 -0.0025738478 6.8900641e-005 0.0010593865 4.6322239e-006 0.001015375 0.99944925 -0.00266397
39988679.245283 1.0001236 -0.0030665398 8.3156046e-006 0.0013245762 1.2602482e-005 0.0013001459 0.9997353 -0.0030782819
49984905.660377 1.0002526 -0.0036896765 1.2485369e-005 0.0016151154 1.8709106e-006 0.0016213986 0.99987376 -0.0035995543
59981132.075472 1.0004724 -0.004512459 2.4668232e-005 0.0019266645 1.1553057e-006 0.0019531804 0.99993598 -0.0041410923
69977358.490566 1.0002584 -0.0051073693 -1.2825742e-005 0.0022639674 2.7370101e-005 0.0022711013 0.99981034 -0.0046353806
79973584.90566 0.99990642 -0.0056588948 1.7573358e-005 0.0026145866 3.4942874e-005 0.0025802802 0.99942148 -0.0051257312
89969811.320755 0.99988878 -0.0057334006 2.3428351e-005 0.0029069846 5.9541781e-006 0.0029270486 0.99960095 -0.0052573681
99966037.735849 1.0001339 -0.0064691156 -2.8840732e-006 0.0032358239 1.1622498e-005 0.0032475404 0.99974912 -0.0060480684
109962264.15094 1.0002398 -0.0073260963 1.7704093e-005 0.0035520392 3.1788135e-005 0.0035737064 0.99977309 -0.0068513751
119958490.56604 1.0002778 -0.0082575083 1.9893516e-005 0.0038847965 1.8668827e-005 0.0038951631 0.99977767 -0.0076983571
129954716.98113 1.0001526 -0.0092321336 3.93308e-005 0.004195739 2.3405184e-005 0.0042257486 0.99979055 -0.0085967183
139950943.39623 1.000133 -0.010036964 3.288369e-005 0.004530875 5.11978e-005 0.0045270189 0.99971187 -0.0093038529
149947169.81132 0.99996626 -0.010653913 3.9546983e-005 0.0048734145 4.2736297e-005 0.0048572663 0.99963939 -0.009904325
159943396.22642 0.99989426 -0.011201173 4.7968002e-005 0.0051911883 3.6153011e-005 0.0051991185 0.99969757 -0.010318071
169939622.64151 0.99985957 -0.011581481 7.7105826e-005 0.0055169901 4.8652641e-005 0.0055199596 0.99975675 -0.010738425
179935849.0566 0.999942 -0.011796802 5.1996554e-005 0.0058303075 6.9407397e-005 0.0058327685 0.99961787 -0.011096299
189932075.4717 1.0000926 -0.01256007 7.980736e-005 0.0061546164 8.7758759e-005 0.0061924979 0.99991214 -0.011617959
199928301.88679 0.99999505 -0.013405442 9.0415706e-005 0.0064824224 0.00010890863 0.0064930366 0.99981588 -0.012530863
209924528.30189 0.99979329 -0.013887897 8.8903354e-005 0.0067994348 7.6124445e-005 0.0068132975 0.99955779 -0.013147458
219920754.71698 0.99992383 -0.014689893 8.9354347e-005 0.0070894603 8.6848857e-005 0.0071304226 0.99945521 -0.013790369
229916981.13208 0.99974245 -0.01560542 0.00011774129 0.0074549941 0.0001070688 0.0074659772 0.99942034 -0.014552265
239913207.54717 0.99956673 -0.016310761 0.00012783596 0.0077640144 0.00010855131 0.0078025605 0.9993875 -0.015231878
249909433.96226 0.99958962 -0.016841978 0.00013743713 0.0081053954 0.00013482757 0.0081099067 0.99947113 -0.015849054
259905660.37736 0.99953926 -0.017408192 0.00015319884 0.0084178317 0.00017984444 0.0084130121 0.99969542 -0.01638189
269901886.79245 0.99982047 -0.018114373 0.00013338274 0.0087596085 0.0001344959 0.0087315794 1.0000491 -0.017057002
279898113.20755 1.0000124 -0.018759787 0.00019058958 0.0090745678 0.00016510347 0.0090663489 0.99988651 -0.017810613
289894339.62264 0.99988854 -0.019547403 0.00018042419 0.0093908794 0.0001992844 0.0094211549 0.99983501 -0.018594235
299890566.03774 0.99982888 -0.019977778 0.000148274 0.0096847871 0.00018805615 0.0097481171 0.99952352 -0.018957913
309886792.45283 0.99956816 -0.02057033 0.00020510837 0.010069893 0.00013902772 0.010056269 0.99953538 -0.019319117
319883018.86792 0.99958718 -0.021188676 0.00021998817 0.010306521 0.00023874966 0.01036766 0.99958003 -0.019823521
329879245.28302 0.99959874 -0.021894872 0.0002317084 0.010667253 0.00023872079 0.010714601 0.99973559 -0.020656705
339875471.69811 0.99943191 -0.022617966 0.00025948347 0.010997517 0.00020069035 0.011025832 0.99964267 -0.021508709
349871698.11321 0.99972028 -0.023447901 0.00024371734 0.011324177 0.00025734003 0.011388411 0.99967039 -0.022363603
359867924.5283 0.9995271 -0.024305731 0.00029320689 0.011676118 0.00028782571 0.011722618 0.99963629 -0.023276776
369864150.9434 0.99981523 -0.025070071 0.00026128511 0.011960435 0.00029396242 0.011987426 0.99964046 -0.023970515
379860377.35849 0.99959058 -0.025749356 0.00029338687 0.012291544 0.00031844666 0.012338542 0.99954724 -0.024699345
389856603.77358 0.99951869 -0.026266336 0.00035655266 0.012613453 0.00031607412 0.012631724 0.99945498 -0.025247008
399852830.18868 0.99930167 -0.026942611 0.00034003938 0.012919947 0.00035620155 0.012958308 0.99953449 -0.025696427
409849056.60377 0.99924183 -0.027332468 0.00034296 0.013234178 0.00034811033 0.013270393 0.99945062 -0.026191764
419845283.01887 0.99916935 -0.027837187 0.00038856128 0.013564958 0.00036140904 0.013614731 0.99937361 -0.026774406
429841509.43396 0.99932975 -0.028412014 0.00039663166 0.013866925 0.00040768832 0.013927564 0.99951601 -0.027505666
439837735.84906 0.99917805 -0.029445961 0.00040570204 0.014211993 0.0004248796 0.014247613 0.99920774 -0.028538734
449833962.26415 0.99895692 -0.030167699 0.00043728948 0.014487233 0.00043321308 0.01456177 0.9987027 -0.029336482
459830188.67925 0.99876392 -0.030803591 0.00043975934 0.014858216 0.00044248719 0.014880123 0.99843627 -0.029940337
469826415.09434 0.99869436 -0.031572282 0.00044773892 0.015160029 0.00044769561 0.015217904 0.99809927 -0.030386448
479822641.50943 0.99864441 -0.032128066 0.00050024118 0.015514539 0.00047755858 0.015572412 0.9981634 -0.030695736
489818867.92453 0.99877578 -0.032579631 0.00049438886 0.015822213 0.00052317046 0.015886145 0.99842256 -0.031180978
499815094.33962 0.99878979 -0.033095747 0.00052420795 0.016123405 0.00054398784 0.016192045 0.99867642 -0.031622946
509811320.75472 0.9988566 -0.033522308 0.00059730443 0.016499197 0.00057881989 0.016506981 0.99882352 -0.032421783
519807547.16981 0.99881905 -0.03401792 0.0005260054 0.016806724 0.00058605988 0.016828151 0.99886394 -0.033043474
529803773.58491 0.99874449 -0.034564763 0.00060907565 0.017105818 0.00055158138 0.017142661 0.99866378 -0.033509731
539800000 0.99890852 -0.035282925 0.00056286622 0.017417116 0.0005867267 0.017470047 0.99851912 -0.034216627
549796226.41509 0.99883354 -0.036081791 0.0005693268 0.017759465 0.00060411263 0.017814035 0.99837238 -0.03450498
559792452.83019 0.99857175 -0.036770076 0.00064410828 0.01808368 0.00064441282 0.018137004 0.99837691 -0.035033882
569788679.24528 0.9985109 -0.037423879 0.00067442702 0.018376909 0.00065392768 0.018451706 0.99856877 -0.035714567
579784905.66038 0.99843168 -0.037968434 0.00069325406 0.018693198 0.00063893513 0.018750947 0.99875712 -0.036478259
589781132.07547 0.99860889 -0.038603932 0.00073132105 0.019067014 0.00067695044 0.019100275 0.99890602 -0.037259579
599777358.49057 0.99867719 -0.039177805 0.00078020245 0.019354863 0.0007891329 0.019423308 0.99890941 -0.038107038
609773584.90566 0.99890161 -0.039970208 0.00080628321 0.01966933 0.00080379628 0.0197201 0.99878567 -0.038918108
619769811.32075 0.99895751 -0.040658772 0.00081074983 0.020001348 0.00080897752 0.020061877 0.99880362 -0.039412856
629766037.73585 0.99884057 -0.041262835 0.000836703 0.02033399 0.0008386774 0.020350877 0.99854183 -0.039880574
639762264.15094 0.99858356 -0.041946903 0.00084166927 0.020612849 0.00086209807 0.020661533 0.99843884 -0.040338263
649758490.56604 0.99853975 -0.042522132 0.00084112631 0.020926854 0.00087756617 0.020998737 0.99862814 -0.040797889
659754716.98113 0.99841976 -0.042984515 0.00087232888 0.021245312 0.00086196885 0.021356383 0.99870825 -0.041336179
669750943.39623 0.99843311 -0.043459713 0.00089679845 0.021618351 0.00091114314 0.021644041 0.99879754 -0.042111069
679747169.81132 0.99846542 -0.044239298 0.00093322003 0.02196672 0.00094260776 0.021988854 0.99880219 -0.043100223
689743396.22642 0.99863076 -0.045035243 0.00099307857 0.022253156 0.0010000123 0.022358781 0.99863786 -0.04401508
699739622.64151 0.99873471 -0.045878798 0.0010410547 0.022573873 0.00097701047 0.022665054 0.99857652 -0.044790864
709735849.0566 0.99868369 -0.046748586 0.0010596889 0.022869578 0.00105915 0.02296178 0.99833786 -0.045384102
719732075.4717 0.99861133 -0.047384232 0.0010776734 0.023169829 0.0010907371 0.02325595 0.99840182 -0.046007574
729728301.88679 0.99845791 -0.047901034 0.0011047302 0.023518395 0.0011087842 0.02361485 0.99852371 -0.046389788
739724528.30189 0.99836969 -0.048608392 0.0011297879 0.023842808 0.0010984866 0.023891995 0.99865556 -0.047152743
749720754.71698 0.99827892 -0.049135819 0.0011876603 0.024153065 0.0011800868 0.024215437 0.99861264 -0.04783766
759716981.13208 0.9983238 -0.049616098 0.0011872994 0.024441257 0.0011945823 0.024479903 0.99860108 -0.048628926
769713207.54717 0.9981491 -0.05034548 0.0012547011 0.024740985 0.0012341179 0.024846792 0.99831104 -0.049312979
779709433.96226 0.99846309 -0.050944522 0.0012289166 0.025079466 0.0012689984 0.025152357 0.99807173 -0.049998183
789705660.37736 0.99821383 -0.051899552 0.0012919297 0.025404979 0.0012812214 0.025450874 0.99776661 -0.050724775
799701886.79245 0.99822748 -0.052629679 0.0013046293 0.025693506 0.0012737215 0.025762778 0.9976756 -0.051265985
809698113.20755 0.99808979 -0.053227514 0.0013622846 0.026032683 0.0013301568 0.026107263 0.99770623 -0.051701128
819694339.62264 0.99794668 -0.053822696 0.0013772016 0.026328281 0.0013833493 0.026419645 0.99774581 -0.052304894
829690566.03774 0.99797702 -0.054474354 0.0013882415 0.026638456 0.0014039781 0.026737884 0.99798203 -0.053126931
839686792.45283 0.99792403 -0.054873139 0.0013967655 0.026956499 0.0014500404 0.027043527 0.99806011 -0.053939462
849683018.86792 0.99806613 -0.055442534 0.0014333145 0.02728118 0.0014686969 0.027375968 0.99787498 -0.054668836
859679245.28302 0.99803472 -0.056155354 0.0015101694 0.027594522 0.0015057037 0.027661514 0.99756372 -0.055242985
869675471.69811 0.99797547 -0.056961536 0.0015395405 0.027882833 0.0015404485 0.027999401 0.99723423 -0.055757403
879671698.11321 0.99790114 -0.057574593 0.0015606433 0.028196402 0.0015687714 0.028290793 0.99717778 -0.05613286
889667924.5283 0.99770373 -0.058319181 0.0015923586 0.028498247 0.0015682848 0.02860859 0.99700588 -0.056624234
899664150.9434 0.99752235 -0.058993101 0.0016002236 0.028815903 0.0015951032 0.028918646 0.9971236 -0.057222188
909660377.35849 0.9976176 -0.05961132 0.0016225046 0.029128879 0.001607697 0.029204423 0.99722362 -0.058042869
919656603.77358 0.99765497 -0.060287938 0.0016467865 0.029451864 0.0016534925 0.029532215 0.99723673 -0.058897778
929652830.18868 0.99764097 -0.061044216 0.0016770242 0.029731389 0.0016949056 0.029851267 0.99712348 -0.059795946
939649056.60377 0.99780643 -0.061564654 0.001665568 0.030040693 0.0016857944 0.030168144 0.99698699 -0.060417771
949645283.01887 0.99770397 -0.062453125 0.001669606 0.030390712 0.0016819969 0.030495724 0.9967072 -0.060946807
959641509.43396 0.99776256 -0.063065439 0.0017154356 0.030739848 0.0017165625 0.030844282 0.99659252 -0.061424673
969637735.84906 0.99765015 -0.063767701 0.0017764932 0.031079166 0.0017677518 0.03116001 0.99668771 -0.061672509
979633962.26415 0.99748123 -0.064515047 0.00182801 0.031386662 0.0018166325 0.031498924 0.99673969 -0.062395923
989630188.67925 0.99749029 -0.064926684 0.0018506702 0.031713307 0.0018736301 0.031834088 0.99693102 -0.062936127
999626415.09434 0.99746299 -0.06561023 0.0018949537 0.031997193 0.0018727342 0.032113172 0.99688256 -0.06371367
1009622641.5094 0.99756134 -0.066202447 0.0019060266 0.032342859 0.001914375 0.032465484 0.99676114 -0.064528212
1019618867.9245 0.99768704 -0.067029968 0.0019561406 0.032667987 0.0019791531 0.032786712 0.99651837 -0.065437347
1029615094.3396 0.99768108 -0.067965955 0.0020303531 0.032938343 0.0020261267 0.033048812 0.99616444 -0.065948963
1039611320.7547 0.99771571 -0.068745703 0.0020034229 0.033235628 0.0020448044 0.033339821 0.99608308 -0.066521943
1049607547.1698 0.99759948 -0.069731385 0.0020809083 0.033544593 0.0020791732 0.033660706 0.99617624 -0.067105331
1059603773.5849 0.99746668 -0.070333451 0.0020877868 0.03384373 0.0020833006 0.033975407 0.99618936 -0.067658991
1069600000 0.99729353 -0.070921689 0.0020690178 0.034129418 0.0021326914 0.034265094 0.99635172 -0.068353325
1079596226.4151 0.99724466 -0.07155519 0.0020865761 0.034473844 0.002139234 0.034602426 0.99638385 -0.069069587
1089592452.8302 0.9972325 -0.072200626 0.0021440936 0.034822702 0.0021819305 0.034910388 0.99633348 -0.069756448
1099588679.2453 0.99731481 -0.072854698 0.0021416768 0.035142019 0.0021673143 0.035238385 0.99599779 -0.070471346
1109584905.6604 0.9974606 -0.073714331 0.0021706745 0.035457179 0.0021857927 0.035561435 0.99580109 -0.070975184
1119581132.0755 0.99735767 -0.074652284 0.0021686479 0.035760675 0.0022080443 0.035916433 0.99554783 -0.071425617
1129577358.4906 0.99724782 -0.075313509 0.002229182 0.036160029 0.0022825748 0.036257192 0.99549264 -0.071826428
1139573584.9057 0.99699438 -0.076265365 0.0022665532 0.036429539 0.0023101503 0.036607262 0.99560326 -0.072509408
1149569811.3208 0.99693662 -0.077157907 0.0023122986 0.036738515 0.0023664054 0.036894258 0.99572885 -0.073250324
1159566037.7358 0.99677002 -0.077778697 0.0023494773 0.037049927 0.0024022348 0.037210803 0.99585795 -0.074202687
1169562264.1509 0.99658179 -0.078290224 0.0023467988 0.03736183 0.0024043098 0.037536472 0.99570155 -0.075044423
1179558490.566 0.99651504 -0.079053313 0.0023710823 0.037715666 0.0024148209 0.037892308 0.99557406 -0.075708598
1189554716.9811 0.99650007 -0.07979998 0.0023866761 0.038070343 0.002494432 0.038207892 0.99526417 -0.076225013
1199550943.3962 0.99644625 -0.080644011 0.0024293084 0.038415831 0.0025195442 0.038511313 0.995103 -0.076666057
1209547169.8113 0.99633908 -0.081486553 0.0024942532 0.038737725 0.0025493838 0.038828362 0.99503148 -0.07695213
1219543396.2264 0.99610353 -0.082284465 0.0025536693 0.039069936 0.0026035141 0.039196834 0.99509698 -0.07734257
1229539622.6415 0.99580342 -0.083132893 0.0026095137 0.039372444 0.0026871469 0.039543115 0.9952383 -0.078016013
1239535849.0566 0.99553823 -0.083781928 0.0026505357 0.039680772 0.0027349237 0.039827414 0.99536586 -0.078895569
1249532075.4717 0.99535847 -0.084463283 0.0027093922 0.040040087 0.0027842242 0.040129431 0.99519008 -0.079793237
1259528301.8868 0.99518096 -0.084930658 0.0027373489 0.04033478 0.0028466992 0.040445492 0.99496377 -0.080626428
1269524528.3019 0.99501753 -0.085654527 0.0028379494 0.040636383 0.0029542651 0.040728211 0.99469846 -0.081247121
1279520754.717 0.99467027 -0.086360052 0.0028637964 0.040913824 0.0029515021 0.040977344 0.99447137 -0.081838794
1289516981.1321 0.99463224 -0.087129474 0.0028702887 0.041184943 0.0029739654 0.041273281 0.99458528 -0.082176149
1299513207.5472 0.99437761 -0.087935477 0.0028948765 0.041500121 0.0029803235 0.041567042 0.99462903 -0.082543254
1309509433.9623 0.99385047 -0.088666141 0.0028891964 0.041786492 0.0029833121 0.041865099 0.99476534 -0.083271518
1319505660.3774 0.9934991 -0.089417785 0.0029076375 0.042143881 0.0030116504 0.042204279 0.99482679 -0.083884224
1329501886.7925 0.99323815 -0.090028286 0.0029156767 0.042431585 0.0030174442 0.042526506 0.99481308 -0.08490023
1339498113.2075 0.99290383 -0.090593487 0.0029301262 0.042752232 0.003047443 0.042812586 0.99443114 -0.085619986
1349494339.6226 0.99272859 -0.091132365 0.0029093428 0.043090362 0.0030023758 0.043138992 0.994124 -0.086144075
1359490566.0377 0.99280012 -0.091736704 0.0029322412 0.043416444 0.0030132271 0.043495215 0.99394274 -0.08669588
1369486792.4528 0.9925338 -0.092231274 0.0029311785 0.04378495 0.0030090464 0.043837793 0.99372327 -0.087199628
1379483018.8679 0.99225938 -0.092829011 0.0029565399 0.044112973 0.0030527066 0.044178624 0.99375767 -0.087472118
1389479245.283 0.99194109 -0.093379378 0.0030118562 0.04450522 0.003062753 0.044536971 0.99379599 -0.08808443
1399475471.6981 0.99155593 -0.093660235 0.0030127522 0.044854321 0.0030988585 0.044888541 0.99398869 -0.088762403
1409471698.1132 0.99122363 -0.094073281 0.0030503855 0.045225199 0.0030945968 0.045269035 0.99396622 -0.089620821
1419467924.5283 0.991072 -0.094412595 0.0030418327 0.045575388 0.0031325463 0.045633662 0.99376559 -0.090318054
1429464150.9434 0.99098694 -0.094832212 0.0031018741 0.046012044 0.0031414237 0.046010692 0.99365932 -0.09085536
1439460377.3585 0.99106652 -0.095335141 0.0031926958 0.046420727 0.0032398067 0.046443328 0.99343437 -0.091236904
1449456603.7736 0.99113184 -0.095832005 0.0032891948 0.046819758 0.0033075204 0.04684167 0.99330974 -0.091550708
1459452830.1887 0.99116004 -0.096534252 0.0034166146 0.047218956 0.0034461562 0.047247872 0.99345517 -0.091842383
1469449056.6038 0.99108541 -0.09720391 0.0035638148 0.047548026 0.0035818499 0.047578156 0.99371243 -0.092523634
1479445283.0189 0.99098289 -0.097830117 0.0037195233 0.047827762 0.0036946381 0.047877323 0.99378747 -0.093439475
1489441509.434 0.99099016 -0.098414481 0.0038635097 0.048134685 0.0038457178 0.048156738 0.99366426 -0.094303668
1499437735.8491 0.99079496 -0.098678827 0.0039141122 0.048405357 0.0039353836 0.048445024 0.99363673 -0.095092922
1509433962.2642 0.99076933 -0.099230528 0.0040147868 0.048654154 0.0040029231 0.048698254 0.99338228 -0.095793962
1519430188.6792 0.99081492 -0.099737734 0.0040651113 0.048895929 0.0040604826 0.048934661 0.99327755 -0.096221119
1529426415.0943 0.99080318 -0.10034254 0.0041025225 0.04918687 0.0040917564 0.049225226 0.99314952 -0.096758604
1539422641.5094 0.99080914 -0.10114196 0.0042176587 0.049486876 0.0041578952 0.049533509 0.99328113 -0.097172834
1549418867.9245 0.99067432 -0.10198224 0.0042671738 0.049753807 0.0042228783 0.049790531 0.99348819 -0.097867265
1559415094.3396 0.99059266 -0.10260019 0.0043189917 0.050072342 0.0042632148 0.050110858 0.9936716 -0.098577291
1569411320.7547 0.99036384 -0.10341437 0.0043134158 0.050277587 0.0042734519 0.050368451 0.99352467 -0.099341244
1579407547.1698 0.99028021 -0.1039007 0.0043172417 0.050575819 0.0042524179 0.050649602 0.99319464 -0.10025451
1589403773.5849 0.99027467 -0.10446084 0.0043224953 0.050849766 0.0043288283 0.050910823 0.99299866 -0.10094908
1599400000 0.99022174 -0.10489824 0.0043533863 0.051161688 0.0042893421 0.051237024 0.99259716 -0.1013588
1609396226.4151 0.99019015 -0.10555833 0.0043349564 0.051484674 0.0042843306 0.051541243 0.99244672 -0.10187671
1619392452.8302 0.99021161 -0.10612115 0.0043060351 0.051805064 0.0042899922 0.051891122 0.99239326 -0.10229146
1629388679.2453 0.98997259 -0.10678065 0.0043545812 0.052137855 0.0042887609 0.052242804 0.99270135 -0.10280004
1639384905.6604 0.98976123 -0.10748138 0.004345824 0.052478943 0.0043060556 0.052615106 0.99291801 -0.10365714
1649381132.0755 0.9894976 -0.10812008 0.0043699704 0.052835733 0.0042920168 0.052945338 0.99290776 -0.1045801
1659377358.4906 0.98934275 -0.10890752 0.0044243112 0.053201482 0.0043429285 0.053303756 0.99277878 -0.10542619
1669373584.9057 0.98929 -0.10930245 0.0043916772 0.05357242 0.0043655322 0.05361788 0.992594 -0.10603587
1679369811.3208 0.98932064 -0.10995698 0.0044611413 0.053915758 0.0044169547 0.054033574 0.99232149 -0.10665375
1689366037.7358 0.98926306 -0.11062443 0.004471343 0.054264158 0.0044158548 0.054416448 0.9921006 -0.10688108
1699362264.1509 0.98946422 -0.11123389 0.0045448318 0.054636501 0.0044847596 0.054819997 0.99240971 -0.10734107
1709358490.566 0.98941267 -0.111849 0.0045868503 0.055004127 0.0045528235 0.055172108 0.99240786 -0.10786065
1719354716.9811 0.98906541 -0.1124534 0.0046197046 0.055353247 0.0045752805 0.055533305 0.99248374 -0.10852599
