!Keysight Technologies,N5222B,MY61253708,A.15.00.15
!Date: Wednesday, June 19, 2024 10:31:26
!Correction: S11(C  2-Port  ) 
!S21(C  2-Port  ) 
!S12(C  2-Port  ) 
!S22(C  2-Port  ) 
!S2P File: Measurements: S11, S21, S12, S22:
# Hz S  RI   R 50
10000000 0.9985112 -0.0032270551 -2.0543564e-005 0.00030742431 -7.5803808e-005 0.00022724287 0.99849772 -0.0020422339
19996226.415094 0.99975961 -0.002363801 7.2595663e-005 0.00071982382 0.00010672997 0.00081795838 0.99985123 -0.0024007261
29992452.830189 0.99961138 -0.0025245249 3.8720493e-005 0.00093103806 -4.9429655e-006 0.00098913349 0.9993661 -0.0027465522
39988679.245283 1.0000825 -0.0030457526 3.4924131e-005 0.0012839934 6.9163216e-006 0.0013136769 0.99970639 -0.0031071454
49984905.660377 1.0001644 -0.0036990047 -1.1240365e-005 0.0015919748 1.6323582e-005 0.0016598906 0.9998582 -0.0035801828
59981132.075472 1.0004267 -0.0045853853 2.0937528e-005 0.0019356339 2.9892486e-005 0.0018857907 0.99990404 -0.0041264296
69977358.490566 1.0002229 -0.0051304121 2.3028588e-006 0.0022338917 2.6794536e-005 0.0022438983 0.99979621 -0.0047055855
79973584.90566 0.99993426 -0.0056618154 -5.7097059e-006 0.0025653148 1.3494049e-005 0.002572821 0.99936843 -0.0051339865
89969811.320755 0.99992406 -0.0057092011 9.5684081e-006 0.0029104576 6.8532536e-006 0.0029137409 0.99960303 -0.0052963197
99966037.735849 1.000139 -0.0064594001 1.1594384e-005 0.0032480343 3.368163e-005 0.0032716531 0.99970579 -0.0060590804
109962264.15094 1.0001441 -0.0073399842 2.5436457e-005 0.0035529453 2.2598717e-005 0.0035720041 0.99974477 -0.0068618506
119958490.56604 1.0002425 -0.0082617402 3.6167214e-005 0.0038659535 2.4070614e-005 0.0038992364 0.99979341 -0.0077374279
129954716.98113 1.0001892 -0.0092534721 4.7539361e-005 0.0042063505 1.909188e-005 0.0042090132 0.99976981 -0.0086143911
139950943.39623 1.0001134 -0.010025481 4.4326385e-005 0.0045338352 4.216739e-005 0.0045409617 0.99969977 -0.0093057957
149947169.81132 0.99999106 -0.010682285 4.3932814e-005 0.0048566023 2.6824651e-005 0.0048587332 0.99963355 -0.0099079013
159943396.22642 0.9999311 -0.011245698 5.5823708e-005 0.0051692328 4.2346073e-005 0.00519145 0.99971497 -0.010341942
169939622.64151 0.99985951 -0.011531964 5.7463418e-005 0.0055007408 4.7188892e-005 0.0055133505 0.99977636 -0.010750294
179935849.0566 0.99991333 -0.011799246 7.3548523e-005 0.0058003715 6.8916241e-005 0.0058581843 0.99969959 -0.011078566
189932075.4717 0.99999261 -0.012583494 6.7959307e-005 0.0061421664 6.2667299e-005 0.0061612613 0.99989796 -0.011649072
199928301.88679 0.99995434 -0.013342649 8.5296342e-005 0.0064868513 7.9929014e-005 0.0064761895 0.9998253 -0.012500376
209924528.30189 0.99967456 -0.013890699 8.0667553e-005 0.0067988159 9.4626215e-005 0.0067980597 0.99954492 -0.01317516
219920754.71698 0.99984336 -0.014660507 0.00011315453 0.0071205301 9.7382348e-005 0.0071276403 0.99944723 -0.013786316
229916981.13208 0.99968719 -0.015571356 0.00012218393 0.0074618598 0.00011248747 0.0074621118 0.99944592 -0.014556676
239913207.54717 0.99956715 -0.016242642 0.00011627981 0.0077575082 0.00013348159 0.0077807656 0.99935693 -0.015241072
249909433.96226 0.99951857 -0.016849577 0.00012758351 0.0080945855 0.00011805841 0.0081010694 0.99946523 -0.015841454
259905660.37736 0.99972826 -0.017370105 0.00013501244 0.0083573014 0.00016393699 0.0084733218 0.99966037 -0.016391128
269901886.79245 0.9998855 -0.018016174 0.00016375119 0.0086987112 0.00016097445 0.0087451227 1.0000545 -0.017043412
279898113.20755 0.99989015 -0.018745452 0.00020761928 0.0090547996 0.00019463245 0.0090834051 0.99993765 -0.017809689
289894339.62264 1.0000005 -0.019513935 0.00023116777 0.0093678776 0.00017215684 0.0094568236 0.99977392 -0.018558413
299890566.03774 0.9997524 -0.020083755 0.00016628881 0.009691149 0.00018304563 0.0097656101 0.9995743 -0.018986315
309886792.45283 0.99958432 -0.020568371 0.00018965243 0.010012719 0.00019760168 0.010004219 0.99946433 -0.019423239
319883018.86792 0.99956995 -0.021148175 0.00021817023 0.010357066 0.00023023272 0.010406354 0.999578 -0.019810677
329879245.28302 0.99966282 -0.02197057 0.00023526233 0.010650202 0.00022787647 0.010694507 0.9996897 -0.020632058
339875471.69811 0.99953294 -0.022715166 0.00025112159 0.010975754 0.00024171243 0.011005525 0.99964797 -0.021484576
349871698.11321 0.99967921 -0.023515403 0.00030479347 0.011303995 0.00024964684 0.011332963 0.99974799 -0.022318602
359867924.5283 0.99947608 -0.024253517 0.00025709532 0.011653568 0.00029039709 0.011675508 0.99969989 -0.023256242
369864150.9434 0.99972999 -0.025028974 0.00028062449 0.011969495 0.00027664658 0.011962754 0.99966562 -0.024035424
379860377.35849 0.99955356 -0.025800049 0.00031109992 0.012277871 0.00032017776 0.012304015 0.99956524 -0.024802446
389856603.77358 0.99954045 -0.026245415 0.0003203582 0.012609246 0.00033212407 0.012626695 0.99951494 -0.025205404
399852830.18868 0.99929065 -0.026921928 0.00034317654 0.012924194 0.0003628456 0.012937561 0.99954671 -0.025684386
409849056.60377 0.99922317 -0.027281843 0.00038768677 0.013224929 0.00034961701 0.013267223 0.99949503 -0.026173474
419845283.01887 0.99917257 -0.027726173 0.00034681428 0.013576263 0.00038121082 0.013612837 0.99937642 -0.02681601
429841509.43396 0.99931794 -0.028479367 0.00036593527 0.013877006 0.00039640022 0.013953878 0.99953258 -0.027545571
439837735.84906 0.99910641 -0.029370889 0.00043474359 0.014178336 0.00044330093 0.014217894 0.99926132 -0.028524905
449833962.26415 0.99899685 -0.030090541 0.0004300056 0.014484944 0.00041525951 0.014529447 0.99869722 -0.029315025
459830188.67925 0.99882805 -0.030828297 0.00044125877 0.014855469 0.00042343466 0.014867534 0.99840975 -0.029887497
469826415.09434 0.99873549 -0.031571478 0.00044870889 0.015189045 0.00044601643 0.015213262 0.998092 -0.030445576
479822641.50943 0.99859303 -0.032047771 0.00047978747 0.015494318 0.00046215346 0.015535983 0.99806368 -0.030727185
489818867.92453 0.99869901 -0.032613546 0.0004794714 0.015797492 0.00051136268 0.015839761 0.99839306 -0.03110528
499815094.33962 0.99882209 -0.033103853 0.00052047102 0.016137764 0.00051070051 0.016178496 0.99868727 -0.031599641
509811320.75472 0.99886084 -0.03347576 0.00058368797 0.016497459 0.00057089585 0.016492991 0.99887133 -0.032343645
519807547.16981 0.99886441 -0.033958495 0.0005761697 0.016741686 0.00058972975 0.016781317 0.99879593 -0.033044338
529803773.58491 0.99875176 -0.034547001 0.00061529223 0.017078696 0.00057671638 0.017131208 0.99863553 -0.033557445
539800000 0.99887979 -0.035233065 0.00057692244 0.01739789 0.00056054234 0.017446117 0.99848604 -0.034113467
549796226.41509 0.99877775 -0.036079615 0.00062264781 0.017771486 0.00062366901 0.017787049 0.99831331 -0.034642249
559792452.83019 0.99852467 -0.036784679 0.00063016545 0.018045606 0.00062840339 0.018089235 0.99829406 -0.034931839
569788679.24528 0.99840051 -0.03739062 0.00068700267 0.018382151 0.00065347087 0.018433228 0.99848443 -0.035713822
579784905.66038 0.99838609 -0.037924185 0.00064562296 0.018707087 0.00069835491 0.018777942 0.99872476 -0.036373772
589781132.07547 0.99855256 -0.038498521 0.00068363547 0.019024583 0.0006904779 0.019066945 0.99884331 -0.03726384
599777358.49057 0.99870843 -0.039116293 0.0007541785 0.019383868 0.00072774477 0.019430785 0.99893194 -0.038022399
609773584.90566 0.99890542 -0.039990224 0.00078478665 0.019701464 0.00076778315 0.019712266 0.99879229 -0.038864732
619769811.32075 0.99893916 -0.040563941 0.00079554925 0.020015832 0.00079044467 0.020015216 0.99869758 -0.03940618
629766037.73585 0.99884593 -0.041204333 0.00084448326 0.020316809 0.00084003154 0.020349253 0.9985764 -0.039906681
639762264.15094 0.99853843 -0.041845009 0.00081439014 0.020637073 0.0008367924 0.020650398 0.99845529 -0.04031904
649758490.56604 0.99845815 -0.042447209 0.00084117567 0.020927327 0.00086120795 0.021009555 0.99855995 -0.040749297
659754716.98113 0.99835324 -0.042906612 0.00085520931 0.021259326 0.00084587373 0.02128385 0.99868226 -0.041317344
669750943.39623 0.99840415 -0.043451399 0.00087853568 0.021617748 0.00088808872 0.021677746 0.99882811 -0.04211086
679747169.81132 0.99844086 -0.044191971 0.00091480743 0.021928536 0.00092326023 0.02199785 0.99877578 -0.043072172
689743396.22642 0.99862826 -0.045051724 0.00098664314 0.022219261 0.00096715614 0.022337975 0.99857605 -0.044006139
699739622.64151 0.99870837 -0.045812219 0.00099477265 0.022542028 0.0010117516 0.022630936 0.99859667 -0.044697225
709735849.0566 0.99865943 -0.04665906 0.0010840374 0.022879167 0.0010522547 0.022933258 0.99831587 -0.045396425
719732075.4717 0.9986226 -0.047361404 0.0010670251 0.023189221 0.0010720119 0.02325622 0.99842829 -0.045951903
729728301.88679 0.99847585 -0.047952384 0.0010691592 0.023495331 0.0010793814 0.023543518 0.99845469 -0.0463925
739724528.30189 0.99834955 -0.048549443 0.0011212961 0.023823513 0.00115482 0.02388321 0.99865693 -0.047048196
749720754.71698 0.99826777 -0.049005345 0.0011835261 0.024132803 0.001206893 0.024207376 0.9986698 -0.047805056
759716981.13208 0.99834013 -0.049546123 0.001209259 0.024404649 0.0012165317 0.024511436 0.99860334 -0.048603117
769713207.54717 0.99824703 -0.050244272 0.001214386 0.02474774 0.0012241323 0.024836062 0.99832499 -0.049325943
779709433.96226 0.99841672 -0.050876778 0.0012591017 0.025090095 0.0012580709 0.025140202 0.9980346 -0.04998425
789705660.37736 0.99820912 -0.051764876 0.0012641288 0.025365699 0.0012712022 0.025422879 0.99777079 -0.05068475
799701886.79245 0.99820739 -0.052562267 0.0013056407 0.025720436 0.0012776693 0.025762465 0.99760532 -0.051253766
809698113.20755 0.99809265 -0.05314967 0.001325873 0.025974073 0.0013234683 0.026096674 0.99765766 -0.051660612
819694339.62264 0.99790549 -0.053768128 0.0013537118 0.026327159 0.0013520308 0.026370287 0.99776655 -0.052234769
829690566.03774 0.99786139 -0.054429561 0.0014165239 0.026615866 0.0014259694 0.026699025 0.99798632 -0.053160101
839686792.45283 0.99795556 -0.054890424 0.001393707 0.026925905 0.0014014733 0.027005762 0.99797374 -0.053919196
849683018.86792 0.99795276 -0.05542206 0.0014255838 0.027257441 0.0014466695 0.027343418 0.99785948 -0.054660402
859679245.28302 0.99804133 -0.056139141 0.0014930693 0.027587984 0.0014573913 0.027686276 0.99755466 -0.055220991
869675471.69811 0.99797279 -0.05682382 0.0015471829 0.027908502 0.0015124334 0.02798732 0.997208 -0.055730402
879671698.11321 0.99791729 -0.057523537 0.0015587875 0.028182622 0.0015579804 0.028274791 0.99715835 -0.056099504
889667924.5283 0.99774343 -0.058264434 0.0015694201 0.028494308 0.0016006893 0.028576985 0.99704617 -0.056579083
899664150.9434 0.99748564 -0.05901733 0.0015947092 0.028809816 0.0016295714 0.028883796 0.9971084 -0.057119071
909660377.35849 0.99751341 -0.059622109 0.0016025594 0.029091738 0.001631754 0.029215842 0.99730146 -0.058005378
919656603.77358 0.99764228 -0.0602341 0.0016537481 0.029418757 0.0016381377 0.029532146 0.99725294 -0.058904573
929652830.18868 0.99765146 -0.060960412 0.0016817376 0.02973653 0.0016860971 0.029833138 0.99705493 -0.059710294
939649056.60377 0.99787813 -0.061518669 0.0016930206 0.030030994 0.0017047925 0.030161269 0.99691802 -0.060409427
949645283.01887 0.99771577 -0.062361643 0.0016566557 0.030374723 0.0016815488 0.030490173 0.99674606 -0.06090774
959641509.43396 0.99769974 -0.063029796 0.0017229822 0.03070992 0.0016866317 0.030831624 0.99660748 -0.061379582
969637735.84906 0.99764502 -0.063740224 0.001747963 0.031067623 0.0017607976 0.031148817 0.99664164 -0.061686695
979633962.26415 0.99749172 -0.064445086 0.0018116522 0.031371623 0.0018228127 0.031448271 0.99671161 -0.062304154
989630188.67925 0.99748927 -0.064918131 0.0018791305 0.031660717 0.001844638 0.031778868 0.99692392 -0.062913597
999626415.09434 0.99751866 -0.065617174 0.0018804837 0.031985875 0.0018945234 0.032112539 0.99687433 -0.063684434
1009622641.5094 0.99753284 -0.06619446 0.0019120448 0.032321539 0.0019072578 0.032454941 0.99672902 -0.064527884
1019618867.9245 0.99767095 -0.066957921 0.0019509858 0.032624871 0.0019956254 0.032763083 0.996526 -0.06530717
1029615094.3396 0.99771112 -0.067865223 0.0020052381 0.032937884 0.0020353831 0.033047397 0.99617559 -0.065899104
1039611320.7547 0.99771118 -0.068756968 0.0020636171 0.033236615 0.0020323424 0.033329695 0.99612445 -0.066442996
1049607547.1698 0.997549 -0.069548771 0.0020825602 0.033424955 0.0020308008 0.033572439 0.99608117 -0.066935189
1059603773.5849 0.99745274 -0.070268214 0.0020854175 0.033746116 0.0020981049 0.033884563 0.99613839 -0.067515403
1069600000 0.9972676 -0.070767492 0.0020845961 0.034041621 0.0021095471 0.034192722 0.99634314 -0.068196416
1079596226.4151 0.99724704 -0.071450591 0.0020588432 0.034350693 0.002138047 0.034514152 0.99638474 -0.068947881
1089592452.8302 0.9972474 -0.072032362 0.0020838827 0.034674317 0.0021479419 0.034843769 0.99630094 -0.069687098
1099588679.2453 0.99731636 -0.072711885 0.0021214131 0.03499309 0.0021465123 0.03514488 0.99600434 -0.070270091
1109584905.6604 0.99742895 -0.073431656 0.0021410985 0.035332311 0.0021984605 0.035454776 0.99579483 -0.070845231
1119581132.0755 0.99743545 -0.074557632 0.002149994 0.035683557 0.002172878 0.035809916 0.99561167 -0.071254387
1129577358.4906 0.99726784 -0.075193137 0.0022178739 0.036031906 0.0022789724 0.03616358 0.99545079 -0.071671724
1139573584.9057 0.99700522 -0.076100171 0.0022348743 0.036334731 0.0023001842 0.036479264 0.99566746 -0.072363466
1149569811.3208 0.99695349 -0.07695701 0.0023322981 0.036651727 0.0023875432 0.036812674 0.9957723 -0.073094115
1159566037.7358 0.99673212 -0.077624172 0.0023719259 0.03695751 0.0023827273 0.037094675 0.99588078 -0.074123383
1169562264.1509 0.99663937 -0.078234881 0.0023454372 0.037264861 0.0023755748 0.03739848 0.99568349 -0.07487008
1179558490.566 0.99656945 -0.078885064 0.0023437974 0.037614968 0.0024049086 0.03775309 0.99555385 -0.075564802
1189554716.9811 0.99649686 -0.079730272 0.0023680441 0.037938748 0.0024840469 0.038119018 0.99529129 -0.076085031
1199550943.3962 0.99646842 -0.080465555 0.0024294723 0.038283106 0.0025243629 0.038393274 0.9950338 -0.076509207
1209547169.8113 0.9963451 -0.081344664 0.0024730144 0.038583688 0.0025507715 0.038707472 0.99503905 -0.076760769
1219543396.2264 0.99614286 -0.082113698 0.002511654 0.0389366 0.0025929082 0.039101556 0.99505341 -0.077135384
1229539622.6415 0.99584091 -0.082914233 0.0025897305 0.039272845 0.0026312694 0.039419673 0.99525958 -0.077896267
1239535849.0566 0.9956665 -0.083669037 0.0026029004 0.039586678 0.0027247332 0.039718814 0.99534392 -0.078870326
1249532075.4717 0.99533826 -0.084332041 0.0026763044 0.039888784 0.0027965102 0.04000175 0.99518436 -0.079583324
1259528301.8868 0.99525648 -0.084753513 0.00272494 0.040212385 0.0028441008 0.040305763 0.99497116 -0.080418169
1269524528.3019 0.99509341 -0.085508168 0.0027871998 0.040500589 0.0029022619 0.040604882 0.99480784 -0.081141412
1279520754.717 0.99471879 -0.086199105 0.0028308199 0.040805873 0.0029368938 0.040829159 0.99452132 -0.081732072
1289516981.1321 0.99457788 -0.086953342 0.0028265771 0.041063622 0.0029604007 0.041159499 0.99457252 -0.082004368
1299513207.5472 0.99428308 -0.087772846 0.0028652623 0.041388381 0.0029867608 0.041495502 0.99471492 -0.082387656
1309509433.9623 0.99389523 -0.088550761 0.0028973091 0.041673824 0.0029344065 0.041755047 0.99479777 -0.083149046
1319505660.3774 0.99353135 -0.08919017 0.0028934916 0.042014774 0.0029770667 0.042098925 0.99480402 -0.083760366
1329501886.7925 0.99322331 -0.089859575 0.0029209834 0.042307302 0.0030141417 0.042384077 0.99482632 -0.084743261
1339498113.2075 0.9929862 -0.090358198 0.002907957 0.042645123 0.0029988578 0.042711433 0.99447536 -0.085446954
1349494339.6226 0.99282706 -0.090951525 0.0029041213 0.042985864 0.0029642214 0.043029714 0.99413091 -0.086008817
1359490566.0377 0.99273998 -0.091688782 0.0028875005 0.04330704 0.0029944647 0.043350086 0.99392128 -0.086529523
1369486792.4528 0.99250215 -0.092057049 0.0029045716 0.043638017 0.0030050157 0.043714847 0.99382389 -0.086917996
1379483018.8679 0.99225974 -0.092669502 0.0029188872 0.044040516 0.003016789 0.044070877 0.99377382 -0.087291598
1389479245.283 0.99199498 -0.093173355 0.0029748455 0.044417042 0.0030231867 0.044413742 0.99373466 -0.087956399
1399475471.6981 0.99155134 -0.093552887 0.0030024964 0.044735767 0.0030487813 0.044753853 0.99398404 -0.088621736
1409471698.1132 0.99131334 -0.093879282 0.0029754234 0.045083854 0.0030925772 0.045125347 0.99400103 -0.089427963
1419467924.5283 0.99100637 -0.094195724 0.003037909 0.045454897 0.0030761939 0.045516312 0.99384165 -0.090115011
1429464150.9434 0.9909184 -0.09467876 0.0030874908 0.045848772 0.0030814782 0.045865811 0.99373257 -0.090693772
1439460377.3585 0.99110705 -0.095116615 0.0031386754 0.046300977 0.0031761071 0.046349112 0.99350971 -0.091073349
1449456603.7736 0.99115479 -0.095749602 0.0032635126 0.046682246 0.0032831579 0.046723388 0.99341285 -0.091363624
1459452830.1887 0.99119693 -0.096394658 0.0034072977 0.047057487 0.0034116283 0.047114946 0.99354386 -0.091649085
1469449056.6038 0.99114692 -0.097074211 0.0035663797 0.047409039 0.0035817781 0.047444243 0.99367392 -0.092315555
1479445283.0189 0.99109203 -0.097627774 0.0036664354 0.047643095 0.0036505242 0.047700804 0.99381644 -0.093212694
1489441509.434 0.99092507 -0.098213315 0.0038104933 0.047981452 0.0038259588 0.048028529 0.99365044 -0.094077677
1499437735.8491 0.99079263 -0.098480642 0.0039025433 0.048264034 0.0039107278 0.048309173 0.99369663 -0.094877243
1509433962.2642 0.99084896 -0.098992765 0.00396187 0.048489206 0.003967545 0.048568189 0.99346894 -0.095647171
1519430188.6792 0.99082482 -0.099561453 0.0040964335 0.048780732 0.0040673558 0.048811831 0.99326229 -0.096156329
1529426415.0943 0.99085069 -0.10018432 0.0040870961 0.049016692 0.004111724 0.049077705 0.99319184 -0.096523076
1539422641.5094 0.99088413 -0.1009319 0.0041287569 0.049285565 0.0041870233 0.049390368 0.99328244 -0.097050041
1549418867.9245 0.99071395 -0.1018461 0.0042176507 0.049567353 0.0042027868 0.049686737 0.99349231 -0.097706065
1559415094.3396 0.99051702 -0.10242993 0.004259903 0.049913898 0.0042472091 0.049906984 0.9936589 -0.09843576
1569411320.7547 0.99046487 -0.10317053 0.0043212604 0.050147515 0.0042736698 0.050214864 0.99360758 -0.099224001
1579407547.1698 0.99038047 -0.10366523 0.0043092291 0.050425995 0.0043055341 0.050518557 0.9932915 -0.10009004
1589403773.5849 0.99028754 -0.10425532 0.0043238495 0.050725304 0.0042960346 0.050743289 0.99305844 -0.1007722
1599400000 0.99027276 -0.10476059 0.0043016914 0.050985374 0.0042807516 0.051094744 0.99269664 -0.10120338
1609396226.4151 0.99024367 -0.10533047 0.0042789653 0.051302232 0.0042613335 0.051396187 0.99244916 -0.10167906
1619392452.8302 0.99022007 -0.10590345 0.0043031555 0.051641904 0.0042617992 0.0517308 0.99254251 -0.10217276
1629388679.2453 0.98999971 -0.10663372 0.0043257009 0.05192972 0.0042781103 0.052071899 0.9927479 -0.10265923
1639384905.6604 0.98978508 -0.10726671 0.0042909011 0.052314535 0.0042739031 0.052448023 0.99299377 -0.10347405
1649381132.0755 0.98955107 -0.10792872 0.004344333 0.052652635 0.0042938646 0.05277098 0.99297631 -0.10443905
1659377358.4906 0.98935103 -0.10863286 0.004341742 0.052998751 0.0043197684 0.053152598 0.99289882 -0.10528797
1669373584.9057 0.98937249 -0.10915544 0.0043553477 0.053389911 0.0043617752 0.053481907 0.99257779 -0.10596173
1679369811.3208 0.98933142 -0.1098564 0.0044175265 0.053697295 0.0043664547 0.053873438 0.99235123 -0.10639489
1689366037.7358 0.98942924 -0.11041048 0.0044614952 0.054114193 0.0043584108 0.054247674 0.99217814 -0.10668445
1699362264.1509 0.98949879 -0.11094934 0.0045214398 0.054473393 0.004446296 0.054628879 0.99240315 -0.10712983
1709358490.566 0.98942369 -0.11163975 0.0045323204 0.0548607 0.0044416115 0.055009112 0.99245805 -0.10765269
1719354716.9811 0.98909843 -0.11223993 0.0045825187 0.055185251 0.004541805 0.055344161 0.99251831 -0.10842347
