!Keysight Technologies,N5222B,MY61253708,A.15.00.15
!Date: Wednesday, June 19, 2024 09:47:51
!Correction: S11(C  2-Port  ) 
!S21(C  2-Port  ) 
!S12(C  2-Port  ) 
!S22(C  2-Port  ) 
!S2P File: Measurements: S11, S21, S12, S22:
# Hz S  RI   R 50
10000000 0.99868625 -0.0027839243 -7.862394e-005 7.1813127e-005 1.7038121e-005 0.00018498143 0.99840337 -0.0013435781
19996226.415094 0.99878085 -0.0030602813 -0.00015257389 0.00070413674 -8.6092972e-005 0.0006384569 0.99916387 -0.0033946335
29992452.830189 0.99977267 -0.0024959147 -8.1694452e-007 0.001082942 -8.3857158e-006 0.0010587384 0.99943703 -0.0027501285
39988679.245283 1.000072 -0.003006801 2.1322121e-005 0.001260662 -1.4008838e-006 0.0013954676 0.99963135 -0.003103286
49984905.660377 1.0001826 -0.0036803782 -5.8108126e-006 0.0016329747 2.337317e-005 0.0016423961 0.99977982 -0.0036040843
59981132.075472 1.0003856 -0.0045361221 1.7672253e-005 0.0019325218 2.9188348e-005 0.0019932168 0.99975324 -0.0041943192
69977358.490566 1.0001539 -0.005059341 -3.6684716e-005 0.002332099 1.5535043e-005 0.0022922431 0.99969518 -0.0048150681
79973584.90566 0.99997008 -0.0057381094 3.0361931e-005 0.0026285064 1.826568e-005 0.002650826 0.99939036 -0.0053333044
89969811.320755 0.9999845 -0.0057957172 3.4691067e-005 0.0030055314 -3.8736034e-006 0.0030005754 0.99957138 -0.0055308044
99966037.735849 1.0001563 -0.0065844357 6.7113608e-005 0.0032963185 1.4853664e-005 0.0033340259 0.99962646 -0.0063128322
109962264.15094 1.0001758 -0.0075032413 2.7684029e-005 0.0036392736 2.0593754e-005 0.0036593119 0.99962908 -0.0071167052
119958490.56604 1.0002035 -0.0083803535 2.7074944e-005 0.0039694933 2.3059081e-005 0.0039783074 0.99965054 -0.0080164373
129954716.98113 1.0001662 -0.0093429387 3.8123573e-005 0.0042972756 4.1997875e-005 0.0043213693 0.99963796 -0.0088818371
139950943.39623 1.0000734 -0.010107802 3.888784e-005 0.0046261856 3.1095027e-005 0.0046607144 0.99959028 -0.0096166935
149947169.81132 0.99999774 -0.010794312 3.9282255e-005 0.0049589383 5.2043935e-005 0.0049872673 0.99953508 -0.010228246
159943396.22642 0.99997205 -0.011366099 7.0095062e-005 0.0052863201 5.4180855e-005 0.0053107846 0.99960905 -0.010714829
169939622.64151 0.99988014 -0.011690475 6.5561966e-005 0.005610262 5.2593881e-005 0.0056599448 0.99965209 -0.011165626
179935849.0566 1.0000174 -0.011967361 9.1347727e-005 0.0059168548 8.1510516e-005 0.0059856279 0.99954855 -0.011558324
189932075.4717 1.0001419 -0.012743294 5.2463962e-005 0.0062580053 8.0676517e-005 0.006341802 0.99976707 -0.012101054
199928301.88679 1.0000479 -0.013572723 7.488078e-005 0.0065983157 7.6625962e-005 0.0066521871 0.9996469 -0.012951672
209924528.30189 0.9997943 -0.014226198 8.1200502e-005 0.0069285999 0.00010299857 0.0070059402 0.99938309 -0.013655007
219920754.71698 0.99982548 -0.01497826 0.00012602122 0.0072498489 0.00011834363 0.007309895 0.99935651 -0.014258802
229916981.13208 0.99965787 -0.01579231 0.00013284991 0.0075780656 0.00011941511 0.007644935 0.99930245 -0.015061587
239913207.54717 0.99955487 -0.016541662 0.00013469781 0.0079034939 0.0001065484 0.0079919212 0.99924099 -0.015841888
249909433.96226 0.99957979 -0.01712054 0.0001314492 0.0082225855 0.00015436229 0.00831219 0.99933326 -0.016447455
259905660.37736 0.99969125 -0.017680645 0.00013437355 0.0085788667 0.00013130391 0.0086622955 0.9995746 -0.017012626
269901886.79245 0.99979675 -0.018446758 0.00016354513 0.0089622634 0.00013648556 0.0089540612 0.99983138 -0.017725244
279898113.20755 0.99986142 -0.019022971 0.00022182357 0.0092453472 0.00023664744 0.0093068033 0.99970287 -0.018426567
289894339.62264 0.99979961 -0.019786447 0.00015472574 0.0095714573 0.00023413263 0.0096513126 0.99958044 -0.019182533
299890566.03774 0.99974293 -0.020307928 0.00022961479 0.0098740747 0.0002027601 0.0099699423 0.9994179 -0.019685447
309886792.45283 0.99954945 -0.020839199 0.00026096799 0.010212326 0.00022401923 0.010326364 0.99921638 -0.020118296
319883018.86792 0.99969393 -0.021444827 0.00020482205 0.010567725 0.00022774562 0.010643345 0.9994083 -0.020604432
329879245.28302 0.99964178 -0.022304714 0.00023846235 0.010890032 0.00028653257 0.01097809 0.99955332 -0.021338522
339875471.69811 0.99949515 -0.02295398 0.00023680029 0.011252074 0.00026281469 0.011282416 0.9994244 -0.022150747
349871698.11321 0.99965358 -0.023896754 0.000286669 0.011556705 0.00027737324 0.011651857 0.99940079 -0.023007333
359867924.5283 0.99950618 -0.024673223 0.0002963054 0.011848575 0.00027988199 0.011967687 0.9994089 -0.023932666
369864150.9434 0.99966562 -0.025433421 0.00028566411 0.012166996 0.00032108719 0.012293166 0.99931633 -0.024609596
379860377.35849 0.99962479 -0.026060387 0.00035322597 0.012513188 0.00034615141 0.012618357 0.9991985 -0.025228024
389856603.77358 0.99949753 -0.026644021 0.00036688847 0.012840071 0.00032970216 0.01298002 0.99926513 -0.025751501
399852830.18868 0.99932456 -0.027284861 0.00034196023 0.01319944 0.00034570601 0.013273794 0.99939233 -0.026208967
409849056.60377 0.99925297 -0.027777664 0.00039431427 0.013511915 0.00037596701 0.013643532 0.99939847 -0.026690487
419845283.01887 0.99924076 -0.028215587 0.0003999602 0.013847621 0.00039624888 0.013961799 0.99938881 -0.027234912
429841509.43396 0.99929398 -0.028803736 0.00039539998 0.014179794 0.00041804323 0.014290692 0.9995544 -0.028057337
439837735.84906 0.99915767 -0.02974084 0.00049382029 0.014482938 0.00041498011 0.014617323 0.99936342 -0.028972656
449833962.26415 0.99903893 -0.030512869 0.00045042485 0.014817103 0.00044893799 0.014959831 0.99892467 -0.029756635
459830188.67925 0.99889123 -0.031147659 0.0004321523 0.015134463 0.00042169495 0.01524871 0.99882674 -0.030529678
469826415.09434 0.99885738 -0.031916201 0.00047998875 0.015468683 0.00047395937 0.015622476 0.99853891 -0.031096995
479822641.50943 0.99873018 -0.032459795 0.00052601495 0.015813064 0.00049085589 0.015963316 0.99862677 -0.031512178
489818867.92453 0.99884248 -0.033026069 0.00050905952 0.016132245 0.00051846122 0.016277 0.99887449 -0.03207615
499815094.33962 0.99883199 -0.033658922 0.00052626291 0.016460538 0.00058735861 0.016621159 0.99911857 -0.032741278
509811320.75472 0.99896842 -0.034038637 0.00061263843 0.016785691 0.00055971101 0.016896987 0.99928921 -0.033516653
519807547.16981 0.99890268 -0.034526169 0.00057084719 0.017128294 0.00057311356 0.017211094 0.99923646 -0.034338444
529803773.58491 0.99885875 -0.035105765 0.00055210944 0.017487057 0.00060913432 0.017574452 0.99899507 -0.034804195
539800000 0.99897027 -0.035804123 0.00057236291 0.017755061 0.00056912564 0.017917603 0.99887073 -0.03550455
549796226.41509 0.99888629 -0.036614329 0.00063944748 0.018093027 0.00062499382 0.018286718 0.99869823 -0.035929143
559792452.83019 0.99857855 -0.037330955 0.00067097135 0.018411657 0.00067703798 0.018586155 0.9986248 -0.036555141
569788679.24528 0.99854171 -0.03807193 0.00067744171 0.018759245 0.00069291424 0.018941538 0.9987675 -0.037240833
579784905.66038 0.99848163 -0.038636915 0.00076302001 0.019114997 0.00069644779 0.019244865 0.99886864 -0.038011193
589781132.07547 0.9986499 -0.039165646 0.00075297523 0.019372258 0.00074260589 0.019556932 0.99890679 -0.038827837
599777358.49057 0.99868566 -0.03976506 0.00078936759 0.019738581 0.00080486573 0.019957347 0.99897987 -0.039625257
609773584.90566 0.99895895 -0.040763207 0.00085081276 0.02007271 0.00083615328 0.02025174 0.99878114 -0.040401407
619769811.32075 0.99899751 -0.041314125 0.00086412672 0.020427609 0.00081213051 0.020594064 0.99878818 -0.041042566
629766037.73585 0.99884117 -0.041931778 0.0008857809 0.020735495 0.00087852124 0.020916024 0.99856234 -0.041571885
639762264.15094 0.99867374 -0.042671815 0.0009168 0.021010984 0.0008706369 0.021236425 0.99845701 -0.041975752
649758490.56604 0.99862224 -0.04318133 0.00089804688 0.021401946 0.00090846233 0.021519855 0.99851835 -0.042432725
659754716.98113 0.99837792 -0.043671727 0.00087689701 0.021718349 0.00090982951 0.021881867 0.99858034 -0.043057173
669750943.39623 0.99844748 -0.044127166 0.0008977144 0.022060473 0.00092301425 0.022278389 0.99863219 -0.043768942
679747169.81132 0.99846995 -0.044985585 0.00095963024 0.02238922 0.0010062209 0.022587894 0.99856955 -0.044710509
689743396.22642 0.9986136 -0.045760751 0.001020981 0.022685334 0.0010582125 0.022906831 0.99843454 -0.045617402
699739622.64151 0.99868393 -0.046494037 0.001045608 0.023022939 0.001036399 0.023226924 0.99835265 -0.04634282
709735849.0566 0.9986459 -0.047400482 0.0011053003 0.023353934 0.0011183493 0.023535328 0.99812204 -0.046962269
719732075.4717 0.99859393 -0.048088133 0.0011143247 0.023635389 0.0011249925 0.023851188 0.99817711 -0.047530115
729728301.88679 0.99846637 -0.048607469 0.0011443635 0.023985308 0.0011679502 0.024194149 0.99820924 -0.047990412
739724528.30189 0.99834251 -0.049356565 0.0012055715 0.024269462 0.0011916431 0.024533831 0.99840248 -0.048720866
749720754.71698 0.99828225 -0.049874142 0.0012202188 0.024618283 0.0012575081 0.02485463 0.99840456 -0.049408153
759716981.13208 0.99831474 -0.05035615 0.0012622159 0.024917079 0.0012633391 0.025134072 0.99837184 -0.050182581
769713207.54717 0.99824357 -0.051065803 0.0012465771 0.025266549 0.001250607 0.025479408 0.99810934 -0.050833732
779709433.96226 0.99841601 -0.051703971 0.0012773396 0.025546892 0.0013353352 0.025794618 0.99789262 -0.051393546
789705660.37736 0.99829698 -0.052566469 0.0013737809 0.025869019 0.0013333354 0.026129322 0.9976415 -0.052172542
799701886.79245 0.99819541 -0.05338496 0.001381088 0.026196549 0.001344339 0.026419107 0.99755788 -0.052757114
809698113.20755 0.99809003 -0.053973377 0.0013739364 0.026537271 0.0014194271 0.026759561 0.9976207 -0.053169161
819694339.62264 0.99798787 -0.054655582 0.0014160755 0.026851423 0.0014295727 0.027098438 0.9977237 -0.053845853
829690566.03774 0.9979974 -0.055228233 0.0014591897 0.02717934 0.0014574472 0.0274314 0.99795425 -0.054719269
839686792.45283 0.99803078 -0.055700779 0.0015021064 0.027454054 0.0014870679 0.027716722 0.99800062 -0.055554003
849683018.86792 0.99807 -0.056338668 0.0014801463 0.027826944 0.0015379307 0.028068336 0.99790829 -0.056318171
859679245.28302 0.99813676 -0.057066232 0.0015677046 0.028134748 0.0015483368 0.028357267 0.99759221 -0.056851238
869675471.69811 0.99808174 -0.05783087 0.0016263686 0.028451934 0.0015961984 0.028716732 0.9972679 -0.057385296
879671698.11321 0.9979412 -0.058471173 0.0016266261 0.028751576 0.0016436505 0.02905266 0.99731457 -0.057862967
889667924.5283 0.99783677 -0.059255719 0.0016606897 0.029091194 0.0016682567 0.029314877 0.99714446 -0.058401644
899664150.9434 0.997679 -0.059884876 0.0016662637 0.029382523 0.0016796524 0.029678773 0.99720585 -0.058941066
909660377.35849 0.99765861 -0.060528904 0.0017194226 0.029726757 0.0017386731 0.029983211 0.99731731 -0.05985336
919656603.77358 0.997648 -0.061202526 0.0017504119 0.030017139 0.0017515081 0.030318942 0.99733502 -0.060720906
929652830.18868 0.99766958 -0.061957121 0.001766948 0.030327618 0.0017984342 0.030633949 0.9971261 -0.061615348
939649056.60377 0.9979142 -0.062586963 0.001771058 0.030654334 0.0017922847 0.030926464 0.99697363 -0.062299699
949645283.01887 0.99780887 -0.063436836 0.001758327 0.030993633 0.0018030027 0.031303197 0.99681532 -0.062814206
959641509.43396 0.99775743 -0.064081818 0.0017978223 0.031326201 0.0018246695 0.031626768 0.99675357 -0.063320518
969637735.84906 0.9976542 -0.064808995 0.0018570116 0.031687092 0.0018847939 0.032014001 0.99672127 -0.063730836
979633962.26415 0.99754095 -0.065508001 0.0019257218 0.032009456 0.0019424146 0.032285757 0.99678451 -0.064376235
989630188.67925 0.99753499 -0.066012144 0.0019175196 0.032304399 0.0019694371 0.032607954 0.99699497 -0.064999998
999626415.09434 0.99758077 -0.066652626 0.0019750111 0.032631781 0.0019922806 0.032941937 0.99691027 -0.065757483
1009622641.5094 0.99767625 -0.067285731 0.001998391 0.032987639 0.0020594411 0.033268888 0.99675822 -0.066607237
1019618867.9245 0.99765557 -0.068107694 0.0020394423 0.033300072 0.0020956867 0.033621579 0.99649584 -0.067415506
1029615094.3396 0.99767929 -0.069015294 0.0021087043 0.033578083 0.0021209102 0.033926472 0.99614286 -0.06802097
1039611320.7547 0.99767774 -0.069893807 0.0021499535 0.033916775 0.0021838779 0.034219284 0.99615908 -0.068673342
1049607547.1698 0.99760944 -0.070807695 0.0021664458 0.034244277 0.0021922276 0.034520049 0.99609977 -0.069250606
1059603773.5849 0.99743015 -0.071391016 0.0021842904 0.034481827 0.0022284286 0.034824181 0.99612188 -0.069827527
1069600000 0.99726808 -0.072045952 0.0021833424 0.034810927 0.0022514127 0.03516008 0.99626148 -0.070535362
1079596226.4151 0.99722642 -0.072812989 0.0022301911 0.035132479 0.0022663898 0.035489358 0.99622566 -0.07128825
1089592452.8302 0.99722898 -0.073468596 0.0022483328 0.035484977 0.0022966089 0.035817418 0.99616259 -0.07201913
1099588679.2453 0.99734366 -0.074092299 0.0022046659 0.035774071 0.0023087189 0.036144853 0.99589831 -0.072714061
1109584905.6604 0.9974739 -0.074873015 0.0022876579 0.036151495 0.0023246156 0.036510013 0.99562836 -0.073189303
1119581132.0755 0.99739885 -0.075797901 0.0022786045 0.036459222 0.0023521972 0.036820848 0.99539363 -0.073642135
1129577358.4906 0.99720311 -0.076558322 0.0023670159 0.036848363 0.0023974739 0.037185237 0.99534249 -0.074087888
1139573584.9057 0.99693716 -0.077431768 0.0023546377 0.037141584 0.0024522971 0.037519645 0.99535316 -0.074736863
1149569811.3208 0.99687481 -0.078271061 0.0024456836 0.037475508 0.0025396596 0.037856892 0.99549395 -0.075463295
1159566037.7358 0.99667352 -0.078971207 0.002455269 0.037804894 0.0025413875 0.038167667 0.99559718 -0.076461792
1169562264.1509 0.99647141 -0.079641759 0.0024918746 0.038065493 0.0025555715 0.038460456 0.99546671 -0.077186316
1179558490.566 0.996378 -0.08044602 0.0024818601 0.038455132 0.0025703565 0.038834091 0.99535292 -0.077999756
1189554716.9811 0.99634957 -0.081163257 0.0025381111 0.038794503 0.0026546177 0.039199185 0.99506885 -0.078591496
1199550943.3962 0.99641502 -0.081990659 0.0025677029 0.03917598 0.0026732627 0.039510973 0.99486321 -0.078969777
1209547169.8113 0.99621379 -0.082848549 0.0026040515 0.039481621 0.0027304962 0.039804082 0.99478716 -0.079270944
1219543396.2264 0.99594635 -0.083647609 0.0026603471 0.039844304 0.0027812268 0.04021287 0.99491978 -0.079628274
1229539622.6415 0.99569941 -0.084458232 0.0027369708 0.04017346 0.0028464328 0.040535741 0.99500322 -0.08040604
1239535849.0566 0.99543107 -0.085159928 0.0027746316 0.040473282 0.0029152846 0.040809996 0.99513251 -0.081231833
1249532075.4717 0.99519801 -0.085725576 0.0028530078 0.0407991 0.0029637259 0.04112868 0.9950037 -0.0819965
1259528301.8868 0.9950673 -0.08623156 0.0028683916 0.04111091 0.0030058231 0.041464396 0.99470013 -0.082956403
1269524528.3019 0.99484682 -0.08695063 0.0029309485 0.041447077 0.00309572 0.04175929 0.9945417 -0.08360076
1279520754.717 0.99452358 -0.087662458 0.00298387 0.041697495 0.0031137546 0.042018902 0.99424434 -0.084125362
1289516981.1321 0.99436128 -0.088526875 0.0030131591 0.04201166 0.0031710947 0.042317018 0.99431062 -0.08455649
1299513207.5472 0.99401623 -0.089355201 0.0030158944 0.042316366 0.0031540114 0.042645734 0.99444461 -0.084984899
1309509433.9623 0.99364436 -0.090028271 0.0030540535 0.042627696 0.0031675193 0.042974975 0.99450803 -0.085733414
1319505660.3774 0.99327236 -0.090806141 0.0030425694 0.042926572 0.0031864177 0.043275077 0.99456918 -0.086357236
1329501886.7925 0.99296165 -0.091517597 0.0030731112 0.043277368 0.0032029022 0.043578159 0.99457943 -0.087358952
1339498113.2075 0.99275184 -0.091946661 0.0030875225 0.043613978 0.003246001 0.043888386 0.9941687 -0.088020772
1349494339.6226 0.99250209 -0.092636846 0.0030681673 0.043947924 0.0032065427 0.044242222 0.99384171 -0.088596769
1359490566.0377 0.99239457 -0.093096554 0.003082756 0.044274464 0.0032133069 0.044569999 0.99358809 -0.089089304
1369486792.4528 0.99226332 -0.09351635 0.0030687843 0.044681218 0.0032114647 0.044912133 0.99345511 -0.089645147
1379483018.8679 0.99193418 -0.094103277 0.0030895753 0.045050211 0.0032091471 0.045270614 0.99345177 -0.089855172
1389479245.283 0.99157465 -0.094636738 0.0031771306 0.045414992 0.0032776725 0.045663968 0.99342006 -0.090646207
1399475471.6981 0.99113023 -0.095057815 0.0031529721 0.045735583 0.0032622218 0.046030499 0.99359328 -0.091363281
1409471698.1132 0.99095321 -0.095475912 0.003229358 0.046131726 0.0032930798 0.046385944 0.99354303 -0.092124589
1419467924.5283 0.99064499 -0.095786721 0.003228398 0.046471685 0.0033669733 0.046744663 0.99344373 -0.092752635
1429464150.9434 0.99061596 -0.096212566 0.0032693241 0.046875045 0.003403388 0.047175974 0.99332297 -0.093406856
1439460377.3585 0.99071574 -0.096645728 0.0033727 0.047311168 0.0034390409 0.047621742 0.99315387 -0.093751952
1449456603.7736 0.99077785 -0.097135603 0.0034813611 0.047711451 0.0035561621 0.048010804 0.99295741 -0.094070718
1459452830.1887 0.99073291 -0.097827852 0.0036219303 0.048129849 0.0036550649 0.048392281 0.99311936 -0.094375163
1469449056.6038 0.99065602 -0.098464072 0.0037466343 0.048464548 0.0037963102 0.048750781 0.99330419 -0.09501341
1479445283.0189 0.9906776 -0.099040836 0.0038865111 0.048730452 0.0039241952 0.04904975 0.99344355 -0.095911257
1489441509.434 0.99058479 -0.099598318 0.0039876103 0.049049705 0.0040681399 0.049333531 0.99327016 -0.096731186
1499437735.8491 0.99039537 -0.099947184 0.004126152 0.049363002 0.004188709 0.049647316 0.99326205 -0.097560346
1509433962.2642 0.99041492 -0.10055344 0.0042233993 0.049589943 0.004221065 0.049875069 0.99299836 -0.098277368
1519430188.6792 0.9905076 -0.10107306 0.0042889081 0.049880628 0.0042858142 0.050165392 0.99287331 -0.098893166
1529426415.0943 0.99053061 -0.10170549 0.004298022 0.050140627 0.0043673962 0.050481394 0.99280584 -0.099352509
1539422641.5094 0.99054396 -0.10255475 0.0043773954 0.050450347 0.0043851635 0.050783612 0.99288702 -0.099773511
1549418867.9245 0.99029982 -0.10323818 0.0044425288 0.050680801 0.004442269 0.051048342 0.99304336 -0.10045883
1559415094.3396 0.99022257 -0.10392028 0.0044840816 0.050997443 0.0044746418 0.051355738 0.99318373 -0.10115528
1569411320.7547 0.99010122 -0.10470913 0.0045605702 0.051240064 0.0045358716 0.051618565 0.99310517 -0.10196146
1579407547.1698 0.99004906 -0.10528211 0.0045528072 0.051519241 0.004570324 0.051948916 0.99277413 -0.10277431
1589403773.5849 0.99002969 -0.10572407 0.0045368392 0.051842347 0.0045873988 0.052225888 0.99255788 -0.10352841
1599400000 0.98998392 -0.10620132 0.004542768 0.052149646 0.004535838 0.052512556 0.9921959 -0.10397077
1609396226.4151 0.98995191 -0.10690746 0.0045422912 0.052466847 0.0045246375 0.052813001 0.99204093 -0.1044653
1619392452.8302 0.98990691 -0.10743037 0.0045890398 0.052793864 0.0045536477 0.053161275 0.99198258 -0.10489941
1629388679.2453 0.98966622 -0.10813731 0.0045572091 0.053151593 0.004551053 0.053551886 0.9923293 -0.10539079
1639384905.6604 0.98949772 -0.10880949 0.0045344625 0.05350941 0.0045401575 0.053914469 0.99245459 -0.10629284
1649381132.0755 0.98933476 -0.10949573 0.004563272 0.053841144 0.004599262 0.054293893 0.99238324 -0.10722911
1659377358.4906 0.98914844 -0.11018592 0.0045774598 0.054261059 0.0046453793 0.05464153 0.99239147 -0.10808086
1669373584.9057 0.98902631 -0.11081196 0.0046178037 0.054615177 0.0046448805 0.055016264 0.99213547 -0.10875761
1679369811.3208 0.98909265 -0.1114333 0.0046772091 0.054943301 0.0046524983 0.05537774 0.99188358 -0.10922164
1689366037.7358 0.9891274 -0.11203349 0.0047226027 0.055346578 0.0047435183 0.055779453 0.99162436 -0.10958171
1699362264.1509 0.98919481 -0.11252679 0.0047719041 0.055673789 0.0047432836 0.056173239 0.99194378 -0.1099842
1709358490.566 0.9890821 -0.11325048 0.0048307236 0.056142077 0.0048246197 0.056551181 0.99186587 -0.11053661
1719354716.9811 0.98888493 -0.11385471 0.004893627 0.056451418 0.0048989914 0.05691053 0.9919554 -0.11126411
1729350943.3962 0.9885366 -0.11437401 0.0049420241 0.056820709 0.0049762055 0.057286683 0.99191839 -0.11209187
