!Keysight Technologies,N5222B,MY61253708,A.15.00.15
!Date: Wednesday, June 19, 2024 10:04:36
!Correction: S11(C  2-Port  ) 
!S21(C  2-Port  ) 
!S12(C  2-Port  ) 
!S22(C  2-Port  ) 
!S2P File: Measurements: S11, S21, S12, S22:
# Hz S  RI   R 50
10000000 0.99877977 -0.0029116273 -0.00026179937 0.00020122205 6.141387e-005 0.00054315338 0.99867052 -0.0012633502
19996226.415094 1.0000896 -0.002841264 3.3429882e-005 0.0006691225 -3.5429839e-006 0.00058702793 1.0004869 -0.0024262667
29992452.830189 0.99965274 -0.0025117695 2.1131913e-005 0.0010399325 -4.3255859e-006 0.00097473478 0.99950075 -0.0026430488
39988679.245283 1.0000244 -0.0030011088 -5.4639822e-006 0.0012922665 -1.9731699e-005 0.0012854589 0.99969435 -0.0030627102
49984905.660377 1.0002282 -0.0036705136 1.5372934e-005 0.0016688367 2.0213192e-006 0.0016235646 0.99990642 -0.0036070347
59981132.075472 1.0004612 -0.0045283437 2.7046015e-005 0.0020019172 2.7228147e-005 0.0019475734 0.99986589 -0.0041582584
69977358.490566 1.0002619 -0.0051229112 3.7717895e-005 0.0022857704 5.4363591e-006 0.0023098676 0.99972808 -0.004718516
79973584.90566 0.99993539 -0.0057566762 -1.7768587e-005 0.0026189329 1.6161473e-005 0.0026369267 0.99936277 -0.0051370859
89969811.320755 0.99997807 -0.005812794 2.1598767e-005 0.0029564197 1.8215622e-005 0.0029692557 0.99968052 -0.0053818524
99966037.735849 1.0001994 -0.0065478384 3.2636861e-005 0.0032972135 1.897855e-005 0.0033096515 0.99973071 -0.0061596781
109962264.15094 1.0002466 -0.0073702633 1.3330195e-005 0.0036099011 5.8846199e-006 0.0036276723 0.99972653 -0.0069532841
119958490.56604 1.0002139 -0.0083347559 5.0755567e-005 0.0039297543 2.1250104e-005 0.0039504971 0.99974895 -0.0078116059
129954716.98113 1.000165 -0.0092520416 2.0354521e-005 0.0042639929 3.3918652e-005 0.0042661033 0.99972498 -0.0086881816
139950943.39623 1.0001194 -0.010043444 3.9176928e-005 0.0045856242 4.0943763e-005 0.0046078274 0.99966168 -0.0093983877
149947169.81132 0.99997425 -0.010728359 5.383254e-005 0.0049129007 5.042064e-005 0.0049438733 0.99960971 -0.009994179
159943396.22642 0.9999522 -0.011303186 4.6386383e-005 0.0052370657 4.4530723e-005 0.0052703139 0.99969453 -0.010439366
169939622.64151 0.99987853 -0.011687316 6.0092658e-005 0.0055947504 6.2407693e-005 0.0056076762 0.9997288 -0.010912791
179935849.0566 1.0000015 -0.011934638 5.5742683e-005 0.0058883452 8.0548809e-005 0.0059468807 0.99963123 -0.011270374
189932075.4717 1.0000637 -0.01276207 8.8604633e-005 0.0062083714 7.6356577e-005 0.0062733805 0.99985945 -0.01179558
199928301.88679 1.0000021 -0.013563424 7.2563649e-005 0.0065262476 8.3220773e-005 0.0066110333 0.9997257 -0.012678087
209924528.30189 0.9997828 -0.014073282 8.4166764e-005 0.0069186613 0.00011041376 0.0068963063 0.99950731 -0.013363883
219920754.71698 0.999937 -0.014827818 0.00011650356 0.0072009377 9.755278e-005 0.0072537931 0.99945962 -0.013935208
229916981.13208 0.99973577 -0.015726745 0.0001140174 0.0075515984 0.00011873106 0.0075817099 0.99944276 -0.014703155
239913207.54717 0.99961483 -0.016429646 0.00012456134 0.0078920778 0.00011817695 0.0079049738 0.99942553 -0.01543284
249909433.96226 0.99960244 -0.017017007 0.00013694214 0.0081854183 0.00012963428 0.008230377 0.99948746 -0.016059935
259905660.37736 0.99968326 -0.017674923 7.0323236e-005 0.0085526435 0.0001567225 0.0085581075 0.99965698 -0.016643226
269901886.79245 0.99980485 -0.018256679 0.00013972505 0.0088745859 0.00014283042 0.0088663381 1.0000021 -0.017274991
279898113.20755 0.99987859 -0.018971875 0.00014085812 0.0091833184 0.00015239674 0.0092388112 0.99987191 -0.018028229
289894339.62264 0.99993306 -0.019760996 0.00018532993 0.0095183812 0.00012968248 0.0095315464 0.99967074 -0.018747211
299890566.03774 0.99981147 -0.020281345 0.00015719747 0.0097990362 0.00016160728 0.0098987417 0.99951214 -0.019233584
309886792.45283 0.99961251 -0.020682417 0.00020885636 0.010179738 0.00019561534 0.010238329 0.99947935 -0.019611977
319883018.86792 0.99972463 -0.021345586 0.00021653669 0.01051783 0.00022077514 0.010582997 0.99961281 -0.02009356
329879245.28302 0.99969327 -0.022182703 0.00022698799 0.01084121 0.00024084654 0.010865567 0.99967873 -0.02096197
339875471.69811 0.99948788 -0.022853181 0.00031185104 0.011133148 0.00025650684 0.01119297 0.99959958 -0.021667056
349871698.11321 0.99973309 -0.023700595 0.00030727428 0.011461711 0.00026854849 0.011536428 0.99965346 -0.022560775
359867924.5283 0.999497 -0.024442106 0.00028289901 0.011791254 0.00024022395 0.011897508 0.99956715 -0.023472786
369864150.9434 0.9996835 -0.025298119 0.0002827039 0.012126617 0.00030621351 0.012163775 0.99959058 -0.024199009
379860377.35849 0.99959254 -0.025881931 0.00032987422 0.012443468 0.00031178561 0.012488184 0.99945807 -0.024953783
389856603.77358 0.99956369 -0.02651763 0.00029284786 0.012758262 0.0003181207 0.012821642 0.99943602 -0.025445998
399852830.18868 0.99932635 -0.027221113 0.00035088928 0.013109349 0.00034859823 0.013151939 0.99945223 -0.025924385
409849056.60377 0.99933159 -0.027600234 0.00035321192 0.013403158 0.00039030937 0.013480527 0.99942261 -0.026446506
419845283.01887 0.99927491 -0.028008103 0.00037725316 0.013724364 0.00039474899 0.013815241 0.99941504 -0.02699095
429841509.43396 0.99935949 -0.028683841 0.00038977759 0.014081308 0.00043119211 0.014157435 0.99952912 -0.027689844
439837735.84906 0.99919617 -0.029630423 0.0004064641 0.014377258 0.00045126025 0.014461288 0.99927557 -0.028679132
449833962.26415 0.99910027 -0.030421555 0.0004638182 0.014707371 0.00043371692 0.014753919 0.99878842 -0.029474288
459830188.67925 0.99894774 -0.031151652 0.00046497071 0.01501945 0.00044857943 0.015117487 0.99862206 -0.030152649
469826415.09434 0.99893272 -0.031798333 0.00045605935 0.015378313 0.00046347547 0.015428987 0.99833381 -0.03055954
479822641.50943 0.99876392 -0.032393105 0.00049373379 0.015694676 0.00047977455 0.01578013 0.99831945 -0.031029217
489818867.92453 0.9989109 -0.032913655 0.00052750763 0.01601517 0.00050316658 0.016086474 0.99863291 -0.031489491
499815094.33962 0.99891675 -0.033486605 0.00052524311 0.016347243 0.0005527148 0.016450131 0.99891686 -0.032062769
509811320.75472 0.99902052 -0.033933733 0.00058817747 0.016661901 0.00053589954 0.016750952 0.99904644 -0.032773331
519807547.16981 0.99900872 -0.03450048 0.00057468237 0.016984649 0.00058396813 0.01708501 0.9990226 -0.033504814
529803773.58491 0.99902499 -0.035082519 0.00059181917 0.017345157 0.00058222562 0.017375547 0.99875998 -0.033985257
539800000 0.99904799 -0.035636172 0.00062527019 0.017641198 0.00060331356 0.017741969 0.99864656 -0.034673288
549796226.41509 0.99889618 -0.036611259 0.00062338309 0.018039465 0.00059030764 0.018074488 0.99862784 -0.035084933
559792452.83019 0.99873579 -0.037202984 0.00063473918 0.018319331 0.00066920649 0.018423378 0.99854255 -0.035602808
569788679.24528 0.99855 -0.037845582 0.0006660535 0.018638434 0.00068401033 0.018726386 0.99868923 -0.036322176
579784905.66038 0.99856329 -0.038406104 0.00067053922 0.018974727 0.00069372775 0.019073794 0.9988302 -0.037037022
589781132.07547 0.99864948 -0.039087236 0.00074140541 0.0193322 0.00072828308 0.019416358 0.99893212 -0.037916273
599777358.49057 0.99874008 -0.039756685 0.00077016186 0.01962921 0.00078048557 0.019748116 0.99893731 -0.03860873
609773584.90566 0.99893314 -0.040458269 0.00077397667 0.019951126 0.000797541 0.020047782 0.99879581 -0.039452888
619769811.32075 0.9989897 -0.041154712 0.00081646955 0.020270959 0.00083496049 0.020354072 0.99884021 -0.040018857
629766037.73585 0.99886411 -0.041814983 0.0008739559 0.020551048 0.00085300673 0.020686064 0.99861604 -0.040588021
639762264.15094 0.9987452 -0.042426169 0.00083272904 0.020861864 0.00087199872 0.020996489 0.99854612 -0.041014135
649758490.56604 0.99856567 -0.043033585 0.00088477181 0.021242024 0.00088657904 0.021317367 0.99858344 -0.041433603
659754716.98113 0.99845004 -0.043551654 0.0008618664 0.021533629 0.00086040143 0.021660302 0.99867576 -0.041988581
669750943.39623 0.99845988 -0.044051558 0.00090115378 0.021900147 0.00087231584 0.022011595 0.99878919 -0.042782158
679747169.81132 0.99844676 -0.044790894 0.00097077794 0.022217633 0.00093772856 0.022366017 0.9987793 -0.043732017
689743396.22642 0.9986062 -0.045564502 0.0009854557 0.022554956 0.00099449698 0.022658048 0.99854434 -0.044612139
699739622.64151 0.99873835 -0.046389133 0.0010469714 0.022862298 0.001049119 0.023005906 0.99850333 -0.045349538
709735849.0566 0.99875319 -0.047212422 0.001086003 0.023176851 0.0010655065 0.023288038 0.99827123 -0.045975164
719732075.4717 0.99863857 -0.047965318 0.0011131577 0.023508776 0.0011335514 0.023615789 0.99838108 -0.046586365
729728301.88679 0.99852371 -0.048455268 0.0011295546 0.02380912 0.001144602 0.023923183 0.99846292 -0.04710871
739724528.30189 0.99840206 -0.049120173 0.0011890898 0.024138654 0.0011782781 0.024295215 0.99847019 -0.047804385
749720754.71698 0.99832398 -0.049644485 0.0011944836 0.024440324 0.0011896361 0.024585849 0.99859035 -0.048432797
759716981.13208 0.99840498 -0.050191611 0.0012155641 0.024786863 0.0012481967 0.024892818 0.99850726 -0.04926911
769713207.54717 0.99828374 -0.050951362 0.0012370832 0.025094165 0.0012541497 0.02519918 0.99823844 -0.049887449
779709433.96226 0.99841303 -0.051482752 0.0012666484 0.02542969 0.0013010508 0.025539059 0.99803621 -0.050565243
789705660.37736 0.99836743 -0.052282155 0.001317217 0.025731027 0.0013196906 0.025875758 0.99778736 -0.051323414
799701886.79245 0.99825084 -0.053112537 0.001344556 0.026027955 0.0013202019 0.026170358 0.99762708 -0.051853806
809698113.20755 0.99818736 -0.053715557 0.0013477416 0.026346453 0.0013493246 0.026500961 0.9977079 -0.052263975
819694339.62264 0.99802959 -0.054357857 0.0014028694 0.026681814 0.0013893908 0.026833275 0.99773365 -0.052881688
829690566.03774 0.99800467 -0.054974914 0.0013954984 0.027012009 0.0014329441 0.027133174 0.99796879 -0.053773135
839686792.45283 0.99808896 -0.055489242 0.0014272914 0.027305629 0.0014601531 0.027454197 0.99800622 -0.054504871
849683018.86792 0.99823833 -0.056067385 0.0014918519 0.027652914 0.0014837412 0.027790762 0.9978829 -0.055304892
859679245.28302 0.99818671 -0.056849301 0.0015235301 0.02796532 0.001507896 0.028100677 0.99760032 -0.055901259
869675471.69811 0.99806613 -0.057528704 0.001572689 0.028287016 0.0015516896 0.028428396 0.99729425 -0.056413889
879671698.11321 0.99807709 -0.058131576 0.0015914089 0.028590791 0.0016356583 0.028760923 0.99727982 -0.056825444
889667924.5283 0.99779212 -0.058909535 0.0016221777 0.028877497 0.0016263844 0.029047433 0.99716735 -0.057238877
899664150.9434 0.99776661 -0.059623897 0.0016266666 0.029211786 0.001645023 0.029364163 0.99718463 -0.057862133
909660377.35849 0.9976595 -0.060339078 0.0016799332 0.029508581 0.0016864794 0.029675551 0.99727249 -0.058778971
919656603.77358 0.99773955 -0.060913861 0.0016938886 0.029863406 0.00168616 0.029994648 0.99729621 -0.059545174
929652830.18868 0.99770594 -0.061654836 0.0017056894 0.030152902 0.0017369324 0.030315729 0.99712598 -0.060402811
939649056.60377 0.99786031 -0.062333077 0.0017187484 0.030462876 0.0017150752 0.030634727 0.99696517 -0.061139822
949645283.01887 0.99791503 -0.063144177 0.0017382877 0.030787811 0.0017553162 0.030959547 0.99678361 -0.061628584
959641509.43396 0.99778748 -0.063836515 0.0017763181 0.031152949 0.0017891619 0.031322941 0.99672854 -0.062175184
969637735.84906 0.99776459 -0.06454429 0.0017854888 0.031508721 0.00183398 0.031640679 0.99672198 -0.062486768
979633962.26415 0.99760765 -0.065297209 0.0018988608 0.031800076 0.0018729831 0.031979758 0.99676973 -0.063143067
989630188.67925 0.99760729 -0.065819681 0.001883449 0.032114379 0.0019105915 0.032299038 0.9969787 -0.063762128
999626415.09434 0.99766552 -0.066450775 0.0019269446 0.032434445 0.0019264929 0.032637026 0.99691749 -0.064598262
1009622641.5094 0.99769098 -0.067001075 0.0019418113 0.03278736 0.0019784961 0.032962546 0.99675804 -0.065342277
1019618867.9245 0.99777758 -0.067850724 0.002008386 0.033085242 0.0020409706 0.033259947 0.99651766 -0.06615594
1029615094.3396 0.99772465 -0.068702787 0.0020703264 0.033404149 0.002109861 0.033554576 0.99619329 -0.066747546
1039611320.7547 0.99779129 -0.069493353 0.0021007182 0.033683185 0.0021040048 0.033875417 0.99615586 -0.067339778
1049607547.1698 0.99761784 -0.070423178 0.0021308861 0.03396498 0.0021185791 0.034203019 0.99614131 -0.067903571
1059603773.5849 0.99748731 -0.071204305 0.0021384917 0.034261081 0.002161935 0.034498662 0.99622798 -0.06850934
1069600000 0.99732763 -0.071841031 0.0021192133 0.034582861 0.0022029281 0.034796089 0.99629313 -0.069212407
1079596226.4151 0.99727672 -0.072450303 0.002153635 0.034919698 0.0021859636 0.035162583 0.996297 -0.070005499
1089592452.8302 0.99733371 -0.07312116 0.0021888353 0.035241529 0.0022178497 0.035492364 0.99628627 -0.070620328
1099588679.2453 0.99745518 -0.07376793 0.0021822676 0.035572924 0.0022446364 0.035778113 0.99596578 -0.071282148
1109584905.6604 0.99749011 -0.074553102 0.0022239033 0.035898551 0.0022818753 0.03611397 0.99575198 -0.071907446
1119581132.0755 0.99755532 -0.075470611 0.0022593988 0.036242414 0.0022682697 0.036468264 0.99560189 -0.072283804
1129577358.4906 0.99733865 -0.076230973 0.0022707917 0.036600411 0.0023675561 0.036803257 0.99539006 -0.07270965
1139573584.9057 0.99705452 -0.077117205 0.0023272969 0.036897659 0.002392306 0.03712979 0.99557626 -0.073373348
1149569811.3208 0.9969551 -0.077950507 0.0023800503 0.037221946 0.0024360935 0.037437942 0.99567449 -0.074117728
1159566037.7358 0.99677312 -0.078623712 0.0023882771 0.037533611 0.0024787318 0.037767533 0.99580383 -0.075039506
1169562264.1509 0.99661225 -0.079255134 0.0024006926 0.037853029 0.0024686456 0.038070332 0.99557638 -0.075824112
1179558490.566 0.99655807 -0.080008887 0.0024208922 0.03820347 0.0025026621 0.038438413 0.99543726 -0.07655707
1189554716.9811 0.99650991 -0.080784857 0.0024464596 0.038556606 0.0025408342 0.038788602 0.99526262 -0.077123135
1199550943.3962 0.99648762 -0.081655771 0.0025036633 0.03890077 0.0026214737 0.039117478 0.99507946 -0.07764405
1209547169.8113 0.99634212 -0.082476437 0.0025607776 0.039234526 0.0026626494 0.03940779 0.99499792 -0.077905133
1219543396.2264 0.99618059 -0.083262026 0.0026223599 0.039593436 0.0027038427 0.039779808 0.99504972 -0.078245208
1229539622.6415 0.99588501 -0.08402583 0.0026789792 0.039892625 0.0027731843 0.040118214 0.9951359 -0.078906417
1239535849.0566 0.99570352 -0.08472842 0.0027157515 0.040181376 0.0028201928 0.040448032 0.99523407 -0.079837352
1249532075.4717 0.99538088 -0.085395098 0.0027715701 0.040509265 0.0028850043 0.040746797 0.99512088 -0.080646321
1259528301.8868 0.99514067 -0.085877091 0.0028248485 0.040830202 0.0029553249 0.041069269 0.99485564 -0.081506401
1269524528.3019 0.99499953 -0.086527616 0.0028735828 0.041144632 0.0030106828 0.041341625 0.99468279 -0.08211875
1279520754.717 0.99465132 -0.087298907 0.0028937131 0.041440103 0.0030426264 0.041609585 0.99439228 -0.082695454
1289516981.1321 0.99457312 -0.088075131 0.0029419987 0.041724201 0.0030710036 0.041904137 0.99452519 -0.083126426
1299513207.5472 0.99424297 -0.089015007 0.0029719081 0.04204594 0.0030762032 0.042210825 0.9945575 -0.083556682
1309509433.9623 0.99386698 -0.089709729 0.0029959586 0.042362705 0.0031145122 0.042506274 0.99466062 -0.084294379
1319505660.3774 0.99346662 -0.090405747 0.0029588006 0.042672478 0.0031084865 0.04281963 0.99469966 -0.084910244
1329501886.7925 0.99326074 -0.091136247 0.0030164719 0.043014158 0.0031140521 0.043150529 0.99474478 -0.08590126
1339498113.2075 0.99290848 -0.091543764 0.0030460088 0.043342423 0.0031415615 0.043446507 0.99435461 -0.086538494
1349494339.6226 0.99274355 -0.092076235 0.0030181245 0.043659166 0.0031095333 0.043805577 0.99401432 -0.087073192
1359490566.0377 0.99266529 -0.092678815 0.003037611 0.044005029 0.0031359326 0.044131856 0.99378973 -0.087611407
1369486792.4528 0.99245805 -0.093186527 0.003031563 0.044358235 0.0031602476 0.044467092 0.99362874 -0.088020951
1379483018.8679 0.99216372 -0.093772665 0.003067689 0.044721156 0.0031369252 0.044869538 0.99367613 -0.088427722
1389479245.283 0.99184138 -0.094257683 0.0031083878 0.045092888 0.0031706933 0.045223705 0.99364698 -0.089114517
1399475471.6981 0.9914577 -0.094693422 0.003102107 0.045442268 0.003196938 0.045579005 0.99383456 -0.089771003
1409471698.1132 0.99118912 -0.095104069 0.003167337 0.045822408 0.0032200853 0.045952208 0.99387699 -0.090535641
1419467924.5283 0.99092215 -0.095452219 0.0031503178 0.046181478 0.0032185996 0.046346672 0.99366862 -0.091245204
1429464150.9434 0.99082714 -0.095895737 0.0031716246 0.046584524 0.003273353 0.046707205 0.99357659 -0.091912836
1439460377.3585 0.99094665 -0.096296996 0.0033074562 0.047006354 0.0033321436 0.04715604 0.99332112 -0.092161521
1449456603.7736 0.99099725 -0.09683089 0.0034200028 0.047409274 0.00345325 0.047529798 0.99320573 -0.092514381
1459452830.1887 0.99097073 -0.097493976 0.003520757 0.047803059 0.0035853945 0.047941111 0.99331939 -0.092814177
1469449056.6038 0.99106014 -0.098194957 0.0036802404 0.048121542 0.0036818506 0.048266433 0.99362135 -0.093516946
1479445283.0189 0.99093497 -0.098762229 0.0038108123 0.04845408 0.003825628 0.048552386 0.99363631 -0.094315164
1489441509.434 0.99082601 -0.099328458 0.0039440263 0.048727006 0.0039668921 0.048860788 0.99351072 -0.095158279
1499437735.8491 0.99071765 -0.099624515 0.0040590763 0.049005713 0.0040655155 0.049123604 0.99343771 -0.09596324
1509433962.2642 0.99065906 -0.10017624 0.0041236705 0.049254183 0.0041418443 0.049449693 0.99322885 -0.096778944
1519430188.6792 0.99083388 -0.10073167 0.0042144209 0.049563278 0.0042229574 0.049669389 0.99315655 -0.097340673
1529426415.0943 0.99075496 -0.10137403 0.0042330641 0.049819846 0.0042431951 0.049986061 0.99304545 -0.097717792
1539422641.5094 0.99070174 -0.1022325 0.004299087 0.050101642 0.0042895111 0.050253823 0.99311846 -0.098175094
1549418867.9245 0.99060184 -0.10298762 0.0043653799 0.050363749 0.0043513309 0.050539482 0.99335396 -0.098907083
1559415094.3396 0.99049234 -0.10364395 0.0044036005 0.050698712 0.0043982416 0.050840691 0.9935261 -0.09964633
1569411320.7547 0.99034321 -0.10441497 0.0044696955 0.05090224 0.0044191899 0.051124476 0.99342471 -0.10034448
1579407547.1698 0.99026585 -0.10482286 0.0044571655 0.051195737 0.0044401484 0.051400177 0.9930948 -0.10115916
1589403773.5849 0.99022925 -0.1054171 0.0044721887 0.051540211 0.0044540521 0.051713452 0.99290764 -0.10191894
1599400000 0.99022055 -0.10580748 0.0044226954 0.051796112 0.0044162143 0.051988862 0.99255955 -0.10224339
1609396226.4151 0.99017811 -0.10654438 0.004465072 0.052131627 0.0044518821 0.052272946 0.99231422 -0.10284507
1619392452.8302 0.9900828 -0.10712603 0.0044938978 0.052436069 0.0044206679 0.052663274 0.99237871 -0.10328972
1629388679.2453 0.98986167 -0.10783929 0.004456412 0.052793622 0.0044350252 0.053017344 0.99251527 -0.10380924
1639384905.6604 0.98957986 -0.10851236 0.0044879345 0.053107422 0.0044469596 0.05338883 0.99281198 -0.10462274
1649381132.0755 0.98947752 -0.10916588 0.0044795685 0.053553298 0.0044628158 0.053727821 0.99275768 -0.10556987
1659377358.4906 0.9892866 -0.10993212 0.0045009516 0.053854074 0.0044837296 0.05410305 0.99267828 -0.10639015
1669373584.9057 0.98924553 -0.11031844 0.0045319637 0.054271046 0.0045201941 0.054483566 0.99238306 -0.10706128
1679369811.3208 0.98936486 -0.11105615 0.0045850454 0.054611746 0.0045335339 0.05484831 0.99223936 -0.10763082
1689366037.7358 0.98927867 -0.11166263 0.0046256818 0.054979607 0.004586352 0.055224746 0.99202716 -0.10793838
1699362264.1509 0.98943269 -0.11218768 0.0046967482 0.055355597 0.0046162074 0.055620614 0.9922719 -0.10842901
1709358490.566 0.98926628 -0.1128893 0.0047302172 0.055710763 0.0047043357 0.05600103 0.99227798 -0.10888872
1719354716.9811 0.98899055 -0.11347222 0.0047791172 0.056081332 0.0047498848 0.056355007 0.99230403 -0.10958725
