!Keysight Technologies,N5222B,MY61253708,A.15.00.15
!Date: Wednesday, June 19, 2024 09:18:14
!Correction: S11(C  2-Port  ) 
!S21(C  2-Port  ) 
!S12(C  2-Port  ) 
!S22(C  2-Port  ) 
!S2P File: Measurements: S11, S21, S12, S22:
# Hz S  RI   R 50
10000000 0.99867034 -0.0022312105 0.00056264247 0.00052458927 -9.3124894e-005 0.0004321966 0.99863958 -0.0010091066
19996226.415094 0.99904072 -0.0021654367 -2.5786692e-005 0.00069669215 -1.4461315e-005 0.00062241475 0.99913502 -0.0023351312
29992452.830189 0.99971873 -0.0024588406 1.3475888e-005 0.0010791862 -2.0834763e-005 0.001012724 0.99947834 -0.002723068
39988679.245283 1.0000148 -0.0030817091 3.0856332e-005 0.0013601374 4.6675996e-006 0.0013827194 0.99960679 -0.0031707287
49984905.660377 1.0001221 -0.0037733912 -2.287369e-005 0.0016947195 2.3762113e-005 0.0017495578 0.99979526 -0.0037503242
59981132.075472 1.0002167 -0.0047156811 1.3672048e-005 0.0020384677 2.3471075e-005 0.0020588979 0.99970937 -0.0043487847
69977358.490566 1.0000024 -0.0053154081 9.9588578e-006 0.0023882256 2.1499509e-006 0.0023712809 0.99962229 -0.0049164612
79973584.90566 0.99982858 -0.0058275163 5.437457e-005 0.0026485161 3.1952281e-005 0.0027420628 0.99925178 -0.0053949952
89969811.320755 0.99982107 -0.0059860349 1.2400793e-005 0.0030737091 -1.2578093e-005 0.0031087268 0.99950707 -0.0057069063
99966037.735849 1.0000414 -0.0067741871 6.8044174e-006 0.0034174137 2.6937691e-005 0.0033973444 0.99955887 -0.0065165311
109962264.15094 1.0000787 -0.0076943636 4.3013715e-005 0.0037389449 2.4038891e-005 0.0037712636 0.99961549 -0.0073232651
119958490.56604 1.0000761 -0.0086042881 1.6505131e-005 0.0040819193 3.8297847e-005 0.0041199839 0.99961257 -0.0082372129
129954716.98113 1.0000401 -0.0096744299 2.9922579e-005 0.0044204853 5.3034863e-005 0.0044435668 0.99957049 -0.0091768503
139950943.39623 0.99996114 -0.010512056 3.0148265e-005 0.0047478257 3.8960774e-005 0.0047957795 0.99947256 -0.0099325534
149947169.81132 0.99984252 -0.01111415 4.8014335e-005 0.0051019853 5.2111456e-005 0.0051466711 0.99944472 -0.010567665
159943396.22642 0.99980134 -0.0117158 6.785593e-005 0.005433924 7.1842689e-005 0.0054716561 0.99951041 -0.011005014
169939622.64151 0.99979848 -0.012080953 6.3399726e-005 0.0057894387 6.3233019e-005 0.005824205 0.99957782 -0.011448547
179935849.0566 0.99987084 -0.012333333 6.4618769e-005 0.0061036088 9.3187555e-005 0.0061903335 0.99951774 -0.011846691
189932075.4717 0.99997157 -0.013151139 0.00011578342 0.0064919274 0.00011520344 0.0065028407 0.99971962 -0.012421042
199928301.88679 0.9999193 -0.014048368 9.7258016e-005 0.0067903134 8.3110994e-005 0.0068580634 0.99960279 -0.0133439
209924528.30189 0.99966955 -0.014660493 9.7583048e-005 0.0071419161 0.00012189511 0.0071923891 0.99933434 -0.014103159
219920754.71698 0.99969172 -0.01549536 9.9355588e-005 0.0074723088 0.00013206271 0.0075512482 0.99925435 -0.014790535
229916981.13208 0.9994306 -0.01634419 0.00014437106 0.0077837128 0.00013470091 0.0078862337 0.99914277 -0.015587896
239913207.54717 0.99935037 -0.017055037 0.00015870071 0.0081461351 0.00014711336 0.008217454 0.99907357 -0.016235195
249909433.96226 0.99939573 -0.017685324 0.00015945639 0.0084900614 0.00013725925 0.0085577294 0.99921954 -0.016894013
259905660.37736 0.99954635 -0.018307567 0.00018745149 0.0088340789 0.00018814765 0.0089433901 0.99950516 -0.017518759
269901886.79245 0.99962485 -0.018993601 0.00017028337 0.0091935722 0.00015736371 0.0092158364 0.99975628 -0.018227056
279898113.20755 0.99971557 -0.019581258 0.00014606514 0.009525395 0.00018124678 0.0095853675 0.99962831 -0.018995151
289894339.62264 0.9997502 -0.020355284 0.00019595167 0.0098394593 0.00019911071 0.0099371206 0.99945194 -0.019743055
299890566.03774 0.99961758 -0.020862192 0.00023838831 0.010141647 0.00022337143 0.010260803 0.99926907 -0.020231396
309886792.45283 0.99935162 -0.021494545 0.00024675636 0.010522723 0.00026541221 0.010605343 0.99906552 -0.020627275
319883018.86792 0.99941838 -0.022133738 0.00025352603 0.01085236 0.00027227821 0.010965399 0.99922389 -0.021139234
329879245.28302 0.99935377 -0.022885352 0.00027524401 0.011185741 0.00026233308 0.011297287 0.99931157 -0.021940202
339875471.69811 0.99924356 -0.02360028 0.00026066252 0.011536213 0.00023986015 0.011642274 0.99923998 -0.022726931
349871698.11321 0.9994511 -0.024476498 0.00029486744 0.011860055 0.00027070194 0.011990922 0.99933952 -0.023697048
359867924.5283 0.99922585 -0.025289536 0.00028063869 0.01223175 0.000360162 0.01232231 0.99921715 -0.024555713
369864150.9434 0.99944156 -0.026065946 0.00032897503 0.012556432 0.00033105258 0.012678608 0.99924129 -0.025233418
379860377.35849 0.99930638 -0.026797622 0.00032499176 0.012920284 0.00036935066 0.012989842 0.99908602 -0.025997475
389856603.77358 0.99926996 -0.027383387 0.00040120445 0.013206107 0.00036200788 0.013361074 0.99917018 -0.026385486
399852830.18868 0.99917257 -0.027957112 0.00031985668 0.013575807 0.00037265942 0.013642397 0.99919873 -0.026877552
409849056.60377 0.99906862 -0.028412621 0.0004117139 0.013863813 0.00043037621 0.014010598 0.99925411 -0.027334122
419845283.01887 0.99902105 -0.028843313 0.00039058831 0.014253283 0.00041224016 0.014367917 0.99927598 -0.02788195
429841509.43396 0.99907553 -0.029572636 0.00046708109 0.014602248 0.00045625819 0.014704268 0.99946845 -0.028674126
439837735.84906 0.99896276 -0.030402675 0.00048694899 0.014911947 0.00044065458 0.015014661 0.99922842 -0.029758304
449833962.26415 0.99882764 -0.031214535 0.00045325514 0.015243244 0.0004688194 0.015322348 0.998972 -0.030561775
459830188.67925 0.99890184 -0.032035023 0.00046109874 0.01556482 0.00049401866 0.015671423 0.99867386 -0.031319559
469826415.09434 0.99880207 -0.032870084 0.00050159637 0.01590538 0.00047107786 0.016102055 0.99851286 -0.031935096
479822641.50943 0.99870133 -0.033374332 0.00052752625 0.016282007 0.0005369978 0.016402768 0.9985317 -0.032389037
489818867.92453 0.99872178 -0.033953816 0.00056611653 0.0166061 0.00057240808 0.016753837 0.99882698 -0.032911092
499815094.33962 0.99881828 -0.034568012 0.00057584094 0.01695527 0.00057289191 0.017074149 0.99919337 -0.033552468
509811320.75472 0.99895173 -0.035000507 0.00058279501 0.017303282 0.00062179647 0.017398302 0.99928653 -0.034430273
519807547.16981 0.99890643 -0.035534829 0.00064161653 0.017554725 0.00062698685 0.017758587 0.99922574 -0.035282314
529803773.58491 0.9988482 -0.036282599 0.00063449796 0.017939439 0.00065256841 0.018068099 0.99892414 -0.035834372
539800000 0.99887359 -0.03689833 0.00065403432 0.018290332 0.00062094955 0.018442202 0.99883354 -0.03650178
549796226.41509 0.99861479 -0.037787765 0.00064592017 0.018655457 0.0006907396 0.018829715 0.99853975 -0.037001848
559792452.83019 0.9984138 -0.038541734 0.00069740321 0.018993162 0.00071063172 0.019177509 0.99842405 -0.037525028
569788679.24528 0.99836129 -0.03920278 0.0007072594 0.019358989 0.00070980517 0.019469412 0.99860191 -0.03835842
579784905.66038 0.99827796 -0.039734013 0.00077885867 0.019640228 0.00075451098 0.019826418 0.99869055 -0.039019853
589781132.07547 0.99847329 -0.040424496 0.00081328861 0.019975055 0.00078473985 0.020179164 0.99879527 -0.039974898
599777358.49057 0.99855936 -0.041073263 0.00081445742 0.020334901 0.00083709229 0.020501947 0.99888504 -0.040762335
609773584.90566 0.99872661 -0.041913282 0.00088647922 0.020672463 0.00086437212 0.020838423 0.99878931 -0.041608516
619769811.32075 0.9987551 -0.042637169 0.00090763485 0.020992847 0.0008627791 0.021191204 0.99861479 -0.04217279
629766037.73585 0.99869132 -0.043166786 0.00095095392 0.021294344 0.00096459594 0.021496303 0.99842948 -0.042685568
639762264.15094 0.99847549 -0.043911368 0.00098243589 0.021629985 0.00097437575 0.02183003 0.99830884 -0.043216258
649758490.56604 0.99828887 -0.044491783 0.00096929632 0.021963494 0.00098358886 0.022158535 0.99831086 -0.04361251
659754716.98113 0.99804145 -0.044933379 0.00097493082 0.022295324 0.00097430218 0.022509921 0.99838752 -0.044228226
669750943.39623 0.99809486 -0.045438915 0.0009699245 0.022648817 0.0010155346 0.022870131 0.99842864 -0.045017183
679747169.81132 0.99811965 -0.046276964 0.0010499607 0.02303455 0.0010319825 0.023213727 0.99839985 -0.04594487
689743396.22642 0.99831659 -0.047119796 0.0010904679 0.023332117 0.0010847505 0.023554221 0.99825364 -0.046871394
699739622.64151 0.99841249 -0.047900587 0.0011500083 0.023678409 0.0011298507 0.02387052 0.99818838 -0.047601968
709735849.0566 0.99836957 -0.048755407 0.0012226137 0.024011059 0.001200918 0.024228062 0.9979136 -0.048235767
719732075.4717 0.99830562 -0.049518406 0.001201909 0.024345506 0.0012285095 0.02448995 0.9978987 -0.048787951
729728301.88679 0.99817216 -0.050015837 0.0012372136 0.024660781 0.0012541879 0.024882235 0.99799263 -0.049246609
739724528.30189 0.99807376 -0.050671712 0.0012839721 0.024975281 0.0012857663 0.025193801 0.99818337 -0.04994221
749720754.71698 0.99796981 -0.051195383 0.0013294038 0.025307901 0.0012899847 0.025557371 0.99828285 -0.050612897
759716981.13208 0.9980284 -0.051701337 0.0013682628 0.025647767 0.001359446 0.025881302 0.99821448 -0.051441729
769713207.54717 0.99793184 -0.052473247 0.0014053835 0.02595708 0.0013977215 0.026187537 0.99792451 -0.052140206
779709433.96226 0.99819821 -0.053075377 0.0014296271 0.026306381 0.0014328382 0.02652711 0.99767041 -0.052799091
789705660.37736 0.99793303 -0.054010868 0.0014546812 0.026650192 0.0014739316 0.026893232 0.9973805 -0.053570807
799701886.79245 0.99794763 -0.054881155 0.0014777463 0.026935987 0.0015004072 0.027181208 0.99733055 -0.054077804
809698113.20755 0.99779946 -0.055495247 0.0014943536 0.027302874 0.0015048683 0.027547143 0.99737549 -0.054603949
819694339.62264 0.99770498 -0.056142628 0.0015247618 0.027612466 0.0015069288 0.027854571 0.9975304 -0.055233181
829690566.03774 0.99768376 -0.056783974 0.0015740227 0.027933042 0.0015685046 0.028188802 0.99775416 -0.056155354
839686792.45283 0.99772632 -0.057195067 0.0015976988 0.028250936 0.0016060732 0.028489169 0.997787 -0.056999236
849683018.86792 0.99778897 -0.05786103 0.0016288222 0.028610943 0.0016492161 0.028881785 0.99769413 -0.057733446
859679245.28302 0.99786043 -0.05858162 0.0016612187 0.028962659 0.0016620373 0.029188186 0.99742973 -0.058379173
869675471.69811 0.9978075 -0.059352815 0.0016953945 0.029284943 0.0017357934 0.029542647 0.99704564 -0.058912873
879671698.11321 0.99769878 -0.060033247 0.0017474103 0.029617224 0.0017714608 0.029858774 0.99702525 -0.059335113
889667924.5283 0.99744833 -0.060877293 0.0017783782 0.029894352 0.0017940216 0.030175367 0.99690759 -0.059929788
899664150.9434 0.99733126 -0.061547101 0.0017895671 0.030247727 0.0018106438 0.030522583 0.99698079 -0.060526788
909660377.35849 0.99727583 -0.062283903 0.0018596072 0.030571071 0.0018555 0.030831587 0.99711925 -0.06141749
919656603.77358 0.99733925 -0.062941939 0.0018588584 0.030907422 0.0018776543 0.031170752 0.99712622 -0.062400252
929652830.18868 0.99734426 -0.063712627 0.0018833885 0.031199677 0.0019059181 0.031508643 0.99698502 -0.06324929
939649056.60377 0.99750441 -0.064399898 0.0018695705 0.031536754 0.0018884987 0.031793687 0.99679571 -0.063958883
949645283.01887 0.99745816 -0.065141968 0.0018715241 0.031899929 0.0019181613 0.0321352 0.9964996 -0.064491555
959641509.43396 0.99746442 -0.065725088 0.0019348599 0.032247581 0.0019397447 0.032529466 0.99647403 -0.065047354
969637735.84906 0.99738723 -0.066607267 0.0020186957 0.032607522 0.0020165471 0.03286976 0.99649036 -0.065435797
979633962.26415 0.99712622 -0.067318305 0.0020754477 0.032907706 0.0020944588 0.033215705 0.99649948 -0.066102438
989630188.67925 0.99718964 -0.067828089 0.0021007303 0.033247404 0.0021124557 0.033571534 0.99671954 -0.066686809
999626415.09434 0.9972614 -0.068556547 0.0021119658 0.03358129 0.0021446422 0.033884458 0.99666405 -0.067558438
1009622641.5094 0.99715543 -0.069106668 0.0021513132 0.033913426 0.0021876367 0.03426379 0.99648231 -0.068423375
1019618867.9245 0.99733859 -0.069975317 0.0022168136 0.034242928 0.0022567576 0.03456036 0.99617422 -0.069286928
1029615094.3396 0.99731058 -0.07093659 0.0022661444 0.034578919 0.0023068264 0.034883425 0.99581766 -0.069854826
1039611320.7547 0.99736184 -0.07189554 0.0023214305 0.034880534 0.0023581497 0.035196532 0.99580145 -0.070575684
1049607547.1698 0.99715209 -0.072798118 0.0023398963 0.03519829 0.0023652024 0.035521794 0.99579501 -0.071103744
1059603773.5849 0.99701095 -0.073373467 0.0023704991 0.035482723 0.0024087466 0.035838481 0.99582911 -0.071649492
1069600000 0.99677682 -0.074082732 0.0023711994 0.035798091 0.0023960844 0.03612278 0.99588978 -0.072374046
1079596226.4151 0.99677289 -0.074725695 0.0023706602 0.036154497 0.0024518948 0.03647159 0.99594873 -0.073150799
1089592452.8302 0.99683499 -0.075314909 0.0024062814 0.036487821 0.0024573132 0.036828779 0.99582726 -0.073882252
1099588679.2453 0.99685633 -0.076029271 0.0024000425 0.036836665 0.0025015064 0.037174258 0.995502 -0.074544728
1109584905.6604 0.99697399 -0.076881424 0.0024492722 0.037140068 0.0025281375 0.037549239 0.99527293 -0.075122848
1119581132.0755 0.99696845 -0.07788004 0.0024743616 0.037518829 0.0025506015 0.037871946 0.99503314 -0.075576514
1129577358.4906 0.99674702 -0.078752071 0.0025245324 0.037876744 0.00257021 0.038216747 0.99492109 -0.07603249
1139573584.9057 0.99653757 -0.079571843 0.0025588796 0.038195968 0.0026505599 0.038555831 0.99496621 -0.076645315
1149569811.3208 0.99634767 -0.080426581 0.0026164998 0.038535461 0.0027263497 0.038895849 0.99514633 -0.077534266
1159566037.7358 0.9961195 -0.081086338 0.0026604645 0.038888898 0.0027602799 0.03920145 0.99527991 -0.078453749
1169562264.1509 0.99595177 -0.081759423 0.0026514493 0.039183587 0.0027738567 0.039547037 0.99509346 -0.079323351
1179558490.566 0.99592942 -0.082510144 0.0026781666 0.039551843 0.0027862063 0.039924778 0.99488503 -0.080023631
1189554716.9811 0.99590522 -0.083215356 0.0027018422 0.03988136 0.0028424738 0.040252395 0.99463344 -0.080537051
1199550943.3962 0.99587387 -0.084071487 0.0027753878 0.040270649 0.0029028859 0.040595822 0.99446213 -0.080964595
1209547169.8113 0.99568307 -0.084968358 0.0028347867 0.040608611 0.002952964 0.040954538 0.99438608 -0.081273109
1219543396.2264 0.99551666 -0.085843131 0.0028890381 0.040951621 0.0029705195 0.041320372 0.99448037 -0.081680983
1229539622.6415 0.99512148 -0.086655527 0.0029358082 0.041299812 0.0030479841 0.041651957 0.99455333 -0.082352012
1239535849.0566 0.99491549 -0.087331891 0.0029914891 0.041624207 0.0031287875 0.041984018 0.99466842 -0.083342344
1249532075.4717 0.99464327 -0.088067338 0.0030483124 0.041938648 0.0032073641 0.0422903 0.99453843 -0.084194444
1259528301.8868 0.9944036 -0.088560849 0.003109172 0.042302281 0.0032580085 0.04261959 0.99423057 -0.085114092
1269524528.3019 0.99423629 -0.089244425 0.0031911694 0.042592835 0.0033294484 0.042928472 0.99402332 -0.085776627
1279520754.717 0.99384266 -0.089970253 0.0032238772 0.042872339 0.0033748611 0.043184232 0.99372578 -0.086334594
1289516981.1321 0.99372506 -0.09084335 0.0032390272 0.043149371 0.0034331037 0.043490894 0.9938572 -0.086764157
1299513207.5472 0.99342763 -0.091730386 0.0032404494 0.043497935 0.0034108572 0.043846175 0.99393559 -0.087104917
1309509433.9623 0.99295616 -0.092337072 0.0032603508 0.043800402 0.0034129731 0.044176191 0.99407369 -0.087875202
1319505660.3774 0.99261999 -0.093158141 0.0032784622 0.044150937 0.0034555374 0.044469748 0.99406427 -0.088573277
1329501886.7925 0.99225742 -0.093802214 0.0032985751 0.044495031 0.0034770742 0.044792987 0.99413633 -0.089498669
1339498113.2075 0.99198937 -0.094293475 0.0033212528 0.044820387 0.0035047485 0.045114961 0.99366379 -0.09021768
1349494339.6226 0.99179184 -0.094849661 0.0033255233 0.045183584 0.0034784698 0.045461904 0.99327654 -0.090877116
1359490566.0377 0.99180794 -0.095531404 0.0033359565 0.045548052 0.0034443811 0.045809805 0.99315369 -0.091385484
1369486792.4528 0.99148709 -0.096045405 0.0033436678 0.045902319 0.0034796931 0.046196871 0.99287903 -0.091828614
1379483018.8679 0.99119818 -0.096588522 0.0033833734 0.04625725 0.0034641956 0.046554264 0.99284983 -0.092244655
1389479245.283 0.99084127 -0.097104877 0.0034449361 0.046654075 0.0035360716 0.046933711 0.99291968 -0.092986643
1399475471.6981 0.99042404 -0.097482353 0.0034415368 0.047010642 0.0035573822 0.047285892 0.99305797 -0.093628109
1409471698.1132 0.99015009 -0.097874589 0.0035063426 0.047408998 0.0035938772 0.047683265 0.99301976 -0.094423585
1419467924.5283 0.98991114 -0.098097593 0.0035194689 0.04777503 0.0036181649 0.048086178 0.99289382 -0.095102221
1429464150.9434 0.98978889 -0.098606467 0.0035625845 0.048206799 0.0036598593 0.048481926 0.99270153 -0.095656127
1439460377.3585 0.98991245 -0.099006549 0.0036453251 0.04864851 0.0037088534 0.048929829 0.99253941 -0.095996514
1449456603.7736 0.98992324 -0.099703863 0.0037480192 0.049045891 0.0038049463 0.049321815 0.9923901 -0.0963462
1459452830.1887 0.98999202 -0.10032722 0.0038675517 0.04947339 0.0039500725 0.049735323 0.99244165 -0.096731663
1469449056.6038 0.9899804 -0.10109106 0.0040579876 0.049776308 0.0041027069 0.050098907 0.99268019 -0.097378314
1479445283.0189 0.98985463 -0.10164748 0.0041867513 0.050101172 0.0042493334 0.050383594 0.99283624 -0.098287597
1489441509.434 0.98977184 -0.10223934 0.004312586 0.050422799 0.0043806583 0.050720669 0.99268764 -0.099155098
1499437735.8491 0.98957694 -0.10250354 0.0043734908 0.050729327 0.0044635609 0.050976124 0.9925217 -0.10010102
1509433962.2642 0.98955876 -0.1029727 0.0045237653 0.050975997 0.0045593157 0.051290017 0.99233478 -0.10079692
1519430188.6792 0.98971403 -0.10358885 0.0045885704 0.051227152 0.0046442766 0.051553681 0.99217284 -0.10133764
1529426415.0943 0.98967934 -0.1042605 0.0046695322 0.051537424 0.0046458561 0.051831029 0.99209493 -0.10175669
1539422641.5094 0.98966151 -0.10512254 0.0046975799 0.051846083 0.0046956246 0.052142907 0.99215186 -0.10221065
1549418867.9245 0.9894976 -0.10590658 0.0047747232 0.052127905 0.0047765328 0.05247445 0.99239439 -0.10294521
1559415094.3396 0.98941302 -0.10656583 0.0048523676 0.052428566 0.0048265532 0.052759044 0.99249172 -0.10364115
1569411320.7547 0.98928279 -0.10735461 0.0048728995 0.052717585 0.0048471978 0.053062037 0.99247891 -0.10441256
1579407547.1698 0.98912013 -0.10783605 0.0048745153 0.052921858 0.0049134404 0.053323243 0.99208945 -0.10529701
1589403773.5849 0.98902178 -0.10839272 0.0048918333 0.053265445 0.0049157124 0.053631626 0.99184889 -0.10597578
1599400000 0.98906255 -0.10884452 0.0048919767 0.053624015 0.0048916824 0.053963102 0.99150091 -0.10649052
1609396226.4151 0.98908722 -0.10949671 0.0048816446 0.053942665 0.0049195038 0.054314051 0.99127281 -0.10702313
1619392452.8302 0.98905629 -0.11020216 0.0049164519 0.054275993 0.0048626307 0.054632671 0.99128699 -0.10744914
1629388679.2453 0.98879898 -0.11080402 0.0048849136 0.054640036 0.0048879217 0.055007398 0.99146271 -0.10795105
1639384905.6604 0.98857123 -0.11148253 0.0049121999 0.054953322 0.0048994049 0.05540324 0.99171704 -0.10889708
1649381132.0755 0.98837316 -0.11221322 0.0049328618 0.055320602 0.0049208924 0.055789657 0.99167138 -0.10971186
1659377358.4906 0.98818403 -0.11287841 0.0049552545 0.055770263 0.004982505 0.056159407 0.99164474 -0.1106523
1669373584.9057 0.9881112 -0.11342314 0.0049996632 0.056096278 0.0050011217 0.056541979 0.99137545 -0.11131136
1679369811.3208 0.98823386 -0.11407116 0.0050056735 0.056481116 0.0050721876 0.05690483 0.99106002 -0.11188072
1689366037.7358 0.98815393 -0.11464509 0.0051109027 0.056873739 0.00513619 0.057291575 0.99100912 -0.11223435
1699362264.1509 0.98824263 -0.11533608 0.005151365 0.057222411 0.0051554041 0.057734296 0.99111736 -0.11263666
1709358490.566 0.98819417 -0.11602603 0.005185388 0.057637148 0.0052214032 0.058058407 0.99118489 -0.11321385
1719354716.9811 0.9878633 -0.11661309 0.0052729361 0.057991467 0.005295936 0.05849538 0.99118268 -0.11384204
