!Keysight Technologies,N5222B,MY61253708,A.15.00.15
!Date: Wednesday, June 19, 2024 10:44:11
!Correction: S11(C  2-Port  ) 
!S21(C  2-Port  ) 
!S12(C  2-Port  ) 
!S22(C  2-Port  ) 
!S2P File: Measurements: S11, S21, S12, S22:
# Hz S  RI   R 50
10000000 0.99834186 -0.0031068325 0.00017144941 0.00031558366 -5.8772726e-005 0.00019327494 0.99817324 -0.0018308759
19996226.415094 0.99981701 -0.0023315549 3.9884209e-005 0.0006885191 -5.1649986e-005 0.00070118345 0.99977565 -0.0023286641
29992452.830189 0.99957132 -0.0025238693 4.9364753e-006 0.0010039399 -3.2734097e-005 0.0010004498 0.99917704 -0.0027159452
39988679.245283 1.0000648 -0.0030124933 -2.73966e-006 0.0013348773 5.7046695e-005 0.001277799 0.99966532 -0.003154397
49984905.660377 1.0002067 -0.0036741495 2.3775501e-006 0.0015678531 3.3744669e-005 0.0016240764 0.9999038 -0.0036640763
59981132.075472 1.0005051 -0.0044915378 3.8845174e-005 0.001926154 3.4120516e-005 0.0019461674 0.99991202 -0.0041996539
69977358.490566 1.0002708 -0.0050736479 1.0158594e-005 0.0022328522 1.521489e-005 0.0022568095 0.99976391 -0.0047437418
79973584.90566 0.99989319 -0.0056274235 -1.3566343e-005 0.002566528 6.3860789e-006 0.0025581256 0.99939704 -0.0052315593
89969811.320755 0.99990106 -0.0056549609 6.3794432e-006 0.0028902157 2.9152259e-005 0.0029084412 0.99961156 -0.0053897798
99966037.735849 1.0001339 -0.0063486993 1.4148827e-005 0.0032582362 1.5662808e-005 0.003238803 0.99966645 -0.0061433166
109962264.15094 1.0002187 -0.0072317421 2.9476592e-005 0.0035491048 2.6612019e-005 0.0035622984 0.99968374 -0.0069398135
119958490.56604 1.0002506 -0.0081831515 4.8837042e-005 0.0038573896 3.7668971e-005 0.003878986 0.99974096 -0.0077486932
129954716.98113 1.0002329 -0.0091698766 4.4776476e-005 0.0041777263 4.0247571e-005 0.004208744 0.99973375 -0.0086807311
139950943.39623 1.0001582 -0.0099684261 3.5480785e-005 0.0045236419 5.4892109e-005 0.0045193005 0.99966997 -0.0094448235
149947169.81132 0.99999118 -0.01060912 4.5631547e-005 0.0048372522 3.5428675e-005 0.0048219198 0.9995749 -0.010022938
159943396.22642 0.99993497 -0.011123419 6.4749736e-005 0.0051615606 4.9057184e-005 0.0051652868 0.99962771 -0.010463625
169939622.64151 0.99989903 -0.011446595 5.8627862e-005 0.0054882602 4.8079644e-005 0.0054939836 0.99969983 -0.010832548
179935849.0566 1.000052 -0.011647969 6.704824e-005 0.0058121947 7.9980702e-005 0.0058161556 0.99960995 -0.01121822
189932075.4717 1.0001311 -0.012380749 7.6729106e-005 0.0061177383 7.9016201e-005 0.0061443392 0.99980742 -0.011703968
199928301.88679 1.0001143 -0.013210058 8.4640109e-005 0.0064375177 9.9277473e-005 0.0064587872 0.99966156 -0.012551665
209924528.30189 0.99980849 -0.01382038 9.5552416e-005 0.0067614727 0.0001031257 0.00678023 0.99944347 -0.013197839
219920754.71698 0.9998467 -0.014617145 0.00010954146 0.0071137859 0.00011144415 0.007094481 0.99940622 -0.013842762
229916981.13208 0.99969065 -0.015451252 0.00010151509 0.0074168444 0.0001154996 0.0074190041 0.9993751 -0.014654875
239913207.54717 0.99957198 -0.016134305 0.0001218464 0.0077361744 0.00011492812 0.0077616624 0.99927908 -0.015348356
249909433.96226 0.99959081 -0.016692996 0.00013184594 0.0080399234 0.0001292103 0.0080592139 0.99939156 -0.015878826
259905660.37736 0.9996922 -0.017324299 0.00015146611 0.0083709573 0.00014812686 0.008367802 0.99966758 -0.016412437
269901886.79245 0.99987543 -0.017868951 0.00016616401 0.0086666895 0.00015564787 0.008711488 1.0001312 -0.01711905
279898113.20755 0.99994266 -0.018504098 0.00017147069 0.0090174247 0.00017322437 0.0090524647 0.99996507 -0.017920971
289894339.62264 0.99995315 -0.019290715 0.00019774865 0.0093213413 0.0001380723 0.0093739145 0.99982417 -0.018697858
299890566.03774 0.99983418 -0.019783378 0.00019791769 0.0096648745 0.00018404168 0.0097097531 0.99956983 -0.019126087
309886792.45283 0.99964887 -0.020323597 0.00020353234 0.0099676372 0.00019458338 0.0099888556 0.99937546 -0.019560128
319883018.86792 0.9996891 -0.021003693 0.00022941129 0.01027131 0.00020530866 0.010312641 0.99934411 -0.019949734
329879245.28302 0.99969733 -0.02170679 0.00023243623 0.010605129 0.00023918692 0.010647738 0.99959099 -0.020753741
339875471.69811 0.99960375 -0.022388995 0.00024135283 0.010976817 0.00024986931 0.010960873 0.99954402 -0.02152735
349871698.11321 0.99984998 -0.023248523 0.00027762214 0.011302164 0.00023166672 0.011308374 0.99961329 -0.022368908
359867924.5283 0.99970269 -0.024081409 0.00029719155 0.011600269 0.00029036729 0.011640674 0.99958074 -0.023369879
369864150.9434 0.99990994 -0.02495271 0.00028748554 0.011916968 0.00028164499 0.01192607 0.99951893 -0.024066716
379860377.35849 0.99977762 -0.025611699 0.00028725201 0.012242933 0.0003214418 0.012250365 0.99937189 -0.024748206
389856603.77358 0.99947917 -0.026195556 0.00035937596 0.012546108 0.00030977651 0.012569061 0.9993903 -0.025184095
399852830.18868 0.99945301 -0.026803941 0.00032795174 0.012881879 0.00032943115 0.012887284 0.99942577 -0.025610775
409849056.60377 0.9993127 -0.027326878 0.00034972987 0.013171738 0.00035427196 0.013205728 0.99940825 -0.02616765
419845283.01887 0.99910706 -0.027794302 0.00035925722 0.013489868 0.00035701785 0.013523594 0.99941206 -0.026697963
429841509.43396 0.99919724 -0.028390497 0.00040695537 0.013812443 0.0004238626 0.013842717 0.99949527 -0.027424455
439837735.84906 0.99891967 -0.029368117 0.00040654477 0.01414102 0.00040437188 0.014182233 0.99925297 -0.028433233
449833962.26415 0.99884123 -0.030124396 0.00042625237 0.0144681 0.00043356419 0.014446747 0.99878782 -0.029199243
459830188.67925 0.99863064 -0.030807823 0.00041882554 0.014787063 0.00040106941 0.014802219 0.9985649 -0.029916734
469826415.09434 0.99847597 -0.031440049 0.00044233631 0.015104364 0.00040843897 0.015132699 0.99829417 -0.030398458
479822641.50943 0.99833977 -0.031921305 0.00049292296 0.015436127 0.00046570157 0.015457967 0.99835789 -0.03071592
489818867.92453 0.99837852 -0.032303602 0.00050476473 0.015739435 0.00048951805 0.015797906 0.99859953 -0.031185061
499815094.33962 0.99845499 -0.032860518 0.00051935902 0.016072875 0.00052153645 0.016099555 0.99893051 -0.031703085
509811320.75472 0.99857938 -0.03317403 0.00053397875 0.016387219 0.00052411255 0.016384322 0.99907225 -0.032510355
519807547.16981 0.99852288 -0.03362143 0.0005344958 0.016687909 0.00055603264 0.016739801 0.9990924 -0.033122003
529803773.58491 0.99845618 -0.034112811 0.00059971958 0.017024886 0.00056409789 0.017034641 0.99880433 -0.033659697
539800000 0.99858618 -0.034746975 0.00059609488 0.01735099 0.00057660788 0.017421117 0.99862742 -0.034380898
549796226.41509 0.99845695 -0.035607994 0.00060864631 0.017677685 0.00062142033 0.017704401 0.99853849 -0.034836322
559792452.83019 0.99833429 -0.036270261 0.00064111222 0.018015131 0.00063019339 0.018038504 0.99843353 -0.035245836
569788679.24528 0.99823481 -0.036886781 0.00065168599 0.018291283 0.00062980922 0.018312838 0.99867392 -0.035932332
579784905.66038 0.99821937 -0.037382074 0.00070929551 0.018639714 0.00068085303 0.018687496 0.99880451 -0.03667599
589781132.07547 0.99842268 -0.03793785 0.00070748106 0.018963683 0.00072875712 0.019011896 0.99895871 -0.0375247
599777358.49057 0.99861622 -0.038584203 0.00073965639 0.019261688 0.00071370695 0.019335564 0.99902523 -0.038301915
609773584.90566 0.99875182 -0.039303266 0.0007596676 0.019592287 0.00078486773 0.019624772 0.99893779 -0.039258573
619769811.32075 0.99891144 -0.040001065 0.00079130335 0.0199521 0.00081078196 0.019934122 0.99883151 -0.039731145
629766037.73585 0.99878705 -0.040682524 0.00083630905 0.020234514 0.00085453782 0.020247471 0.99862105 -0.04017961
639762264.15094 0.99859393 -0.041262895 0.00084153889 0.020531023 0.00083786924 0.020538677 0.99847209 -0.040636897
649758490.56604 0.99845403 -0.041802466 0.00089774374 0.020819731 0.00084797107 0.020882212 0.99851918 -0.041084692
659754716.98113 0.99828112 -0.042301774 0.00086262543 0.02115682 0.00086496025 0.021209037 0.9986887 -0.041556031
669750943.39623 0.99830914 -0.042863756 0.00086853188 0.021524467 0.00088183675 0.021536384 0.99881381 -0.042376161
679747169.81132 0.99837166 -0.043613829 0.0009025645 0.021851692 0.00092639134 0.021877127 0.99876499 -0.043386258
689743396.22642 0.99868137 -0.044455081 0.0009676544 0.022148993 0.00094828662 0.022205666 0.99854863 -0.044272035
699739622.64151 0.99878389 -0.045299441 0.00098746084 0.022474827 0.0010036277 0.022510938 0.99851274 -0.04505235
709735849.0566 0.99880314 -0.046117917 0.0010131119 0.022782512 0.0010615591 0.02285119 0.99821949 -0.045595504
719732075.4717 0.99865031 -0.046881914 0.0010527968 0.023084762 0.001069787 0.023133427 0.99837255 -0.046168298
729728301.88679 0.99849892 -0.047387719 0.0010847487 0.023421079 0.0010883342 0.023443811 0.99836648 -0.046602786
739724528.30189 0.99837172 -0.048012406 0.0011380115 0.023693746 0.0011268007 0.023777967 0.99863309 -0.047240302
749720754.71698 0.99831158 -0.048545614 0.0011798828 0.0240482 0.0011478746 0.024077993 0.99867737 -0.047973856
759716981.13208 0.99830526 -0.049038857 0.001174476 0.024325475 0.0012001442 0.024390109 0.99855816 -0.048758209
769713207.54717 0.99826396 -0.049790889 0.0012215553 0.02463801 0.0012186142 0.024692982 0.99829793 -0.049476802
779709433.96226 0.99842137 -0.050355352 0.0012341045 0.024932096 0.0012518585 0.02504378 0.99798661 -0.050137602
789705660.37736 0.99819231 -0.051314682 0.0012902925 0.025280213 0.0012983764 0.025326613 0.99776363 -0.050864547
799701886.79245 0.99825114 -0.052131772 0.0013209172 0.025568936 0.0012759995 0.025630105 0.9975971 -0.051393628
809698113.20755 0.99809366 -0.052776963 0.001352801 0.025887795 0.0012977796 0.025981044 0.99766684 -0.051794052
819694339.62264 0.99790996 -0.053352922 0.0013677008 0.026201185 0.0013674898 0.026281757 0.99774247 -0.052368283
829690566.03774 0.99783176 -0.053908885 0.0014057942 0.02651188 0.0013584392 0.026587868 0.99805832 -0.053281724
839686792.45283 0.99786466 -0.054320902 0.0013960437 0.026804239 0.0013859714 0.026923887 0.99806321 -0.05404067
849683018.86792 0.99796563 -0.054895453 0.0014123579 0.027160548 0.0014388766 0.027228147 0.99789757 -0.054715089
859679245.28302 0.9979552 -0.055622965 0.0014593992 0.027479161 0.0014623208 0.027554287 0.99766254 -0.055350631
869675471.69811 0.99784708 -0.056330681 0.001509334 0.027767066 0.0015089465 0.027853837 0.99730521 -0.055845261
879671698.11321 0.99783081 -0.057004847 0.0015711753 0.028059589 0.0015448544 0.028143931 0.99728066 -0.056231305
889667924.5283 0.99758977 -0.057766587 0.0015452644 0.028366961 0.001561543 0.028428972 0.99711514 -0.056672007
899664150.9434 0.99738955 -0.058347106 0.0015912019 0.028702263 0.0015924033 0.028764423 0.99721587 -0.057332307
909660377.35849 0.99743128 -0.059110314 0.0015967055 0.029019592 0.0016163113 0.029065091 0.99737549 -0.058128908
919656603.77358 0.99742937 -0.05966562 0.0016194722 0.02930305 0.00162178 0.029375197 0.99738091 -0.059034243
929652830.18868 0.99754989 -0.060392618 0.0016687168 0.029600788 0.0016624555 0.029673211 0.99721169 -0.059890091
939649056.60377 0.99769843 -0.060978383 0.0016701333 0.029916469 0.0016616601 0.030017193 0.99715108 -0.060601324
949645283.01887 0.99767119 -0.061795082 0.0016542587 0.030258944 0.0016588996 0.030332068 0.99683946 -0.061069895
959641509.43396 0.99753451 -0.062415153 0.0017002216 0.030597588 0.0017120056 0.030670883 0.99677306 -0.061533928
969637735.84906 0.9974274 -0.063026547 0.0017419346 0.030957401 0.0017535333 0.031029325 0.99677932 -0.061879635
979633962.26415 0.99731392 -0.063805014 0.0017974849 0.031233447 0.0018035038 0.031317927 0.99683177 -0.062501602
989630188.67925 0.99723822 -0.064293802 0.0018351488 0.031526256 0.0018553352 0.031652227 0.99701732 -0.063074499
999626415.09434 0.99741006 -0.06487155 0.001876723 0.031864926 0.001863854 0.031968791 0.99700797 -0.063890338
1009622641.5094 0.99740326 -0.065549999 0.0018692887 0.03216166 0.0019413745 0.032279044 0.99688542 -0.064730644
1019618867.9245 0.99748778 -0.066308409 0.0019341619 0.032509297 0.001970313 0.032629211 0.99663913 -0.06559135
1029615094.3396 0.99753666 -0.067227125 0.001967811 0.032799598 0.0019920673 0.032891884 0.99627161 -0.066154063
1039611320.7547 0.99764937 -0.068059802 0.0020165443 0.033103831 0.002047237 0.033166874 0.99618816 -0.066762716
1049607547.1698 0.99747109 -0.068927914 0.0020376402 0.033378888 0.0020449143 0.033478137 0.99622267 -0.067333251
1059603773.5849 0.99733746 -0.069539607 0.0020768205 0.033670299 0.0020911749 0.033779006 0.99622846 -0.067824721
1069600000 0.99714518 -0.070101529 0.0020721816 0.033975016 0.0020851009 0.034076173 0.99647295 -0.068487227
1079596226.4151 0.99711925 -0.070816822 0.0020740139 0.034316827 0.0021122899 0.034413114 0.99643153 -0.069265373
1089592452.8302 0.9971838 -0.071389169 0.0020842049 0.034628559 0.002139613 0.034742154 0.99644196 -0.069960326
1099588679.2453 0.99722493 -0.072071373 0.0021135788 0.034961466 0.0021435264 0.035052367 0.99601984 -0.070608526
1109584905.6604 0.9973467 -0.072894484 0.002136982 0.035291433 0.002179265 0.03538499 0.99580264 -0.071151346
1119581132.0755 0.99738175 -0.073861152 0.0021560527 0.035594404 0.0021830155 0.035732243 0.99564916 -0.071612805
1129577358.4906 0.99713248 -0.074691325 0.002168145 0.035974305 0.0022298265 0.03606879 0.99557585 -0.072102785
1139573584.9057 0.99699265 -0.075537115 0.0022366466 0.036266025 0.0022976426 0.036383469 0.99574172 -0.072675377
1149569811.3208 0.99687302 -0.076321229 0.0022724592 0.036596112 0.0023355528 0.036700763 0.99583685 -0.073402964
1159566037.7358 0.99665564 -0.076952219 0.0023250747 0.036879409 0.0023631398 0.036999058 0.99594307 -0.074486852
1169562264.1509 0.99644768 -0.0776169 0.0023334976 0.037201498 0.0023695622 0.037312191 0.99575365 -0.07512781
1179558490.566 0.99645722 -0.078359164 0.0023345104 0.037539668 0.0023948327 0.037669174 0.99565399 -0.075883597
1189554716.9811 0.99651247 -0.078924447 0.0023608115 0.037867013 0.0024505015 0.037981261 0.99532038 -0.076370209
1199550943.3962 0.99645233 -0.079823554 0.0023912936 0.03822919 0.0024966169 0.038320452 0.99514341 -0.076783508
1209547169.8113 0.99630535 -0.080751613 0.0024435651 0.038537789 0.0025252542 0.038628701 0.99511921 -0.077050313
1219543396.2264 0.99609005 -0.081451893 0.0024998942 0.038864013 0.0025631646 0.038965758 0.99518275 -0.07746233
1229539622.6415 0.99577689 -0.082380295 0.002568407 0.039225422 0.0026247874 0.039292127 0.99531829 -0.078137964
1239535849.0566 0.99557215 -0.083004087 0.0026234761 0.039500911 0.0027277991 0.039611571 0.99546909 -0.07909283
1249532075.4717 0.99532413 -0.083644859 0.0026745021 0.039840087 0.0027598229 0.039904311 0.99533767 -0.079959944
1259528301.8868 0.99510932 -0.08415696 0.0027115159 0.040143967 0.0028197262 0.040196221 0.99500859 -0.08076182
1269524528.3019 0.99495888 -0.084902525 0.002779684 0.040420774 0.002874569 0.040506434 0.99483955 -0.081460297
1279520754.717 0.9946543 -0.085603952 0.0028252471 0.040711965 0.0028906229 0.040763181 0.99457556 -0.081907697
1289516981.1321 0.994546 -0.086302429 0.0028502401 0.041004568 0.0029172739 0.041037999 0.99466544 -0.082332522
1299513207.5472 0.99421561 -0.087191284 0.0028772354 0.041285198 0.0029447712 0.041354716 0.99479938 -0.082740217
1309509433.9623 0.99381542 -0.087828502 0.0028509274 0.041588124 0.0029461645 0.04163453 0.9949286 -0.083451897
1319505660.3774 0.99342346 -0.088622048 0.0028264327 0.04192473 0.0029719509 0.041990113 0.99495125 -0.084100246
1329501886.7925 0.99317598 -0.089223295 0.0028774925 0.042233597 0.0029781554 0.042293325 0.99495649 -0.085070997
1339498113.2075 0.99287093 -0.089716285 0.0029234514 0.042562988 0.0029821154 0.042569917 0.99458748 -0.085733324
1349494339.6226 0.99269027 -0.090283237 0.0029101321 0.042891737 0.0029635197 0.042909704 0.99427181 -0.086357184
1359490566.0377 0.99273384 -0.090954065 0.0028788708 0.043244518 0.0029573813 0.043255366 0.99397755 -0.086823523
1369486792.4528 0.99251473 -0.091485322 0.0028824229 0.043568972 0.0029928731 0.043606766 0.99385273 -0.087305397
1379483018.8679 0.99226159 -0.092039004 0.0028996444 0.043961179 0.0029905539 0.043949869 0.99383235 -0.087681867
1389479245.283 0.99196124 -0.092569351 0.002948314 0.044317394 0.0030344091 0.044302873 0.99386716 -0.088340193
1399475471.6981 0.99149084 -0.092888743 0.0029628556 0.044653706 0.0030159932 0.044649567 0.99409044 -0.088960916
1409471698.1132 0.99118465 -0.093308277 0.0029851119 0.0450169 0.0030489704 0.045023348 0.99407595 -0.089774318
1419467924.5283 0.99101055 -0.093546897 0.00302062 0.045374803 0.0030837096 0.045401894 0.99392968 -0.090448081
1429464150.9434 0.99086797 -0.093947649 0.0030468367 0.045794178 0.0031267684 0.045752242 0.99385297 -0.090985775
1439460377.3585 0.99102759 -0.094532311 0.0031327764 0.046223357 0.0031604907 0.046233203 0.99357921 -0.091357946
1449456603.7736 0.99105102 -0.09495762 0.0032232096 0.046626303 0.0032596327 0.046598796 0.99341947 -0.091687277
1459452830.1887 0.9911263 -0.095814705 0.0033885855 0.046997517 0.0033532791 0.046968356 0.99363399 -0.09197247
1469449056.6038 0.99112844 -0.096511781 0.0035338635 0.047326066 0.0035359943 0.047340263 0.99383223 -0.092680097
1479445283.0189 0.99101144 -0.097100571 0.0036693292 0.047612902 0.003651673 0.047618352 0.99393642 -0.093567699
1489441509.434 0.99088657 -0.097600132 0.0037720036 0.047911927 0.0037990976 0.047947347 0.99370599 -0.09438467
1499437735.8491 0.99072158 -0.097864389 0.0038462952 0.048138555 0.0038846247 0.048169654 0.99369538 -0.095231533
1509433962.2642 0.9907192 -0.098374903 0.0039519826 0.048395403 0.0039588129 0.048443247 0.99350858 -0.095930651
1519430188.6792 0.99080044 -0.098823965 0.0040558372 0.048668928 0.0040324181 0.048718236 0.99330389 -0.096560687
1529426415.0943 0.99079287 -0.099507093 0.0040847473 0.048973516 0.0040525254 0.04899266 0.99328566 -0.096941382
1539422641.5094 0.99086756 -0.10031038 0.0041440642 0.049254917 0.0041091559 0.049280159 0.99340945 -0.097378299
1549418867.9245 0.99066484 -0.10110697 0.0042081624 0.049532309 0.0041441973 0.049537446 0.99359268 -0.098107651
1559415094.3396 0.99053818 -0.10180694 0.0042240135 0.049813673 0.0042001195 0.049869008 0.99375319 -0.098700702
1569411320.7547 0.99041289 -0.10257368 0.0042615291 0.050040595 0.0042343233 0.050093692 0.99365789 -0.099584952
1579407547.1698 0.99026501 -0.10311148 0.004320181 0.050342038 0.0042565009 0.050381653 0.99327642 -0.10042424
1589403773.5849 0.99024665 -0.10363793 0.0042806827 0.050593827 0.0042875335 0.050662145 0.99300587 -0.10110348
1599400000 0.99025494 -0.10407001 0.0042984635 0.050892793 0.0042403061 0.05095645 0.99264663 -0.10154721
1609396226.4151 0.9901979 -0.10467111 0.0042447178 0.051238153 0.0042220782 0.051242828 0.9924283 -0.10197961
1619392452.8302 0.99012101 -0.10527861 0.0042684376 0.051551647 0.0042492785 0.051593333 0.99249351 -0.10242882
1629388679.2453 0.989995 -0.10596946 0.0043055695 0.051910326 0.0042476468 0.05193828 0.99276906 -0.10291898
1639384905.6604 0.98967856 -0.1066495 0.0043110396 0.052235458 0.0042513129 0.052315969 0.99299902 -0.10384769
1649381132.0755 0.98953098 -0.10728183 0.0043593477 0.052562643 0.004230164 0.052652568 0.99292171 -0.1047141
1659377358.4906 0.98940271 -0.10809091 0.0043191798 0.052941829 0.0043167509 0.053033698 0.99288583 -0.10559356
1669373584.9057 0.98925507 -0.10848063 0.0043523596 0.053317543 0.0043083741 0.053383313 0.99263376 -0.10616971
1679369811.3208 0.98938704 -0.10920396 0.0043735811 0.053690873 0.0043228306 0.05372002 0.99235797 -0.10672694
1689366037.7358 0.98941541 -0.10975438 0.0044528022 0.05405575 0.0043693967 0.054168332 0.99213505 -0.106994
1699362264.1509 0.98951447 -0.1103223 0.0044933343 0.054401752 0.0044277571 0.054472122 0.99246722 -0.1074558
1709358490.566 0.98937529 -0.11104266 0.0045434209 0.054746386 0.0044589452 0.054856405 0.99248093 -0.10794801
1719354716.9811 0.98909903 -0.11164623 0.0045972671 0.055109583 0.0045084413 0.055219781 0.99250197 -0.10868666
