!Keysight Technologies,N5222B,MY61253708,A.15.00.15
!Date: Wednesday, June 19, 2024 08:53:33
!Correction: S11(C  2-Port  ) 
!S21(C  2-Port  ) 
!S12(C  2-Port  ) 
!S22(C  2-Port  ) 
!S2P File: Measurements: S11, S21, S12, S22:
# Hz S  RI   R 50
10000000 0.99891543 -0.0022388399 0.0002476713 0.00021409312 -0.00028161431 0.00027605996 0.99854392 -0.001042515
19996226.415094 0.99916995 -0.0020163655 2.8033886e-005 0.00079453486 -0.00012214083 0.00063972292 0.99930835 -0.0020446777
29992452.830189 0.99979508 -0.0026106536 4.3657172e-005 0.0010641078 5.7232595e-005 0.0011269982 0.99952775 -0.0027381182
39988679.245283 1.0000749 -0.0032243729 2.7606831e-005 0.001475369 5.4428107e-005 0.0015231519 0.99965227 -0.0032724887
49984905.660377 1.0001756 -0.0039770603 1.7098733e-005 0.0018094078 2.6918366e-005 0.0018169417 0.9997828 -0.003916353
59981132.075472 1.0003119 -0.004773736 -4.1421154e-006 0.0022033243 1.0101066e-005 0.0021748936 0.99973363 -0.0044544637
69977358.490566 0.99999785 -0.0053912848 -8.2141923e-007 0.0025822555 8.9020396e-006 0.0026171857 0.99963677 -0.0049950257
79973584.90566 0.99982655 -0.0059115589 -1.6075093e-005 0.0029052992 3.2071141e-005 0.0029586968 0.99938935 -0.0054951012
89969811.320755 0.99979734 -0.0061375201 3.166392e-005 0.0032518175 6.1161118e-006 0.0033153109 0.99952656 -0.0058765411
99966037.735849 1.0000236 -0.0069678873 1.5844824e-005 0.0036540779 1.0180578e-005 0.0036956598 0.99958938 -0.0067087561
109962264.15094 1.0000726 -0.0078825504 3.7535792e-005 0.0040267794 4.9517606e-005 0.0040356694 0.99958193 -0.007542789
119958490.56604 1.0001129 -0.0089757144 5.456619e-005 0.0043856022 3.674929e-005 0.0044149184 0.99962115 -0.0084856451
129954716.98113 1.0000188 -0.010041296 6.4196531e-005 0.0047287308 5.8544916e-005 0.0047751116 0.99959743 -0.0094667673
139950943.39623 0.99990392 -0.010855714 6.5875807e-005 0.0051203114 5.008078e-005 0.0051399791 0.99950546 -0.01024914
149947169.81132 0.99977934 -0.011591554 4.8833666e-005 0.0054856567 7.5808959e-005 0.0055187908 0.99946737 -0.010876387
159943396.22642 0.9997465 -0.012108892 8.6890301e-005 0.0058442568 7.719663e-005 0.0058782133 0.99955094 -0.011384994
169939622.64151 0.99977583 -0.012518525 8.9594861e-005 0.0062205009 7.9786696e-005 0.006245554 0.99961728 -0.011822842
179935849.0566 0.9998523 -0.012776881 0.00012224808 0.0065725977 9.0494053e-005 0.0066165482 0.99953198 -0.012241602
189932075.4717 0.99995494 -0.013631374 0.00010177819 0.0069199814 0.00012447126 0.0070026102 0.99972332 -0.012903064
199928301.88679 0.99987763 -0.014515579 0.00011696038 0.0073191421 9.910739e-005 0.0073251524 0.99959928 -0.013808817
209924528.30189 0.99965751 -0.015272424 0.00013272092 0.0076646507 0.00012394192 0.0077122021 0.99941266 -0.014567137
219920754.71698 0.99961096 -0.016146392 0.00014393241 0.0080272499 0.00013765087 0.0080613885 0.99919629 -0.015347838
229916981.13208 0.99931514 -0.017082006 0.00016451278 0.0083995862 0.00015356531 0.0084524062 0.99909151 -0.01612705
239913207.54717 0.99919653 -0.017742906 0.00015276417 0.0087434743 0.00016522261 0.0088133421 0.99909949 -0.016887438
249909433.96226 0.99928612 -0.018411249 0.00017101667 0.0091195349 0.00016480894 0.0091747604 0.99919218 -0.017523408
259905660.37736 0.99943328 -0.019008785 0.00013344036 0.0095641837 0.00018077483 0.009521557 0.99942166 -0.018160433
269901886.79245 0.99965096 -0.019718096 0.00024524145 0.0098645817 0.00017252285 0.0099224048 0.99967927 -0.018920481
279898113.20755 0.99963987 -0.020350918 0.00022746902 0.010237633 0.00016703783 0.010258249 0.99965245 -0.019649476
289894339.62264 0.99957454 -0.021209419 0.0002521011 0.010600692 0.00026117638 0.010665925 0.99954331 -0.020481169
299890566.03774 0.9995206 -0.021786124 0.00023240666 0.010946949 0.00029911171 0.010992952 0.99932712 -0.021026105
309886792.45283 0.99930966 -0.022406243 0.00026287173 0.011309353 0.00026624394 0.011356278 0.99917167 -0.02153068
319883018.86792 0.99916798 -0.023056865 0.00028355094 0.011667288 0.00033809664 0.011726255 0.99908656 -0.022018075
329879245.28302 0.99915588 -0.02380836 0.00026951171 0.01204483 0.00026631122 0.012113567 0.99925005 -0.022786319
339875471.69811 0.99912488 -0.02455122 0.00030327868 0.012394961 0.00032782694 0.012444392 0.99921477 -0.023556143
349871698.11321 0.99925715 -0.025434524 0.00035505788 0.012748467 0.00035354309 0.012862954 0.99928474 -0.024559498
359867924.5283 0.99921197 -0.026283532 0.00036075106 0.013133995 0.00033561513 0.013192367 0.99921066 -0.025520474
369864150.9434 0.99933833 -0.027108848 0.00034608901 0.013455741 0.00039996044 0.013565327 0.99921912 -0.02625823
379860377.35849 0.99928528 -0.028000712 0.00041805068 0.013861277 0.00040754839 0.013914092 0.99913716 -0.026936501
389856603.77358 0.99919689 -0.028532445 0.00038411235 0.014202344 0.00042035058 0.014294137 0.99916297 -0.027408391
399852830.18868 0.99897724 -0.029101044 0.00044567324 0.014571236 0.0004394562 0.014644138 0.99914908 -0.027968079
409849056.60377 0.99897474 -0.029544169 0.00048533475 0.014950154 0.0004410636 0.015029642 0.99923229 -0.028433591
419845283.01887 0.99897802 -0.029938042 0.00045461254 0.015279631 0.00048750918 0.015411031 0.99920541 -0.028979391
429841509.43396 0.9990505 -0.030665606 0.00050855894 0.015692415 0.0005330611 0.015788004 0.99932539 -0.029776186
439837735.84906 0.99889332 -0.031562448 0.00052680424 0.016048301 0.00057990476 0.016142299 0.99917865 -0.030848861
449833962.26415 0.99887824 -0.032492846 0.00058479281 0.016347513 0.00057401974 0.016458347 0.99881005 -0.031674355
459830188.67925 0.99873149 -0.033358246 0.00054116268 0.016730599 0.00054438133 0.016815141 0.99867934 -0.032417476
469826415.09434 0.99867219 -0.034145176 0.00058785314 0.017085809 0.00055585057 0.017178884 0.99840009 -0.033172011
479822641.50943 0.99859506 -0.034883067 0.00063540041 0.017488664 0.00062064664 0.017575925 0.99854547 -0.033605337
489818867.92453 0.99861789 -0.035424829 0.00065970421 0.017839631 0.00063136965 0.017924398 0.99878532 -0.034280509
499815094.33962 0.99873614 -0.036017567 0.00071276166 0.018207109 0.00066903792 0.018276401 0.99906957 -0.034865171
509811320.75472 0.99887979 -0.036463384 0.00070884719 0.018574465 0.00070306787 0.018637884 0.9992826 -0.035748113
519807547.16981 0.99880743 -0.037097812 0.00075510005 0.018917523 0.00072272355 0.019053973 0.99920923 -0.036585867
529803773.58491 0.99873269 -0.037777573 0.00076739397 0.019289989 0.00073996373 0.01939003 0.99886656 -0.037255734
539800000 0.99875242 -0.03854388 0.00075575453 0.019636814 0.00075032841 0.019760916 0.99869704 -0.037971169
549796226.41509 0.99857086 -0.039512843 0.00078669284 0.020010881 0.00081134913 0.020112189 0.99847221 -0.03845489
559792452.83019 0.99827051 -0.040202558 0.00084704626 0.02036237 0.00079744589 0.020531312 0.99833894 -0.039025098
569788679.24528 0.99809545 -0.04093954 0.00085230684 0.020743687 0.00082950993 0.020840455 0.99848461 -0.03977561
579784905.66038 0.99816716 -0.041547798 0.0008593502 0.021110393 0.00091696531 0.021191243 0.99865675 -0.040611289
589781132.07547 0.99830383 -0.042192608 0.00089448411 0.021484384 0.00088975579 0.021610921 0.99873865 -0.041433215
599777358.49057 0.998438 -0.042933524 0.00096613728 0.021830253 0.00096179079 0.021935627 0.9988656 -0.042362809
609773584.90566 0.99865067 -0.043740369 0.0010414715 0.022220805 0.0010287293 0.022343468 0.99861509 -0.043229144
619769811.32075 0.99858904 -0.044440448 0.0010782629 0.022551879 0.00106599 0.022687681 0.99856901 -0.04379496
629766037.73585 0.99844599 -0.045066714 0.0011068955 0.022875525 0.0011102958 0.023013012 0.99829996 -0.044357836
639762264.15094 0.99819648 -0.045747936 0.0011293346 0.023217175 0.0011454192 0.023354905 0.99815261 -0.044769615
649758490.56604 0.998088 -0.046448708 0.0011503166 0.023579471 0.001113689 0.02370039 0.99817812 -0.04523854
659754716.98113 0.99792278 -0.04691723 0.0010909727 0.023938602 0.0011338079 0.024076153 0.99824476 -0.045901239
669750943.39623 0.99781972 -0.047442079 0.0011528358 0.024322452 0.0011820081 0.024495024 0.99833822 -0.046720028
679747169.81132 0.997962 -0.048306148 0.0012308453 0.024716638 0.0012156243 0.024865592 0.99828726 -0.047699541
689743396.22642 0.99805051 -0.049086243 0.0012755478 0.025079247 0.0013027349 0.025199594 0.99808931 -0.048723429
699739622.64151 0.99821723 -0.050022632 0.0013208808 0.025417391 0.0013131704 0.025597231 0.99802059 -0.049425602
709735849.0566 0.99818683 -0.050879814 0.0013918671 0.025784524 0.00136714 0.025965199 0.99782544 -0.050137207
719732075.4717 0.99806529 -0.051616371 0.0013780491 0.026111066 0.0013727592 0.026255094 0.99784112 -0.05070734
729728301.88679 0.99787283 -0.052219093 0.0014645811 0.026461851 0.0014192797 0.026635604 0.9979679 -0.051136672
739724528.30189 0.99783814 -0.052814305 0.0014702822 0.026825257 0.0014854092 0.026983432 0.99804515 -0.051888943
749720754.71698 0.99765128 -0.053278133 0.0015098462 0.027198879 0.0015271371 0.027372941 0.99807674 -0.052537829
759716981.13208 0.99774706 -0.05388248 0.0015556058 0.027541187 0.00153202 0.02772209 0.99801165 -0.053407222
769713207.54717 0.99768412 -0.054642916 0.001569679 0.027871057 0.001562885 0.028055765 0.99771202 -0.05414781
779709433.96226 0.99774349 -0.055358116 0.0016360828 0.028203098 0.0016428544 0.028416652 0.99751848 -0.054880403
789705660.37736 0.99774814 -0.056306213 0.0016892459 0.028602954 0.0016797939 0.028773982 0.99723136 -0.055569768
799701886.79245 0.99766803 -0.057224035 0.001683265 0.028941628 0.0017104009 0.029147923 0.99704176 -0.056205422
809698113.20755 0.99749929 -0.057822227 0.0017497526 0.029282261 0.0017245593 0.029486924 0.99719721 -0.056671277
819694339.62264 0.99730766 -0.058515877 0.0017517665 0.029622018 0.0017669974 0.029837642 0.99737501 -0.057354599
829690566.03774 0.99734139 -0.059102267 0.0017862674 0.029969227 0.0018233843 0.030190017 0.99760652 -0.058223248
839686792.45283 0.99744648 -0.05961588 0.0018172618 0.030347332 0.0018419651 0.030521719 0.99766111 -0.059173524
849683018.86792 0.99754983 -0.060248591 0.0018670734 0.030693598 0.0018666778 0.030893771 0.99752724 -0.059977651
859679245.28302 0.99758303 -0.060985833 0.0019147238 0.031070095 0.0019223886 0.031286515 0.99723446 -0.060617775
869675471.69811 0.99746072 -0.06186077 0.0019714618 0.031413168 0.0019685412 0.031621233 0.99684662 -0.061196595
879671698.11321 0.99729306 -0.062617846 0.00202102 0.031749558 0.002020733 0.031988114 0.9968307 -0.061632365
889667924.5283 0.99711353 -0.063528478 0.002068514 0.032098152 0.0020529395 0.032332886 0.99667823 -0.062214404
899664150.9434 0.99693942 -0.064226717 0.0020832708 0.032460809 0.0020658821 0.032701254 0.99661565 -0.062882602
909660377.35849 0.99691838 -0.064910993 0.0021213298 0.032822665 0.0021494697 0.033039186 0.996889 -0.063763008
919656603.77358 0.99702287 -0.06565477 0.0021480462 0.033134241 0.0021418291 0.033384871 0.99688905 -0.064725861
929652830.18868 0.99702138 -0.066403121 0.0021717465 0.033497445 0.0022037961 0.03372819 0.99666655 -0.065672159
939649056.60377 0.99718219 -0.067097247 0.0022353707 0.033845767 0.0022119917 0.034066927 0.99653941 -0.066485226
949645283.01887 0.99712718 -0.067927748 0.00219726 0.0341857 0.0022087693 0.03443158 0.99626571 -0.067025572
959641509.43396 0.99700624 -0.068630934 0.0022548074 0.034580711 0.0022874558 0.034810897 0.99621999 -0.067558497
969637735.84906 0.99695218 -0.069341093 0.0023249127 0.035002939 0.0023031617 0.035228517 0.99617702 -0.067890882
979633962.26415 0.99671257 -0.070140563 0.0023730674 0.035309359 0.0023938965 0.035545193 0.99625957 -0.068570822
989630188.67925 0.99672896 -0.070656598 0.00241304 0.035654444 0.0024018735 0.035927691 0.99639547 -0.069284171
999626415.09434 0.99684179 -0.07137394 0.0024378449 0.035992466 0.0024822727 0.036297083 0.99635339 -0.070150495
1009622641.5094 0.99676079 -0.07207717 0.002502949 0.036394972 0.0025097979 0.03667514 0.99611551 -0.071018592
1019618867.9245 0.99676609 -0.072965741 0.0025712219 0.036779393 0.0025701625 0.037035458 0.99586433 -0.071953148
1029615094.3396 0.99691832 -0.073948264 0.0026210994 0.0371034 0.0026666652 0.037339807 0.99547201 -0.072563648
1039611320.7547 0.99683601 -0.07485491 0.0026697973 0.037427261 0.0026942827 0.037711289 0.99542749 -0.073271006
1049607547.1698 0.996701 -0.075881913 0.002716138 0.037727479 0.0027363468 0.038049765 0.99540174 -0.073853917
1059603773.5849 0.99649692 -0.076598883 0.0027627088 0.038095187 0.0027727354 0.038358323 0.99540013 -0.074418664
1069600000 0.99628687 -0.07722792 0.0027700849 0.03841497 0.002845576 0.0387251 0.99556613 -0.075203538
1079596226.4151 0.99623722 -0.077813022 0.0027929689 0.038786791 0.0028327587 0.039072197 0.99554533 -0.075927995
1089592452.8302 0.99628496 -0.078519285 0.0028265631 0.039150849 0.0028802017 0.039444778 0.99540895 -0.076707482
1099588679.2453 0.99630117 -0.07912603 0.0028548744 0.039498925 0.0029067826 0.039765194 0.99510241 -0.077412158
1109584905.6604 0.99639893 -0.07994771 0.0028487425 0.039873432 0.0029407907 0.040136158 0.99475783 -0.077950612
1119581132.0755 0.99631888 -0.081037931 0.0028730645 0.040209968 0.0029687872 0.040546253 0.99460763 -0.078369439
1129577358.4906 0.99613172 -0.081878275 0.002923375 0.040644478 0.0030083396 0.040949792 0.99451733 -0.078894675
1139573584.9057 0.99594712 -0.082875729 0.0029994976 0.041000355 0.0030784747 0.0412881 0.99453044 -0.079640716
1149569811.3208 0.9958092 -0.083782285 0.0030578556 0.041351128 0.003147993 0.041636929 0.99461281 -0.080439217
1159566037.7358 0.99556971 -0.084518164 0.0031179003 0.041672725 0.003181586 0.041985672 0.99481708 -0.081522197
1169562264.1509 0.99530888 -0.085147738 0.0031298082 0.042014822 0.0032167565 0.042354342 0.9945966 -0.082346857
1179558490.566 0.99537164 -0.085890852 0.0031364304 0.042409293 0.003267365 0.042703591 0.99439019 -0.083102882
1189554716.9811 0.99528182 -0.086639315 0.003219218 0.042775221 0.0033380045 0.043092825 0.99411464 -0.083624631
1199550943.3962 0.9952265 -0.087502003 0.0032490175 0.043150779 0.003352724 0.043465659 0.99394929 -0.083996028
1209547169.8113 0.99501401 -0.088424504 0.0033233957 0.043533765 0.0034245877 0.043815468 0.99390876 -0.084396705
1219543396.2264 0.99485481 -0.089357585 0.0033513093 0.04392267 0.0034955861 0.044209287 0.99392831 -0.084805846
1229539622.6415 0.99452621 -0.090170681 0.0034482237 0.044247605 0.0035552122 0.044591133 0.99410343 -0.085573643
1239535849.0566 0.99421722 -0.090893954 0.0035260646 0.044606421 0.0036477977 0.044933505 0.99419624 -0.08656162
1249532075.4717 0.99395168 -0.091596246 0.0035857225 0.044961076 0.0037050336 0.045263518 0.99401885 -0.087425143
1259528301.8868 0.99373221 -0.092065483 0.003613567 0.045299821 0.0037811752 0.045595057 0.99372423 -0.088397801
1269524528.3019 0.9935385 -0.09293282 0.0037345272 0.045668662 0.0038995743 0.045947731 0.99342716 -0.089075267
1279520754.717 0.99316484 -0.093652584 0.0037663924 0.045985799 0.0039096484 0.046212878 0.993164 -0.089631423
1289516981.1321 0.99300712 -0.094482094 0.0038079098 0.046270926 0.0039521074 0.046575751 0.99319893 -0.090082169
1299513207.5472 0.99261868 -0.095343232 0.0038195737 0.046636667 0.0039903857 0.046919819 0.99337685 -0.09053117
1309509433.9623 0.99228096 -0.096137404 0.0038579023 0.046967849 0.0039891182 0.04723002 0.99343789 -0.091200098
1319505660.3774 0.99173886 -0.096866563 0.003854502 0.047334254 0.0039983829 0.047587361 0.9935205 -0.091878325
1329501886.7925 0.99151015 -0.097546905 0.0038736071 0.047704116 0.0040414371 0.047964446 0.99340028 -0.0929465
1339498113.2075 0.99122721 -0.09805283 0.0039079543 0.048039272 0.0040727416 0.048258096 0.99304503 -0.093644679
1349494339.6226 0.99093157 -0.09870562 0.0038944795 0.048407774 0.0040621096 0.048637133 0.99259907 -0.094293982
1359490566.0377 0.99099112 -0.099322051 0.0039476342 0.048805371 0.0040838141 0.049045354 0.99239779 -0.094884664
1369486792.4528 0.9906835 -0.099925995 0.0039594285 0.049202893 0.0040802937 0.049406983 0.99216157 -0.095408827
1379483018.8679 0.99040645 -0.10052188 0.003998423 0.049613472 0.004129075 0.049794465 0.99229163 -0.095745131
1389479245.283 0.9900614 -0.10105959 0.004074147 0.049993746 0.0041240621 0.050199747 0.99220932 -0.096504211
1399475471.6981 0.98964334 -0.10150689 0.0040992256 0.05041879 0.0041795429 0.050587982 0.992365 -0.097179443
1409471698.1132 0.98924589 -0.10184842 0.0041547967 0.050805643 0.0042368304 0.051000446 0.99237394 -0.09799958
1419467924.5283 0.98909909 -0.10214156 0.0041464064 0.051203478 0.0042807795 0.051398084 0.99210608 -0.098789871
1429464150.9434 0.98896337 -0.10254559 0.0042080693 0.051645689 0.0042865239 0.051819537 0.99198282 -0.099308252
1439460377.3585 0.98908085 -0.10307801 0.0043108705 0.052117713 0.0044054333 0.052318294 0.9917472 -0.099661097
1449456603.7736 0.98907799 -0.10362019 0.0044195531 0.052519023 0.0044786753 0.052726544 0.9916786 -0.100108
1459452830.1887 0.98911041 -0.10452199 0.004575666 0.052946486 0.0046173595 0.053172827 0.99178284 -0.10042411
1469449056.6038 0.9890244 -0.10529476 0.0047589634 0.053310663 0.0047743842 0.053517271 0.991992 -0.10112593
1479445283.0189 0.98892301 -0.10586134 0.0048686462 0.053640649 0.0049201064 0.05387719 0.99199474 -0.10213026
1489441509.434 0.9887982 -0.10639119 0.0050303824 0.05395852 0.0050694626 0.054218799 0.99188405 -0.10300121
1499437735.8491 0.98864233 -0.10670146 0.0051687006 0.054303393 0.0052212384 0.054517858 0.99177337 -0.10382402
1509433962.2642 0.98859221 -0.10717636 0.0052647237 0.054627404 0.0052708983 0.054791704 0.99158704 -0.10458668
1519430188.6792 0.98874551 -0.10785794 0.0053259153 0.054882731 0.0053333659 0.055088013 0.99141484 -0.10518414
1529426415.0943 0.98866773 -0.10843828 0.0054116342 0.055228461 0.0054006148 0.05541227 0.99133313 -0.10560039
1539422641.5094 0.98874968 -0.10937164 0.0054487288 0.055509411 0.0054469975 0.055783834 0.99136859 -0.1060668
1549418867.9245 0.98849046 -0.11021191 0.0055497 0.055847876 0.0055457307 0.056081917 0.99165988 -0.10685675
1559415094.3396 0.98843849 -0.11087525 0.0056174118 0.056129605 0.0055850614 0.056400917 0.9917112 -0.10759732
1569411320.7547 0.98814148 -0.11176062 0.0056512998 0.056440651 0.0056295283 0.056731291 0.99163753 -0.10836418
1579407547.1698 0.98817396 -0.11221416 0.0056897234 0.056721997 0.0056686038 0.057016555 0.99124765 -0.10926595
1589403773.5849 0.98812377 -0.11285779 0.0056850985 0.057051636 0.0056762341 0.057364218 0.99100113 -0.10996893
1599400000 0.98797894 -0.11334077 0.0056947041 0.057389453 0.0056943428 0.05767994 0.99064445 -0.11049229
1609396226.4151 0.98802102 -0.1140106 0.005704965 0.057766926 0.0056967046 0.058031362 0.99042737 -0.11107591
1619392452.8302 0.98806942 -0.11465082 0.005743701 0.058133621 0.0056701321 0.05842232 0.99035913 -0.11155728
1629388679.2453 0.98778009 -0.11536124 0.0057516433 0.058499314 0.0056935456 0.058826707 0.99061155 -0.11211824
1639384905.6604 0.98751509 -0.11609955 0.0057725091 0.058920067 0.0057555204 0.059215892 0.9908973 -0.11300524
1649381132.0755 0.98713481 -0.11676452 0.0058205277 0.05927049 0.0057712421 0.059622642 0.99082589 -0.11396775
1659377358.4906 0.98702788 -0.11763215 0.0058464222 0.0596915 0.0058024377 0.060033306 0.99071586 -0.1148808
1669373584.9057 0.98695827 -0.11816334 0.0058637154 0.060126137 0.0058696051 0.060413271 0.99044299 -0.11554189
1679369811.3208 0.98705173 -0.11875744 0.005955087 0.060532734 0.0059051365 0.060814638 0.99014658 -0.11611283
1689366037.7358 0.98705763 -0.11948168 0.0059847347 0.060943648 0.0059645232 0.061233196 0.98993623 -0.11641756
1699362264.1509 0.98713267 -0.12006193 0.0060872054 0.061329689 0.0060596634 0.061704159 0.99013186 -0.11688544
1709358490.566 0.98704636 -0.1208632 0.006141155 0.061664827 0.0061226999 0.062085457 0.9901908 -0.11750604
1719354716.9811 0.9867357 -0.12152356 0.006282609 0.0621382 0.006182842 0.062506191 0.99021095 -0.11821684
1729350943.3962 0.98639882 -0.12211671 0.0063250568 0.062535234 0.0063054543 0.062933423 0.99023151 -0.11922544
