!Keysight Technologies,N5222B,MY61253708,A.15.00.15
!Date: Wednesday, June 19, 2024 09:33:03
!Correction: S11(C  2-Port  ) 
!S21(C  2-Port  ) 
!S12(C  2-Port  ) 
!S22(C  2-Port  ) 
!S2P File: Measurements: S11, S21, S12, S22:
# Hz S  RI   R 50
10000000 0.99863458 -0.0026643276 4.2886993e-005 -5.5913377e-005 6.1904284e-006 0.00029858443 0.99849772 -0.0013999641
19996226.415094 0.99891913 -0.0022599697 -2.4564506e-005 0.00061879557 -0.00013047518 0.00067354657 0.99902046 -0.0026192367
29992452.830189 0.99973959 -0.0024113655 4.7960784e-006 0.0010489851 1.533606e-005 0.0010116828 0.9994365 -0.0026640296
39988679.245283 1.0000631 -0.0030177534 -2.921572e-005 0.0013256524 2.8372102e-005 0.0013047055 0.99970859 -0.0031235814
49984905.660377 1.0001637 -0.003711015 -1.260452e-005 0.00167725 1.2142758e-005 0.0016897619 0.9998461 -0.0037457943
59981132.075472 1.0003359 -0.0045596063 4.5148307e-005 0.0019864901 5.3309253e-005 0.0020577041 0.9998557 -0.0043357015
69977358.490566 1.0000963 -0.0051458608 2.1498188e-005 0.0022908333 1.4864578e-005 0.0023407771 0.99968851 -0.0048705619
79973584.90566 0.99987721 -0.0056995451 9.5245196e-006 0.0026627546 3.4120167e-005 0.0027033696 0.99934822 -0.0052716434
89969811.320755 0.99990225 -0.0058646202 4.4438755e-005 0.0029968461 1.4545512e-005 0.0030023176 0.9995997 -0.0056091845
99966037.735849 1.0001658 -0.0066120476 3.4158584e-005 0.0033500453 3.9919512e-005 0.003369746 0.99967891 -0.0063491166
109962264.15094 1.0001268 -0.007539615 4.5665656e-005 0.0036769223 2.8549577e-005 0.0037070832 0.99967754 -0.0072053969
119958490.56604 1.0001798 -0.0084568858 5.1716343e-005 0.0040109111 4.3102307e-005 0.0040276763 0.99964803 -0.0080824196
129954716.98113 1.0001092 -0.0094452798 5.0499104e-005 0.0043506739 2.7336529e-005 0.0043594823 0.99967551 -0.0089949071
139950943.39623 1.0000094 -0.010245422 2.5788046e-005 0.0046701925 4.165023e-005 0.0047058179 0.99958146 -0.0097345375
149947169.81132 0.99991703 -0.010946542 7.4918848e-005 0.0049963044 6.1702682e-005 0.0050432542 0.99951994 -0.010334492
159943396.22642 0.9998759 -0.011423737 5.2992254e-005 0.0053384127 5.4280972e-005 0.0053870757 0.99961406 -0.010805309
169939622.64151 0.99988908 -0.011840649 5.8236648e-005 0.0056869653 4.5907334e-005 0.0057239681 0.99968475 -0.011261739
179935849.0566 0.99992996 -0.012089133 5.4193079e-005 0.0059772721 6.1164144e-005 0.0060492745 0.99954522 -0.011630237
189932075.4717 1.0000243 -0.01288721 0.00010161311 0.0063503645 9.874301e-005 0.0063589341 0.99980414 -0.012247443
199928301.88679 1.0000117 -0.01376915 9.2600705e-005 0.0066301753 8.8923727e-005 0.0067217164 0.99968004 -0.013115376
209924528.30189 0.99973524 -0.014293984 9.646127e-005 0.0070281499 0.00012302608 0.0070869541 0.99945521 -0.013784006
219920754.71698 0.99978065 -0.01520896 0.00011274754 0.0073463907 0.00013098237 0.0073855398 0.99930155 -0.014479131
229916981.13208 0.99951965 -0.016071409 0.00011773151 0.0076642623 0.0001092765 0.0077464627 0.99927354 -0.015305072
239913207.54717 0.9994418 -0.016736303 0.00012528614 0.0080125742 0.00010413775 0.0080896392 0.9991855 -0.015979869
249909433.96226 0.99943429 -0.017358541 0.0001429962 0.008329005 0.0001592387 0.008406681 0.99933177 -0.016594291
259905660.37736 0.99957049 -0.017956644 0.00019845972 0.0087014679 0.00016492419 0.0087308455 0.99953479 -0.017155647
269901886.79245 0.9996264 -0.018630967 0.00019950932 0.0090342648 0.0001514632 0.0090462556 0.99979156 -0.017870948
279898113.20755 0.99978685 -0.019141451 0.00017353799 0.0093611619 0.00014108932 0.009418929 0.99961686 -0.018616438
289894339.62264 0.99975044 -0.020031482 0.00023051212 0.0096279997 0.0001903153 0.0097251907 0.99961978 -0.019382954
299890566.03774 0.99975908 -0.020618886 0.00022192695 0.010015034 0.00018508337 0.010110289 0.99937195 -0.019817859
309886792.45283 0.99950552 -0.021011539 0.00023878727 0.010360755 0.000228805 0.010389616 0.99925786 -0.020241797
319883018.86792 0.99951303 -0.021695822 0.000244183 0.010634796 0.00021669315 0.010780429 0.99928689 -0.02073583
329879245.28302 0.99948663 -0.022391558 0.00023968983 0.011000529 0.00023855362 0.011085634 0.99949473 -0.021545857
339875471.69811 0.99944776 -0.023269422 0.00027226261 0.011319692 0.00026918703 0.011459681 0.99937081 -0.02233009
349871698.11321 0.99954826 -0.024029016 0.00026282505 0.011649635 0.00032559317 0.011801966 0.99937397 -0.023292005
359867924.5283 0.99937594 -0.024873555 0.00028962735 0.011951437 0.00029373122 0.012097964 0.99929547 -0.024156362
369864150.9434 0.99956715 -0.025535971 0.00029956619 0.012287319 0.0003125756 0.012431045 0.99936348 -0.024868309
379860377.35849 0.99940747 -0.026304916 0.00033355388 0.012615793 0.00032415171 0.0127914 0.99923056 -0.025523767
389856603.77358 0.99941516 -0.02687183 0.0003772038 0.012960679 0.00034037977 0.013080174 0.99925363 -0.025981486
399852830.18868 0.99907166 -0.027489603 0.00036100065 0.013300017 0.0004016473 0.013443626 0.99933237 -0.026442528
409849056.60377 0.99923497 -0.027897857 0.00039798187 0.013658995 0.00039946623 0.013755152 0.99933845 -0.026937425
419845283.01887 0.99915016 -0.028404295 0.00041346764 0.013979422 0.0003961334 0.014094621 0.99936879 -0.027446151
429841509.43396 0.99914098 -0.029029727 0.00043112505 0.014340296 0.00043231156 0.014411975 0.99954987 -0.02827087
439837735.84906 0.99907589 -0.029973194 0.00043714489 0.014632178 0.00046190259 0.014772521 0.99934798 -0.029284731
449833962.26415 0.99900824 -0.030713081 0.0004908978 0.014943648 0.00050026923 0.015104873 0.99898261 -0.030047119
459830188.67925 0.9988786 -0.031432748 0.00045412127 0.01530173 0.00047379732 0.015397398 0.99882936 -0.03079477
469826415.09434 0.99877566 -0.032300323 0.00048219506 0.015636772 0.00046728412 0.015787264 0.99853051 -0.031395555
479822641.50943 0.99872077 -0.03282585 0.00052245706 0.015996149 0.00049844128 0.016114496 0.99861401 -0.031822138
489818867.92453 0.9988817 -0.033283055 0.00052527245 0.016312599 0.00055601494 0.016455293 0.99888641 -0.032407105
499815094.33962 0.99887347 -0.033967823 0.00053540152 0.016623421 0.00052820798 0.016777657 0.99921775 -0.033046216
509811320.75472 0.99893844 -0.034387507 0.00058213068 0.016963661 0.00059606694 0.017105358 0.99930578 -0.033838343
519807547.16981 0.99892414 -0.034913749 0.00058079278 0.0173184 0.00057388283 0.017468251 0.99926478 -0.034645647
529803773.58491 0.99886429 -0.035533786 0.00061425287 0.017621301 0.00062897895 0.017766092 0.9990294 -0.035241663
539800000 0.99893528 -0.036237627 0.00060745957 0.017940292 0.00062872702 0.01813319 0.99884266 -0.035899699
549796226.41509 0.99881011 -0.037096918 0.00066812057 0.018338321 0.00067837024 0.018450242 0.99867034 -0.03640154
559792452.83019 0.99863052 -0.037767202 0.0006550746 0.018595356 0.00066899229 0.018788233 0.9985494 -0.036837161
569788679.24528 0.99844962 -0.038505435 0.0007106415 0.018970842 0.00070425915 0.019134909 0.99868619 -0.037631363
579784905.66038 0.99845207 -0.039073139 0.00071048713 0.019302091 0.00071332406 0.01945057 0.99884987 -0.038369462
589781132.07547 0.99858689 -0.039690822 0.00073417928 0.019637655 0.00073689036 0.019801158 0.99897313 -0.03925392
599777358.49057 0.99866772 -0.040384948 0.0008141147 0.019969877 0.00078902114 0.020124665 0.99892688 -0.040073723
609773584.90566 0.99884379 -0.041046388 0.00083969603 0.020272082 0.0007998955 0.02047313 0.99883997 -0.040931262
619769811.32075 0.9989692 -0.041689605 0.0008411929 0.020606648 0.00087682763 0.020795831 0.99877691 -0.041473716
629766037.73585 0.99877566 -0.042384267 0.00094381254 0.020905588 0.00087916758 0.021138914 0.99845874 -0.04199037
639762264.15094 0.99856251 -0.043038145 0.00088515598 0.021244643 0.00088779978 0.021446794 0.99842227 -0.042452797
649758490.56604 0.99844152 -0.043632582 0.00091242278 0.021556344 0.00089426059 0.021780703 0.99848068 -0.04292962
659754716.98113 0.99829185 -0.044132888 0.00094914902 0.021901038 0.00092391949 0.022110505 0.99853927 -0.043490469
669750943.39623 0.99832165 -0.044720411 0.00095122494 0.02223316 0.00096687628 0.022457942 0.99856335 -0.04422754
679747169.81132 0.99829656 -0.045417488 0.0009885364 0.022609012 0.00099272502 0.022817103 0.99853867 -0.045216978
689743396.22642 0.99844205 -0.046266764 0.0010322742 0.022949379 0.0010406552 0.023148831 0.99836004 -0.046162516
699739622.64151 0.99855161 -0.047128141 0.0010715956 0.023227766 0.0011115065 0.023462543 0.99827373 -0.046826005
709735849.0566 0.99858302 -0.047941647 0.00110053 0.023580117 0.0011150016 0.023757719 0.99806941 -0.047421634
719732075.4717 0.99841058 -0.048624039 0.0011701328 0.023897637 0.0011577266 0.024099166 0.99813735 -0.048098087
729728301.88679 0.9983809 -0.049210519 0.0011942182 0.024218272 0.0012053372 0.024457127 0.99817926 -0.048464
739724528.30189 0.99820954 -0.049787343 0.0012051943 0.024557697 0.0012230761 0.024779037 0.99833459 -0.049158573
749720754.71698 0.9982053 -0.050343141 0.0012395419 0.024863111 0.001258743 0.025076818 0.99840868 -0.049858913
759716981.13208 0.99822116 -0.05088374 0.0013123816 0.025160108 0.0013033133 0.025396779 0.99829912 -0.050587922
769713207.54717 0.99812078 -0.05159235 0.0013154466 0.02551789 0.0013196496 0.025744285 0.99807155 -0.051353544
779709433.96226 0.99822044 -0.052131612 0.0013331156 0.025870955 0.0013371313 0.026078379 0.99783915 -0.052004982
789705660.37736 0.99812591 -0.053144515 0.0014066817 0.026193278 0.0013989815 0.026351847 0.99761784 -0.052700162
799701886.79245 0.99811161 -0.053949386 0.0014037276 0.026494652 0.0014317418 0.026699897 0.99748576 -0.053317696
809698113.20755 0.99802548 -0.054498732 0.001434525 0.02678518 0.0014514839 0.027039587 0.99748337 -0.053782418
819694339.62264 0.99782956 -0.055176586 0.0014596661 0.027083866 0.0014834716 0.027367763 0.99765831 -0.054374516
829690566.03774 0.99783599 -0.055812895 0.0014966251 0.027444363 0.0014803279 0.027701814 0.99793863 -0.055293798
839686792.45283 0.99798375 -0.056219071 0.0015162681 0.027771011 0.0015228754 0.028051814 0.99795306 -0.056093484
849683018.86792 0.99795187 -0.056881018 0.0015336631 0.028117359 0.001585382 0.028359311 0.99790627 -0.056890585
859679245.28302 0.99799383 -0.057589531 0.001569231 0.02841128 0.0015947325 0.028685175 0.99761176 -0.057523251
869675471.69811 0.99796492 -0.058328032 0.0016107857 0.028733738 0.0016540689 0.029021874 0.9972111 -0.057996422
879671698.11321 0.99789983 -0.058970876 0.0016654304 0.029069247 0.0016730509 0.029330352 0.99725974 -0.058434814
889667924.5283 0.99767041 -0.059802741 0.001699036 0.029352311 0.0017161891 0.029660895 0.99702716 -0.058974117
899664150.9434 0.99742937 -0.060514003 0.0017282208 0.029696599 0.0017255731 0.029990261 0.99715328 -0.059560299
909660377.35849 0.99755585 -0.0612147 0.0017633936 0.029981624 0.0017564497 0.030297419 0.99729753 -0.060492471
919656603.77358 0.99757588 -0.06188041 0.0017710156 0.030366996 0.0017805654 0.030630864 0.99731427 -0.061304331
929652830.18868 0.9975723 -0.062617123 0.0017952854 0.030621361 0.0018288977 0.030938627 0.9971838 -0.062261939
939649056.60377 0.99773604 -0.063201219 0.0017939061 0.030948583 0.0018214229 0.031268943 0.99699438 -0.062921435
949645283.01887 0.9977088 -0.064041555 0.001793075 0.031303793 0.0018321894 0.031608529 0.99678159 -0.063530087
959641509.43396 0.99760932 -0.064781398 0.0018446846 0.03167934 0.0018529482 0.031979322 0.99670744 -0.064006627
969637735.84906 0.99759901 -0.065439433 0.0018995441 0.032021392 0.0019432614 0.0323238 0.99663943 -0.06437552
979633962.26415 0.99741441 -0.066150151 0.0019340622 0.032312252 0.0019661966 0.032615494 0.99671066 -0.064974584
989630188.67925 0.99745458 -0.06666398 0.0019785352 0.032661121 0.002016657 0.032967102 0.99688381 -0.065620959
999626415.09434 0.99741334 -0.067365408 0.0020282324 0.032955054 0.0020638779 0.033283565 0.9968102 -0.066432118
1009622641.5094 0.99753857 -0.06799151 0.0020294804 0.033306442 0.0020701243 0.033656906 0.99664772 -0.067307457
1019618867.9245 0.99750292 -0.068860307 0.0021293303 0.033636305 0.0021683313 0.03397131 0.99642253 -0.06823726
1029615094.3396 0.99755371 -0.069778889 0.002139437 0.03394578 0.0022274582 0.034262095 0.99602211 -0.068764985
1039611320.7547 0.99753886 -0.070599616 0.0021836497 0.034262046 0.0022460083 0.034585923 0.99603105 -0.069416314
1049607547.1698 0.99745417 -0.071520463 0.0022165149 0.034555979 0.0022585657 0.034874339 0.99598247 -0.069963321
1059603773.5849 0.99737865 -0.072106481 0.0022305017 0.034835178 0.0022822414 0.035207931 0.99596119 -0.070600599
1069600000 0.99704975 -0.072764874 0.0022406168 0.035173815 0.0022966918 0.035525132 0.9961496 -0.071286261
1079596226.4151 0.99705815 -0.073462188 0.0022338568 0.03552245 0.0023061847 0.035855457 0.9962014 -0.072034597
1089592452.8302 0.99713099 -0.074118972 0.002299197 0.035833973 0.0023552496 0.036182512 0.99606621 -0.072753787
1099588679.2453 0.99714565 -0.074765027 0.0023083668 0.036171876 0.0023809485 0.036524136 0.99575043 -0.07342419
1109584905.6604 0.99720043 -0.075630561 0.0023286017 0.036509451 0.0024023205 0.03684869 0.99545813 -0.07400699
1119581132.0755 0.99720597 -0.076573119 0.0023613535 0.036848981 0.0024339845 0.037186198 0.99534363 -0.074371979
1129577358.4906 0.99701571 -0.077368647 0.0023835357 0.037201773 0.0024946053 0.037570547 0.99519771 -0.074839652
1139573584.9057 0.99682653 -0.078259915 0.0024373606 0.037514534 0.0025093108 0.037899133 0.99529576 -0.075452089
1149569811.3208 0.99666685 -0.079149753 0.0025095763 0.0378667 0.0025981094 0.038225215 0.99544144 -0.076255947
1159566037.7358 0.99640274 -0.079700887 0.0025504902 0.038179133 0.0026144022 0.038531154 0.99551606 -0.077233255
1169562264.1509 0.99628389 -0.080420703 0.0025449023 0.038468178 0.0026373062 0.038891099 0.99533999 -0.07807979
1179558490.566 0.99623513 -0.0812677 0.0025635837 0.038836461 0.0026739195 0.039242219 0.99519646 -0.078791395
1189554716.9811 0.99624187 -0.081958652 0.0026045768 0.039180115 0.0027365368 0.039558414 0.99487036 -0.079248399
1199550943.3962 0.9962064 -0.08269453 0.0026250333 0.039546877 0.0027518496 0.039912008 0.99482453 -0.079702109
1209547169.8113 0.9960258 -0.083641425 0.0026711319 0.039881133 0.0028060265 0.040238596 0.9947297 -0.080063999
1219543396.2264 0.99583566 -0.084485695 0.0027238852 0.040214028 0.0028389422 0.040586367 0.99477011 -0.080451041
1229539622.6415 0.99552065 -0.085212171 0.0028066058 0.040540464 0.0029377248 0.040921316 0.99487782 -0.081139296
1239535849.0566 0.99534655 -0.085963309 0.0028469954 0.040869627 0.0030434104 0.041258436 0.99503458 -0.082088679
1249532075.4717 0.99497718 -0.086603716 0.0029010046 0.041203052 0.0030532859 0.041539066 0.99480093 -0.082823351
1259528301.8868 0.99482548 -0.0870983 0.0029825866 0.041513134 0.0031139888 0.041843381 0.9945845 -0.083828479
1269524528.3019 0.9946326 -0.087859005 0.0029989108 0.041836027 0.0031622909 0.042175196 0.99436045 -0.084463
1279520754.717 0.99424708 -0.08858183 0.0030963474 0.042126384 0.0032567009 0.04242985 0.99406934 -0.085054301
1289516981.1321 0.99408937 -0.089416444 0.0031140009 0.04238499 0.003251926 0.042769462 0.99410522 -0.085436106
1299513207.5472 0.99379945 -0.090169787 0.0030900445 0.04271546 0.0032300204 0.043063 0.99425834 -0.085817397
1309509433.9623 0.99334109 -0.090938359 0.0031035412 0.043061394 0.0032716971 0.043366104 0.99437433 -0.086570889
1319505660.3774 0.99301732 -0.091629446 0.0031208135 0.043405715 0.0032667946 0.043700274 0.99437869 -0.087249637
1329501886.7925 0.99261808 -0.092256665 0.0031671412 0.043714538 0.0032744613 0.044019386 0.99437624 -0.088163733
1339498113.2075 0.99242085 -0.092822641 0.0031768503 0.044016298 0.0033371318 0.044347525 0.99400473 -0.08888638
1349494339.6226 0.99218076 -0.093439974 0.0031693103 0.044344362 0.0032800469 0.044656251 0.99363798 -0.089512467
1359490566.0377 0.99217153 -0.093929499 0.0031758063 0.044726171 0.0033224877 0.045031585 0.99338424 -0.090073049
1369486792.4528 0.99186665 -0.094509274 0.0031737192 0.045119517 0.0033512991 0.045370106 0.99334306 -0.090421051
1379483018.8679 0.99165893 -0.095064342 0.0032179721 0.0454809 0.0033090943 0.045718443 0.99327868 -0.090797991
1389479245.283 0.99127543 -0.09557876 0.0032691639 0.045827843 0.003355816 0.046134219 0.99330443 -0.09149462
1399475471.6981 0.99081171 -0.095975906 0.0032709446 0.046185654 0.0033633243 0.046510577 0.99336672 -0.092165381
1409471698.1132 0.99054796 -0.096367538 0.0032916539 0.046586983 0.0034330387 0.046874106 0.99348313 -0.092973694
1419467924.5283 0.99043345 -0.09657082 0.0033410694 0.046921864 0.0034292564 0.047246363 0.9932968 -0.093718082
1429464150.9434 0.99029899 -0.097040415 0.003348168 0.04731071 0.003469307 0.047648765 0.99308747 -0.094262987
1439460377.3585 0.99039376 -0.097607389 0.0034446195 0.047806609 0.0035404023 0.048059173 0.99293309 -0.094632119
1449456603.7736 0.99043536 -0.098081604 0.0035569277 0.048221324 0.0036268784 0.048488989 0.99279481 -0.095025301
1459452830.1887 0.99042898 -0.098803669 0.0037178397 0.048597075 0.0037500653 0.048896216 0.99286115 -0.095227659
1469449056.6038 0.99048358 -0.099464238 0.0038436614 0.048919342 0.003904636 0.049218956 0.99316585 -0.095906883
1479445283.0189 0.99027932 -0.099975914 0.0039707031 0.049177408 0.0040412885 0.049547892 0.99313611 -0.09679091
1489441509.434 0.99023378 -0.10059214 0.0041259844 0.049491674 0.0041943006 0.049815811 0.99307758 -0.097617745
1499437735.8491 0.99006909 -0.10087216 0.0042155702 0.04979213 0.0042802077 0.050109513 0.99293476 -0.098571926
1509433962.2642 0.99004507 -0.1014007 0.0042960718 0.050082847 0.0043136287 0.050406486 0.99277306 -0.09927845
1519430188.6792 0.99024397 -0.10185274 0.0044050924 0.050321713 0.0044154748 0.050670132 0.99263251 -0.099781543
1529426415.0943 0.99015224 -0.10267329 0.0044267625 0.050665691 0.0044640563 0.050972804 0.99255216 -0.1002683
1539422641.5094 0.99016035 -0.10344462 0.0044742855 0.050946835 0.0045092306 0.051285822 0.99268401 -0.10066118
1549418867.9245 0.99000907 -0.10424712 0.0045514861 0.051252753 0.0045823455 0.051570676 0.99279374 -0.10151987
1559415094.3396 0.98990887 -0.10482407 0.0046318416 0.051485874 0.0046047438 0.051848978 0.99299729 -0.1020239
1569411320.7547 0.98979264 -0.10560347 0.0046314532 0.051755983 0.0046691587 0.052143127 0.99291641 -0.10289569
1579407547.1698 0.98972869 -0.10608754 0.0046908525 0.052056018 0.0046825418 0.052447915 0.99259913 -0.10371965
1589403773.5849 0.98962724 -0.10666028 0.0046540275 0.052374974 0.0046587884 0.052743327 0.99232805 -0.10442084
1599400000 0.98968393 -0.10714415 0.0046451846 0.052656617 0.0047281198 0.053025492 0.99186695 -0.10492414
1609396226.4151 0.9895885 -0.10785143 0.0046612076 0.052962702 0.0046832832 0.053369056 0.99171007 -0.10544536
1619392452.8302 0.98953348 -0.10849047 0.0046637263 0.05331691 0.0046526343 0.053706825 0.99165022 -0.10585412
1629388679.2453 0.98940879 -0.10910389 0.0046614856 0.053630825 0.0046598036 0.054071032 0.99198639 -0.1063405
1639384905.6604 0.98907083 -0.10973283 0.0046859737 0.054016829 0.0046644118 0.05446424 0.99211937 -0.10722254
1649381132.0755 0.98895597 -0.11038798 0.0046887454 0.054393973 0.004710583 0.054825582 0.99221981 -0.10812506
1659377358.4906 0.98876894 -0.11114475 0.0047369543 0.054780886 0.0047284886 0.055185556 0.99209666 -0.109036
1669373584.9057 0.98867965 -0.11158686 0.0047225379 0.055136748 0.0047524855 0.055585936 0.99186796 -0.10968666
1679369811.3208 0.988711 -0.11233908 0.0048139328 0.055500347 0.004859969 0.055964418 0.99168199 -0.11024028
1689366037.7358 0.988666 -0.11306822 0.0048562009 0.055870999 0.0048723668 0.056353819 0.99141854 -0.11054933
1699362264.1509 0.98894078 -0.11353497 0.0048967125 0.056290343 0.0049307896 0.056721941 0.99158239 -0.11100051
1709358490.566 0.98879319 -0.11428186 0.0049316175 0.05662803 0.0049588634 0.057101451 0.99173838 -0.11141655
1719354716.9811 0.98848379 -0.11487797 0.0049946718 0.05700111 0.0050089899 0.057470113 0.99167907 -0.1122683
1729350943.3962 0.98806667 -0.11547083 0.0051080491 0.057390451 0.00511018 0.057869647 0.99168527 -0.11314297
