!Keysight Technologies,N5222B,MY61253708,A.15.00.15
!Date: Wednesday, June 19, 2024 09:19:28
!Correction: S11(C  2-Port  ) 
!S21(C  2-Port  ) 
!S12(C  2-Port  ) 
!S22(C  2-Port  ) 
!S2P File: Measurements: S11, S21, S12, S22:
# Hz S  RI   R 50
10000000 0.99876112 -0.0026814938 0.00076190825 0.00019923001 4.5358669e-005 0.0005943338 0.99874902 -0.001078397
19996226.415094 0.99905097 -0.0020483732 -3.1993201e-005 0.00072917994 0.00016230097 0.00064029556 0.99914396 -0.0023280978
29992452.830189 0.99967659 -0.0024102032 -8.0502941e-006 0.0011175415 2.2176508e-005 0.0010784524 0.99949867 -0.0026007295
39988679.245283 1.0000407 -0.0030646026 -2.8283364e-005 0.0014179575 4.7633075e-006 0.0013617936 0.99959511 -0.003123343
49984905.660377 1.0001436 -0.0037587881 1.5700352e-006 0.0017011003 -2.085272e-005 0.0016948334 0.99974334 -0.0037182868
59981132.075472 1.0002967 -0.0047317743 -5.2571995e-006 0.0020461879 7.9787569e-006 0.0020264213 0.99971747 -0.0043367445
69977358.490566 1.0000918 -0.0051565487 3.9340372e-005 0.0023990946 2.6987986e-005 0.0023426847 0.99961013 -0.0048773941
79973584.90566 0.99982685 -0.0058309734 3.5583507e-006 0.0027003787 5.5273995e-006 0.0027359203 0.99927372 -0.0054094195
89969811.320755 0.99984229 -0.0060132146 3.0646333e-005 0.0030936443 1.5398138e-005 0.0030567385 0.9995122 -0.0056840181
99966037.735849 1.000041 -0.0067464113 3.9559207e-005 0.0033714201 1.3614539e-005 0.0034344723 0.99956578 -0.0064775497
109962264.15094 1.0000833 -0.0076203346 9.997224e-006 0.0037422255 1.9235478e-005 0.0037735186 0.99956685 -0.0073202699
119958490.56604 1.0000763 -0.008633554 2.5514979e-005 0.0040589329 3.1501288e-005 0.0040866677 0.99959433 -0.0082159042
129954716.98113 1.0000775 -0.0096504092 4.6088709e-005 0.0044108802 2.5987858e-005 0.0044419896 0.99957508 -0.0091382563
139950943.39623 0.99999338 -0.010490421 3.7948834e-005 0.0047468818 5.2933217e-005 0.0047938111 0.99947011 -0.0098852906
149947169.81132 0.99985284 -0.011137128 2.7413946e-005 0.0051081339 6.3837972e-005 0.005138074 0.99942368 -0.010514736
159943396.22642 0.99980491 -0.01163879 8.2318904e-005 0.0054271375 5.6703109e-005 0.005462335 0.99952018 -0.010974109
169939622.64151 0.99977642 -0.0120335 7.0497801e-005 0.0057632443 6.3013809e-005 0.0058340076 0.99959064 -0.011434793
179935849.0566 0.9998374 -0.012278378 7.1805553e-005 0.0060784766 8.2997722e-005 0.0061376221 0.99951518 -0.011830717
189932075.4717 1.0000064 -0.013133436 0.00010333862 0.0064303204 8.5201813e-005 0.0064907018 0.99969471 -0.012433171
199928301.88679 0.99995977 -0.013962984 8.7292749e-005 0.0067919772 7.5304066e-005 0.0068324106 0.99956083 -0.013329387
209924528.30189 0.99966002 -0.014644474 0.00012366485 0.0071326648 0.00015109894 0.0071532205 0.9993611 -0.014043555
219920754.71698 0.9997167 -0.015511036 0.00010400941 0.0074214628 0.00012929877 0.0075234491 0.99919295 -0.014731109
229916981.13208 0.99945736 -0.016354412 0.00012451294 0.0077837389 0.00012018904 0.0078689074 0.99916089 -0.015500128
239913207.54717 0.99941486 -0.01701832 0.00013617204 0.0081372662 0.00011299814 0.0082184393 0.99912983 -0.016261851
249909433.96226 0.99939138 -0.017665625 0.0001498221 0.0084682172 0.00014782813 0.0085550053 0.9991923 -0.016889364
259905660.37736 0.99956381 -0.018262297 0.00017103227 0.0087822676 0.00015601702 0.0088907089 0.99944091 -0.017423213
269901886.79245 0.99962229 -0.018909961 0.00016201613 0.0091461809 0.00024290488 0.0092702946 0.99969113 -0.018106043
279898113.20755 0.99982828 -0.019519642 0.00017321901 0.0094882809 0.00015273737 0.0095690582 0.99955624 -0.018990204
289894339.62264 0.99968058 -0.020328373 0.00020448305 0.0098023163 0.00023408141 0.0098951198 0.99948466 -0.019659638
299890566.03774 0.99952632 -0.020885438 0.00027894904 0.010124443 0.00023688911 0.010213356 0.99923313 -0.020200789
309886792.45283 0.9993754 -0.021446466 0.00023220538 0.010505211 0.00021842076 0.010622408 0.99910146 -0.020549782
319883018.86792 0.99932528 -0.022086859 0.0002223216 0.010841666 0.0002327715 0.010986133 0.99913144 -0.021123946
329879245.28302 0.99939299 -0.022821963 0.00026801042 0.011202503 0.00029951707 0.011254759 0.99925232 -0.021892548
339875471.69811 0.99936318 -0.023574151 0.00030149624 0.011507279 0.00025815028 0.0116481 0.99926507 -0.022636235
349871698.11321 0.9993912 -0.024406552 0.00032003387 0.011850419 0.00029814616 0.011945376 0.9992764 -0.02361986
359867924.5283 0.99927282 -0.025219172 0.00030358229 0.012182193 0.00029963721 0.012290017 0.99922276 -0.024573833
369864150.9434 0.99949592 -0.026055008 0.00033424003 0.012544643 0.00031711278 0.012660396 0.9992829 -0.025211483
379860377.35849 0.99942231 -0.026725277 0.00035306695 0.012901423 0.00034432835 0.012947643 0.99913907 -0.025870815
389856603.77358 0.99935555 -0.027402669 0.00034616143 0.013205279 0.00039226562 0.01328841 0.99912477 -0.026398361
399852830.18868 0.99904919 -0.027986914 0.00042804983 0.013511329 0.00038487185 0.01364057 0.9991951 -0.026805997
409849056.60377 0.99916989 -0.028353535 0.00036773123 0.013844037 0.00038740874 0.014006397 0.99927777 -0.027317729
419845283.01887 0.9990083 -0.028775901 0.000412622 0.014192599 0.00041948771 0.014343788 0.99922645 -0.027879864
429841509.43396 0.99906552 -0.029508084 0.00045060646 0.014537409 0.00042575737 0.014652848 0.99940193 -0.028697908
439837735.84906 0.99907202 -0.030377343 0.00048011623 0.014882931 0.0004983457 0.015012445 0.9992708 -0.029667869
449833962.26415 0.99897897 -0.031277627 0.00044812355 0.01518172 0.00045136828 0.015354748 0.99887592 -0.030529529
459830188.67925 0.998873 -0.03202638 0.00047501409 0.015581718 0.00048823096 0.015675656 0.99865174 -0.031307727
469826415.09434 0.998748 -0.03288886 0.00050447369 0.015887585 0.00047560176 0.016001008 0.99849725 -0.031848043
479822641.50943 0.99871409 -0.033375323 0.0005366453 0.016238855 0.00053940248 0.016409321 0.99855107 -0.032375492
489818867.92453 0.99875295 -0.034043133 0.00055381935 0.016578656 0.00056977523 0.016727185 0.9988181 -0.032809734
499815094.33962 0.99889046 -0.0345985 0.0005909563 0.016891349 0.00061842147 0.01705035 0.99913579 -0.033533275
509811320.75472 0.99897557 -0.034967203 0.00057746377 0.017236045 0.00058596878 0.01736686 0.99925536 -0.034313083
519807547.16981 0.99890977 -0.035511255 0.00062186038 0.017578796 0.00057862699 0.017752839 0.99912465 -0.035190284
529803773.58491 0.99880105 -0.036156058 0.00064841844 0.017895898 0.00062287878 0.018048596 0.99892461 -0.035771787
539800000 0.99891943 -0.036771402 0.00068015372 0.018275246 0.0006516634 0.018403498 0.99877262 -0.03642641
549796226.41509 0.99873698 -0.037795812 0.00068516424 0.018610239 0.00067931321 0.018740609 0.99854004 -0.036964774
559792452.83019 0.99855578 -0.038418055 0.0006932104 0.01892091 0.00071408693 0.019104999 0.99850166 -0.037407577
569788679.24528 0.99834323 -0.039123386 0.00071873469 0.01926635 0.00067435298 0.019468129 0.99856323 -0.038210899
579784905.66038 0.99836969 -0.039692648 0.00077566295 0.019607069 0.00076682481 0.019806901 0.99875706 -0.038952135
589781132.07547 0.99853009 -0.040356219 0.00081663113 0.019965183 0.00080993678 0.020152573 0.99879318 -0.03991136
599777358.49057 0.99860692 -0.041032881 0.00082873274 0.020291872 0.00084380154 0.020474052 0.9988296 -0.040703803
609773584.90566 0.99868685 -0.041757781 0.00085274765 0.020651378 0.00087725703 0.02080819 0.9986698 -0.041570429
619769811.32075 0.99883544 -0.042507648 0.00090311235 0.020974819 0.00094328588 0.021123547 0.99860942 -0.042084098
629766037.73585 0.99866974 -0.043179065 0.00094384607 0.021252245 0.00095314719 0.021452721 0.99846488 -0.042555153
639762264.15094 0.99847263 -0.043841943 0.00097972387 0.021628791 0.00097455666 0.021799928 0.99827337 -0.043061912
649758490.56604 0.99828327 -0.044366047 0.00096905557 0.021924047 0.00097222673 0.022094596 0.99827427 -0.043515876
659754716.98113 0.99816215 -0.044948429 0.00096219685 0.022295192 0.0010181898 0.022493675 0.99835253 -0.044027716
669750943.39623 0.99813509 -0.04542172 0.0010093669 0.022621309 0.0010022647 0.022831475 0.99842006 -0.04490009
679747169.81132 0.998097 -0.046154834 0.001010432 0.022996776 0.0010247331 0.023172131 0.99844223 -0.045928605
689743396.22642 0.99831486 -0.046993077 0.0011156742 0.023300368 0.0011025621 0.023482759 0.99820471 -0.046829104
699739622.64151 0.99846882 -0.047873706 0.0011692597 0.02365642 0.0011408683 0.023841724 0.99816489 -0.047488332
709735849.0566 0.99842149 -0.048804209 0.00116485 0.023943696 0.001176701 0.02416613 0.99787229 -0.048134379
719732075.4717 0.99814522 -0.049456775 0.0011934144 0.024276735 0.0012285584 0.024511255 0.99799001 -0.048758864
729728301.88679 0.99819767 -0.050009996 0.0012693368 0.02461271 0.0012434954 0.024895184 0.99802232 -0.049197763
739724528.30189 0.99811786 -0.050599337 0.0012621148 0.024941625 0.001281675 0.025157465 0.99820501 -0.049848452
749720754.71698 0.99801505 -0.051109195 0.0013372852 0.025240965 0.001308694 0.025479183 0.9982686 -0.050549895
759716981.13208 0.99805975 -0.051617086 0.0013235416 0.025611689 0.0013610208 0.025792226 0.99821162 -0.051347464
769713207.54717 0.99792528 -0.05240941 0.001344271 0.025930826 0.0013776161 0.02613228 0.99789518 -0.052102745
779709433.96226 0.99815536 -0.052984688 0.0014201202 0.026296185 0.0014030066 0.026474278 0.99773264 -0.05272226
789705660.37736 0.99797517 -0.053998917 0.0014294228 0.026612191 0.0014497703 0.026795724 0.99743617 -0.05341512
799701886.79245 0.99795318 -0.054777056 0.0014913706 0.026899785 0.0014931075 0.02714153 0.99737978 -0.054094702
809698113.20755 0.9978683 -0.055411413 0.0015262328 0.027242756 0.0014969222 0.027475314 0.99744421 -0.054549515
819694339.62264 0.99769193 -0.056077272 0.0015326315 0.027579814 0.0015266826 0.027833989 0.99753851 -0.05518949
829690566.03774 0.99772167 -0.056725144 0.0015593609 0.027879056 0.0015298575 0.028143685 0.99772215 -0.056006312
839686792.45283 0.99773759 -0.057114542 0.0015505226 0.028219486 0.0016130954 0.028469311 0.99781805 -0.056898206
849683018.86792 0.99791867 -0.057755426 0.0016272836 0.028553041 0.0016447066 0.028801698 0.997733 -0.057681784
859679245.28302 0.99786997 -0.058449507 0.0016565053 0.028859589 0.0016840762 0.029162761 0.99744511 -0.058242708
869675471.69811 0.99778122 -0.059270144 0.001711796 0.029197887 0.0017130049 0.029455446 0.99704927 -0.058835834
879671698.11321 0.9976697 -0.059920691 0.0017685147 0.02955021 0.0017557486 0.029796138 0.99706453 -0.059262156
889667924.5283 0.99748373 -0.060745418 0.0017796922 0.029869759 0.001765932 0.030143239 0.99696934 -0.059858739
899664150.9434 0.99731362 -0.061482787 0.0017987583 0.030163586 0.0017967653 0.03046494 0.99698496 -0.060413152
909660377.35849 0.9973731 -0.062168613 0.0018362817 0.030494211 0.0018117358 0.030793432 0.99711698 -0.061352313
919656603.77358 0.99741393 -0.062866405 0.0018661544 0.030830024 0.0018963497 0.031133067 0.99707204 -0.0622316
929652830.18868 0.99741441 -0.06357491 0.0018907404 0.031158941 0.0019037528 0.031428259 0.99691188 -0.06307587
939649056.60377 0.99754131 -0.064200908 0.0019028997 0.031451877 0.0019127019 0.031751897 0.99678719 -0.063843578
949645283.01887 0.99752939 -0.065042086 0.0018741339 0.031796403 0.0019140175 0.032113068 0.99662781 -0.064429343
959641509.43396 0.99741727 -0.065747797 0.0019370075 0.032196503 0.0019685999 0.03245477 0.99643338 -0.06489417
969637735.84906 0.997338 -0.066480577 0.0019881399 0.032545283 0.0020249691 0.032807946 0.99650121 -0.065241843
979633962.26415 0.99719959 -0.067239501 0.0020410095 0.032869376 0.002072081 0.033140175 0.99654496 -0.065973029
989630188.67925 0.99719203 -0.067698061 0.0020729434 0.033153571 0.0021055695 0.03350151 0.99675226 -0.066604882
999626415.09434 0.99723816 -0.06837073 0.0021024123 0.033492766 0.002166165 0.033822782 0.99661028 -0.067390472
1009622641.5094 0.99728513 -0.068912253 0.0021494208 0.033859052 0.0021744622 0.034163084 0.99645799 -0.068307951
1019618867.9245 0.99738193 -0.069856614 0.0022008247 0.034157779 0.0022693537 0.034488525 0.9962126 -0.069180384
1029615094.3396 0.99739075 -0.070821196 0.0022551697 0.034523033 0.0023108646 0.034777228 0.99582064 -0.06969583
1039611320.7547 0.99737126 -0.071739942 0.0022776229 0.034814812 0.0023289528 0.035111424 0.99576586 -0.070470452
1049607547.1698 0.99725974 -0.072570093 0.0023336348 0.035139989 0.0023274822 0.03543026 0.99579102 -0.070944265
1059603773.5849 0.99701989 -0.073345393 0.0023540491 0.035427593 0.0023752758 0.035743333 0.9957583 -0.071471363
1069600000 0.99684274 -0.073975027 0.0023615714 0.035721913 0.002392618 0.036067631 0.99592328 -0.072325855
1079596226.4151 0.99680722 -0.074604571 0.0023588715 0.036072318 0.002467691 0.036409814 0.9959321 -0.073048063
1089592452.8302 0.99684107 -0.07522288 0.0024133557 0.036421165 0.0024650097 0.036758009 0.99582511 -0.073840559
1099588679.2453 0.9969334 -0.075907528 0.0024344847 0.036775887 0.0024813022 0.037091807 0.99546218 -0.074428618
1109584905.6604 0.99701202 -0.076705039 0.0024235314 0.037121326 0.0025417833 0.03745446 0.99522734 -0.074934959
1119581132.0755 0.99700391 -0.077840269 0.0024798075 0.037431702 0.0025406517 0.037782967 0.99503624 -0.075370342
1129577358.4906 0.99678981 -0.078590363 0.0025076941 0.037806969 0.0025605466 0.038170617 0.99501884 -0.075859427
1139573584.9057 0.99650115 -0.079491645 0.002546425 0.03815604 0.0026419507 0.038493682 0.99509728 -0.076556712
1149569811.3208 0.99635947 -0.08035934 0.0026291695 0.038476788 0.0026968874 0.038814932 0.99519271 -0.07736674
1159566037.7358 0.99613988 -0.080946714 0.0026614536 0.038801935 0.0027516438 0.039152935 0.99528211 -0.078360766
1169562264.1509 0.99596757 -0.081710666 0.002651535 0.039119031 0.0027363822 0.039479706 0.99503863 -0.07916075
1179558490.566 0.99587703 -0.082429059 0.0026693549 0.03943852 0.0027848934 0.039862894 0.99495357 -0.079902805
1189554716.9811 0.99593401 -0.083102375 0.0027051568 0.039816126 0.0028581815 0.040160444 0.9946422 -0.080381721
1199550943.3962 0.9959076 -0.083975643 0.0027474519 0.040186614 0.0028756913 0.040524848 0.99444318 -0.080836207
1209547169.8113 0.99576598 -0.084859118 0.0027946113 0.040515263 0.0029140878 0.040835224 0.99438262 -0.08110337
1219543396.2264 0.99552619 -0.085725754 0.0028470904 0.040889367 0.002973841 0.041234937 0.99448282 -0.081587881
1229539622.6415 0.99516177 -0.086568981 0.0029333513 0.041225627 0.0030382834 0.041571483 0.99459893 -0.082278073
1239535849.0566 0.99497008 -0.087247014 0.0029957006 0.041515145 0.0031265281 0.04192584 0.99473995 -0.083232045
1249532075.4717 0.99467832 -0.087937362 0.0030702662 0.041864425 0.0031955068 0.042221054 0.99447852 -0.084022745
1259528301.8868 0.99445748 -0.088374197 0.0031046104 0.042203095 0.0032325648 0.042537209 0.9942053 -0.084944516
1269524528.3019 0.99427629 -0.089104086 0.0031586234 0.042529043 0.0032991096 0.042816162 0.9940272 -0.085634977
1279520754.717 0.9940117 -0.089900635 0.0032224336 0.042796183 0.0033795796 0.043121193 0.99381816 -0.08613389
1289516981.1321 0.99383777 -0.090730041 0.0032339348 0.043090083 0.0033641662 0.043428279 0.9938674 -0.086604148
1299513207.5472 0.99350595 -0.091548651 0.0032521263 0.04345246 0.0033823159 0.04374823 0.99398482 -0.087038934
1309509433.9623 0.99303186 -0.092221469 0.0032702601 0.043733332 0.0034105657 0.044055004 0.99404383 -0.08779934
1319505660.3774 0.99264401 -0.092977494 0.0032876143 0.044074159 0.0034199515 0.044393126 0.99405116 -0.088437572
1329501886.7925 0.99235851 -0.093626738 0.0033130404 0.044410422 0.0034548528 0.04469534 0.99408346 -0.089372158
1339498113.2075 0.99208361 -0.094200373 0.0033328477 0.044749625 0.0034598727 0.045024842 0.99363875 -0.090139538
1349494339.6226 0.99185413 -0.094754778 0.003281774 0.045077465 0.0034790779 0.045376245 0.99328452 -0.090726711
1359490566.0377 0.99186575 -0.095319241 0.0033131633 0.045486853 0.0034295935 0.045768037 0.99309099 -0.091263473
1369486792.4528 0.99159026 -0.095796973 0.0033319965 0.045779541 0.0034905281 0.046120852 0.99288768 -0.09168011
1379483018.8679 0.99128026 -0.09641175 0.0033568803 0.046184309 0.0034792316 0.046479244 0.99290234 -0.092098586
1389479245.283 0.99095201 -0.097024411 0.0034101419 0.046541546 0.0035316031 0.046840258 0.99289727 -0.092757434
1399475471.6981 0.99046791 -0.097288996 0.0034359507 0.046945143 0.0035503209 0.047205113 0.99309891 -0.093405247
1409471698.1132 0.99017251 -0.097830124 0.0034442148 0.047289949 0.0035653603 0.047589917 0.99306363 -0.094288684
1419467924.5283 0.99007559 -0.098035008 0.0034846449 0.047673021 0.0035900641 0.04797874 0.99289 -0.095008641
1429464150.9434 0.98988146 -0.09843424 0.003549993 0.048097953 0.0036594886 0.048382279 0.99273503 -0.095543772
1439460377.3585 0.99008447 -0.098878607 0.003621893 0.048527084 0.0037107216 0.048815813 0.99255526 -0.09584333
1449456603.7736 0.99005252 -0.099493235 0.0037494525 0.048983987 0.0038016606 0.049245879 0.99234271 -0.096199572
1459452830.1887 0.99000484 -0.10021642 0.0038968381 0.049380437 0.0039555598 0.049601339 0.99251747 -0.096510977
1469449056.6038 0.99013197 -0.10090744 0.0040090177 0.049697977 0.0041000005 0.049994327 0.99275684 -0.097244769
1479445283.0189 0.98991531 -0.10160691 0.0042041019 0.049961604 0.004193075 0.050288972 0.99278581 -0.098223373
1489441509.434 0.98986065 -0.10209131 0.0042891167 0.050308295 0.0043472871 0.050613105 0.9926511 -0.099015981
1499437735.8491 0.98967081 -0.10242617 0.0044075567 0.050606761 0.0044673625 0.050890863 0.99259293 -0.099859744
1509433962.2642 0.98964041 -0.10283659 0.0045104595 0.05087544 0.0045552775 0.051165909 0.99230659 -0.10062765
1519430188.6792 0.98980403 -0.10334161 0.0045669358 0.051147211 0.0045924354 0.051462337 0.99228656 -0.1011939
1529426415.0943 0.98972249 -0.10406962 0.0046081915 0.051435299 0.0046212729 0.051729135 0.99213284 -0.10149667
1539422641.5094 0.98980826 -0.10491724 0.0046609221 0.051764 0.0046615498 0.052053574 0.99226916 -0.10203944
1549418867.9245 0.98955017 -0.10574009 0.0047607506 0.052007731 0.0047687832 0.052379183 0.9924767 -0.10272934
1559415094.3396 0.98945481 -0.10647312 0.004794389 0.052306309 0.0047880206 0.052652482 0.992553 -0.10349429
1569411320.7547 0.98932189 -0.10717513 0.0048331087 0.052600615 0.0048314417 0.052952547 0.99255294 -0.10429338
1579407547.1698 0.98921633 -0.10770552 0.0048673013 0.052845713 0.0048505981 0.053267796 0.99204624 -0.10517809
1589403773.5849 0.98907655 -0.10824558 0.0048940741 0.053192947 0.0049027652 0.053548343 0.99189281 -0.105887
1599400000 0.98909867 -0.10871184 0.0048900563 0.053485915 0.0048794821 0.053837616 0.99148774 -0.10634467
1609396226.4151 0.9890818 -0.10934253 0.0048597632 0.05384076 0.0048613474 0.054198571 0.99133861 -0.10680296
1619392452.8302 0.98911536 -0.10998446 0.0049455091 0.054185882 0.0048617199 0.054527633 0.99127626 -0.10727063
1629388679.2453 0.9887861 -0.11071369 0.004901167 0.054498751 0.0048649535 0.054904379 0.99155551 -0.10777923
1639384905.6604 0.9886505 -0.11130387 0.0048936442 0.05488316 0.0048970776 0.055301059 0.99176192 -0.10870094
1649381132.0755 0.98848736 -0.11204135 0.0049219131 0.055252202 0.0049352404 0.055647321 0.99173349 -0.10956714
1659377358.4906 0.98827863 -0.11277029 0.0049141236 0.055621468 0.0049729608 0.056056418 0.99161828 -0.11050045
1669373584.9057 0.9882164 -0.11327475 0.0049779667 0.055999666 0.0049939225 0.056435652 0.99132645 -0.11111339
1679369811.3208 0.98827893 -0.1139946 0.0050371764 0.056422133 0.004985271 0.056812581 0.99114794 -0.11169988
1689366037.7358 0.98826683 -0.11454448 0.0050880387 0.056714714 0.0050402228 0.057207152 0.99094814 -0.11191732
1699362264.1509 0.98848182 -0.11517666 0.0051315436 0.057161283 0.0051295208 0.057603698 0.99115932 -0.11248569
1709358490.566 0.98825377 -0.11588636 0.0051943436 0.057519991 0.0052063009 0.057972614 0.99112231 -0.11303014
1719354716.9811 0.98805171 -0.11651221 0.0052807089 0.057877067 0.005239835 0.058355689 0.99123847 -0.11373845
1729350943.3962 0.9876973 -0.11709249 0.0053298902 0.058286306 0.0053205285 0.058761064 0.99119616 -0.11464748
