!Keysight Technologies,N5222B,MY61253708,A.15.00.15
!Date: Wednesday, June 19, 2024 10:12:39
!Correction: S11(C  2-Port  ) 
!S21(C  2-Port  ) 
!S12(C  2-Port  ) 
!S22(C  2-Port  ) 
!S2P File: Measurements: S11, S21, S12, S22:
# Hz S  RI   R 50
10000000 0.99841106 -0.0031100512 -0.00013020197 -6.63221e-006 7.9351354e-005 0.00034534547 0.9984805 -0.0010455549
19996226.415094 1.0002162 -0.0024443865 6.2868639e-006 0.00077592325 7.2255934e-005 0.00056511129 1.0004547 -0.0025141239
29992452.830189 0.99967092 -0.0024962723 1.592646e-005 0.00098233623 1.6417471e-007 0.00092715968 0.99950659 -0.0026875138
39988679.245283 1.0000148 -0.0030006766 -3.7906517e-005 0.0013053135 -5.5675118e-005 0.0012800461 0.99968916 -0.0030484945
49984905.660377 1.0001981 -0.0036293864 -4.092569e-005 0.00164846 3.0739e-005 0.0016446223 0.99993765 -0.0035921037
59981132.075472 1.0004479 -0.0044721961 4.5231427e-006 0.0019413794 4.0827203e-005 0.0019484137 0.99989867 -0.0041282177
69977358.490566 1.0002273 -0.005115198 7.5571348e-005 0.0022822078 2.1753513e-005 0.0023226792 0.99977851 -0.0046475809
79973584.90566 0.99996185 -0.0056904852 6.4680353e-007 0.0025759875 2.1688757e-005 0.0026153938 0.99940443 -0.005158931
89969811.320755 0.99999714 -0.005735904 -3.090105e-005 0.0029327567 2.3932545e-005 0.0029485766 0.99966586 -0.0053801537
99966037.735849 1.0002415 -0.0065372437 7.4020936e-006 0.0032671767 2.1931774e-005 0.0032948782 0.99977267 -0.0061501116
109962264.15094 1.0002309 -0.0074020475 3.1451345e-005 0.0035784831 2.402364e-005 0.0036302865 0.99975395 -0.0069231689
119958490.56604 1.0002363 -0.008251369 4.3762731e-005 0.0039190557 3.1508389e-005 0.0039543831 0.99977195 -0.0077576041
129954716.98113 1.0001827 -0.0091918111 3.2177544e-005 0.0042409054 3.4672557e-005 0.0042500147 0.99978429 -0.0086127222
139950943.39623 1.0001067 -0.0099778324 5.9054248e-005 0.004553603 2.9913543e-005 0.0045965756 0.99968785 -0.0093304031
149947169.81132 0.99999732 -0.010703623 5.1597599e-005 0.0048964936 6.4714113e-005 0.0049138442 0.99966735 -0.0099334717
159943396.22642 0.99995077 -0.011272222 6.5810047e-005 0.0052130446 4.3461565e-005 0.0052561187 0.99970835 -0.010400355
169939622.64151 0.99988735 -0.011653654 6.1803963e-005 0.0055416361 5.5138604e-005 0.0055772532 0.99972546 -0.010836899
179935849.0566 1.0000201 -0.011874378 7.419067e-005 0.005870048 6.7030778e-005 0.0059204055 0.99964619 -0.01121065
189932075.4717 1.0001115 -0.012693197 9.2177652e-005 0.0061856462 8.8059343e-005 0.0062425975 0.99985564 -0.011729062
199928301.88679 1.0000395 -0.013431579 6.2876148e-005 0.0065257135 7.2316849e-005 0.0065447032 0.99978966 -0.01265049
209924528.30189 0.99976671 -0.013939261 8.0903061e-005 0.0068530929 0.00010390487 0.0068721743 0.99953508 -0.013261348
219920754.71698 0.99997878 -0.014748991 0.0001231276 0.0071832053 0.00011744071 0.0072199502 0.99943936 -0.013867289
229916981.13208 0.99978828 -0.015681803 0.00012696511 0.0075147571 0.00010606064 0.0075438856 0.99943733 -0.01462689
239913207.54717 0.99967182 -0.016358996 0.00013195662 0.0078218132 0.0001264952 0.007851582 0.99937356 -0.015353192
249909433.96226 0.9996683 -0.016947001 0.00012068404 0.0081426827 0.00013500499 0.0081845745 0.99946761 -0.015966892
259905660.37736 0.99973601 -0.017516106 9.5073599e-005 0.0084862988 0.00016052835 0.0084948782 0.99960446 -0.016457587
269901886.79245 0.99981654 -0.018143654 0.0001275125 0.0087775132 0.00010927441 0.0088069644 0.99999225 -0.017274946
279898113.20755 0.99991775 -0.01888068 0.00021893089 0.0091258474 0.00018960307 0.0091809528 0.99984676 -0.017916769
289894339.62264 0.99983025 -0.019513369 0.00022681104 0.0094221197 0.00014235638 0.0095040528 0.99976707 -0.018633306
299890566.03774 0.99979937 -0.020156592 0.00017150352 0.009778183 0.00017797947 0.009824031 0.99947339 -0.019117624
309886792.45283 0.99963701 -0.020633824 0.00017454207 0.010119358 0.00019725843 0.010160888 0.99941474 -0.019512601
319883018.86792 0.99971807 -0.021328777 0.00024357624 0.010435785 0.00025482988 0.01049383 0.99964184 -0.020026565
329879245.28302 0.99967939 -0.02211079 0.00021662703 0.010734326 0.00021700794 0.010813662 0.99971199 -0.020828784
339875471.69811 0.99958336 -0.022704288 0.00026589783 0.011057807 0.00025626039 0.011124471 0.99967206 -0.021577045
349871698.11321 0.99973649 -0.023643672 0.0002836904 0.011420401 0.00024633622 0.011442837 0.99967539 -0.02251789
359867924.5283 0.99958098 -0.024319351 0.00028411765 0.011735432 0.00028669368 0.011803361 0.99959981 -0.023395449
369864150.9434 0.99977762 -0.025131345 0.00028506923 0.012050655 0.0003003329 0.012126435 0.99960494 -0.024132758
379860377.35849 0.99958724 -0.025819123 0.00030720304 0.012368287 0.00034620403 0.012489403 0.99952251 -0.024805173
389856603.77358 0.99949354 -0.026437044 0.00031997915 0.012729231 0.00035987608 0.01272417 0.99950349 -0.025302678
399852830.18868 0.99930525 -0.027019262 0.00036320323 0.013025079 0.00031628879 0.01308548 0.99949378 -0.025863141
409849056.60377 0.9993934 -0.027506012 0.00037103929 0.013309156 0.00035241552 0.013423514 0.99943769 -0.026367122
419845283.01887 0.99934554 -0.027841479 0.00038407184 0.013680496 0.00033834018 0.013769403 0.99938488 -0.02692318
429841509.43396 0.99936092 -0.028571337 0.00040950719 0.014015073 0.00040265312 0.014080101 0.99950004 -0.027571738
439837735.84906 0.99920785 -0.029439613 0.00041780039 0.014321678 0.00043913338 0.014390661 0.99928862 -0.028544888
449833962.26415 0.99909312 -0.030218333 0.00042327261 0.014661916 0.00044520944 0.014668779 0.99882329 -0.029348224
459830188.67925 0.99896497 -0.030937761 0.000418582 0.014945287 0.0004080669 0.015038446 0.99858856 -0.030041605
469826415.09434 0.99888951 -0.031616956 0.00044190651 0.015275431 0.00041693961 0.015381762 0.99830234 -0.030479014
479822641.50943 0.99883896 -0.032191373 0.00048198435 0.015639694 0.00050259114 0.01571371 0.99829495 -0.03085573
489818867.92453 0.99895704 -0.032757789 0.00050473539 0.015935527 0.00051631406 0.015996931 0.99859589 -0.031345159
499815094.33962 0.99892491 -0.033297747 0.00053763809 0.016275685 0.0005422621 0.016340218 0.99886543 -0.031879991
509811320.75472 0.99909097 -0.033741161 0.00058603229 0.01659408 0.00051628903 0.016672507 0.99895692 -0.032611169
519807547.16981 0.99897635 -0.034267187 0.00057561649 0.016914949 0.00054604327 0.016983593 0.99895561 -0.033282638
529803773.58491 0.99900824 -0.034843951 0.00054910965 0.017259985 0.00058411155 0.017325211 0.99876118 -0.033859789
539800000 0.99908805 -0.035522267 0.00058745896 0.017566444 0.00056352257 0.017618917 0.99860615 -0.034452528
549796226.41509 0.99895084 -0.036301225 0.00062492164 0.017911825 0.00060058618 0.017970521 0.99858695 -0.034840494
559792452.83019 0.99870229 -0.037002712 0.00062858965 0.018198302 0.00064580794 0.018261112 0.99855691 -0.035348356
569788679.24528 0.99861586 -0.037684292 0.00063055521 0.018546972 0.00067803962 0.018613029 0.99870467 -0.036113203
579784905.66038 0.99861574 -0.03823518 0.00070314202 0.018904455 0.00067960878 0.018938156 0.99883038 -0.036777683
589781132.07547 0.99874616 -0.03888914 0.00065333303 0.019182645 0.00070543587 0.019288614 0.99891889 -0.037604272
599777358.49057 0.99885976 -0.039510697 0.00074595679 0.019522864 0.0007458413 0.0196128 0.99904656 -0.038440138
609773584.90566 0.99896938 -0.040269949 0.00078937015 0.019857934 0.00079179159 0.019957673 0.99882078 -0.039223567
619769811.32075 0.99903518 -0.041031927 0.00080897892 0.020192243 0.00078023877 0.02026285 0.9988004 -0.039682299
629766037.73585 0.99892479 -0.041628689 0.00085970294 0.020474404 0.00081917364 0.02056068 0.99861407 -0.040281892
639762264.15094 0.99871659 -0.042214617 0.00085947569 0.020771217 0.000887512 0.020870889 0.99852669 -0.040752009
649758490.56604 0.99872029 -0.042845935 0.00087970262 0.02106653 0.00086313812 0.021210195 0.99865597 -0.041157097
659754716.98113 0.99852788 -0.04332605 0.0008601509 0.021450363 0.00085994415 0.021553354 0.99867326 -0.041786671
669750943.39623 0.99864334 -0.04381606 0.00090643484 0.021788498 0.0009055906 0.02186163 0.99880475 -0.042499453
679747169.81132 0.99848163 -0.044555679 0.000929576 0.022126528 0.0009424896 0.022254959 0.99877679 -0.043499999
689743396.22642 0.99871588 -0.045347005 0.0010086047 0.022455426 0.00099159963 0.02255889 0.99865711 -0.044382155
699739622.64151 0.99880266 -0.046181858 0.0010464489 0.022759011 0.0010301098 0.022860959 0.99855697 -0.045010865
709735849.0566 0.99877322 -0.046982549 0.0010737772 0.023085056 0.0010884716 0.023165401 0.99837041 -0.045677207
719732075.4717 0.99867457 -0.047741354 0.0011097835 0.023369163 0.0010869666 0.023472108 0.9983896 -0.046390384
729728301.88679 0.99854004 -0.048261285 0.0011280375 0.023687392 0.0010962095 0.023766996 0.99846327 -0.046795309
739724528.30189 0.99843609 -0.048880845 0.0011364436 0.024048168 0.0011602496 0.024140723 0.99861306 -0.047552109
749720754.71698 0.99832678 -0.04941614 0.0011887965 0.024345474 0.0011893716 0.024436858 0.99861544 -0.048188508
759716981.13208 0.99844664 -0.049987257 0.0012242896 0.024629284 0.0012095748 0.024786875 0.99859232 -0.048969924
769713207.54717 0.998335 -0.050629586 0.0012555299 0.02497223 0.0012291539 0.025083082 0.99829543 -0.049631238
779709433.96226 0.99849701 -0.051279571 0.0012692276 0.025283879 0.0012728499 0.025395613 0.99804831 -0.050300445
789705660.37736 0.99839175 -0.052144796 0.0013344828 0.025584025 0.0013064491 0.025708321 0.99783039 -0.051023304
799701886.79245 0.99832308 -0.052924573 0.0013540657 0.025890633 0.0013136547 0.02604739 0.99773526 -0.051561058
809698113.20755 0.9982447 -0.053517982 0.0013635652 0.026212841 0.0013602595 0.026358435 0.99769294 -0.051965252
819694339.62264 0.99807006 -0.0541327 0.0013777618 0.026537428 0.0013696072 0.026688198 0.99777085 -0.05266276
829690566.03774 0.99796963 -0.054733247 0.0013907868 0.026847411 0.0014081616 0.027006101 0.99790782 -0.05351606
839686792.45283 0.9980799 -0.055202425 0.0014312593 0.027186034 0.0014636866 0.027332412 0.99800438 -0.054272473
849683018.86792 0.99816841 -0.055877641 0.0014709488 0.027494464 0.0014692401 0.027636968 0.99791139 -0.054980941
859679245.28302 0.99824595 -0.056565404 0.0014991062 0.027815171 0.0014971932 0.0279852 0.99767905 -0.055583507
869675471.69811 0.99815607 -0.05730781 0.0015412709 0.028142318 0.0015473682 0.028295081 0.99726814 -0.056111991
879671698.11321 0.99805337 -0.057954267 0.0016002053 0.028449753 0.001563627 0.028568242 0.99730784 -0.05648775
889667924.5283 0.99786079 -0.058667272 0.0016051885 0.02874298 0.0016316427 0.028897736 0.99709266 -0.056961805
899664150.9434 0.99774873 -0.059399992 0.0016286839 0.029032446 0.0016338499 0.029183149 0.99719852 -0.057602644
909660377.35849 0.99772948 -0.059948057 0.0016738144 0.029384403 0.0016425028 0.0295277 0.99732035 -0.058422267
919656603.77358 0.9977749 -0.060683444 0.0016681664 0.029728165 0.0016728565 0.029827833 0.9972834 -0.059269711
929652830.18868 0.99778801 -0.061454594 0.00169905 0.030016977 0.0016874243 0.030153627 0.99716055 -0.060081512
939649056.60377 0.99791884 -0.062023044 0.0016832659 0.030296944 0.0017263042 0.030465703 0.99703258 -0.06082049
949645283.01887 0.99787408 -0.062895566 0.0016837086 0.030652747 0.0016997452 0.030808533 0.99676472 -0.061296165
959641509.43396 0.99787635 -0.063540399 0.0017451122 0.030998131 0.0017698454 0.031126983 0.99677825 -0.061840236
969637735.84906 0.99773884 -0.064193368 0.0017864294 0.031345047 0.0018250234 0.031487674 0.99677813 -0.062190831
979633962.26415 0.99757171 -0.064943813 0.0018512695 0.031649008 0.0018459659 0.031792171 0.99676716 -0.062848389
989630188.67925 0.99766272 -0.065445393 0.0019079475 0.031938776 0.0018643988 0.032128889 0.99698329 -0.06340161
999626415.09434 0.99769473 -0.066148609 0.0019094897 0.032280196 0.0019137654 0.032458704 0.99693561 -0.064183414
1009622641.5094 0.9977544 -0.066637293 0.0019184793 0.032592271 0.0019514896 0.032787025 0.996831 -0.064962849
1019618867.9245 0.99780637 -0.067464441 0.0019944473 0.03292419 0.0020580189 0.033125386 0.99661458 -0.065823853
1029615094.3396 0.99779916 -0.068365335 0.00203152 0.033214815 0.0020793034 0.033390377 0.99619389 -0.066349715
1039611320.7547 0.99778545 -0.06925559 0.0020834971 0.03351859 0.002074331 0.033681154 0.99618518 -0.066979855
1049607547.1698 0.99769771 -0.070101194 0.0021081874 0.033842899 0.0021196622 0.034009889 0.99618375 -0.067570835
1059603773.5849 0.99764246 -0.070783913 0.00213084 0.034129702 0.0021283822 0.034298223 0.99612749 -0.068133593
1069600000 0.99741578 -0.071484983 0.002128101 0.034426901 0.0021556094 0.034630533 0.99630761 -0.06883952
1079596226.4151 0.99737626 -0.072063729 0.0021551978 0.034777902 0.0021963501 0.034935739 0.99629062 -0.069610782
1089592452.8302 0.9974488 -0.072779447 0.0021660225 0.035097681 0.0022194339 0.035253804 0.99633855 -0.070345163
1099588679.2453 0.99751717 -0.073414415 0.002151031 0.035420492 0.0022145547 0.035582405 0.99596828 -0.070918381
1109584905.6604 0.99758255 -0.074308842 0.0021941075 0.035732549 0.0022482648 0.035967831 0.99580741 -0.071511135
1119581132.0755 0.99758422 -0.075119793 0.0022285492 0.036078803 0.0022292011 0.036289334 0.99557865 -0.071913645
1129577358.4906 0.99737644 -0.075916886 0.0022573676 0.036430225 0.0023052376 0.036634937 0.9955017 -0.072333902
1139573584.9057 0.99715477 -0.076753587 0.0022893967 0.036748126 0.0023359116 0.036940079 0.9956404 -0.072981417
1149569811.3208 0.99704576 -0.077514075 0.0023722791 0.037074085 0.0024129797 0.037258685 0.99569553 -0.073664628
1159566037.7358 0.99687862 -0.078225523 0.0023905709 0.037351217 0.0024399841 0.037556395 0.99581689 -0.074721605
1169562264.1509 0.99665755 -0.078903288 0.0023987554 0.037672047 0.0024438072 0.037868731 0.99563169 -0.075466096
1179558490.566 0.99656695 -0.079683907 0.0024084204 0.038024265 0.0024751429 0.038246632 0.995547 -0.0761953
1189554716.9811 0.99666023 -0.080454826 0.0024297945 0.038361426 0.0025162501 0.038578112 0.99525768 -0.076716423
1199550943.3962 0.99657804 -0.081338525 0.0024677254 0.038722001 0.0025907159 0.038872272 0.99511039 -0.077177495
1209547169.8113 0.99639845 -0.082182154 0.0025297059 0.039054979 0.0026309043 0.039222036 0.99504423 -0.077494115
1219543396.2264 0.99623752 -0.082930937 0.0025650207 0.039414078 0.0026573692 0.039581548 0.99507201 -0.077872083
1229539622.6415 0.99596977 -0.083767086 0.0026329644 0.039707273 0.0027322583 0.039918862 0.99525189 -0.078560233
1239535849.0566 0.99571562 -0.084334433 0.0026849201 0.040023074 0.0028078156 0.040219683 0.99533379 -0.079447031
1249532075.4717 0.9954617 -0.085021675 0.00272756 0.040365815 0.0028417737 0.040555462 0.99517643 -0.080218844
1259528301.8868 0.99527431 -0.085470855 0.0027829874 0.040637195 0.0029151868 0.040821727 0.9949429 -0.081074446
1269524528.3019 0.99511236 -0.086238474 0.00285271 0.040973946 0.0029748715 0.041126173 0.99474859 -0.081777215
1279520754.717 0.99477494 -0.087013006 0.0029096261 0.041232307 0.0030190544 0.041379716 0.99441594 -0.082252838
1289516981.1321 0.99463177 -0.08783403 0.0029138504 0.041527115 0.0030324524 0.041683163 0.99459112 -0.082694709
1299513207.5472 0.99433637 -0.088599294 0.0029145703 0.041850045 0.0030375067 0.04200495 0.99468875 -0.083106667
1309509433.9623 0.99386275 -0.08933726 0.0029419074 0.042166587 0.0030547576 0.04228913 0.99477327 -0.083857924
1319505660.3774 0.99358791 -0.090114802 0.0029337024 0.042484194 0.0030588843 0.0425971 0.99478501 -0.084556937
1329501886.7925 0.99328566 -0.090745777 0.0029678866 0.042803288 0.003100561 0.042927854 0.99473727 -0.085485399
1339498113.2075 0.99302399 -0.091243327 0.0030112779 0.04310168 0.0030879928 0.043218628 0.99443221 -0.086115956
1349494339.6226 0.99292344 -0.091771252 0.0029716408 0.043452639 0.0030736686 0.043586973 0.99406224 -0.08667668
1359490566.0377 0.99267495 -0.092324018 0.0029875934 0.043791063 0.0030695051 0.043916263 0.99389833 -0.08721596
1369486792.4528 0.99254489 -0.092844725 0.0029749088 0.044159561 0.0031128051 0.044282366 0.99373722 -0.087657154
1379483018.8679 0.99224097 -0.093441762 0.003023094 0.044551458 0.003086315 0.044598512 0.99377257 -0.087920859
1389479245.283 0.99193716 -0.093917221 0.003062522 0.044905983 0.0031529889 0.044989534 0.99368179 -0.088582337
1399475471.6981 0.99156809 -0.094436735 0.0030666627 0.045236874 0.0031389128 0.045312826 0.99394178 -0.08934027
1409471698.1132 0.99123478 -0.09473753 0.0031028269 0.045615446 0.0031762698 0.045700848 0.9938904 -0.090149045
1419467924.5283 0.99109221 -0.095077336 0.0031189751 0.04595118 0.0032013375 0.046081722 0.99374318 -0.090898156
1429464150.9434 0.99098444 -0.095508158 0.0031717811 0.046388127 0.0032632686 0.046468686 0.99362147 -0.091394752
1439460377.3585 0.99110383 -0.095890999 0.0032470152 0.046807684 0.0033196183 0.046886671 0.99343872 -0.091790587
1449456603.7736 0.99115914 -0.096519038 0.0033980394 0.047216494 0.0033936212 0.047271237 0.99334538 -0.092126191
1459452830.1887 0.99108618 -0.097118109 0.0034939684 0.047607541 0.0035357904 0.047674268 0.99341851 -0.092384636
1469449056.6038 0.99110496 -0.097752929 0.0036610328 0.047935139 0.0036572944 0.048045367 0.99363375 -0.092942506
1479445283.0189 0.99107331 -0.09837091 0.0037583136 0.048209984 0.0037917069 0.048306305 0.99371338 -0.093873888
1489441509.434 0.99089694 -0.098863363 0.0039201993 0.04852144 0.0039370395 0.048614923 0.99359637 -0.094705254
1499437735.8491 0.99084914 -0.099249601 0.0040531941 0.048778173 0.0040029641 0.048872884 0.99353623 -0.095505923
1509433962.2642 0.99082625 -0.09972392 0.0040987125 0.049027208 0.0041086352 0.049163945 0.99335647 -0.096292332
1519430188.6792 0.99084616 -0.10024995 0.0041649397 0.049293883 0.0041593239 0.04942609 0.9931829 -0.096836567
1529426415.0943 0.99088109 -0.10101268 0.0041859783 0.049621262 0.0041693244 0.049709138 0.99309695 -0.097274631
1539422641.5094 0.99086589 -0.10173224 0.0042448826 0.049910042 0.004234158 0.050012723 0.99325269 -0.097771883
1549418867.9245 0.99069613 -0.10254355 0.0043327026 0.050156247 0.0043133665 0.050282367 0.99339139 -0.098438069
1559415094.3396 0.99053454 -0.10318339 0.0043425728 0.050445329 0.0043234378 0.050566897 0.9936018 -0.099162936
1569411320.7547 0.99048853 -0.10391931 0.0044035083 0.050707571 0.0043601459 0.050852813 0.99348348 -0.099884167
1579407547.1698 0.99032778 -0.10443212 0.0044201491 0.050974376 0.0043710768 0.051118948 0.99317563 -0.10067467
1589403773.5849 0.99028796 -0.10493001 0.0044387467 0.05129553 0.0044089109 0.051402234 0.9930023 -0.10150585
1599400000 0.99028611 -0.10537928 0.0043822052 0.051594678 0.0043881992 0.051733524 0.99260354 -0.10185394
1609396226.4151 0.99024659 -0.10607787 0.0044232067 0.051865071 0.0043815933 0.05201048 0.9924764 -0.1023681
1619392452.8302 0.99023628 -0.10666612 0.0044015944 0.05225046 0.0043827314 0.052352391 0.99232465 -0.10283309
1629388679.2453 0.99003923 -0.10744891 0.0044406336 0.052545432 0.0043936912 0.05271535 0.99266267 -0.10328561
1639384905.6604 0.98985851 -0.10800165 0.0044228914 0.052955266 0.0043680435 0.053146977 0.99283755 -0.10412966
1649381132.0755 0.98958313 -0.10873127 0.0044460259 0.053262904 0.004391402 0.053446073 0.99283195 -0.10509801
1659377358.4906 0.98944533 -0.10950166 0.0044573098 0.053619273 0.0044382084 0.053800441 0.99277341 -0.10598356
1669373584.9057 0.98943341 -0.10992767 0.0044753444 0.054003999 0.0044607781 0.054186165 0.99254274 -0.10660324
1679369811.3208 0.98945296 -0.11053646 0.0045431238 0.05434683 0.0044626091 0.054559935 0.99224782 -0.10713968
1689366037.7358 0.98941517 -0.11116338 0.0045626648 0.054742105 0.0045278836 0.054962598 0.99215281 -0.1074734
1699362264.1509 0.98953474 -0.11179915 0.0046308106 0.055107605 0.0045741443 0.055285588 0.99231732 -0.10790215
1709358490.566 0.989443 -0.11236407 0.0046648765 0.055473026 0.0046406696 0.055707358 0.99243802 -0.10845724
1719354716.9811 0.98910916 -0.11300474 0.0046976153 0.055822596 0.0046709813 0.056001715 0.99242914 -0.10901815
