!Keysight Technologies,N5222B,MY61253708,A.15.00.15
!Date: Wednesday, June 19, 2024 10:08:38
!Correction: S11(C  2-Port  ) 
!S21(C  2-Port  ) 
!S12(C  2-Port  ) 
!S22(C  2-Port  ) 
!S2P File: Measurements: S11, S21, S12, S22:
# Hz S  RI   R 50
10000000 0.99842942 -0.0032036304 -0.00022475551 0.00014522634 0.00012982907 0.00044334074 0.99857438 -0.0022565722
19996226.415094 1.0002 -0.0027027726 2.4082226e-005 0.00069568038 -1.6887119e-005 0.00068732136 1.0004932 -0.0023439229
29992452.830189 0.9997223 -0.002463311 3.9175415e-005 0.0010279123 7.1801071e-005 0.00096257473 0.9996109 -0.002638787
39988679.245283 1.0000324 -0.0029736012 1.0914955e-005 0.0013446333 3.0199662e-005 0.0013425925 0.99969774 -0.0030780286
49984905.660377 1.0002573 -0.0036772192 6.2662875e-006 0.0016767348 -5.644979e-007 0.0016452529 0.99988639 -0.0035363138
59981132.075472 1.000433 -0.0045542419 -5.7340367e-007 0.0019720986 2.810033e-005 0.0019506677 0.99988246 -0.004147172
69977358.490566 1.0002266 -0.0051192064 -2.5588273e-005 0.002302526 3.1247095e-005 0.0022864293 0.99975359 -0.0047056414
79973584.90566 0.99995953 -0.0057269335 5.7643047e-006 0.0026036128 3.357674e-005 0.0026187198 0.99943841 -0.0051537752
89969811.320755 0.99992907 -0.0057814419 4.7363574e-006 0.0029436031 -1.2961682e-006 0.002925769 0.9996866 -0.0054216683
99966037.735849 1.0002227 -0.0065454841 1.275551e-005 0.003304502 -2.7241185e-007 0.0032849456 0.99972975 -0.006168589
109962264.15094 1.0002455 -0.0074153394 5.1854353e-005 0.0036053604 2.5406829e-005 0.0036297541 0.99975479 -0.0069508851
119958490.56604 1.0002251 -0.0083493292 4.383747e-005 0.0038971421 4.6041678e-005 0.0039489404 0.99978542 -0.0078137517
129954716.98113 1.0001404 -0.0092405677 3.224914e-005 0.0042641326 6.9687841e-005 0.0042664139 0.99978405 -0.0086638927
139950943.39623 1.0001293 -0.010070855 3.8944636e-005 0.0045856093 3.7141261e-005 0.0046043 0.99968851 -0.0093716346
149947169.81132 0.99999368 -0.010708004 4.0980056e-005 0.0049078679 3.7955353e-005 0.0049352297 0.99966609 -0.0099713206
159943396.22642 0.99997866 -0.011272311 7.1566785e-005 0.0052264319 5.9793936e-005 0.0052590775 0.99972737 -0.010463625
169939622.64151 0.99991757 -0.011658296 7.5550866e-005 0.0055706422 5.5061246e-005 0.0055934116 0.9997803 -0.01089327
179935849.0566 1.0000213 -0.01193592 7.770583e-005 0.0059112082 6.3768355e-005 0.0059077833 0.9996568 -0.01126945
189932075.4717 1.0000641 -0.012714684 7.3268544e-005 0.0062123043 8.0059515e-005 0.0062357895 0.99991959 -0.011778176
199928301.88679 0.999973 -0.013474941 8.1811915e-005 0.0065180841 0.0001028491 0.0065753907 0.99982053 -0.012669384
209924528.30189 0.99974138 -0.014028549 0.00010127213 0.0068530627 8.1510982e-005 0.006898371 0.99955273 -0.013346404
219920754.71698 0.99995947 -0.014812082 8.7944092e-005 0.0071908962 0.00010431116 0.0072244229 0.99947631 -0.013947397
229916981.13208 0.99975812 -0.015703559 0.00011738134 0.0075105946 0.00012636161 0.0075491974 0.9994458 -0.014674962
239913207.54717 0.99961442 -0.016363129 0.00011737277 0.0078368532 0.00014232656 0.0078967325 0.99944258 -0.015430953
249909433.96226 0.99963272 -0.017018825 0.00012763124 0.0081865424 0.00013500405 0.0082067251 0.99950534 -0.016039759
259905660.37736 0.99968547 -0.017548293 0.00020113261 0.0084914546 0.0001470414 0.0085716089 0.99965584 -0.016581804
269901886.79245 0.99977154 -0.018206134 0.00017717818 0.0088079683 0.00016224 0.0088571478 1.0000029 -0.017306671
279898113.20755 1.0000137 -0.018897384 0.00020130025 0.0091868555 0.00016782689 0.0092355236 0.99981987 -0.018039972
289894339.62264 0.99982214 -0.019662231 0.00020801509 0.0094692083 0.00016803248 0.0094909109 0.99969983 -0.018711865
299890566.03774 0.99977213 -0.020171911 0.00021570316 0.0097989719 0.00021761912 0.0098808017 0.99952656 -0.019164979
309886792.45283 0.99954039 -0.020678878 0.00020124594 0.010123097 0.00021544145 0.010204671 0.99949914 -0.019580282
319883018.86792 0.99970788 -0.021337479 0.0002219663 0.01046315 0.00019364571 0.010490797 0.99963307 -0.020101994
329879245.28302 0.99967384 -0.022182375 0.00020466512 0.010754654 0.00022573676 0.010838786 0.99975443 -0.020928353
339875471.69811 0.99953783 -0.022856504 0.0002598546 0.011095162 0.00024388521 0.011162875 0.99965972 -0.021703206
349871698.11321 0.99976152 -0.02369833 0.00029044854 0.011413842 0.00028422335 0.011539228 0.99965322 -0.022598207
359867924.5283 0.99956846 -0.024515092 0.0003022817 0.011760896 0.00028328225 0.011818507 0.99962223 -0.023481607
369864150.9434 0.99974078 -0.025158197 0.0003035136 0.012081406 0.00032194681 0.012171836 0.99961168 -0.024258703
379860377.35849 0.99957001 -0.025915429 0.00032838387 0.012395142 0.00030130381 0.012502631 0.99949223 -0.024833992
389856603.77358 0.99945271 -0.026413798 0.00033360999 0.012717018 0.00036111893 0.012787436 0.99947751 -0.025361896
399852830.18868 0.99928951 -0.027132839 0.00032476662 0.013050141 0.00034655817 0.013120747 0.99950063 -0.025887609
409849056.60377 0.99925822 -0.027555441 0.00035397703 0.0133865 0.0003431736 0.013466972 0.99949086 -0.026392991
419845283.01887 0.99924856 -0.028026819 0.00038497848 0.013707663 0.00035448186 0.013773979 0.99932659 -0.026953578
429841509.43396 0.99933416 -0.028594524 0.00039713271 0.014027676 0.00036050566 0.014109573 0.9995293 -0.027689427
439837735.84906 0.99917787 -0.029617891 0.0004378024 0.014374839 0.00043365546 0.014415112 0.99930578 -0.028676629
449833962.26415 0.99904704 -0.030298352 0.00040618563 0.01467215 0.00043169456 0.014733086 0.9988718 -0.029371023
459830188.67925 0.99894112 -0.030930907 0.000434204 0.015010149 0.00041411212 0.015063163 0.99857676 -0.030114591
469826415.09434 0.99882901 -0.031699806 0.00044236192 0.015352862 0.00042670453 0.015402937 0.99833524 -0.030567795
479822641.50943 0.9988274 -0.032216094 0.00046420726 0.015658688 0.00048468262 0.015745567 0.9982605 -0.030928671
489818867.92453 0.99886811 -0.032782286 0.00054175965 0.01600513 0.00050369045 0.016072959 0.99857795 -0.031407148
499815094.33962 0.99895382 -0.033413887 0.00053404318 0.016316952 0.00053718733 0.016373862 0.99887288 -0.031947225
509811320.75472 0.99902582 -0.033862516 0.0005323363 0.016614176 0.0005377162 0.016725294 0.99900997 -0.032709815
519807547.16981 0.99893624 -0.03440398 0.00057157734 0.016952697 0.00056143291 0.017001051 0.99899966 -0.033400267
529803773.58491 0.99894536 -0.034985095 0.0005817702 0.017264592 0.00056479592 0.017322473 0.99874336 -0.033946335
539800000 0.99907279 -0.035560533 0.00060044555 0.017586209 0.00058970763 0.017707406 0.99864787 -0.034556627
549796226.41509 0.99885917 -0.036356002 0.00061206613 0.017977355 0.00060182344 0.018007381 0.99852335 -0.035027832
559792452.83019 0.99870318 -0.037128448 0.00064324215 0.018270425 0.00062615424 0.018332226 0.99853706 -0.035529286
569788679.24528 0.99852937 -0.037822455 0.00064127892 0.018635662 0.00067696068 0.018678768 0.99871981 -0.036168665
579784905.66038 0.99856603 -0.038396835 0.00069613359 0.018939249 0.00070467254 0.019025348 0.99885106 -0.036947981
589781132.07547 0.99870944 -0.038971514 0.00074126292 0.01921929 0.00071346015 0.019335296 0.99895591 -0.037799209
599777358.49057 0.99875534 -0.039501905 0.00075577293 0.019570474 0.0007577287 0.019671611 0.99900091 -0.038542151
609773584.90566 0.99888039 -0.040337391 0.00078336295 0.019906241 0.00080170284 0.019989628 0.99881995 -0.039394509
619769811.32075 0.99898493 -0.041088194 0.0008354215 0.020231228 0.00081631774 0.020311862 0.99883342 -0.039941758
629766037.73585 0.99890172 -0.041681409 0.00087266788 0.020557234 0.00085690711 0.020616943 0.99864507 -0.040457219
639762264.15094 0.99877584 -0.042383388 0.00088204769 0.020844756 0.00086432882 0.020938549 0.99856567 -0.040858388
649758490.56604 0.99856782 -0.042927697 0.00087224413 0.021156257 0.00086740218 0.021262784 0.99867791 -0.041290477
659754716.98113 0.99857634 -0.043477148 0.00087201782 0.021469552 0.00085787661 0.02156812 0.99869263 -0.041868299
669750943.39623 0.99847114 -0.043905586 0.00089548482 0.021838825 0.00089487713 0.021940138 0.99878734 -0.042686641
679747169.81132 0.99850172 -0.044663943 0.00094407552 0.022163922 0.00093867653 0.022288032 0.998815 -0.043619066
689743396.22642 0.99868572 -0.045459539 0.0010173237 0.022489419 0.00099187437 0.022594746 0.99858534 -0.04460302
699739622.64151 0.99872071 -0.046239167 0.0010331636 0.022830114 0.0010220613 0.022944892 0.99855322 -0.045178562
709735849.0566 0.99870753 -0.047115311 0.001048294 0.023145173 0.0010835559 0.023222234 0.99830806 -0.045888163
719732075.4717 0.9986099 -0.047808677 0.0010968051 0.023452694 0.0011043441 0.02351168 0.9984135 -0.046520144
729728301.88679 0.99844944 -0.048417389 0.0011122664 0.023756549 0.0011375435 0.023887038 0.99844086 -0.04691571
739724528.30189 0.99839407 -0.04896386 0.0011634366 0.024076376 0.0011639073 0.02417006 0.99855918 -0.047664389
749720754.71698 0.99833816 -0.049527675 0.0011941348 0.024375673 0.0012132847 0.024522316 0.99864089 -0.048379749
759716981.13208 0.99835938 -0.050100476 0.0012003211 0.024681866 0.0012403354 0.02484531 0.99852145 -0.049087614
769713207.54717 0.99833006 -0.050797045 0.0012314022 0.025018139 0.0012719557 0.02514448 0.99834192 -0.049877107
779709433.96226 0.99842852 -0.051360045 0.0012856404 0.025347428 0.0012704193 0.025458684 0.99803144 -0.050447237
789705660.37736 0.9983303 -0.052264959 0.0013136091 0.025634404 0.001320635 0.025767222 0.99781942 -0.051113188
799701886.79245 0.99828917 -0.053040892 0.0013591638 0.025993455 0.0013346253 0.026107784 0.99762857 -0.051745534
809698113.20755 0.99820691 -0.053642079 0.0013433518 0.026285537 0.001370403 0.026446443 0.99770486 -0.052208215
819694339.62264 0.99798614 -0.054244727 0.0013767839 0.026616158 0.001368125 0.026729291 0.99778885 -0.052764416
829690566.03774 0.99796307 -0.054893732 0.0014409674 0.026919764 0.0014530821 0.027078316 0.99798024 -0.053694457
839686792.45283 0.99802351 -0.05529511 0.0014497121 0.027218545 0.0014378279 0.027374258 0.9980011 -0.054428577
849683018.86792 0.99816209 -0.055985466 0.0014793458 0.027565269 0.0014704263 0.027721722 0.99791294 -0.055152252
859679245.28302 0.9981823 -0.056628019 0.0014995346 0.02788854 0.0015157005 0.02803487 0.9976474 -0.05578661
869675471.69811 0.99809188 -0.057368428 0.0015720194 0.028197259 0.001547222 0.028366989 0.99732834 -0.056300908
879671698.11321 0.99801481 -0.058060512 0.0016076488 0.028524674 0.0015987093 0.028673269 0.99732137 -0.05672257
889667924.5283 0.99781168 -0.058845669 0.0016130563 0.028783105 0.0016117645 0.028957248 0.99711573 -0.057178378
899664150.9434 0.99775362 -0.05947876 0.0016402779 0.029118489 0.0016479716 0.029294668 0.99719346 -0.057741135
909660377.35849 0.99769223 -0.060164869 0.0016320101 0.029436786 0.0016744127 0.029593661 0.99731445 -0.058558136
919656603.77358 0.99776089 -0.060788259 0.0016922276 0.029764879 0.0016952436 0.029934881 0.99730653 -0.059395432
929652830.18868 0.99774396 -0.061481774 0.0017459681 0.030059855 0.0017017704 0.030235182 0.99716902 -0.060261607
939649056.60377 0.99792504 -0.06208244 0.0017277887 0.030392747 0.0017127832 0.030520929 0.99701858 -0.061010927
949645283.01887 0.99787289 -0.062988564 0.0017230684 0.03071429 0.0017315667 0.030880542 0.99677467 -0.061519247
959641509.43396 0.99780869 -0.063673288 0.0017642211 0.031065378 0.0017631948 0.031233694 0.9967531 -0.062015682
969637735.84906 0.99777865 -0.064369678 0.0018067127 0.031393643 0.0018228786 0.031574264 0.99680859 -0.062368721
979633962.26415 0.99760395 -0.065102682 0.0018699153 0.031707898 0.0018740357 0.031876031 0.99678522 -0.062994108
989630188.67925 0.99762225 -0.065588564 0.0019026967 0.032006487 0.0019026445 0.032189179 0.99695539 -0.063627213
999626415.09434 0.99777484 -0.066251546 0.0019142609 0.032324962 0.001927237 0.032528404 0.99691796 -0.064320207
1009622641.5094 0.99773204 -0.066826925 0.001933625 0.032681704 0.00196274 0.032865234 0.99683535 -0.06516695
1019618867.9245 0.99775892 -0.06767337 0.0019929619 0.032996602 0.0020326902 0.03315914 0.99657613 -0.065962031
1029615094.3396 0.9977653 -0.068568528 0.002071226 0.033302497 0.0020748414 0.03348371 0.99624336 -0.066598058
1039611320.7547 0.99784863 -0.069389552 0.002092937 0.033595707 0.0020832913 0.033774253 0.99621737 -0.06721282
1049607547.1698 0.99766368 -0.070239902 0.0021280367 0.033896498 0.0021072344 0.034078527 0.99621785 -0.067734249
1059603773.5849 0.99764097 -0.070995331 0.0021399464 0.034172248 0.0021427507 0.034391798 0.99623084 -0.068302751
1069600000 0.99736786 -0.071575969 0.0021389294 0.034507729 0.0022033891 0.034706563 0.9963845 -0.069009811
1079596226.4151 0.99732679 -0.072291844 0.0021646325 0.034823485 0.0021924679 0.035035335 0.996369 -0.069783747
1089592452.8302 0.99739635 -0.07292214 0.0021688743 0.035142079 0.002235814 0.035368536 0.99635965 -0.070527494
1099588679.2453 0.99746895 -0.073636472 0.0021941196 0.035469674 0.0022515412 0.035665549 0.99597347 -0.071173936
1109584905.6604 0.99755812 -0.074465305 0.0021933513 0.035812322 0.0022597965 0.036012486 0.99586761 -0.071702093
1119581132.0755 0.9975006 -0.07529062 0.0022206553 0.036132149 0.0022764481 0.0363888 0.99566519 -0.072122678
1129577358.4906 0.99731445 -0.076006949 0.0022585001 0.036534183 0.0023343451 0.036718845 0.99553126 -0.07251811
1139573584.9057 0.99709046 -0.076883554 0.0022914512 0.036832031 0.0023842519 0.037036877 0.99559617 -0.073158503
1149569811.3208 0.99698502 -0.077779256 0.00236787 0.03714335 0.0024172382 0.037352793 0.99571443 -0.073890604
1159566037.7358 0.99682236 -0.078415543 0.0023969579 0.037448529 0.0024551777 0.037655432 0.99586296 -0.07486856
1169562264.1509 0.99669158 -0.079028755 0.0024004392 0.037761919 0.0024810303 0.037980743 0.99566019 -0.075658768
1179558490.566 0.99658036 -0.079848088 0.0024356612 0.038128149 0.0025045148 0.038350303 0.99548727 -0.076439485
1189554716.9811 0.99661744 -0.080579728 0.0024522385 0.038455937 0.0025521237 0.038660496 0.99525696 -0.076951057
1199550943.3962 0.9965474 -0.081444532 0.0024909656 0.038792379 0.0025955606 0.038996041 0.99507821 -0.077383161
1209547169.8113 0.99644637 -0.082291812 0.0025379732 0.039124634 0.0026102792 0.039334953 0.99504274 -0.077757135
1219543396.2264 0.99614596 -0.083102226 0.0025664275 0.039481424 0.0027050213 0.039682865 0.99507022 -0.078069687
1229539622.6415 0.99592507 -0.083868533 0.0026497673 0.039806992 0.0027771927 0.040015824 0.99523717 -0.078721613
1239535849.0566 0.99569494 -0.084499806 0.0026871944 0.040113505 0.0028310614 0.040295545 0.99533153 -0.079652041
1249532075.4717 0.99542618 -0.085175946 0.0027565032 0.040424518 0.0028666286 0.040607013 0.99518067 -0.080388375
1259528301.8868 0.99517411 -0.085690498 0.0028096754 0.040767983 0.0029456131 0.040933385 0.99490047 -0.081277758
1269524528.3019 0.99506873 -0.086417705 0.0028625038 0.041058671 0.002993797 0.041229978 0.99475002 -0.081917733
1279520754.717 0.99475837 -0.087026305 0.0029261597 0.0413335 0.0030205867 0.041493475 0.99444652 -0.082484402
1289516981.1321 0.99450922 -0.087941378 0.0029392727 0.041654963 0.0030579977 0.041800737 0.99452555 -0.08299908
1299513207.5472 0.99422669 -0.088757068 0.0029270239 0.041924052 0.0030534156 0.042108692 0.9946034 -0.083374083
1309509433.9623 0.99384171 -0.089513257 0.0029430026 0.042250846 0.0030665165 0.042402901 0.99469829 -0.084052309
1319505660.3774 0.99350351 -0.090276748 0.0029448774 0.042567126 0.0030838633 0.042737421 0.99480397 -0.084710002
1329501886.7925 0.99327946 -0.09083882 0.0029630568 0.042920221 0.0031059142 0.043052714 0.9947443 -0.085652828
1339498113.2075 0.99293369 -0.091321319 0.0030199867 0.043212991 0.0031013303 0.043361466 0.99442148 -0.086362541
1349494339.6226 0.99279004 -0.091854326 0.0029859692 0.04355111 0.0030986653 0.043688353 0.99408346 -0.086835556
1359490566.0377 0.99273229 -0.092467725 0.0029902626 0.043909758 0.0031147376 0.044011209 0.99384224 -0.087415665
1369486792.4528 0.9924829 -0.093025774 0.0029886663 0.04429134 0.0031251553 0.044368908 0.9937427 -0.087893903
1379483018.8679 0.99215072 -0.093537182 0.0030258845 0.044626664 0.0031148542 0.044739757 0.99374151 -0.088168696
1389479245.283 0.99186552 -0.094136208 0.0030955188 0.044993758 0.0031880066 0.045104954 0.99371797 -0.088889152
1399475471.6981 0.99149048 -0.094529003 0.0031195246 0.045342047 0.0031619202 0.045466173 0.9938668 -0.08956781
1409471698.1132 0.99111855 -0.094943449 0.0031587137 0.045714442 0.0031740908 0.045818739 0.99392301 -0.090363309
1419467924.5283 0.99096292 -0.095255286 0.0031515108 0.046062984 0.0031857574 0.046224199 0.99373728 -0.091045022
1429464150.9434 0.99092025 -0.09567821 0.0031686742 0.046487771 0.0032559372 0.046607103 0.99361765 -0.091644078
1439460377.3585 0.99101299 -0.096077785 0.0032751253 0.046891861 0.0033114059 0.047011886 0.99337631 -0.092008024
1449456603.7736 0.99102587 -0.096611172 0.0033616824 0.047320254 0.0034055077 0.047387719 0.99325526 -0.092330262
1459452830.1887 0.99100327 -0.097353578 0.0035044905 0.047689795 0.0035429969 0.047815092 0.993469 -0.092634231
1469449056.6038 0.99107957 -0.097912401 0.0036921762 0.048023406 0.00367916 0.048135787 0.99366611 -0.093288988
1479445283.0189 0.99090886 -0.098565742 0.0037989109 0.048326198 0.0037894393 0.048439227 0.99374914 -0.094116122
1489441509.434 0.99088162 -0.099078625 0.0039070826 0.048635997 0.0039294362 0.048731439 0.99358296 -0.094901919
1499437735.8491 0.99065143 -0.099403679 0.0040337313 0.048874043 0.004055256 0.048973233 0.99349695 -0.095764041
1509433962.2642 0.99067652 -0.099948332 0.0041254773 0.049185488 0.0040847212 0.049284682 0.99335986 -0.096438184
1519430188.6792 0.99075222 -0.10048214 0.004201822 0.049421687 0.004153097 0.049544651 0.99321872 -0.097127467
1529426415.0943 0.99074745 -0.10114416 0.0042462964 0.049688555 0.0042160805 0.049828034 0.99316943 -0.097533047
1539422641.5094 0.99073631 -0.1018878 0.0042602867 0.04998542 0.0042630974 0.050146528 0.99319059 -0.097964093
1549418867.9245 0.99065703 -0.10273312 0.0043452773 0.05027223 0.0043099597 0.050407931 0.99338603 -0.09867987
1559415094.3396 0.99051094 -0.1034233 0.0043688044 0.050572976 0.0043453164 0.050681666 0.99354446 -0.099388301
1569411320.7547 0.99040127 -0.10412394 0.0044249818 0.050838392 0.0043847552 0.050975524 0.99347585 -0.10014138
1579407547.1698 0.99033278 -0.10462974 0.0044279941 0.051067621 0.0043955073 0.051264025 0.99316406 -0.10101698
1589403773.5849 0.99023461 -0.10511798 0.0044404548 0.051408462 0.0044237133 0.051543169 0.99300683 -0.10166132
1599400000 0.99026299 -0.10559744 0.0044355914 0.051703036 0.0044024633 0.051872663 0.99261713 -0.10206902
1609396226.4151 0.99019831 -0.1063006 0.0044444469 0.051982582 0.0044340543 0.05219882 0.9924373 -0.10260753
1619392452.8302 0.99018002 -0.10698584 0.0044472311 0.052310742 0.0044113155 0.052498572 0.99236387 -0.10303381
1629388679.2453 0.98996693 -0.10760835 0.0044440478 0.0526646 0.0044158641 0.052874826 0.99267966 -0.10358375
1639384905.6604 0.98979968 -0.10825244 0.0044805049 0.05301838 0.004406462 0.053248193 0.99283344 -0.10443869
1649381132.0755 0.98952413 -0.10893115 0.0044583734 0.053363714 0.0044557452 0.053565767 0.99280304 -0.10533157
1659377358.4906 0.98936164 -0.1096935 0.0045001023 0.053729765 0.0044920929 0.05394334 0.99279153 -0.10625163
1669373584.9057 0.98930013 -0.1100844 0.0045530493 0.054131519 0.0044793906 0.05432196 0.99251515 -0.10684958
1679369811.3208 0.9894104 -0.11083391 0.0045847399 0.054463506 0.0044925855 0.05470176 0.99230373 -0.10744089
1689366037.7358 0.98936021 -0.11135456 0.004579654 0.054875761 0.0045415293 0.055032738 0.99213743 -0.10774621
1699362264.1509 0.98954213 -0.11188658 0.0046552215 0.055189155 0.004637233 0.055443421 0.9923647 -0.10814966
1709358490.566 0.98929721 -0.1126062 0.0046978006 0.055585369 0.0046745213 0.055836573 0.99234581 -0.10869332
1719354716.9811 0.9890517 -0.1131551 0.0047496017 0.0559076 0.004727006 0.056180622 0.99235392 -0.10934493
1729350943.3962 0.98882866 -0.11375317 0.0048301928 0.056317668 0.0048280302 0.056573901 0.99241191 -0.11018965
