!Keysight Technologies,N5222B,MY61253708,A.15.00.15
!Date: Wednesday, June 19, 2024 08:42:27
!Correction: S11(C  2-Port  ) 
!S21(C  2-Port  ) 
!S12(C  2-Port  ) 
!S22(C  2-Port  ) 
!S2P File: Measurements: S11, S21, S12, S22:
# Hz S  RI   R 50
10000000 0.99860537 -0.0025801659 6.0878341e-005 0.00026545874 2.9989635e-005 0.00054311834 0.99868596 -0.0010436177
19996226.415094 0.99924147 -0.0021677613 7.4084615e-005 0.00083389611 0.00015019445 0.00085849647 0.99932379 -0.0022053421
29992452.830189 0.999861 -0.002738446 -2.0429172e-005 0.0014032559 4.7277223e-005 0.0013502089 0.99952388 -0.0028812885
39988679.245283 1.0001057 -0.0034917742 2.1363288e-005 0.0017301112 3.1023708e-005 0.0017181196 0.99967885 -0.0035178363
49984905.660377 1.0002079 -0.0043215454 -2.0358246e-005 0.0021023536 5.4380274e-005 0.0021446131 0.99974918 -0.0041944683
59981132.075472 1.0003557 -0.0052003562 3.6522746e-005 0.0025870006 4.2982399e-005 0.0025606817 0.99970871 -0.0047480166
69977358.490566 1.0000302 -0.0057860855 3.5448305e-005 0.0030164234 2.5668298e-005 0.0029822313 0.99962515 -0.0053788889
79973584.90566 0.99982339 -0.0064474642 4.4586486e-005 0.0034360616 2.7738512e-005 0.0033788141 0.9993248 -0.0059410632
89969811.320755 0.99984705 -0.0067943037 5.0514704e-005 0.0038421117 4.3119071e-005 0.0038498389 0.99942327 -0.006361872
99966037.735849 0.99992728 -0.007554844 7.4724725e-005 0.0042868219 4.534563e-005 0.0042809104 0.99951005 -0.0072305351
109962264.15094 1.000007 -0.0085879564 6.4018473e-005 0.0047000968 4.7278358e-005 0.004692696 0.99949092 -0.0081766844
119958490.56604 1.0000731 -0.0097105205 6.3330866e-005 0.0051408745 6.5944158e-005 0.0051368219 0.99951953 -0.009188354
129954716.98113 1.0000267 -0.010856956 8.5053034e-005 0.0055519207 8.3409017e-005 0.0055316882 0.99952197 -0.010216653
139950943.39623 0.99992198 -0.011812966 7.2878218e-005 0.0059860693 9.8799297e-005 0.0059782588 0.99939179 -0.0110633
149947169.81132 0.99976838 -0.012524366 0.00010748627 0.0064049717 0.000123773 0.0064224959 0.99936897 -0.011722922
159943396.22642 0.99972928 -0.013081729 0.00010184292 0.0068588257 0.00010640384 0.0068281214 0.99943852 -0.012255222
169939622.64151 0.99975288 -0.013556428 0.00010910881 0.0072727082 0.00012028037 0.007265788 0.99954134 -0.012760267
179935849.0566 0.99978799 -0.013952583 0.00016645645 0.007741617 0.00016033603 0.0076700579 0.99948424 -0.013230622
189932075.4717 0.99987388 -0.014713079 0.00013968861 0.0081377979 0.00013307622 0.0081065036 0.9996779 -0.013964832
199928301.88679 0.99990183 -0.015736014 0.00016065454 0.0085572079 0.00017481996 0.0085451156 0.99954748 -0.014959842
209924528.30189 0.99960876 -0.016494155 0.00016702269 0.0089757033 0.00017082912 0.0089320289 0.99929959 -0.015817419
219920754.71698 0.99943781 -0.017628789 0.00029251585 0.0094016204 0.00028782245 0.0093633281 0.99902171 -0.01662901
229916981.13208 0.99916375 -0.018535107 0.00022776471 0.0098169576 0.00019688858 0.0097804423 0.99893868 -0.017456025
239913207.54717 0.99907732 -0.019221099 0.00022715953 0.01026101 0.00022617396 0.010206832 0.99891657 -0.018194361
249909433.96226 0.99917662 -0.019982845 0.00026253564 0.010641827 0.00027504028 0.010639627 0.9990766 -0.018976778
259905660.37736 0.99927729 -0.020625263 0.0002810061 0.011061204 0.00021133712 0.011046794 0.99931502 -0.019694567
269901886.79245 0.99955601 -0.021432996 0.00029843044 0.01150002 0.0002704307 0.01147883 0.99963927 -0.020392075
279898113.20755 0.99965805 -0.022264883 0.00031974865 0.01193874 0.00028456445 0.011887983 0.99952811 -0.021203384
289894339.62264 0.99957454 -0.02300325 0.00038255611 0.012367266 0.00035837665 0.012311126 0.99942648 -0.022070378
299890566.03774 0.99948257 -0.023735821 0.0003645164 0.012808219 0.00037734257 0.012740914 0.99910665 -0.022651225
309886792.45283 0.99917841 -0.02439414 0.00042812969 0.013279451 0.00038429222 0.013186087 0.9989109 -0.023278959
319883018.86792 0.99911118 -0.025099397 0.00041059172 0.013673383 0.00040904246 0.013579566 0.99896646 -0.023816079
329879245.28302 0.998909 -0.025749952 0.00040397095 0.014122978 0.00041444087 0.014033221 0.9989801 -0.024600893
339875471.69811 0.99891466 -0.026617974 0.00044177787 0.014504974 0.00044100906 0.014500885 0.99904495 -0.025497034
349871698.11321 0.99910009 -0.027596354 0.00047925906 0.014930455 0.00046648737 0.014891896 0.99911344 -0.026497662
359867924.5283 0.99902427 -0.028499216 0.00053841807 0.01531644 0.00050061243 0.015311513 0.99905169 -0.027519464
369864150.9434 0.99915689 -0.029438496 0.00051631685 0.015776752 0.00053337077 0.015719922 0.99902856 -0.028372169
379860377.35849 0.99917078 -0.030236557 0.0006032784 0.016212853 0.00056773401 0.016158937 0.99894935 -0.029167429
389856603.77358 0.99892372 -0.030880034 0.00060654385 0.016649395 0.00059794122 0.016606025 0.9988845 -0.029630601
399852830.18868 0.99887788 -0.031600654 0.00064069824 0.017036425 0.00057884818 0.016990028 0.99885303 -0.030151665
409849056.60377 0.99875861 -0.032058183 0.00067111588 0.017491888 0.00064677151 0.017425086 0.99892348 -0.030737454
419845283.01887 0.99862254 -0.032656521 0.00063951546 0.017894436 0.00065465411 0.017886184 0.99898148 -0.031451702
429841509.43396 0.99880028 -0.033406347 0.00072850566 0.018333754 0.00073308591 0.018267507 0.9990719 -0.032263637
439837735.84906 0.99859113 -0.034386963 0.00080050481 0.018722123 0.00081068091 0.018706122 0.99882883 -0.033306926
449833962.26415 0.99858892 -0.035351306 0.00079826592 0.019136505 0.00079498859 0.019051986 0.99851483 -0.034206718
459830188.67925 0.99844301 -0.036280274 0.00080027431 0.019531181 0.00077368226 0.019494954 0.99836761 -0.035060376
469826415.09434 0.99838305 -0.03719759 0.00083749834 0.019953908 0.0008042804 0.019896552 0.99809057 -0.035777479
479822641.50943 0.99826747 -0.037825808 0.00083794561 0.020417318 0.00083337654 0.020354975 0.99818808 -0.036263183
489818867.92453 0.99848449 -0.038369656 0.00090382714 0.02081679 0.00088393781 0.020768046 0.99847728 -0.037008166
499815094.33962 0.99847102 -0.039080054 0.00097179506 0.021241633 0.00092598889 0.021208182 0.99879628 -0.037665486
509811320.75472 0.99857521 -0.039544165 0.00095084711 0.021689432 0.00097690546 0.02160571 0.99891156 -0.038573634
519807547.16981 0.99858004 -0.040255368 0.0010265708 0.022062831 0.0010058414 0.022062782 0.99882263 -0.039470613
529803773.58491 0.99843502 -0.040984392 0.00104855 0.022523336 0.00099000148 0.0224643 0.99857491 -0.04014504
539800000 0.99846524 -0.041869238 0.0010833896 0.022938423 0.001058524 0.022909444 0.99829584 -0.041001469
549796226.41509 0.99827111 -0.042782187 0.0011079172 0.023363449 0.0010978291 0.023270795 0.99807501 -0.041568935
559792452.83019 0.9978714 -0.043699622 0.0011428474 0.023796469 0.0011440041 0.023741664 0.99792922 -0.042096436
569788679.24528 0.99779785 -0.044468671 0.0011955467 0.024243217 0.0011581834 0.024150295 0.9980514 -0.042903483
579784905.66038 0.99772787 -0.045109816 0.001235914 0.024670197 0.0012095969 0.024593335 0.99824631 -0.043769293
589781132.07547 0.99787331 -0.04582268 0.0013096128 0.025086977 0.0012826454 0.025092466 0.99843401 -0.044834644
599777358.49057 0.99800283 -0.046499103 0.0013510957 0.025521085 0.0013802964 0.025462484 0.99845266 -0.045710772
609773584.90566 0.99817789 -0.047457326 0.0014420331 0.025945738 0.0013794501 0.02587793 0.99821001 -0.046695814
619769811.32075 0.99820805 -0.048235476 0.0014918782 0.026322089 0.0014851894 0.026282702 0.99804741 -0.047318637
629766037.73585 0.99800158 -0.048958868 0.0015456956 0.02674 0.0015690988 0.026601164 0.99786484 -0.047826916
639762264.15094 0.99775594 -0.049638838 0.0015431116 0.027108416 0.0015618033 0.026969865 0.99765229 -0.048322648
649758490.56604 0.99758196 -0.05040516 0.0015883269 0.027476594 0.0015353533 0.027447626 0.99781466 -0.048816219
659754716.98113 0.99743652 -0.050943762 0.0015977221 0.027937625 0.0015697386 0.027875684 0.99773198 -0.049532205
669750943.39623 0.99737817 -0.051453203 0.0016329139 0.028377458 0.0015931632 0.028337877 0.99784833 -0.050428033
679747169.81132 0.99740773 -0.052356716 0.0017232313 0.028807666 0.0016855481 0.028764145 0.99780816 -0.051458053
689743396.22642 0.99757338 -0.05333963 0.001749563 0.029281657 0.0017145649 0.029180154 0.99752289 -0.052586883
699739622.64151 0.99769759 -0.054228902 0.0018138178 0.029631872 0.0017724959 0.029596355 0.9974525 -0.053348511
709735849.0566 0.99765462 -0.055209123 0.0018638205 0.030097017 0.0018222199 0.029972836 0.99720865 -0.054058224
719732075.4717 0.99751443 -0.056073099 0.0019398695 0.030456254 0.0019009784 0.030405797 0.99723774 -0.054773122
729728301.88679 0.99743998 -0.056560189 0.0020053787 0.03091858 0.0019677328 0.030806702 0.99736357 -0.055238843
739724528.30189 0.99714494 -0.057260185 0.0020072274 0.031308856 0.0020115296 0.031245917 0.99749827 -0.055940285
749720754.71698 0.99704576 -0.057860062 0.0020781187 0.031693298 0.0020559262 0.031648088 0.99745607 -0.056787595
759716981.13208 0.9971562 -0.058504045 0.0021380484 0.032154806 0.002036659 0.032043483 0.99744678 -0.057647794
769713207.54717 0.99705118 -0.059300184 0.0021890067 0.032524459 0.0021388819 0.032457486 0.99720913 -0.058476746
779709433.96226 0.9972133 -0.060116217 0.0022211138 0.032966051 0.0022382727 0.032880548 0.99684888 -0.059107017
789705660.37736 0.99702352 -0.061092228 0.0022972077 0.033366393 0.0022652308 0.033264063 0.99658978 -0.059947789
799701886.79245 0.99706256 -0.062144876 0.0023703473 0.033728424 0.0023051547 0.03369309 0.99652231 -0.060628444
809698113.20755 0.99691534 -0.062820897 0.0023868154 0.03415006 0.0023279581 0.034084871 0.99647325 -0.061226442
819694339.62264 0.99669844 -0.06350261 0.0024355371 0.03453517 0.0023871781 0.034513339 0.99670571 -0.061943635
829690566.03774 0.99675405 -0.064110845 0.0024875887 0.034971952 0.0024530254 0.034931801 0.99689126 -0.062927514
839686792.45283 0.99674195 -0.064653665 0.0025039213 0.035379037 0.0024721762 0.035332635 0.9969995 -0.063855618
849683018.86792 0.99686515 -0.065477446 0.002585615 0.035808381 0.0025520613 0.03576475 0.9968617 -0.06467782
859679245.28302 0.99690342 -0.066153228 0.0026151855 0.036253136 0.0026042527 0.036155388 0.99642265 -0.065366477
869675471.69811 0.99675035 -0.067045927 0.0027356269 0.036670204 0.0026722271 0.036624823 0.99613029 -0.066018462
879671698.11321 0.99654901 -0.067832381 0.0027796677 0.037087116 0.0027075601 0.037030365 0.99610794 -0.066483766
889667924.5283 0.99631929 -0.06881389 0.0028650332 0.037451338 0.0028034085 0.037381709 0.99583858 -0.067114383
899664150.9434 0.99610019 -0.069666773 0.0029184297 0.037886694 0.0028499514 0.037849534 0.99590993 -0.067821264
909660377.35849 0.99602473 -0.070423931 0.0030097417 0.0382661 0.0029436434 0.038228575 0.9960084 -0.068842933
919656603.77358 0.99607915 -0.071175665 0.0030194805 0.038674209 0.0029622479 0.03860312 0.99603659 -0.069845021
929652830.18868 0.9961524 -0.071944743 0.0030592065 0.039007276 0.0030122828 0.038997661 0.99583519 -0.070852995
939649056.60377 0.99636137 -0.072695673 0.0030878093 0.039413705 0.0030333707 0.039352171 0.99565089 -0.071573555
949645283.01887 0.99620354 -0.073628955 0.0030841564 0.039841745 0.0030729133 0.039826289 0.99541873 -0.072231598
959641509.43396 0.99613917 -0.074374378 0.0031303968 0.04029163 0.0030951425 0.040255085 0.99525917 -0.072810382
969637735.84906 0.99601781 -0.075108796 0.0031938329 0.040719159 0.0031759925 0.040702734 0.99534547 -0.073180854
979633962.26415 0.99577487 -0.075930335 0.0033469978 0.041145824 0.0032324386 0.041098621 0.99531692 -0.073953457
989630188.67925 0.99573356 -0.076630384 0.0033659209 0.041546576 0.0032974221 0.041533899 0.99546611 -0.074681997
999626415.09434 0.99591815 -0.077270448 0.0033641085 0.04197219 0.003364427 0.041958645 0.99535835 -0.075635523
1009622641.5094 0.9959172 -0.078078881 0.0034548081 0.042384315 0.0034226105 0.042407539 0.99515301 -0.076560393
1019618867.9245 0.99589556 -0.079051614 0.0035377145 0.042834733 0.0035054968 0.042800635 0.9948464 -0.077533886
1029615094.3396 0.99583554 -0.080150694 0.0036312044 0.04324536 0.0035962444 0.043178685 0.99450266 -0.078219354
1039611320.7547 0.99585092 -0.081148058 0.0036718892 0.043630004 0.0036641164 0.043581016 0.99444687 -0.079038143
1049607547.1698 0.99566048 -0.082103081 0.0037934261 0.043995965 0.0037292475 0.044001032 0.99438894 -0.079631925
1059603773.5849 0.99549675 -0.082931399 0.0038479343 0.044395857 0.0037764367 0.044365339 0.99435532 -0.080271602
1069600000 0.99520284 -0.083525121 0.0038439706 0.044778496 0.0038577486 0.04479292 0.99442911 -0.081041902
1079596226.4151 0.99508643 -0.084177859 0.0039210608 0.045183901 0.0039396952 0.045162875 0.99441838 -0.081867836
1089592452.8302 0.99513412 -0.084932536 0.0039725592 0.045611888 0.003923866 0.045571145 0.99438441 -0.082694918
1099588679.2453 0.99517983 -0.085622877 0.0040076803 0.046026208 0.0039705299 0.045996703 0.99387741 -0.08339268
1109584905.6604 0.99523717 -0.086532027 0.0040514916 0.046441428 0.0040658535 0.04641455 0.99372458 -0.084045917
1119581132.0755 0.99520999 -0.087757312 0.0040807822 0.046880994 0.0040856516 0.046844073 0.99337578 -0.084558234
1129577358.4906 0.99498808 -0.088669479 0.0041751452 0.047338411 0.0041371975 0.047299083 0.99333274 -0.085122526
1139573584.9057 0.99462968 -0.089654624 0.0042358749 0.047751635 0.0042373855 0.047718924 0.99342126 -0.085933387
1149569811.3208 0.99443579 -0.090652987 0.0043257717 0.048159372 0.0043377886 0.048091818 0.99347734 -0.08674264
1159566037.7358 0.99422419 -0.091321468 0.0043857154 0.048509784 0.0043967236 0.048509713 0.99356955 -0.087893784
1169562264.1509 0.99404049 -0.092036068 0.0044342726 0.048891664 0.0044167433 0.048930999 0.99339414 -0.088740647
1179558490.566 0.99394172 -0.092855141 0.0044377367 0.049369723 0.004491942 0.049337491 0.99317425 -0.089471027
1189554716.9811 0.99401319 -0.093596846 0.0045009684 0.04978773 0.0045720795 0.049746554 0.99279451 -0.090097398
1199550943.3962 0.99387181 -0.094569147 0.0045825951 0.050219432 0.0046656989 0.050150111 0.99263364 -0.090493172
1209547169.8113 0.99367255 -0.095576733 0.0046570646 0.050636228 0.0047081998 0.050543044 0.99250513 -0.090927988
1219543396.2264 0.99337286 -0.096421964 0.00472409 0.051086824 0.0047807051 0.051033072 0.99257261 -0.09148024
1229539622.6415 0.99302322 -0.097378582 0.0048485957 0.051496543 0.0049102437 0.051458646 0.99273956 -0.092257053
1239535849.0566 0.99281096 -0.098198771 0.0049326755 0.05189557 0.004995808 0.051841319 0.99277127 -0.09331435
1249532075.4717 0.99244261 -0.098989055 0.0050297631 0.05230521 0.0050973212 0.052231289 0.9925881 -0.0941751
1259528301.8868 0.99224496 -0.099563509 0.0050965138 0.052723803 0.0051973742 0.052644759 0.99232906 -0.09526968
1269524528.3019 0.99201751 -0.10036451 0.0052069947 0.053080093 0.0053048395 0.052993625 0.99197805 -0.096011579
1279520754.717 0.99161363 -0.10118515 0.005282633 0.053474598 0.0053484715 0.053321 0.99167895 -0.096581846
1289516981.1321 0.9914999 -0.10212162 0.0053349603 0.053857949 0.0053911377 0.053731363 0.9917376 -0.097037077
1299513207.5472 0.99113464 -0.10304564 0.0053831153 0.054234836 0.0054348875 0.054101795 0.99182653 -0.097515285
1309509433.9623 0.99060279 -0.10378499 0.0054092621 0.054624878 0.0054701259 0.054471899 0.99199587 -0.098319307
1319505660.3774 0.99016458 -0.10453045 0.0054324847 0.055062033 0.0055223107 0.054888543 0.99188358 -0.099079356
1329501886.7925 0.98983479 -0.10529557 0.005544465 0.055489533 0.0055437703 0.055277243 0.99186921 -0.10011908
1339498113.2075 0.98949122 -0.10585403 0.0055945143 0.055867776 0.0056165867 0.055662747 0.99146897 -0.10091674
1349494339.6226 0.98934144 -0.10657874 0.0055984235 0.056309976 0.0056127119 0.056122739 0.99099296 -0.10165304
1359490566.0377 0.98919022 -0.10731226 0.005643107 0.056724425 0.0056876838 0.056555189 0.99077618 -0.10220963
1369486792.4528 0.98892862 -0.10792542 0.0056739878 0.057223286 0.0057179816 0.056972466 0.99054271 -0.10280618
1379483018.8679 0.98862422 -0.10860378 0.0057384074 0.057643376 0.0057829758 0.057413515 0.99054253 -0.10325131
1389479245.283 0.98822427 -0.10925028 0.0058043692 0.058098506 0.0058319774 0.057916082 0.99053383 -0.10396859
1399475471.6981 0.987755 -0.10961282 0.005875444 0.058554538 0.0058546383 0.058325082 0.99066967 -0.10474461
1409471698.1132 0.98744845 -0.11009569 0.0059632985 0.059010357 0.0059293085 0.058769859 0.99060172 -0.10566476
1419467924.5283 0.98715496 -0.11029598 0.0060113128 0.059453283 0.005985437 0.059200343 0.99041152 -0.10643169
1429464150.9434 0.98706174 -0.11086667 0.0060469918 0.059909038 0.0060435645 0.059702933 0.99026692 -0.10703066
1439460377.3585 0.98714387 -0.111421 0.0061909379 0.060433466 0.0061580203 0.060214769 0.98997521 -0.10747568
1449456603.7736 0.98721123 -0.11208732 0.0063130585 0.060902115 0.0062191524 0.060700051 0.98986191 -0.10785381
1459452830.1887 0.98714626 -0.11293697 0.0065053236 0.061402589 0.0064397864 0.061184675 0.98996878 -0.1082502
1469449056.6038 0.98712742 -0.11372551 0.0067275036 0.061801832 0.0065934062 0.061592091 0.99014354 -0.10903117
1479445283.0189 0.9869343 -0.11454037 0.0068654036 0.062163167 0.006757501 0.061977345 0.99009973 -0.11011619
1489441509.434 0.98679227 -0.11497223 0.0069917887 0.062606171 0.0069330987 0.062374644 0.98996401 -0.11107025
1499437735.8491 0.98650324 -0.11537072 0.007152874 0.062939778 0.0070487205 0.062702514 0.9897514 -0.11204252
1509433962.2642 0.9865852 -0.11596888 0.0072977096 0.063282311 0.0071754479 0.06310638 0.98956239 -0.11273876
1519430188.6792 0.98662186 -0.11651221 0.0074046273 0.063661285 0.0072517563 0.063442074 0.989452 -0.11337107
1529426415.0943 0.98661137 -0.11731371 0.0074873418 0.064013541 0.0073288996 0.063774176 0.98937726 -0.11377037
1539422641.5094 0.98665309 -0.11825092 0.0075678956 0.064410158 0.0074217217 0.064182267 0.98945856 -0.11436761
1549418867.9245 0.98638755 -0.11914741 0.0076695234 0.064761646 0.0074972473 0.064544037 0.98957729 -0.1151002
1559415094.3396 0.98620218 -0.11996576 0.007744018 0.06510561 0.0075755678 0.064960405 0.98974305 -0.11590073
1569411320.7547 0.98599631 -0.12074795 0.0077968631 0.065491222 0.0076645203 0.065282509 0.98959351 -0.11689046
1579407547.1698 0.98585463 -0.12136158 0.0078592785 0.065816484 0.007741604 0.065674424 0.98914051 -0.11773468
1589403773.5849 0.98582006 -0.12199309 0.0078977849 0.066188484 0.0077418648 0.066079319 0.98889214 -0.11863232
1599400000 0.98580235 -0.12248147 0.0078795627 0.06658566 0.0078319926 0.066403545 0.98836195 -0.11911654
1609396226.4151 0.98574799 -0.12322864 0.0079611074 0.066970587 0.0077892821 0.066841237 0.98829645 -0.11965591
1619392452.8302 0.98569202 -0.12398854 0.0080135409 0.067423001 0.0078412108 0.067244604 0.98826057 -0.12021899
1629388679.2453 0.98534685 -0.12476802 0.0080495551 0.067843974 0.0078733601 0.067719109 0.98845124 -0.12086079
1639384905.6604 0.98512703 -0.12553282 0.0081056478 0.06834951 0.007887057 0.068201303 0.98875713 -0.12178395
1649381132.0755 0.98490709 -0.1262297 0.0081615094 0.06879212 0.0079660695 0.068672277 0.98861277 -0.12274173
1659377358.4906 0.98462176 -0.12713432 0.0082256123 0.069209345 0.0080845095 0.069119044 0.9884733 -0.12371629
1669373584.9057 0.98450732 -0.12772822 0.0083086677 0.069696084 0.0081616947 0.069554612 0.98811936 -0.12453246
1679369811.3208 0.98447353 -0.12843557 0.0084071252 0.070118882 0.0082157999 0.070007376 0.98783982 -0.12511882
1689366037.7358 0.9844389 -0.12914696 0.0084991381 0.07059221 0.0083083212 0.070494756 0.98761833 -0.12534556
1699362264.1509 0.9846493 -0.12993027 0.0086561302 0.071035944 0.0084557291 0.071005359 0.98776585 -0.12601109
1709358490.566 0.9844147 -0.13066223 0.0087506929 0.071474142 0.0085294694 0.071456991 0.98773617 -0.12664214
1719354716.9811 0.98406577 -0.13139486 0.0088219363 0.071963586 0.0086601935 0.071903586 0.98773527 -0.12741444
1729350943.3962 0.9836151 -0.13197774 0.0089869592 0.072425589 0.0088380706 0.072345316 0.98768425 -0.12840658
