!Keysight Technologies,N5222B,MY61253708,A.15.00.15
!Date: Wednesday, June 19, 2024 10:26:04
!Correction: S11(C  2-Port  ) 
!S21(C  2-Port  ) 
!S12(C  2-Port  ) 
!S22(C  2-Port  ) 
!S2P File: Measurements: S11, S21, S12, S22:
# Hz S  RI   R 50
10000000 0.99863374 -0.0032739639 0.00015994467 0.00015537326 -7.0843169e-005 0.00011623967 0.99832618 -0.0017119944
19996226.415094 0.99990004 -0.0024001002 2.6720401e-005 0.00068874552 0.00010740632 0.00060828927 1.0001857 -0.0021351576
29992452.830189 0.9995535 -0.0024560094 -7.0288646e-005 0.0010069857 3.2577838e-005 0.00088305859 0.9993875 -0.0027372539
39988679.245283 1.0001322 -0.0029813945 2.3185537e-005 0.0012991185 -5.6235876e-007 0.0012965271 0.99975806 -0.0030965507
49984905.660377 1.0002733 -0.0036698878 1.5730096e-005 0.001673284 5.1798124e-005 0.001620119 0.99992532 -0.0036149621
59981132.075472 1.0004811 -0.0045404434 3.9649545e-005 0.0018999481 6.4135529e-006 0.0019341931 0.99988699 -0.0041290522
69977358.490566 1.0003045 -0.0050539877 3.0331972e-005 0.0022512875 -2.8665158e-005 0.0022629104 0.99979722 -0.0046460517
79973584.90566 0.99989939 -0.005643189 1.9224244e-005 0.0025807964 3.0396506e-005 0.0025842914 0.99942887 -0.0051236749
89969811.320755 0.99999028 -0.0056872964 2.7653761e-005 0.0029164071 1.6166246e-005 0.0029283562 0.99966908 -0.0052798986
99966037.735849 1.0001755 -0.0064101666 1.7653801e-006 0.003260273 2.2867229e-005 0.0032406261 0.99977607 -0.00604406
109962264.15094 1.000227 -0.007312566 3.6584563e-005 0.003564989 2.8936251e-005 0.0035843286 0.99979764 -0.0068237036
119958490.56604 1.0002626 -0.0081989169 3.2654731e-005 0.0038738018 2.9895222e-005 0.0039058756 0.99982131 -0.0076983571
129954716.98113 1.0001751 -0.0091967285 2.7750619e-005 0.0042118146 4.1755498e-005 0.0042259083 0.9997943 -0.0085491538
139950943.39623 1.0001343 -0.010001924 3.6500496e-005 0.0045477799 5.0499279e-005 0.0045493841 0.99969971 -0.0093055125
149947169.81132 0.99998248 -0.010648131 4.7179405e-005 0.0048543098 5.2809948e-005 0.0048905187 0.99965024 -0.0098752975
159943396.22642 0.99995667 -0.011189818 5.1528681e-005 0.0051877908 4.3813605e-005 0.0052059186 0.99972475 -0.010285497
169939622.64151 0.99989843 -0.011537112 6.3540181e-005 0.0055161086 5.4269505e-005 0.005527983 0.99979663 -0.010717824
179935849.0566 0.99999708 -0.011709899 9.6988748e-005 0.0058412584 8.1333681e-005 0.005857884 0.99967664 -0.011113793
189932075.4717 1.0000988 -0.012555897 9.55672e-005 0.0061551863 6.3775573e-005 0.0061906641 0.99992251 -0.011613458
199928301.88679 0.99999332 -0.013372838 9.6389558e-005 0.0065276446 7.844856e-005 0.0065033194 0.99981034 -0.012523949
209924528.30189 0.99973828 -0.013926759 8.8270404e-005 0.0068287947 8.588715e-005 0.0068192431 0.99958414 -0.013200998
219920754.71698 0.99994814 -0.014698476 0.00010711909 0.0071336171 0.00010849512 0.0071554156 0.99944586 -0.013781548
229916981.13208 0.99974436 -0.015591472 0.00010559312 0.0074527925 0.00010534748 0.0074760215 0.99944466 -0.014533252
239913207.54717 0.99962986 -0.016239818 0.00011712755 0.0077725267 0.00011912952 0.0077803768 0.99940354 -0.01522495
249909433.96226 0.99958736 -0.016898215 0.00013391324 0.0081147775 0.00013506063 0.0081249075 0.99947697 -0.015835643
259905660.37736 0.99966085 -0.017477453 0.00012874696 0.008401894 0.00011845818 0.0084307287 0.99966919 -0.016352504
269901886.79245 0.99981481 -0.018065155 0.00015572552 0.0087574264 0.00017455174 0.0087332288 1.0000937 -0.016990498
279898113.20755 0.99992871 -0.018655524 0.00012200139 0.0090885516 0.00013168366 0.009112034 0.9999395 -0.017778724
289894339.62264 0.99990726 -0.019564301 0.00021184701 0.0093852673 0.0001601805 0.0094397701 0.99979961 -0.018516272
299890566.03774 0.99980652 -0.020077109 0.00018312526 0.0097131263 0.00019619707 0.0097531509 0.99959368 -0.018966645
309886792.45283 0.99956262 -0.020512223 0.00019959977 0.010033168 0.00021672045 0.010084423 0.99950725 -0.019345321
319883018.86792 0.99960685 -0.021170616 0.00027774461 0.010377256 0.0001950236 0.010386864 0.99962533 -0.019839704
329879245.28302 0.9996717 -0.021938622 0.00021879748 0.010706239 0.000228622 0.010722945 0.99975038 -0.02065745
339875471.69811 0.99956381 -0.022604957 0.00026167231 0.011008833 0.00022132113 0.011061231 0.99964291 -0.021449372
349871698.11321 0.99970484 -0.023498207 0.00030540721 0.011397924 0.0002794743 0.011353073 0.99975908 -0.022361398
359867924.5283 0.99951833 -0.024240285 0.00027786847 0.011661328 0.00023957901 0.011696843 0.99964511 -0.023328394
369864150.9434 0.99976957 -0.025069714 0.0002989457 0.012009729 0.00029750681 0.012037327 0.99972808 -0.023997456
379860377.35849 0.99960911 -0.025824338 0.00032603904 0.012309607 0.00026017544 0.012351093 0.99956942 -0.024727046
389856603.77358 0.99952376 -0.026306838 0.00030813552 0.01264558 0.00033572968 0.012669103 0.99955213 -0.025143504
399852830.18868 0.99928939 -0.026931435 0.00033681607 0.012972324 0.00033303583 0.012992421 0.99955964 -0.025667608
409849056.60377 0.99922365 -0.02739629 0.00037384138 0.013288309 0.00036330873 0.013314919 0.99952906 -0.026241709
419845283.01887 0.9991914 -0.02779305 0.00033781026 0.013593344 0.00037348783 0.013641506 0.99943119 -0.026744276
429841509.43396 0.99933708 -0.028404087 0.00038418081 0.013950726 0.00040882453 0.013962618 0.99949938 -0.027487934
439837735.84906 0.9991433 -0.029369816 0.00039572758 0.014211004 0.00043505454 0.014272626 0.99932456 -0.028484806
449833962.26415 0.99898064 -0.030203164 0.00043680798 0.014544945 0.00041402224 0.014567574 0.99878114 -0.02930522
459830188.67925 0.99882889 -0.030801624 0.0004258398 0.01486769 0.00044736266 0.01490368 0.99846816 -0.029922903
469826415.09434 0.99879187 -0.031530857 0.00044699898 0.01522813 0.00043242704 0.015238338 0.99819535 -0.030427724
479822641.50943 0.99865061 -0.03207095 0.00044826977 0.015528345 0.00047126459 0.015586852 0.99816215 -0.030718893
489818867.92453 0.99876457 -0.032574058 0.00049060211 0.015844271 0.00048778579 0.015900914 0.99852562 -0.03115195
499815094.33962 0.99884552 -0.033160388 0.00056016818 0.016168687 0.00052579772 0.016236076 0.99874336 -0.031616241
509811320.75472 0.99888653 -0.033425711 0.00051865273 0.016498992 0.00054846582 0.016508546 0.99885952 -0.032369107
519807547.16981 0.99885041 -0.034037828 0.00051996345 0.016823104 0.00055225659 0.016837817 0.9988628 -0.033061385
529803773.58491 0.99882102 -0.03458935 0.00056591164 0.017143931 0.00055936305 0.017165806 0.99865341 -0.033577472
539800000 0.99895614 -0.035293072 0.00058543682 0.017481044 0.00057369098 0.017496612 0.99858278 -0.034153879
549796226.41509 0.99886012 -0.036114335 0.00059390441 0.017799979 0.0005677701 0.017824339 0.99839437 -0.034613371
559792452.83019 0.99857998 -0.036808044 0.00065030064 0.018086124 0.00061901845 0.018146638 0.9983781 -0.035039037
569788679.24528 0.99845028 -0.037468612 0.00066881534 0.018440962 0.00065227225 0.018455317 0.99860138 -0.035776079
579784905.66038 0.9984138 -0.038015053 0.00070648442 0.018776435 0.00067431119 0.018830217 0.99874139 -0.036484994
589781132.07547 0.99857354 -0.038651913 0.00072841905 0.019117022 0.00069757085 0.019130683 0.99888277 -0.037297755
599777358.49057 0.99879748 -0.039221793 0.00076751038 0.019434787 0.00076350477 0.019449955 0.9989422 -0.038111538
609773584.90566 0.99888325 -0.039980575 0.00078779773 0.019717585 0.00076714519 0.019754158 0.99886227 -0.038874663
619769811.32075 0.99891454 -0.0406757 0.00082582468 0.020062797 0.00078464113 0.020085929 0.99883187 -0.039507598
629766037.73585 0.9988482 -0.041365981 0.00078713521 0.020368356 0.00083967764 0.020364434 0.99864829 -0.039940894
639762264.15094 0.99863231 -0.041932672 0.00084113353 0.020704975 0.00085495575 0.020706845 0.99850601 -0.040416256
649758490.56604 0.99864328 -0.042556077 0.00089847203 0.02096328 0.00083365012 0.021012845 0.99867326 -0.040787205
659754716.98113 0.99840033 -0.043053597 0.00086922757 0.021307819 0.00084281247 0.021363664 0.9986937 -0.041382402
669750943.39623 0.99839288 -0.043448508 0.00091308774 0.02164489 0.00086497189 0.021705542 0.99882984 -0.04219839
679747169.81132 0.99848187 -0.044279985 0.0009434683 0.022006361 0.00093257939 0.02203824 0.99875575 -0.04315643
689743396.22642 0.99864757 -0.04506126 0.0010082237 0.022293705 0.00098155066 0.02238895 0.99866211 -0.044114679
699739622.64151 0.99871576 -0.045889109 0.0010502888 0.022596311 0.0010108231 0.022675678 0.99857783 -0.044779837
709735849.0566 0.99873787 -0.046774812 0.0010720674 0.022929436 0.0010476817 0.022951402 0.99832201 -0.045482181
719732075.4717 0.99861974 -0.047447622 0.0010934877 0.023258653 0.0010744687 0.023294307 0.99844193 -0.046010226
729728301.88679 0.99848121 -0.048033118 0.0011077058 0.023560842 0.0010860851 0.023631455 0.99842983 -0.046481073
739724528.30189 0.99843621 -0.048637226 0.0011407235 0.023884105 0.0011385772 0.023942592 0.998649 -0.047137752
749720754.71698 0.99826944 -0.049135923 0.0011907876 0.024209084 0.0011536013 0.024231728 0.99865699 -0.047889143
759716981.13208 0.99832696 -0.049661398 0.0011938419 0.024492146 0.0012130234 0.024563849 0.99860215 -0.048616946
769713207.54717 0.9982394 -0.050275862 0.0012390623 0.024789937 0.0012424542 0.024879206 0.99835277 -0.049373567
779709433.96226 0.99838138 -0.050984293 0.0012616264 0.025144391 0.0012451878 0.025178803 0.99806255 -0.050020859
789705660.37736 0.99833095 -0.051855356 0.0012642704 0.025452066 0.001256994 0.025506483 0.99779403 -0.050730139
799701886.79245 0.99820191 -0.052642822 0.0013236376 0.025723357 0.0013198107 0.025818568 0.99762446 -0.051306635
809698113.20755 0.9981209 -0.053232998 0.0013316113 0.026056468 0.0013490082 0.026161989 0.9976874 -0.051739112
819694339.62264 0.99793804 -0.053882062 0.0013760915 0.026389813 0.0013555 0.026462646 0.99776763 -0.052305251
829690566.03774 0.99798113 -0.054460108 0.0014064237 0.026701432 0.0013949983 0.026772227 0.99798042 -0.053214669
839686792.45283 0.9980306 -0.054880142 0.0014317851 0.0270309 0.0014266996 0.027081776 0.99795705 -0.053976983
849683018.86792 0.99809307 -0.055507489 0.0014625615 0.027345233 0.0014703085 0.027403772 0.99789685 -0.05472789
859679245.28302 0.99815834 -0.05624938 0.0014927564 0.027673583 0.0014935778 0.027739385 0.99756551 -0.055309445
869675471.69811 0.99802107 -0.056965798 0.0015171804 0.027972078 0.0015095798 0.028049983 0.99721563 -0.055789888
879671698.11321 0.99785066 -0.057613403 0.0015810933 0.028263949 0.001575969 0.028327147 0.99722815 -0.056188632
889667924.5283 0.99771613 -0.058385372 0.0015955251 0.028541174 0.0015914822 0.028646452 0.99709219 -0.056633323
899664150.9434 0.99757206 -0.059025496 0.001604775 0.028856337 0.0016146041 0.028918704 0.99716544 -0.057238996
909660377.35849 0.99757415 -0.059728712 0.0016311747 0.029202158 0.0016497206 0.029281512 0.9973073 -0.05811204
919656603.77358 0.99767727 -0.060368329 0.0016672891 0.02952846 0.0016406928 0.02959883 0.99730736 -0.058932632
929652830.18868 0.99768829 -0.061075598 0.0016588541 0.02979579 0.0016895961 0.029915288 0.99709618 -0.059819728
939649056.60377 0.99785155 -0.061641216 0.0016960874 0.030119292 0.0016805837 0.030197436 0.99695474 -0.060499221
949645283.01887 0.99772382 -0.062398952 0.0016851122 0.030442167 0.0016818107 0.030549509 0.99668002 -0.060972281
959641509.43396 0.997733 -0.063132793 0.0017266832 0.030812426 0.0017469674 0.030908462 0.99669242 -0.061435193
969637735.84906 0.9976781 -0.063839436 0.001763843 0.0311621 0.0017785346 0.031233061 0.99676281 -0.061756164
979633962.26415 0.99751359 -0.064550214 0.0018409109 0.0314641 0.0018281979 0.031550229 0.99672413 -0.062401064
989630188.67925 0.99752963 -0.065058738 0.0018645981 0.031747334 0.0018535452 0.031828903 0.99699962 -0.062959701
999626415.09434 0.99757528 -0.065672517 0.00190337 0.032061424 0.0018894263 0.03218133 0.99688613 -0.063753188
1009622641.5094 0.99765503 -0.066293001 0.0019287015 0.03238133 0.0019250601 0.032530528 0.9967854 -0.064584538
1019618867.9245 0.99768811 -0.067091018 0.0019607027 0.032712858 0.0019838717 0.032838825 0.99649853 -0.065409169
1029615094.3396 0.99767464 -0.067981094 0.0020082546 0.033042077 0.0020467062 0.033086639 0.99616182 -0.066009611
1039611320.7547 0.99773687 -0.06880042 0.0020434977 0.033302881 0.0020433338 0.03340866 0.9961676 -0.066605955
1049607547.1698 0.99758768 -0.06971851 0.0020801348 0.033607274 0.0020822298 0.033687063 0.99616188 -0.067134082
1059603773.5849 0.99745977 -0.070381761 0.0020978134 0.033888891 0.0021007173 0.033993244 0.99617249 -0.06766516
1069600000 0.99727577 -0.071051091 0.0021110922 0.034200702 0.0021047425 0.034327056 0.99633217 -0.068409741
1079596226.4151 0.99722046 -0.07161212 0.0020985836 0.034533676 0.0021470538 0.034645125 0.99636227 -0.069160402
1089592452.8302 0.99728835 -0.072248966 0.0021334887 0.034853376 0.0021670368 0.03497633 0.99632448 -0.069911003
1099588679.2453 0.99730492 -0.072931796 0.0021546017 0.035171933 0.0021775234 0.03528972 0.99596673 -0.07044059
1109584905.6604 0.99743938 -0.073685944 0.0021862509 0.035486586 0.0021857172 0.035643805 0.99580717 -0.070989832
1119581132.0755 0.99744463 -0.074703157 0.0021714284 0.035847329 0.0022334913 0.035976291 0.99558342 -0.071480736
1129577358.4906 0.9972108 -0.075456977 0.0022080112 0.036189314 0.0022621341 0.036300678 0.99549508 -0.071909517
1139573584.9057 0.99704343 -0.076343685 0.0022593699 0.036480069 0.0023271227 0.03662226 0.99562198 -0.072538912
1149569811.3208 0.99695009 -0.077129371 0.0023343558 0.03681986 0.0023793224 0.036947768 0.99569738 -0.073307477
1159566037.7358 0.99671751 -0.077834964 0.0023784721 0.037141755 0.0024070665 0.037238419 0.99586582 -0.074275613
1169562264.1509 0.99656856 -0.078530073 0.0023398343 0.037437059 0.0024086833 0.037569284 0.99568152 -0.075046241
1179558490.566 0.99660832 -0.079207122 0.0023454654 0.037781004 0.0024343948 0.037929714 0.99550855 -0.075747758
1189554716.9811 0.99654347 -0.079915047 0.0024169106 0.038144693 0.0024838895 0.038260505 0.99529171 -0.076288432
1199550943.3962 0.99648517 -0.080741704 0.0024446826 0.038477883 0.0025547538 0.038599953 0.99508131 -0.076671898
1209547169.8113 0.99635923 -0.081584573 0.0024726493 0.038769662 0.0025845468 0.038871743 0.9949742 -0.07702446
1219543396.2264 0.99606895 -0.082303062 0.0025230148 0.039138444 0.0025963844 0.039260171 0.99509251 -0.077462122
1229539622.6415 0.99591428 -0.083232701 0.0025952905 0.039475292 0.0026820209 0.039593443 0.9952457 -0.07811287
1239535849.0566 0.99563843 -0.083776265 0.0026538195 0.039758176 0.0027627302 0.039884713 0.99534845 -0.078981757
1249532075.4717 0.99534351 -0.084508374 0.0027393536 0.040081326 0.0027932706 0.040181473 0.9951995 -0.079792276
1259528301.8868 0.99519014 -0.084996074 0.0027649961 0.04040622 0.002835935 0.040511295 0.99496341 -0.080650181
1269524528.3019 0.99502552 -0.085681647 0.0028132182 0.040723719 0.0029069884 0.040768396 0.99471116 -0.08128792
1279520754.717 0.99469495 -0.08638934 0.002862656 0.04099524 0.0029695053 0.041045815 0.99444842 -0.081827104
1289516981.1321 0.99457586 -0.087257743 0.0028860532 0.041292381 0.0029943148 0.041336372 0.99455553 -0.082248926
1299513207.5472 0.9943105 -0.08802399 0.0029018484 0.041575134 0.0029821768 0.041650385 0.99465853 -0.082663476
1309509433.9623 0.99388725 -0.088771179 0.0028941613 0.041894149 0.003002299 0.041920111 0.99475777 -0.083361119
1319505660.3774 0.99352223 -0.089465052 0.0029229037 0.042199623 0.0030068932 0.042250693 0.99480593 -0.083995759
1329501886.7925 0.99322271 -0.090069532 0.0029418096 0.042517286 0.0030365195 0.042585488 0.99482709 -0.084923595
1339498113.2075 0.99295205 -0.090657294 0.0029522702 0.042846303 0.0030582678 0.042889528 0.99447429 -0.085628986
1349494339.6226 0.9927628 -0.091157869 0.0029378445 0.04319112 0.0030236547 0.043216325 0.9941079 -0.086255528
1359490566.0377 0.99273819 -0.091795325 0.0029659122 0.043497872 0.0030398984 0.043572467 0.99390346 -0.086766213
1369486792.4528 0.99256933 -0.092324078 0.0029531186 0.043870803 0.0030566631 0.043897644 0.9937886 -0.087180793
1379483018.8679 0.99230057 -0.092838965 0.0029492634 0.044205654 0.0030578594 0.044233885 0.9937973 -0.087510191
1389479245.283 0.99191236 -0.093457699 0.0030372646 0.044631261 0.0030672308 0.044596393 0.99370897 -0.088188708
1399475471.6981 0.99156052 -0.093748242 0.0030104425 0.0449275 0.0030933581 0.044956226 0.99394083 -0.088881016
1409471698.1132 0.99126875 -0.094276711 0.0030747666 0.045326944 0.0030968371 0.045348559 0.99391288 -0.089681812
1419467924.5283 0.99105799 -0.094376057 0.0030651744 0.045687407 0.0031477595 0.045680616 0.99378067 -0.090356797
1429464150.9434 0.99090719 -0.094892055 0.0031051748 0.046074767 0.0031674709 0.046078898 0.99367332 -0.090954661
1439460377.3585 0.99107617 -0.095348939 0.0031859688 0.046507549 0.0032204082 0.04654295 0.99346513 -0.091247872
1449456603.7736 0.9910987 -0.095941469 0.0032855803 0.046911091 0.0033038137 0.04690332 0.99333221 -0.091638088
1459452830.1887 0.9911598 -0.096595943 0.0034351591 0.047285367 0.0034046657 0.047319185 0.99344933 -0.09188807
1469449056.6038 0.9910962 -0.097313076 0.0035854429 0.047608864 0.0035538804 0.047642477 0.99368739 -0.092538327
1479445283.0189 0.99102628 -0.097893797 0.0036945425 0.047895469 0.003718666 0.047921289 0.99374694 -0.093363993
1489441509.434 0.990978 -0.098364234 0.0038200039 0.048203435 0.0038420595 0.048221298 0.99364078 -0.094339669
1499437735.8491 0.99077696 -0.098757267 0.0039318092 0.048473306 0.0039719492 0.048484512 0.99365419 -0.095162034
1509433962.2642 0.99070966 -0.099251285 0.0040043932 0.048755154 0.0040182751 0.048736557 0.99339151 -0.095814131
1519430188.6792 0.9908492 -0.099744499 0.0040908065 0.049039315 0.0040622242 0.049043827 0.99324298 -0.096381932
1529426415.0943 0.99076021 -0.10045633 0.0041219387 0.049311541 0.0041343104 0.049316484 0.99315542 -0.096844196
1539422641.5094 0.99084902 -0.10122796 0.0042020171 0.04957011 0.0041734804 0.049567737 0.99328953 -0.097276397
1549418867.9245 0.99070501 -0.10205682 0.004301575 0.049835786 0.0042647766 0.049869448 0.99351943 -0.09792611
1559415094.3396 0.99058658 -0.10271493 0.0043252818 0.050134286 0.0042629465 0.050179951 0.99363863 -0.098654807
1569411320.7547 0.99039334 -0.10349116 0.0043367492 0.05043615 0.0042960504 0.050443582 0.99357343 -0.099492639
1579407547.1698 0.99038452 -0.10396858 0.0043544983 0.050664566 0.0043358682 0.050730474 0.99325204 -0.1002818
1589403773.5849 0.99023569 -0.10457033 0.0043657143 0.050961293 0.0043342952 0.051002052 0.99296629 -0.10099041
1599400000 0.99026597 -0.1049386 0.0043379748 0.05123128 0.0043306574 0.051314298 0.99259937 -0.10148132
1609396226.4151 0.9902333 -0.10561442 0.0043484857 0.051583398 0.0043136464 0.051606439 0.99244308 -0.10196228
1619392452.8302 0.99021488 -0.10622704 0.0043504629 0.051903129 0.0042827856 0.051916476 0.99247766 -0.10233018
1629388679.2453 0.98999763 -0.10689709 0.0043521523 0.052198805 0.0042996369 0.052283958 0.99267608 -0.10293651
1639384905.6604 0.9897393 -0.10755215 0.0043607345 0.05255352 0.0043095811 0.052660063 0.99292356 -0.10369778
1649381132.0755 0.98958015 -0.10815817 0.0043688454 0.052952524 0.0043302067 0.05300859 0.99283957 -0.10466278
1659377358.4906 0.98937631 -0.10890636 0.0043919701 0.053249169 0.0043791141 0.053405456 0.99283862 -0.1054796
1669373584.9057 0.98938096 -0.10942552 0.0044385134 0.053691797 0.0043865992 0.053727474 0.99254823 -0.10614447
1679369811.3208 0.98932076 -0.11007223 0.004470245 0.053966291 0.0044420315 0.05409047 0.99228662 -0.10669094
1689366037.7358 0.98932922 -0.11071068 0.0045113079 0.054353811 0.004450554 0.054479942 0.99217612 -0.10699496
1699362264.1509 0.98946613 -0.11124066 0.0045650527 0.054736368 0.0044768425 0.054869499 0.9923746 -0.10737295
1709358490.566 0.9893738 -0.11190358 0.0045995032 0.055100411 0.0045432579 0.055230685 0.99236625 -0.10790706
1719354716.9811 0.98910546 -0.1125302 0.0046423897 0.05544582 0.0045862999 0.05557806 0.99247664 -0.10871336
1729350943.3962 0.98887366 -0.11309493 0.004704643 0.055824466 0.0046353992 0.055976871 0.99248981 -0.10957325
