!Keysight Technologies,N5222B,MY61253708,A.15.00.15
!Date: Wednesday, June 19, 2024 09:20:05
!Correction: S11(C  2-Port  ) 
!S21(C  2-Port  ) 
!S12(C  2-Port  ) 
!S22(C  2-Port  ) 
!S2P File: Measurements: S11, S21, S12, S22:
# Hz S  RI   R 50
10000000 0.99912298 -0.0023754835 0.00023982736 0.00044192589 4.5941852e-007 7.90497e-005 0.99866539 -0.001319617
19996226.415094 0.99909931 -0.0021552742 9.1596128e-005 0.0007447789 5.4950011e-005 0.00059987989 0.99918061 -0.0025170147
29992452.830189 0.99961221 -0.0024122298 1.3535522e-005 0.0010382269 -3.7214777e-006 0.00110335 0.99956328 -0.0027116239
39988679.245283 1.0000416 -0.0030499101 3.4255805e-005 0.0013544123 1.9820858e-005 0.0013332926 0.99964589 -0.0031156391
49984905.660377 1.000145 -0.0037878752 -9.7203883e-006 0.0017131504 -3.7991616e-005 0.0017186764 0.99971449 -0.0037269592
59981132.075472 1.0003208 -0.004757762 1.0876567e-005 0.0020383021 -1.6011472e-005 0.002072288 0.99972481 -0.0042910576
69977358.490566 1.0001063 -0.0052383002 2.3208762e-005 0.0023178852 5.4852735e-005 0.0023904298 0.99958831 -0.004821362
79973584.90566 0.99984431 -0.0058202446 2.5311485e-005 0.0027297167 1.0054675e-005 0.0027080367 0.99935025 -0.0053237677
89969811.320755 0.99978769 -0.0060287714 8.7141525e-006 0.0030252649 2.2525899e-005 0.0030729482 0.99956715 -0.0056158602
99966037.735849 1.0000154 -0.0067595243 2.7613423e-005 0.0034193776 3.5961973e-005 0.0034224256 0.99960476 -0.0063610077
109962264.15094 1.0000633 -0.0077009499 2.1354121e-005 0.0037175347 2.4969515e-005 0.0037523336 0.99960554 -0.0072190613
119958490.56604 1.0000865 -0.0086615682 2.9864488e-005 0.0040408792 4.0656189e-005 0.0040966063 0.99965119 -0.0081139207
129954716.98113 1.0000453 -0.0096237659 4.8320857e-005 0.004379625 3.0800118e-005 0.0044310298 0.99962002 -0.009049505
139950943.39623 0.99995238 -0.010461248 3.5799691e-005 0.0047145616 5.1119714e-005 0.0047531202 0.99953508 -0.0097925309
149947169.81132 0.99982405 -0.011124015 6.1137602e-005 0.005085872 3.6732061e-005 0.0051059127 0.99947143 -0.010395914
159943396.22642 0.99976039 -0.011704981 5.7043741e-005 0.0053941784 5.2701915e-005 0.005434311 0.99958491 -0.010862172
169939622.64151 0.99973595 -0.012033224 8.5685926e-005 0.005750584 6.0965423e-005 0.005804156 0.99963289 -0.011300832
179935849.0566 0.99984819 -0.012346596 5.8065634e-005 0.0060989759 7.7701174e-005 0.0061125858 0.99954861 -0.011661947
189932075.4717 0.99993443 -0.013157189 0.00011337176 0.0064236159 9.3081733e-005 0.0064846287 0.99972785 -0.012292057
199928301.88679 0.9999125 -0.013998032 0.00012671784 0.0067810961 9.3830051e-005 0.0068120058 0.99967325 -0.013169825
209924528.30189 0.99964952 -0.014630467 0.00011481764 0.0070777596 9.4480813e-005 0.007143605 0.99941707 -0.013946533
219920754.71698 0.9996751 -0.015527844 0.00013093348 0.0074600363 0.00011757039 0.0074932883 0.99926996 -0.014579982
229916981.13208 0.99946761 -0.016336143 0.00011315406 0.0077526863 0.00012603891 0.0078424588 0.99917877 -0.015368581
239913207.54717 0.99931091 -0.017022744 0.00012375601 0.008116615 0.00015156699 0.0081678396 0.9991954 -0.016062154
249909433.96226 0.9993853 -0.017674625 0.00015609385 0.0084473845 0.00014429004 0.0085154604 0.99924153 -0.01668942
259905660.37736 0.99944723 -0.018208504 0.00018082466 0.0087902537 0.00016188994 0.0088876914 0.99940121 -0.017278224
269901886.79245 0.99961674 -0.018895924 0.00023551972 0.0091224881 0.00017467979 0.0091579594 0.9997859 -0.017955944
279898113.20755 0.99962986 -0.019586176 0.00027949689 0.0094862124 0.00016583386 0.0095320763 0.99961066 -0.018770278
289894339.62264 0.99960887 -0.020359814 0.00022659032 0.0098298043 0.00017020106 0.0098804096 0.99960995 -0.019438267
299890566.03774 0.99960709 -0.020807922 0.00021135667 0.01015367 0.00018896116 0.010178641 0.99931562 -0.020006239
309886792.45283 0.99934536 -0.021461822 0.00023148931 0.010412141 0.00020376407 0.010565486 0.999156 -0.020351134
319883018.86792 0.99934804 -0.022156358 0.00027508941 0.010808153 0.00029204693 0.01091966 0.99930632 -0.020882875
329879245.28302 0.99931133 -0.022876352 0.00029373169 0.011117266 0.00024624495 0.011241827 0.9993614 -0.021646082
339875471.69811 0.9991625 -0.023534365 0.00021952519 0.011500846 0.00030572305 0.011576695 0.99927449 -0.022484221
349871698.11321 0.99946642 -0.024483055 0.00030994928 0.011795722 0.00028545875 0.011927545 0.99938464 -0.023346931
359867924.5283 0.99922246 -0.025188178 0.00029171212 0.012143459 0.00032434659 0.01223889 0.99931258 -0.024300784
369864150.9434 0.99944746 -0.025990307 0.00031028199 0.0125006 0.00032990589 0.012585015 0.99932873 -0.025061458
379860377.35849 0.99929249 -0.026655287 0.00035360968 0.0128357 0.00035252678 0.012897046 0.99921465 -0.025681272
389856603.77358 0.99918997 -0.027209342 0.00034066802 0.01321019 0.00035189325 0.013272756 0.99920195 -0.026198804
399852830.18868 0.99908566 -0.027812421 0.00041032489 0.013484549 0.00036928616 0.013598193 0.99920368 -0.026640534
409849056.60377 0.99903333 -0.028402239 0.00039223547 0.013850954 0.0003727013 0.013924901 0.99924505 -0.02721481
419845283.01887 0.99903357 -0.028809726 0.00040540611 0.014180517 0.00042812387 0.014310248 0.99923825 -0.027651489
429841509.43396 0.99912429 -0.029423416 0.00045937626 0.01450756 0.00044794893 0.014619069 0.99940372 -0.028553009
439837735.84906 0.99901026 -0.030356243 0.00044887816 0.014869802 0.00045825122 0.014953376 0.99920171 -0.029431537
449833962.26415 0.99886018 -0.031154215 0.00047814474 0.015145097 0.0004868377 0.015272433 0.99879533 -0.030330628
459830188.67925 0.99884713 -0.032019317 0.00046012923 0.015476817 0.00046633696 0.015597466 0.99868178 -0.03107968
469826415.09434 0.99883795 -0.032779068 0.00047544669 0.015838524 0.00048697274 0.015958766 0.99835122 -0.031586319
479822641.50943 0.99879444 -0.033432186 0.00052332832 0.016191611 0.00053472747 0.0163249 0.9984566 -0.032031752
489818867.92453 0.99885857 -0.033934683 0.00057534641 0.016507603 0.00053373212 0.016648851 0.99876308 -0.03254655
499815094.33962 0.99894011 -0.034529567 0.00058581587 0.016855456 0.00055498956 0.016951168 0.99904788 -0.033177495
509811320.75472 0.99903423 -0.034990165 0.00058015145 0.017147901 0.0006031965 0.017297383 0.99918199 -0.033954278
519807547.16981 0.99891049 -0.03551203 0.00060809916 0.017542347 0.00062390883 0.017680388 0.99915493 -0.034775794
529803773.58491 0.99891794 -0.036153913 0.00063625537 0.01784152 0.00064211898 0.01802589 0.99881256 -0.03533262
539800000 0.99889165 -0.036856189 0.00064897514 0.018243458 0.00065455167 0.018389558 0.99872464 -0.036044791
549796226.41509 0.9987486 -0.037731051 0.00066639343 0.018575152 0.00068538403 0.018691529 0.99855721 -0.036569506
559792452.83019 0.99852049 -0.038552493 0.00071606506 0.018848624 0.00069031026 0.019031834 0.99847388 -0.037005872
569788679.24528 0.99836475 -0.039241761 0.00069002993 0.01921954 0.00074487226 0.019382931 0.99858451 -0.03777945
579784905.66038 0.99835938 -0.03979177 0.00074529345 0.019577529 0.00076635962 0.019749245 0.9987604 -0.038531348
589781132.07547 0.99854469 -0.040386021 0.00077096839 0.019914165 0.0007773675 0.020084187 0.9988358 -0.039443225
599777358.49057 0.99851173 -0.040975511 0.00082600769 0.020223295 0.00081553403 0.020406421 0.99889302 -0.040198714
609773584.90566 0.99874693 -0.041743554 0.00084422657 0.020604955 0.00090718921 0.020798525 0.99874353 -0.041071068
619769811.32075 0.99876666 -0.0425542 0.00092650624 0.020928178 0.00087144645 0.021070918 0.99866128 -0.041653335
629766037.73585 0.99863613 -0.043141454 0.00093012303 0.021194495 0.00092362799 0.021401525 0.99845099 -0.042186797
639762264.15094 0.99845654 -0.043854028 0.0009658779 0.021511886 0.00096299592 0.021705519 0.99834782 -0.042607948
649758490.56604 0.99837625 -0.044396043 0.00094732875 0.021835534 0.00095303962 0.022037979 0.99835926 -0.043042496
659754716.98113 0.99811381 -0.044911057 0.00098102633 0.022173159 0.0010254327 0.022377368 0.99844086 -0.043640673
669750943.39623 0.99819916 -0.045463651 0.0010006102 0.022527575 0.0010077907 0.022768756 0.9985193 -0.044421613
679747169.81132 0.99812776 -0.046239354 0.0010339363 0.022907879 0.001061469 0.023082316 0.99840564 -0.045434594
689743396.22642 0.99839938 -0.04711923 0.0010728063 0.023236167 0.0010858718 0.023441378 0.9983179 -0.046365499
699739622.64151 0.99842334 -0.047785312 0.0010934584 0.023564804 0.0011417717 0.023761872 0.99819398 -0.047072232
709735849.0566 0.99839455 -0.048686318 0.0011547111 0.023878245 0.0011613193 0.024068456 0.99798101 -0.047717877
719732075.4717 0.99829346 -0.049383402 0.0011990131 0.024196617 0.0011970387 0.024386793 0.99808192 -0.048333704
729728301.88679 0.99813676 -0.049912989 0.0012367675 0.024544727 0.001246715 0.024792887 0.99808347 -0.048756093
739724528.30189 0.99805093 -0.050604984 0.0012975405 0.024860872 0.0012597293 0.025065158 0.99829185 -0.04948619
749720754.71698 0.9979372 -0.051081195 0.0012851441 0.025186675 0.0013032798 0.025414163 0.99834365 -0.050172523
759716981.13208 0.99805301 -0.051580995 0.0013411436 0.025512196 0.0013139928 0.025749255 0.99828655 -0.050898671
769713207.54717 0.99801433 -0.052327573 0.0013376744 0.025837149 0.0013580984 0.026063351 0.99796933 -0.051680177
779709433.96226 0.99811608 -0.052991826 0.0013629129 0.026185786 0.001419962 0.026384234 0.99775213 -0.052312952
789705660.37736 0.99799097 -0.053985357 0.0014210874 0.026490696 0.001411872 0.026711123 0.99745071 -0.052976459
799701886.79245 0.99800134 -0.054728836 0.001468231 0.02682459 0.001472638 0.027016032 0.99734879 -0.053529859
809698113.20755 0.99793655 -0.05537574 0.00150593 0.027142337 0.0014950186 0.027365912 0.99740875 -0.054067284
819694339.62264 0.99773079 -0.056077778 0.0015014173 0.02745566 0.0015097014 0.027711004 0.99751866 -0.054690003
829690566.03774 0.99766958 -0.056672037 0.0015620794 0.027789913 0.0015640697 0.028063346 0.99782813 -0.055538476
839686792.45283 0.99770731 -0.057061613 0.0015529194 0.028116984 0.0015540505 0.028366383 0.99789846 -0.056440979
849683018.86792 0.99786556 -0.057661183 0.0015735072 0.028458122 0.0016381948 0.028689519 0.99771279 -0.057163075
859679245.28302 0.99782896 -0.058463782 0.0016215695 0.028792536 0.0016521402 0.029059565 0.9973886 -0.057830006
869675471.69811 0.99782401 -0.059198439 0.0016894294 0.029114049 0.0017035939 0.02937733 0.99708939 -0.058366776
879671698.11321 0.99773782 -0.059900858 0.0017111129 0.029439377 0.0017380281 0.029689452 0.99704754 -0.05875079
889667924.5283 0.9975884 -0.060786366 0.0017505111 0.029724132 0.0017735763 0.030024163 0.99690449 -0.059257746
899664150.9434 0.99740028 -0.061482698 0.001780415 0.030084133 0.0017830627 0.030369546 0.99696809 -0.059881091
909660377.35849 0.99732864 -0.062147066 0.0017948723 0.030414827 0.0018139477 0.030699648 0.99713773 -0.060791478
919656603.77358 0.99738306 -0.062837929 0.0018308852 0.030751966 0.0018496681 0.031016599 0.99713475 -0.061700746
929652830.18868 0.99739647 -0.063553602 0.0018578609 0.031064754 0.0018876968 0.031355873 0.99699128 -0.062601119
939649056.60377 0.9976179 -0.064207941 0.0018818788 0.03135749 0.0019058278 0.031665009 0.99684906 -0.063319474
949645283.01887 0.99758816 -0.064993121 0.001872126 0.031720378 0.0019164472 0.031993605 0.99649757 -0.06390278
959641509.43396 0.99748802 -0.065749168 0.0019097961 0.032069482 0.0019458104 0.032388307 0.99650401 -0.064290196
969637735.84906 0.99741173 -0.066527188 0.001976558 0.032468002 0.0019762712 0.032773826 0.99653113 -0.064635426
979633962.26415 0.99723947 -0.067176282 0.0020519912 0.032731127 0.0020478419 0.033050377 0.99654186 -0.065306358
989630188.67925 0.99723053 -0.067709774 0.0020585218 0.033062778 0.0020917282 0.033388566 0.99669653 -0.066021115
999626415.09434 0.99733633 -0.068375707 0.0020806845 0.03340302 0.002095338 0.033731882 0.99674517 -0.066799343
1009622641.5094 0.99725783 -0.06903927 0.002104871 0.033739828 0.0021694787 0.034086559 0.99656379 -0.067708209
1019618867.9245 0.99741143 -0.069923073 0.0022152718 0.03409338 0.0022476069 0.034409411 0.99625683 -0.068578809
1029615094.3396 0.99741656 -0.070807159 0.0022466239 0.034411892 0.0022773091 0.034679793 0.9958539 -0.069083601
1039611320.7547 0.99738169 -0.071699709 0.0022709286 0.034727499 0.0022997996 0.035020232 0.99581718 -0.069826156
1049607547.1698 0.9972465 -0.072584532 0.0023012341 0.035018675 0.0023280322 0.035319269 0.99578214 -0.070388079
1059603773.5849 0.99713618 -0.073329419 0.0023316126 0.035331797 0.0023840256 0.035662536 0.99584281 -0.070966274
1069600000 0.99686015 -0.073999703 0.0023454987 0.035622735 0.0023708902 0.035996322 0.99595147 -0.071644276
1079596226.4151 0.9968645 -0.074542031 0.0023375615 0.035964526 0.0024184617 0.036297202 0.99593574 -0.072343946
1089592452.8302 0.99686533 -0.075244039 0.0023730788 0.036311526 0.0024281796 0.03665553 0.99588311 -0.073140532
1099588679.2453 0.9969303 -0.07595697 0.002415074 0.036627613 0.002451947 0.036976255 0.9955132 -0.073782712
1109584905.6604 0.9971475 -0.076801702 0.0024057021 0.036968414 0.0025022225 0.037314858 0.9952662 -0.074388847
1119581132.0755 0.99700689 -0.077722892 0.0024575703 0.037308682 0.0025322335 0.037664998 0.99511653 -0.074718446
1129577358.4906 0.99680352 -0.078551859 0.0024913456 0.037718002 0.0025235079 0.03802963 0.9949913 -0.075193882
1139573584.9057 0.99655217 -0.079431057 0.002552852 0.038030252 0.0025887396 0.038381923 0.99510235 -0.07588461
1149569811.3208 0.99644196 -0.080357157 0.0025785079 0.038350627 0.0026547585 0.038712498 0.9952336 -0.076681301
1159566037.7358 0.99623704 -0.080950111 0.0026152264 0.03867887 0.0027084202 0.039035697 0.99534827 -0.077647567
1169562264.1509 0.99604857 -0.081647068 0.0026302673 0.038966745 0.0027261805 0.039363615 0.99514318 -0.0784989
1179558490.566 0.99599135 -0.082384787 0.0026466595 0.039344616 0.002746555 0.039726399 0.99498343 -0.07915242
1189554716.9811 0.99605411 -0.083070576 0.0026989877 0.039703984 0.0028254576 0.040060882 0.9947409 -0.079700679
1199550943.3962 0.99598312 -0.083933562 0.0027143676 0.040077403 0.0028434712 0.04038275 0.99456096 -0.080127716
1209547169.8113 0.99573749 -0.084830269 0.0027772626 0.040380996 0.0028804559 0.040717404 0.99445897 -0.080466926
1219543396.2264 0.99558562 -0.085676223 0.00283224 0.040743425 0.0029366338 0.041125465 0.99454671 -0.080864951
1229539622.6415 0.99530238 -0.086414665 0.0028952174 0.041109458 0.0030159913 0.041463595 0.9946878 -0.081586689
1239535849.0566 0.995031 -0.087146312 0.0029462567 0.041407172 0.0030904151 0.041729767 0.99478245 -0.082508206
1249532075.4717 0.99465716 -0.087872475 0.0029949131 0.041732896 0.0031576708 0.042078644 0.99463201 -0.08334627
1259528301.8868 0.99449879 -0.088357806 0.0030453559 0.042073943 0.0032012239 0.042423174 0.99438089 -0.084305227
1269524528.3019 0.99431217 -0.089145303 0.0031389557 0.042373475 0.0032781381 0.042691521 0.99418157 -0.084918439
1279520754.717 0.99398082 -0.089860447 0.0031581866 0.042676151 0.0033270414 0.042991485 0.99388528 -0.085423186
1289516981.1321 0.99386698 -0.090693533 0.0032197125 0.042956427 0.0033674138 0.043279082 0.99392182 -0.085924447
1299513207.5472 0.99350607 -0.091430426 0.0031978656 0.04328876 0.0033451132 0.043636456 0.99405366 -0.086258709
1309509433.9623 0.99308676 -0.09214282 0.00323541 0.04358574 0.0033872183 0.043897647 0.99414659 -0.086947501
1319505660.3774 0.99269831 -0.092965305 0.0032370891 0.04394735 0.0033705058 0.044266451 0.99413943 -0.087640539
1329501886.7925 0.99235845 -0.093597502 0.0032730233 0.044258192 0.0034388453 0.044559792 0.99415326 -0.088620424
1339498113.2075 0.99216253 -0.094161391 0.0032979613 0.044578426 0.0034423517 0.044912346 0.99374849 -0.089350641
1349494339.6226 0.99179429 -0.094649389 0.0032881247 0.04494489 0.003439304 0.045235876 0.99335402 -0.089952171
1359490566.0377 0.99186409 -0.095418841 0.0033155307 0.045309544 0.00343813 0.045597777 0.99320424 -0.090528607
1369486792.4528 0.99162227 -0.095844895 0.0033000736 0.04569653 0.0034187362 0.045969736 0.99302465 -0.090893984
1379483018.8679 0.99139673 -0.096390337 0.0033126662 0.046050187 0.0034582708 0.046353959 0.99306917 -0.091272801
1389479245.283 0.99095201 -0.097020686 0.0033916719 0.046392445 0.0035214406 0.046706572 0.99301654 -0.091938227
1399475471.6981 0.99056184 -0.097310126 0.0033592507 0.046795391 0.0035055615 0.047086515 0.99308169 -0.092656612
1409471698.1132 0.99024338 -0.097775377 0.0034338387 0.0471856 0.0035342064 0.04745809 0.99313521 -0.093512684
1419467924.5283 0.99003899 -0.098012775 0.0034261653 0.047551986 0.0035673119 0.047819898 0.99305689 -0.094215602
1429464150.9434 0.98995161 -0.098408639 0.0035116877 0.047924206 0.0036247 0.048228335 0.99288511 -0.094841123
1439460377.3585 0.99010307 -0.098895386 0.0035962705 0.048379824 0.0036732433 0.048700117 0.99262232 -0.095147446
1449456603.7736 0.99010897 -0.099492013 0.0036893543 0.048791446 0.0037586847 0.049083624 0.99252552 -0.095405787
1459452830.1887 0.99017477 -0.10021907 0.0038208738 0.0491805 0.0038826596 0.049484141 0.99263096 -0.095765799
1469449056.6038 0.99018025 -0.10077527 0.0039815279 0.049544707 0.0040556788 0.049828898 0.99289542 -0.096380383
1479445283.0189 0.98998415 -0.10153013 0.0041383523 0.049812432 0.0041656187 0.050183833 0.99293345 -0.097323723
1489441509.434 0.98986197 -0.10199311 0.0042655449 0.050135087 0.0042935628 0.050438043 0.99277431 -0.098194152
1499437735.8491 0.98969352 -0.10235858 0.0043362249 0.050426245 0.0044251457 0.050738432 0.99275541 -0.099127173
1509433962.2642 0.98960167 -0.10285535 0.0044532102 0.050706562 0.0044759056 0.051023092 0.99244207 -0.099768348
1519430188.6792 0.98984945 -0.10334596 0.0045398846 0.05099225 0.0045382138 0.05129065 0.99238443 -0.10026577
1529426415.0943 0.98972487 -0.10399973 0.0045654215 0.051284783 0.0045951102 0.05159831 0.99228364 -0.10074762
1539422641.5094 0.98974878 -0.10480004 0.0046398696 0.05159789 0.0046665212 0.051917903 0.99242604 -0.10122272
1549418867.9245 0.98961055 -0.10559915 0.0046821842 0.051826458 0.004712062 0.052180577 0.99259663 -0.10194223
1559415094.3396 0.98947954 -0.10631883 0.0047450643 0.052147727 0.0047485735 0.052505389 0.99274731 -0.10258073
1569411320.7547 0.98938942 -0.10718009 0.0047971141 0.052440595 0.0047787437 0.052789684 0.99265951 -0.10348587
1579407547.1698 0.98926932 -0.10771124 0.0048295269 0.052733686 0.0048381118 0.053084996 0.99224287 -0.10424721
1589403773.5849 0.98912787 -0.10823631 0.0048299413 0.053020395 0.0048487671 0.053354718 0.99206257 -0.10502174
1599400000 0.9891904 -0.10865939 0.004782876 0.053352159 0.004841147 0.053673822 0.99163419 -0.10548061
1609396226.4151 0.98920602 -0.10937192 0.0048059598 0.05363081 0.0048238281 0.054011915 0.99146354 -0.10597815
1619392452.8302 0.98915935 -0.1099292 0.0048219059 0.05395402 0.0048199687 0.054387923 0.99140251 -0.10643628
1629388679.2453 0.98893237 -0.1106613 0.0048446748 0.054329026 0.0048216637 0.054738328 0.99159807 -0.10697207
1639384905.6604 0.98863256 -0.11120752 0.0048690219 0.054718923 0.0048416979 0.05513053 0.99197859 -0.10781655
1649381132.0755 0.98854172 -0.11196631 0.0048501939 0.05510259 0.0048966669 0.055508323 0.99188417 -0.1088433
1659377358.4906 0.98827273 -0.1127165 0.0048618168 0.055453986 0.0049047917 0.055908747 0.99183798 -0.10959497
1669373584.9057 0.98817748 -0.11322485 0.0048973183 0.055824071 0.0049269511 0.056268588 0.99156463 -0.11026981
1679369811.3208 0.98822314 -0.11391264 0.0049731061 0.056170836 0.0049611889 0.056638889 0.99131 -0.11085945
1689366037.7358 0.98825461 -0.11456308 0.0050137993 0.056616783 0.0050317403 0.057036534 0.9910928 -0.11116254
1699362264.1509 0.98839378 -0.11519936 0.0051155873 0.056965869 0.005089445 0.057424728 0.99139822 -0.11161539
1709358490.566 0.98833579 -0.1158026 0.0051270174 0.05732042 0.0051520411 0.057808887 0.99143648 -0.11207688
1719354716.9811 0.98797631 -0.11641404 0.005205119 0.057724103 0.0052099824 0.058198925 0.99141872 -0.11280644
1729350943.3962 0.98767799 -0.11701179 0.0052848868 0.058147557 0.0052921511 0.058559194 0.99144638 -0.11377659
