!Keysight Technologies,N5222B,MY61253708,A.15.00.15
!Date: Wednesday, June 19, 2024 09:46:36
!Correction: S11(C  2-Port  ) 
!S21(C  2-Port  ) 
!S12(C  2-Port  ) 
!S22(C  2-Port  ) 
!S2P File: Measurements: S11, S21, S12, S22:
# Hz S  RI   R 50
10000000 0.99871349 -0.0025092959 5.3186064e-005 0.0002756943 1.1155855e-005 0.00019376173 0.99848735 -0.0014485121
19996226.415094 0.99879861 -0.0030598342 -2.7898757e-005 0.00060840137 -5.4648583e-005 0.00067729538 0.99912238 -0.0032789409
29992452.830189 0.99971163 -0.0025426149 -4.246828e-005 0.00097471091 5.6433462e-005 0.00097809872 0.99950355 -0.0027837455
39988679.245283 1.0000495 -0.0029537976 1.2764314e-005 0.0013499737 -1.9849103e-006 0.0013637712 0.9996357 -0.0030803978
49984905.660377 1.0002663 -0.0036769211 2.0219886e-005 0.0016671714 1.2284436e-005 0.0016684083 0.99980325 -0.0036624074
59981132.075472 1.0004478 -0.004478991 4.0599843e-005 0.0020044544 7.9164165e-006 0.0020260112 0.9998129 -0.004240185
69977358.490566 1.0002406 -0.0051491372 -2.2775857e-006 0.0023392388 2.5030735e-005 0.0023232747 0.99967849 -0.0048104301
79973584.90566 0.99992704 -0.0056732297 4.7050184e-005 0.0026320708 4.2557134e-005 0.0026512207 0.99935919 -0.0053326786
89969811.320755 0.99995983 -0.0058395267 -1.7044367e-005 0.0030182609 3.5255682e-005 0.0029844758 0.99958301 -0.0055042207
99966037.735849 1.0002489 -0.006564334 4.3661683e-005 0.0033057951 3.4855504e-005 0.0033220574 0.99960041 -0.0063067675
109962264.15094 1.0002321 -0.0074135661 1.8329767e-005 0.0036209913 1.7784419e-005 0.0036637797 0.99962938 -0.0071234703
119958490.56604 1.0002496 -0.0084024072 2.5034649e-005 0.0039596939 4.1330582e-005 0.0040004547 0.99966508 -0.0079880655
129954716.98113 1.0001953 -0.0093343854 2.4026376e-005 0.0042820037 4.0236278e-005 0.004353194 0.99963099 -0.0088944137
139950943.39623 1.0000995 -0.010145368 3.0209369e-005 0.0045980667 2.45353e-005 0.0046547214 0.99957609 -0.0096181352
149947169.81132 1.000033 -0.010841906 6.524194e-005 0.0049572652 4.1703228e-005 0.0049817963 0.99953252 -0.010272086
159943396.22642 0.99996531 -0.011372685 6.8706926e-005 0.0052811187 7.2228489e-005 0.0053241225 0.99959224 -0.010703683
169939622.64151 0.99997497 -0.011765666 6.0136896e-005 0.0056202561 6.1988365e-005 0.0056678075 0.99963933 -0.011150151
179935849.0566 1.0000312 -0.012004852 9.6707256e-005 0.0059452578 7.4996962e-005 0.0059790136 0.99955642 -0.011567444
189932075.4717 1.0001204 -0.012817264 9.1447262e-005 0.006250862 7.6589407e-005 0.006319643 0.99975216 -0.012129247
199928301.88679 1.0000638 -0.013583899 8.7753753e-005 0.0066059204 6.8304478e-005 0.0066649499 0.99965864 -0.013005733
209924528.30189 0.99981618 -0.014168054 0.00010898686 0.0069449148 0.00012130698 0.0069704093 0.99944955 -0.013666973
219920754.71698 0.99993885 -0.015010059 0.00010793563 0.0072877896 8.7373191e-005 0.0073180189 0.99932504 -0.014276505
229916981.13208 0.9996984 -0.015900105 0.00012909714 0.0076039224 0.00012041046 0.0076577766 0.99931335 -0.015082926
239913207.54717 0.99964207 -0.016551228 0.00014209333 0.0079111224 0.0001427798 0.008001823 0.99921781 -0.015858006
249909433.96226 0.99961913 -0.017169207 0.00013895915 0.0082639717 0.00013293629 0.0083175739 0.99931586 -0.016453534
259905660.37736 0.99972826 -0.017819643 0.00014870148 0.0085600791 0.00015138928 0.0086163674 0.99954879 -0.017009676
269901886.79245 0.99979186 -0.018486917 0.00023111887 0.0089411316 0.00019088481 0.008980873 0.9998619 -0.017703831
279898113.20755 0.99993497 -0.019120008 0.000209335 0.0092768474 0.00016596634 0.0092873573 0.99964213 -0.018513188
289894339.62264 0.99985957 -0.0198358 0.00019075722 0.0095601641 0.00019273441 0.0096460078 0.99960494 -0.019251913
299890566.03774 0.99980247 -0.020262122 0.00018816558 0.0098752268 0.00019151601 0.010002892 0.99936116 -0.019721419
309886792.45283 0.99955821 -0.02086518 0.00020400085 0.010265395 0.00021005829 0.010355038 0.99926138 -0.020040378
319883018.86792 0.99963582 -0.021556199 0.00021449104 0.010544601 0.00022747088 0.010655371 0.99935651 -0.02061075
329879245.28302 0.99971938 -0.022265404 0.00020690355 0.010908669 0.00024723401 0.01097265 0.99949777 -0.021342307
339875471.69811 0.99951732 -0.022949919 0.00026500225 0.011219176 0.00023546617 0.011309652 0.99935645 -0.022154182
349871698.11321 0.99964416 -0.023871869 0.00029445789 0.01151996 0.00025692675 0.011632449 0.99932957 -0.023085028
359867924.5283 0.99959731 -0.024622709 0.00032830611 0.011821437 0.00029096799 0.01202288 0.99934876 -0.023996562
369864150.9434 0.99965298 -0.025444359 0.00028920197 0.012232509 0.00030800444 0.012290122 0.99931514 -0.024615169
379860377.35849 0.9996472 -0.026071966 0.00028595747 0.012532978 0.00032663927 0.012632277 0.99923813 -0.0253582
389856603.77358 0.99951833 -0.026790857 0.00033556297 0.012863424 0.00033766124 0.012980134 0.99927568 -0.025653005
399852830.18868 0.99919415 -0.027398735 0.00032583252 0.013243588 0.00036102487 0.01330169 0.99937785 -0.026254684
409849056.60377 0.9992888 -0.027788715 0.00036037088 0.013525668 0.00036661015 0.013631934 0.99926388 -0.026760634
419845283.01887 0.99916792 -0.028166682 0.00040418841 0.013851847 0.00039647473 0.013968827 0.99933076 -0.027228445
429841509.43396 0.99933106 -0.028885096 0.00037783477 0.014173955 0.00042613642 0.014290147 0.9995414 -0.028042763
439837735.84906 0.99916351 -0.029794618 0.00040560286 0.014497137 0.00045455003 0.014626333 0.99928665 -0.028999209
449833962.26415 0.99906695 -0.030520856 0.00044900505 0.014819783 0.00048540719 0.014912221 0.99895692 -0.029790729
459830188.67925 0.99891567 -0.031217486 0.00043450296 0.015151834 0.00046619913 0.015230125 0.99882758 -0.030459464
469826415.09434 0.99883723 -0.032079846 0.00048667053 0.015477335 0.00048408983 0.015603706 0.99851966 -0.031066418
479822641.50943 0.99875963 -0.032501116 0.0004966238 0.015840422 0.00049141608 0.015962848 0.99858671 -0.03154026
489818867.92453 0.99889344 -0.033070594 0.00051517179 0.016157456 0.00055830507 0.016283147 0.99892968 -0.032076746
499815094.33962 0.99889195 -0.033695161 0.00051212311 0.016478337 0.00057445001 0.016585737 0.99915147 -0.03273201
509811320.75472 0.99907875 -0.034146041 0.00055439171 0.016795883 0.00056508736 0.016939992 0.99925888 -0.0335382
519807547.16981 0.99895036 -0.034579337 0.00061652297 0.017122678 0.00058101444 0.017254315 0.99922842 -0.034367442
529803773.58491 0.99893463 -0.035220474 0.00057410263 0.017452536 0.0006229626 0.017621946 0.99900305 -0.034878999
539800000 0.9990623 -0.035863698 0.00057669939 0.0178083 0.00061358884 0.017920515 0.99885416 -0.03549327
549796226.41509 0.99885285 -0.036750078 0.00061166566 0.018140022 0.00068697846 0.018310297 0.9986819 -0.035980493
559792452.83019 0.9986434 -0.037447065 0.0006319508 0.018449929 0.00065030064 0.018609215 0.99856418 -0.03651014
569788679.24528 0.99855465 -0.038105756 0.00068057142 0.018780824 0.00067005167 0.018927505 0.99870324 -0.037274122
579784905.66038 0.99853891 -0.038609251 0.00071158691 0.019128539 0.00074439484 0.019302065 0.99887699 -0.038014963
589781132.07547 0.99864209 -0.039287657 0.00078393333 0.01941886 0.00073338021 0.019606477 0.99894369 -0.038875997
599777358.49057 0.99871123 -0.039944053 0.00079604145 0.01975581 0.00082222465 0.019944955 0.99895352 -0.039684564
609773584.90566 0.99890584 -0.040745325 0.00083518156 0.020115551 0.00082926999 0.020279946 0.9988355 -0.040464099
619769811.32075 0.99897373 -0.041344106 0.0008739559 0.020413488 0.00087091792 0.020574149 0.99879324 -0.041057944
629766037.73585 0.99885601 -0.042076617 0.00083976239 0.02075397 0.00082155876 0.020921564 0.99861693 -0.041546315
639762264.15094 0.99868304 -0.042689964 0.00089509087 0.021081109 0.00086794002 0.021232309 0.99845904 -0.04201591
649758490.56604 0.99855953 -0.043234259 0.00089887716 0.021309514 0.00090306019 0.021555582 0.99850655 -0.042471021
659754716.98113 0.99848825 -0.043744564 0.00091629475 0.021685163 0.00089142099 0.021893237 0.99852157 -0.043068558
669750943.39623 0.9985345 -0.044218421 0.00096551655 0.022067819 0.00092189107 0.022254337 0.99865371 -0.043806493
679747169.81132 0.99842483 -0.045126125 0.00095948658 0.022414712 0.00095002435 0.022595288 0.9986102 -0.044710495
689743396.22642 0.99856901 -0.045826197 0.0010419833 0.022712521 0.0010486562 0.022903258 0.99837685 -0.045612246
699739622.64151 0.99868166 -0.046661675 0.0010732291 0.023079503 0.0010558963 0.023225317 0.99828875 -0.046338618
709735849.0566 0.99868327 -0.047561318 0.0011019444 0.023378454 0.0011249324 0.023553157 0.99806726 -0.047053501
719732075.4717 0.99856579 -0.048182547 0.0011155256 0.023638876 0.0011339015 0.023867769 0.99818343 -0.047594845
729728301.88679 0.9985128 -0.048725635 0.0011606822 0.023992449 0.0011514528 0.024187695 0.99820316 -0.04802826
739724528.30189 0.99835843 -0.049399599 0.0012136218 0.024329167 0.0011591786 0.024558224 0.99837852 -0.04871577
749720754.71698 0.99822623 -0.049885184 0.0012295227 0.024628434 0.0012411112 0.024861982 0.99838799 -0.049368277
759716981.13208 0.99834085 -0.050474405 0.0012523914 0.024927624 0.001260994 0.025182165 0.99835503 -0.05020076
769713207.54717 0.99822736 -0.051129133 0.0012859311 0.025280347 0.0012946343 0.02550686 0.99811465 -0.050824732
779709433.96226 0.99841636 -0.051742349 0.001306553 0.025599146 0.0013232152 0.025812004 0.99791014 -0.051478077
789705660.37736 0.99832851 -0.052605003 0.0013567163 0.025921794 0.0013574343 0.026121322 0.997684 -0.052251279
799701886.79245 0.99819899 -0.053453058 0.0013856962 0.026239302 0.0013555428 0.026444817 0.99748772 -0.052791119
809698113.20755 0.99817425 -0.054048747 0.0014325499 0.026567837 0.0014022375 0.026801005 0.99754286 -0.053270489
819694339.62264 0.99798459 -0.054666549 0.0014448962 0.026859231 0.0014415332 0.027164897 0.99766964 -0.053839236
829690566.03774 0.99799907 -0.055303961 0.0014586868 0.027185183 0.0014660303 0.027436413 0.99792135 -0.054734021
839686792.45283 0.99802202 -0.055788904 0.0014768774 0.027520727 0.0015112646 0.027767733 0.99796641 -0.055636972
849683018.86792 0.99816477 -0.056329519 0.0015010478 0.027828639 0.0015157645 0.028072236 0.9978559 -0.056340262
859679245.28302 0.99817407 -0.057082385 0.0015412336 0.028155101 0.0015796525 0.028381802 0.99757856 -0.056977034
869675471.69811 0.9979645 -0.057891518 0.0015814686 0.028490275 0.0016193641 0.028749865 0.99726892 -0.057478875
879671698.11321 0.9979775 -0.058478031 0.0016419855 0.028797014 0.0016381207 0.029069806 0.99726295 -0.057865541
889667924.5283 0.99780017 -0.059290618 0.001680892 0.029094625 0.001673243 0.029350059 0.99710274 -0.058469236
899664150.9434 0.99763525 -0.059936523 0.0016573984 0.029406901 0.0016718889 0.029701754 0.99706346 -0.059033275
909660377.35849 0.99760544 -0.060624853 0.0017108987 0.029705979 0.0017199917 0.030002745 0.99728 -0.059889108
919656603.77358 0.99768072 -0.061302409 0.0017248639 0.030082064 0.0017503561 0.03035306 0.99725437 -0.060731918
929652830.18868 0.9976629 -0.062012076 0.00177019 0.030372955 0.0017665075 0.03064396 0.99715912 -0.061685979
939649056.60377 0.99791312 -0.062642157 0.0017632619 0.030688588 0.0017934507 0.030977491 0.99698746 -0.062364578
949645283.01887 0.99781406 -0.063483 0.0017488713 0.031049762 0.0017886071 0.031339459 0.99675578 -0.062896892
959641509.43396 0.99772465 -0.064173609 0.0018185973 0.031385366 0.0018311394 0.031665973 0.99667877 -0.063373536
969637735.84906 0.99764693 -0.064875394 0.0018708184 0.031721223 0.0019096266 0.03202362 0.99662554 -0.063749999
979633962.26415 0.9975071 -0.065652616 0.0019132646 0.032051567 0.0019224472 0.032327786 0.99673897 -0.064415962
989630188.67925 0.99757463 -0.06612879 0.0019584466 0.03236502 0.0019771084 0.032664374 0.99691886 -0.065001279
999626415.09434 0.9975642 -0.066692978 0.001969533 0.032681677 0.0020109834 0.032979608 0.99680173 -0.065829456
1009622641.5094 0.99758506 -0.067422897 0.0020029349 0.032996304 0.0020322539 0.033329763 0.996737 -0.066683426
1019618867.9245 0.99768925 -0.068254769 0.002071694 0.033317216 0.0021048198 0.033613987 0.99643248 -0.067463055
1029615094.3396 0.99768406 -0.069076002 0.0021114396 0.033633992 0.0021196958 0.033921055 0.99611497 -0.06809029
1039611320.7547 0.99771869 -0.069950134 0.0021505607 0.033947162 0.0021745367 0.034245528 0.99607491 -0.068721265
1049607547.1698 0.99760681 -0.070870385 0.0021803135 0.034207743 0.0021901454 0.034556575 0.99607849 -0.069369733
1059603773.5849 0.99743664 -0.071490049 0.0022045095 0.034515582 0.0022559064 0.03485693 0.996099 -0.069877326
1069600000 0.99725509 -0.072129726 0.0021835407 0.03483393 0.0022732476 0.035201941 0.9961921 -0.070598871
1079596226.4151 0.99728429 -0.072838634 0.00220177 0.03514136 0.0022841725 0.035526913 0.99616021 -0.071370549
1089592452.8302 0.99723148 -0.073455423 0.0022335155 0.035527669 0.0023268722 0.035871368 0.99618447 -0.072060615
1099588679.2453 0.99729878 -0.074145108 0.0022269189 0.035811376 0.0023249872 0.036184244 0.99588561 -0.0726659
1109584905.6604 0.99744993 -0.074956208 0.002273676 0.036171433 0.0023407955 0.036526121 0.99561715 -0.073301703
1119581132.0755 0.99746859 -0.0758598 0.0022995244 0.036507502 0.002345846 0.036876041 0.9953742 -0.073703364
1129577358.4906 0.9972291 -0.076672286 0.0023502726 0.036868073 0.0023642387 0.037208989 0.99530888 -0.074134469
1139573584.9057 0.99692971 -0.077505827 0.0023914184 0.037196256 0.0024824794 0.037555926 0.99542511 -0.074769884
1149569811.3208 0.99686009 -0.078379795 0.0024154428 0.037510041 0.0025300174 0.037877787 0.99549425 -0.075505368
1159566037.7358 0.99666089 -0.079013497 0.0024919882 0.037830155 0.0025345022 0.038179405 0.9955703 -0.076539308
1169562264.1509 0.99649531 -0.079601467 0.0024933387 0.038143676 0.0025700349 0.038519207 0.99548793 -0.077309966
1179558490.566 0.9965409 -0.080430597 0.002502779 0.038510256 0.0025985625 0.038886469 0.99534899 -0.078060761
1189554716.9811 0.99643618 -0.081172258 0.0024999939 0.038821518 0.0026455503 0.0391903 0.99507594 -0.078572452
1199550943.3962 0.99642408 -0.081990719 0.0025524069 0.039213262 0.0026959237 0.039537072 0.99487376 -0.079019368
1209547169.8113 0.99625766 -0.082985058 0.0025991797 0.039482769 0.002737741 0.03984822 0.99481678 -0.079367042
1219543396.2264 0.99605364 -0.083750337 0.0026756101 0.039879955 0.0027734013 0.040220421 0.99486327 -0.079709798
1229539622.6415 0.99578202 -0.084498793 0.0027315803 0.040190034 0.0028371662 0.040594626 0.99502861 -0.080420762
1239535849.0566 0.9955349 -0.085109919 0.0027942816 0.040499028 0.0029324703 0.040892735 0.99511915 -0.081375927
1249532075.4717 0.99514991 -0.085887842 0.0028376905 0.040793374 0.002948941 0.041164283 0.99496233 -0.082035467
1259528301.8868 0.99503362 -0.086333692 0.002882164 0.041152377 0.0030416399 0.041492876 0.99466884 -0.082943708
1269524528.3019 0.99489099 -0.087079734 0.002948707 0.041433208 0.0031160899 0.041806843 0.99451607 -0.083678424
1279520754.717 0.99448925 -0.087755993 0.0030099205 0.041740529 0.0031508799 0.042093862 0.99427259 -0.084196165
1289516981.1321 0.9943822 -0.088639498 0.0030197725 0.042024329 0.0031362846 0.042353999 0.99433005 -0.084741235
1299513207.5472 0.99404025 -0.089550823 0.0030085221 0.042342752 0.003173843 0.042667679 0.99437523 -0.085085243
1309509433.9623 0.99367559 -0.090207398 0.0030648829 0.042653207 0.0031731203 0.042970691 0.99445128 -0.085838631
1319505660.3774 0.99327391 -0.090875074 0.0030513406 0.04298811 0.0031885849 0.043293029 0.99452281 -0.086446583
1329501886.7925 0.99295759 -0.091508001 0.0030690543 0.043299891 0.0032536779 0.043659341 0.99456435 -0.087439418
1339498113.2075 0.99275583 -0.092035353 0.0030873278 0.043624904 0.0032257969 0.043957356 0.99421132 -0.088039935
1349494339.6226 0.99254221 -0.092591703 0.0030732015 0.043959975 0.003234114 0.044292975 0.99383003 -0.088747814
1359490566.0377 0.99243504 -0.093198419 0.0030709151 0.044328816 0.0032096691 0.044627011 0.99356788 -0.089162529
1369486792.4528 0.99218196 -0.093697816 0.0031269612 0.044678293 0.003220682 0.044957407 0.99341315 -0.089644194
1379483018.8679 0.99194545 -0.0943157 0.0031402828 0.045050021 0.0032505211 0.045312241 0.9933883 -0.090016015
1389479245.283 0.99153531 -0.094812393 0.003154261 0.045421407 0.0032404792 0.045724645 0.9934181 -0.090683341
1399475471.6981 0.99115163 -0.095170081 0.0032025147 0.045772832 0.0032848958 0.046083495 0.99359512 -0.091414779
1409471698.1132 0.99089754 -0.095535651 0.0032152256 0.046156373 0.0033188129 0.046469569 0.99359757 -0.092227556
1419467924.5283 0.99073863 -0.095869333 0.0032399287 0.046556987 0.003343055 0.046796173 0.99341905 -0.092869669
1429464150.9434 0.99057269 -0.096199244 0.0032982826 0.04693599 0.0033732112 0.047211003 0.99327207 -0.093445122
1439460377.3585 0.99067169 -0.096756354 0.0033305371 0.047371846 0.0034651607 0.0476158 0.99307775 -0.093860984
1449456603.7736 0.99074447 -0.097305268 0.0034933053 0.047760051 0.0035250504 0.048071112 0.99292344 -0.094192103
1459452830.1887 0.9907831 -0.097961485 0.003608061 0.048164427 0.0037065595 0.048462451 0.9930532 -0.094477713
1469449056.6038 0.99073535 -0.098598748 0.0037536817 0.048481878 0.0038412707 0.048780918 0.99330997 -0.095136881
1479445283.0189 0.99068755 -0.099238515 0.0039019983 0.048775215 0.00393801 0.049094435 0.99336928 -0.096038699
1489441509.434 0.99063253 -0.099666744 0.0040176548 0.049074054 0.0040567275 0.049382348 0.99325943 -0.096895188
1499437735.8491 0.99044836 -0.10004646 0.0041219704 0.049387727 0.0041533224 0.04967862 0.99317855 -0.09770596
1509433962.2642 0.99037582 -0.10057547 0.0042181923 0.049639016 0.0042800326 0.049926985 0.99298978 -0.098427311
1519430188.6792 0.99052101 -0.10109958 0.004314281 0.049899254 0.0043244828 0.05024305 0.99286914 -0.098990083
1529426415.0943 0.99049628 -0.10181189 0.0043291114 0.050171182 0.0043590125 0.050492801 0.99273485 -0.099456042
1539422641.5094 0.99037647 -0.10263963 0.0043952493 0.050466359 0.0044379407 0.050772619 0.99281222 -0.099942207
1549418867.9245 0.9903329 -0.10336784 0.0044261375 0.050733108 0.0044826083 0.051101774 0.99305195 -0.10061972
1559415094.3396 0.99023741 -0.1040315 0.0045020469 0.051045325 0.0045115948 0.051385928 0.99322128 -0.10125697
1569411320.7547 0.99008304 -0.10478465 0.0045343507 0.051327221 0.004538103 0.051687378 0.99308425 -0.10208581
1579407547.1698 0.99006075 -0.10528792 0.0045441356 0.051590804 0.0045558121 0.051972955 0.99273556 -0.10286009
1589403773.5849 0.99000537 -0.10582772 0.0045627784 0.051887617 0.0046139713 0.052269649 0.99254501 -0.10360777
1599400000 0.98995852 -0.10631341 0.0045579318 0.052198336 0.0045463573 0.052597929 0.992158 -0.10410401
1609396226.4151 0.98991209 -0.10699301 0.0045285886 0.0524887 0.0045681093 0.052868303 0.9919076 -0.10454564
1619392452.8302 0.98985487 -0.1075559 0.0045512337 0.052837379 0.0045579784 0.053219654 0.99195576 -0.10498655
1629388679.2453 0.98971581 -0.10825014 0.0045800135 0.053184696 0.0045584738 0.053587306 0.99223542 -0.10550654
1639384905.6604 0.98948067 -0.10890465 0.0045903847 0.053543177 0.0045281285 0.0539787 0.99233067 -0.10634534
1649381132.0755 0.98929489 -0.10958782 0.0045947731 0.053877953 0.0045958012 0.054280076 0.99235439 -0.10722423
1659377358.4906 0.98914087 -0.11034703 0.0046177637 0.054253586 0.00460032 0.05469808 0.99234176 -0.10811546
1669373584.9057 0.98909986 -0.11078379 0.0046254308 0.054633632 0.0046550767 0.055045474 0.99204248 -0.10877161
1679369811.3208 0.98915517 -0.11142093 0.0046654977 0.055004135 0.0046822419 0.05544747 0.99176544 -0.10921007
1689366037.7358 0.9889636 -0.1120584 0.0047511794 0.055347525 0.0046887826 0.055833645 0.99166751 -0.10961932
1699362264.1509 0.98928046 -0.11267908 0.0047998512 0.055734932 0.0047920141 0.056195214 0.99181801 -0.11008218
1709358490.566 0.98911142 -0.11333767 0.0048230505 0.056103628 0.0048544928 0.056579337 0.9918763 -0.11057602
1719354716.9811 0.98886096 -0.11395675 0.0048901588 0.056468699 0.0049023554 0.056973793 0.99193025 -0.11131042
1729350943.3962 0.98864508 -0.11455652 0.0049503278 0.056847051 0.0049543064 0.05734231 0.99193811 -0.11222956
