!Keysight Technologies,N5222B,MY61253708,A.15.00.15
!Date: Wednesday, June 19, 2024 10:00:35
!Correction: S11(C  2-Port  ) 
!S21(C  2-Port  ) 
!S12(C  2-Port  ) 
!S22(C  2-Port  ) 
!S2P File: Measurements: S11, S21, S12, S22:
# Hz S  RI   R 50
10000000 0.99871266 -0.0028603971 9.5421652e-005 0.00026404727 -7.3267511e-005 0.00040918082 0.99853724 -0.0011352003
19996226.415094 1.0002222 -0.0030368865 4.0369399e-005 0.00058591267 1.1502067e-005 0.00065245212 1.0004599 -0.0027325153
29992452.830189 0.99970907 -0.0025821924 5.6345656e-005 0.00097296474 3.2880664e-005 0.0010100972 0.99950784 -0.0026467144
39988679.245283 1.0000293 -0.0029999614 3.9294013e-005 0.0013285039 1.4533143e-006 0.0013461804 0.9997111 -0.0030864775
49984905.660377 1.0001193 -0.0036462843 -9.6223666e-006 0.0017041982 -3.5063713e-006 0.0016243549 0.99989188 -0.0035898387
59981132.075472 1.0003552 -0.0045445859 9.739073e-006 0.0020019421 7.0477952e-005 0.0019756886 0.99988055 -0.004116416
69977358.490566 1.0001671 -0.0050950982 2.0508898e-005 0.0022738164 4.3763986e-005 0.002283087 0.99972409 -0.0047035068
79973584.90566 0.99988461 -0.0057244003 2.0463951e-005 0.0026466574 4.8665097e-005 0.002678578 0.99940723 -0.0051954985
89969811.320755 0.9999001 -0.005785048 -2.7262256e-005 0.0029614051 3.7027756e-005 0.0029894297 0.99964988 -0.0054068863
99966037.735849 1.0001811 -0.0065588504 1.3890269e-005 0.0032929536 1.8406659e-005 0.0033115589 0.9997201 -0.0062021166
109962264.15094 1.0001444 -0.0074222237 4.1714986e-005 0.0036274863 1.6984355e-005 0.0036340093 0.99971145 -0.0070006251
119958490.56604 1.0001962 -0.0083351731 2.305815e-005 0.0039401902 3.9384235e-005 0.0039534816 0.99975634 -0.0078642964
129954716.98113 1.0001262 -0.0092643499 4.3180306e-005 0.0042600348 3.3699675e-005 0.004304423 0.99971783 -0.0086858273
139950943.39623 1.0000833 -0.010076258 2.4897177e-005 0.0046024681 4.3880704e-005 0.0046105259 0.99966705 -0.0094201472
149947169.81132 0.99992549 -0.010739088 3.996212e-005 0.0049400064 5.0650444e-005 0.0049604536 0.99964565 -0.010051817
159943396.22642 0.99991339 -0.011306137 6.8268506e-005 0.0052602207 4.5374734e-005 0.0052947449 0.99972272 -0.010501862
169939622.64151 0.99986321 -0.011699013 6.3602463e-005 0.0055821394 5.345745e-005 0.0056289411 0.99973589 -0.010946564
179935849.0566 0.99991149 -0.012003243 5.248352e-005 0.0059281229 6.7342538e-005 0.0059604403 0.99963832 -0.011283875
189932075.4717 1.0000348 -0.012703955 6.7515764e-005 0.0062518334 9.218161e-005 0.0062815147 0.99988455 -0.011900127
199928301.88679 0.99994141 -0.013545066 8.8683213e-005 0.0065737553 8.5309963e-005 0.0066055208 0.99972779 -0.012728691
209924528.30189 0.99971128 -0.014056385 0.00011206733 0.0068994053 0.00010416831 0.0069314232 0.99954438 -0.013401821
219920754.71698 0.99994189 -0.014872253 0.00010094955 0.0072310944 0.00010746135 0.0072728219 0.99942124 -0.013999581
229916981.13208 0.99968249 -0.015739173 0.00013671257 0.007559137 0.00011895713 0.0075968159 0.99940336 -0.014779925
239913207.54717 0.99953383 -0.016425312 0.00012194278 0.0078800945 0.00013116708 0.0079450328 0.99940151 -0.015503565
249909433.96226 0.99955368 -0.017042518 0.00012886012 0.0082084928 0.00014965306 0.008267655 0.99946451 -0.016114205
259905660.37736 0.99969041 -0.017626077 0.0001884643 0.0085785901 0.00013876939 0.0086346017 0.99960899 -0.016707331
269901886.79245 0.99980247 -0.018427283 0.00018595962 0.0088513726 0.00012562913 0.0089117847 0.9998852 -0.017310664
279898113.20755 0.99983442 -0.018993422 0.0001579409 0.009212303 0.0001643349 0.0092589427 0.99974412 -0.018151894
289894339.62264 0.9997983 -0.019735277 0.00019417889 0.0095271915 0.00018547988 0.0096085463 0.99971199 -0.018832117
299890566.03774 0.99971247 -0.020233572 0.00019105454 0.0098335445 0.00020063412 0.0099031357 0.9995029 -0.019239247
309886792.45283 0.9996171 -0.020792328 0.00022208149 0.010180956 0.00021528598 0.010235821 0.99942744 -0.019643009
319883018.86792 0.99962074 -0.021398932 0.00023933034 0.010501994 0.0002054465 0.010580585 0.99955279 -0.020270586
329879245.28302 0.99955499 -0.022249579 0.0002579079 0.010850027 0.00023125764 0.010877903 0.9996748 -0.020997614
339875471.69811 0.99952418 -0.022984944 0.00019953714 0.011180111 0.00024667964 0.011213487 0.99958605 -0.021805122
349871698.11321 0.99961036 -0.023786634 0.0002743674 0.011516529 0.00025157467 0.011571209 0.99950683 -0.022666842
359867924.5283 0.99946529 -0.024514884 0.0003091204 0.011856206 0.00027088542 0.01190595 0.99956763 -0.02361238
369864150.9434 0.99967623 -0.025313824 0.00026472681 0.012101137 0.00031260541 0.012194632 0.99954349 -0.024288833
379860377.35849 0.99948221 -0.025940374 0.00033545168 0.012483254 0.00029152236 0.012541675 0.99946094 -0.024999425
389856603.77358 0.99937075 -0.026558846 0.00035743788 0.012790896 0.00034937449 0.01286622 0.99942946 -0.025445849
399852830.18868 0.99929154 -0.027231187 0.00035450654 0.013121803 0.00036123116 0.013183552 0.99944657 -0.026020139
409849056.60377 0.99928874 -0.02764505 0.00034614926 0.013462735 0.00037219498 0.013534017 0.99941337 -0.026521174
419845283.01887 0.99928081 -0.028118759 0.00036522513 0.013785722 0.00038466323 0.01386035 0.99933863 -0.026996344
429841509.43396 0.9993788 -0.028770387 0.00039907545 0.01408156 0.00040153693 0.014164214 0.9995172 -0.027761519
439837735.84906 0.99919558 -0.029712364 0.00042514759 0.014433756 0.00045443664 0.014502534 0.99927795 -0.028738737
449833962.26415 0.99910706 -0.030431956 0.00042625144 0.014727165 0.00045434292 0.014806537 0.99884915 -0.029535472
459830188.67925 0.99888331 -0.031000853 0.0004131184 0.015091158 0.0004350841 0.015145559 0.99856758 -0.030166358
469826415.09434 0.99890953 -0.031824768 0.00047438079 0.015418363 0.00045844493 0.015463114 0.99834698 -0.030665219
479822641.50943 0.99875855 -0.032451741 0.00048304116 0.015756203 0.00045558112 0.01583318 0.99838758 -0.031096399
489818867.92453 0.99883282 -0.032946527 0.00052846735 0.01606562 0.00051512243 0.016151628 0.99860609 -0.031571925
499815094.33962 0.99893427 -0.03357935 0.00055346824 0.016413078 0.0005685105 0.016487602 0.99888009 -0.032178938
509811320.75472 0.99899924 -0.034060478 0.00055550056 0.016685599 0.00056980294 0.016801126 0.99897456 -0.032824636
519807547.16981 0.99894667 -0.034604937 0.00056364434 0.017049292 0.00056110416 0.017102106 0.99901175 -0.033634156
529803773.58491 0.99888682 -0.035122156 0.00057126395 0.017369101 0.00060162041 0.017417468 0.99882495 -0.034113765
539800000 0.99905038 -0.035796404 0.00060629146 0.017705999 0.00057338551 0.017803241 0.99866396 -0.034768969
549796226.41509 0.99893272 -0.036631346 0.00062461896 0.018015593 0.00061210571 0.018126214 0.99857157 -0.035164028
559792452.83019 0.9987455 -0.037285268 0.00066147 0.018371085 0.00068304408 0.01844356 0.99855441 -0.03569597
569788679.24528 0.99860477 -0.038051009 0.00069450634 0.018733464 0.0006965138 0.018769555 0.99875367 -0.036497205
579784905.66038 0.99849296 -0.038582385 0.00067094248 0.019022271 0.00067060848 0.01912747 0.99880683 -0.037111148
589781132.07547 0.99863958 -0.039201856 0.00074134022 0.019342488 0.0007278109 0.019462585 0.99891019 -0.038007677
599777358.49057 0.99874127 -0.039808214 0.00075279456 0.019695491 0.00074113626 0.019795109 0.99890965 -0.038779616
609773584.90566 0.9988572 -0.040584493 0.0007622398 0.020008331 0.00080227799 0.02012145 0.99885786 -0.039612062
619769811.32075 0.99903262 -0.041244179 0.00079044281 0.020319652 0.00082163326 0.020410005 0.99872434 -0.040157884
629766037.73585 0.99880266 -0.041986018 0.00084144715 0.020608462 0.00085531268 0.020746445 0.99865913 -0.040735811
639762264.15094 0.99860692 -0.042526588 0.00082635274 0.020940147 0.00088428776 0.021050649 0.99850464 -0.041153729
649758490.56604 0.99863183 -0.043114886 0.00091467658 0.021280976 0.00086674141 0.021384766 0.9986499 -0.041623831
659754716.98113 0.99846137 -0.04365623 0.00085602235 0.021614587 0.00088937767 0.021723351 0.99870163 -0.042181551
669750943.39623 0.99845958 -0.044109732 0.00090627978 0.02195706 0.00092311809 0.022080725 0.99873048 -0.042930841
679747169.81132 0.9984169 -0.044903606 0.00099158078 0.02227875 0.00096358184 0.02241385 0.99874729 -0.043852888
689743396.22642 0.99860764 -0.045616418 0.0009746477 0.022605883 0.0010030512 0.022730924 0.99856555 -0.044787735
699739622.64151 0.99868143 -0.046484947 0.0010527615 0.022925831 0.0010249233 0.023053341 0.99847031 -0.04548797
709735849.0566 0.99862182 -0.047253504 0.0010878564 0.023264438 0.0010715218 0.023353355 0.99822682 -0.046131253
719732075.4717 0.99851763 -0.048029572 0.0011064131 0.023539566 0.0011406327 0.023668721 0.99833918 -0.046777606
729728301.88679 0.99843657 -0.048526078 0.0011453377 0.023897074 0.0011279332 0.024010742 0.99835169 -0.047196031
739724528.30189 0.99834758 -0.049286678 0.0012061959 0.024198035 0.0011734818 0.024335198 0.99855161 -0.047922701
749720754.71698 0.99829555 -0.049838349 0.0012164386 0.024510363 0.0012077154 0.024647318 0.99856901 -0.048622966
759716981.13208 0.99833196 -0.05031389 0.0012398632 0.024832509 0.0012612157 0.024965253 0.99850678 -0.049332678
769713207.54717 0.99827647 -0.051015049 0.0012815213 0.02513569 0.0012743911 0.025302611 0.99824631 -0.050041467
779709433.96226 0.99840987 -0.051622037 0.0012907308 0.025494928 0.0012830938 0.025615677 0.99800861 -0.050670613
789705660.37736 0.9983052 -0.052476436 0.0013187639 0.025781451 0.0013290457 0.025939327 0.99775845 -0.051357001
799701886.79245 0.99824828 -0.05321914 0.0013457369 0.0261239 0.0013727378 0.02628408 0.99762738 -0.051970601
809698113.20755 0.99812943 -0.053851664 0.0013935892 0.026449304 0.00139033 0.026555786 0.99762088 -0.052422017
819694339.62264 0.99799001 -0.054497063 0.001404277 0.02674228 0.0014039408 0.026888149 0.99768251 -0.053012878
829690566.03774 0.99795806 -0.055100799 0.0014376277 0.027071666 0.0014237612 0.027215024 0.99792206 -0.053857863
839686792.45283 0.99800897 -0.055563062 0.0014441255 0.027379721 0.0014768303 0.027539484 0.99799669 -0.054659247
849683018.86792 0.99806929 -0.056234322 0.0014670028 0.027720336 0.0015098988 0.02787531 0.99788737 -0.055496305
859679245.28302 0.99811494 -0.056901634 0.0015202295 0.028053401 0.0015069405 0.028196372 0.99751496 -0.056005269
869675471.69811 0.99805504 -0.057714283 0.001588868 0.028365489 0.0015746504 0.028494578 0.99725819 -0.056547791
879671698.11321 0.99802852 -0.058309659 0.0016043112 0.028650112 0.0016303812 0.02880035 0.99724454 -0.056956351
889667924.5283 0.99780047 -0.059110612 0.0016031535 0.02896828 0.0016383752 0.029161045 0.99705547 -0.05748567
899664150.9434 0.9976368 -0.059790403 0.0016445527 0.029285504 0.0016608564 0.029453069 0.99713266 -0.058023423
909660377.35849 0.99763566 -0.060423657 0.0016575968 0.029589465 0.0016884548 0.02976495 0.99724436 -0.058892101
919656603.77358 0.99769682 -0.061126053 0.0017112182 0.029894736 0.0017000614 0.030094659 0.99725562 -0.059752494
929652830.18868 0.99768639 -0.06186226 0.0017225118 0.030215863 0.0017447313 0.030398319 0.99710405 -0.060581237
939649056.60377 0.99784631 -0.06246829 0.001739094 0.030543147 0.0017326251 0.030707436 0.99701607 -0.061320931
949645283.01887 0.99779105 -0.063267559 0.0017256539 0.030881254 0.0017607502 0.031042937 0.99675936 -0.061812378
959641509.43396 0.99774861 -0.063964248 0.001775465 0.031234656 0.0017965669 0.031379096 0.9966976 -0.062350452
969637735.84906 0.99772048 -0.064703166 0.0018569306 0.031586282 0.0018436126 0.031775668 0.99675387 -0.062743694
979633962.26415 0.99749291 -0.06539125 0.0018798292 0.031874932 0.0018855261 0.032050248 0.99681908 -0.063349314
989630188.67925 0.99756265 -0.065924048 0.0019269269 0.032222379 0.0019137235 0.032380063 0.99696177 -0.063901514
999626415.09434 0.99758363 -0.066561133 0.0019396441 0.032513089 0.0019656383 0.032707773 0.99684113 -0.06472522
1009622641.5094 0.99763292 -0.067104995 0.001968571 0.032831952 0.0019728495 0.033068154 0.99679971 -0.065500394
1019618867.9245 0.99771613 -0.067928225 0.0020325566 0.033169679 0.0020303945 0.033379521 0.99657106 -0.066307768
1029615094.3396 0.9976846 -0.068871498 0.0020785024 0.033454366 0.0021146853 0.03364962 0.99615097 -0.06693247
1039611320.7547 0.99771351 -0.069726348 0.0021137018 0.033777263 0.0021513011 0.033974521 0.99617749 -0.067512959
1049607547.1698 0.99761999 -0.070572317 0.0021505647 0.034054793 0.002151283 0.034286294 0.99612308 -0.068130106
1059603773.5849 0.99750453 -0.071328461 0.0021756981 0.034350973 0.0021962104 0.034602527 0.99613923 -0.068709105
1069600000 0.99719667 -0.071981788 0.0021542609 0.034672406 0.0021867584 0.034919895 0.99631244 -0.069420964
1079596226.4151 0.99727643 -0.072611973 0.0021598041 0.034992263 0.002231271 0.035237532 0.99627036 -0.07018064
1089592452.8302 0.99730158 -0.073317915 0.0022038501 0.035330392 0.0022345362 0.035567708 0.99625587 -0.070910633
1099588679.2453 0.99729848 -0.073982984 0.0021885317 0.035654452 0.0022721812 0.035894789 0.99590683 -0.071499914
1109584905.6604 0.99743932 -0.074718237 0.0022398848 0.035999861 0.0023088893 0.036226839 0.99572045 -0.072063491
1119581132.0755 0.99742794 -0.075657174 0.0022412604 0.036330797 0.0023133475 0.036586922 0.99561608 -0.072452486
1129577358.4906 0.99723136 -0.076378644 0.0022804551 0.036694393 0.0023273155 0.036897149 0.99543327 -0.072871
1139573584.9057 0.9970004 -0.077261984 0.0023284052 0.037026491 0.0024048379 0.037246663 0.99549448 -0.073581785
1149569811.3208 0.99692404 -0.078103051 0.0024042004 0.037330139 0.0024625929 0.037570883 0.9955858 -0.074276313
1159566037.7358 0.99667448 -0.078771442 0.0024463739 0.0376467 0.0024815798 0.037873726 0.99575961 -0.075326324
1169562264.1509 0.9964838 -0.07946068 0.0024252459 0.037952226 0.0024973638 0.038195346 0.995588 -0.076010287
1179558490.566 0.99647903 -0.080232114 0.0024460896 0.038332108 0.0025155847 0.038560197 0.99545807 -0.076817796
1189554716.9811 0.99649447 -0.080920041 0.0024872702 0.038647212 0.002566508 0.038903076 0.99513644 -0.07733655
1199550943.3962 0.9964366 -0.0817779 0.0025259834 0.039014712 0.0026339535 0.039215863 0.99500781 -0.077761084
1209547169.8113 0.99632603 -0.082677439 0.0025786441 0.039357521 0.0026493659 0.039521683 0.99485552 -0.078155294
1219543396.2264 0.99604607 -0.083487719 0.0026017511 0.039674666 0.0027034166 0.039925765 0.99500632 -0.078457877
1229539622.6415 0.99582577 -0.084246904 0.002683524 0.040011082 0.0027779546 0.040231112 0.99511898 -0.079108745
1239535849.0566 0.99570322 -0.08484301 0.002721318 0.040318698 0.0028594825 0.040551305 0.9951911 -0.080056041
1249532075.4717 0.99528599 -0.085546449 0.0028006493 0.040656496 0.0029374668 0.040861461 0.99507868 -0.080779724
1259528301.8868 0.99507809 -0.086041898 0.002851652 0.040966105 0.0029743798 0.041167486 0.99485677 -0.081606239
1269524528.3019 0.99498487 -0.086821586 0.0029126797 0.041274957 0.0030265488 0.041450843 0.99468184 -0.082369834
1279520754.717 0.99458909 -0.087593712 0.0029634445 0.041567091 0.0030704406 0.041723181 0.99440885 -0.082859829
1289516981.1321 0.99447542 -0.088374406 0.0029846132 0.04184318 0.0030999063 0.042026684 0.99442959 -0.08334139
1299513207.5472 0.99407804 -0.08915782 0.002975028 0.042149544 0.0030861646 0.042357191 0.99456012 -0.08371228
1309509433.9623 0.99378854 -0.089924172 0.0029685562 0.042472828 0.0031151064 0.042660635 0.99462831 -0.084475309
1319505660.3774 0.99337816 -0.09056133 0.002988345 0.042790968 0.0031201309 0.042934228 0.99467021 -0.085109353
1329501886.7925 0.99315518 -0.091255724 0.0030246172 0.043113008 0.0031396933 0.043280441 0.9947229 -0.086054057
1339498113.2075 0.99280632 -0.091828167 0.0030296333 0.043427579 0.0031662378 0.043608073 0.99428064 -0.086749256
1349494339.6226 0.9926483 -0.09238632 0.0030469201 0.043768458 0.0031339326 0.043928035 0.99395579 -0.087300755
1359490566.0377 0.99253559 -0.092892349 0.0030510034 0.044124167 0.0031703822 0.044254154 0.99380618 -0.087897986
1369486792.4528 0.99227679 -0.093398482 0.0030794153 0.044475831 0.0031669056 0.044626035 0.99367678 -0.088267177
1379483018.8679 0.99204159 -0.093956932 0.0030880938 0.044848084 0.0031721313 0.044976249 0.99361461 -0.088673279
1389479245.283 0.99177545 -0.094546646 0.0031614657 0.045223944 0.0031912774 0.045352831 0.99355114 -0.089262247
1399475471.6981 0.9912771 -0.094899565 0.0031357463 0.045559477 0.0032098293 0.045704447 0.99379218 -0.089961827
1409471698.1132 0.99102402 -0.095280997 0.0031902182 0.045930162 0.0032522168 0.04609368 0.99375296 -0.090813436
1419467924.5283 0.99078798 -0.095670432 0.003226608 0.046319254 0.003240481 0.046452127 0.99362129 -0.091515541
1429464150.9434 0.99071252 -0.09611842 0.0032601673 0.046732638 0.0033172015 0.046835911 0.99350047 -0.092085004
1439460377.3585 0.99088109 -0.096586987 0.0033280477 0.047177482 0.0033721803 0.047259238 0.99326777 -0.092438638
1449456603.7736 0.99088472 -0.097015887 0.0034237998 0.047522329 0.0034928964 0.047667984 0.99318939 -0.092807978
1459452830.1887 0.99090183 -0.097744316 0.0035639554 0.047949877 0.0035804939 0.048083667 0.9933182 -0.093043208
1469449056.6038 0.99093187 -0.098326474 0.0036909217 0.048274353 0.0037550097 0.048417546 0.99350935 -0.093634635
1479445283.0189 0.99080545 -0.098988593 0.0038454798 0.048540004 0.0038506156 0.048688032 0.99352807 -0.094502673
1489441509.434 0.99070829 -0.099447072 0.0039641373 0.048865341 0.0039913245 0.048997685 0.99347723 -0.095400631
1499437735.8491 0.99055266 -0.099785686 0.0040371865 0.049125753 0.0040763803 0.049274653 0.99340487 -0.09617281
1509433962.2642 0.99058819 -0.10035896 0.0041646939 0.049380131 0.0041592941 0.049568348 0.9931547 -0.096969843
1519430188.6792 0.99061406 -0.10090175 0.0041908212 0.049684692 0.0041901451 0.049826737 0.99305838 -0.097494572
1529426415.0943 0.99054861 -0.10167921 0.0042666737 0.049930841 0.0042860191 0.050098717 0.99299312 -0.09798035
1539422641.5094 0.99064779 -0.10238357 0.0043300306 0.050257787 0.0042998954 0.050422918 0.99314123 -0.098397791
1549418867.9245 0.99043161 -0.10316214 0.0043882076 0.050537053 0.0043805949 0.050702296 0.99328369 -0.099101186
1559415094.3396 0.9903754 -0.10377342 0.0044310074 0.050819293 0.0044119973 0.050989367 0.99345356 -0.099814385
1569411320.7547 0.99021816 -0.10459337 0.0044832034 0.051093701 0.0044358214 0.051272474 0.99338555 -0.1005483
1579407547.1698 0.99011648 -0.10506412 0.0045390725 0.05137378 0.0044893506 0.051596925 0.99304223 -0.10139135
1589403773.5849 0.99010158 -0.10568348 0.0044774935 0.051663324 0.0044854488 0.051865838 0.99279916 -0.10211781
1599400000 0.99012494 -0.1060597 0.0044698464 0.05197534 0.0044792388 0.052115932 0.99244422 -0.10261858
1609396226.4151 0.99003571 -0.1066639 0.0044776807 0.052261513 0.0044463445 0.052455425 0.99231356 -0.10308841
1619392452.8302 0.99000573 -0.10733941 0.0044815168 0.052629545 0.0044508353 0.052800544 0.99217701 -0.10354167
1629388679.2453 0.98978519 -0.10798907 0.0045262426 0.052944161 0.0044509564 0.053172652 0.99240249 -0.10401061
1639384905.6604 0.98958796 -0.10872981 0.004488321 0.053278122 0.0044698021 0.053536277 0.99271613 -0.10487641
1649381132.0755 0.98935688 -0.10934553 0.0045167524 0.053671181 0.0044856556 0.053928588 0.99264336 -0.10585815
1659377358.4906 0.98917067 -0.11008802 0.0045287628 0.054022424 0.0045207832 0.054256674 0.99271137 -0.10664251
1669373584.9057 0.98917186 -0.11057392 0.0045820298 0.054364692 0.0045264047 0.054632887 0.99230313 -0.10735119
1679369811.3208 0.98921025 -0.11126807 0.0046142433 0.054760069 0.0046020774 0.054980475 0.99215579 -0.10790282
1689366037.7358 0.98922521 -0.11189702 0.0046647154 0.055144235 0.0046173874 0.055395868 0.99196476 -0.10819408
1699362264.1509 0.98933464 -0.11246909 0.0047192294 0.0554871 0.0046951035 0.05575224 0.99220896 -0.10862605
1709358490.566 0.98921257 -0.11305724 0.0047880281 0.055887874 0.0047286004 0.056183431 0.99218273 -0.10915859
1719354716.9811 0.98891449 -0.11366329 0.0048469584 0.056212343 0.0048051048 0.056503125 0.99220502 -0.10982215
