!Keysight Technologies,N5222B,MY61253708,A.15.00.15
!Date: Wednesday, June 19, 2024 10:21:23
!Correction: S11(C  2-Port  ) 
!S21(C  2-Port  ) 
!S12(C  2-Port  ) 
!S22(C  2-Port  ) 
!S2P File: Measurements: S11, S21, S12, S22:
# Hz S  RI   R 50
10000000 0.99874735 -0.0030013621 0.00014227565 0.00046627232 0.00015428699 5.7691585e-005 0.99864858 -0.0019868016
19996226.415094 1.0000942 -0.002301544 2.1068001e-005 0.00069983845 -0.00013638224 0.0006748219 1.0000703 -0.0024072528
29992452.830189 0.99975854 -0.0024608374 -4.4901099e-006 0.00096959725 3.0494499e-005 0.0010530105 0.9993847 -0.00269261
39988679.245283 1.0001584 -0.0029934794 2.6883572e-005 0.0013409526 1.2151679e-005 0.0013356833 0.99975634 -0.0030844957
49984905.660377 1.0002346 -0.0036132336 1.4959543e-005 0.0016460561 -1.6244419e-005 0.0016354651 0.99988496 -0.0036605
59981132.075472 1.0003341 -0.0044418573 -6.9484231e-006 0.00195405 1.5079626e-005 0.0020092507 0.99988168 -0.0041994154
69977358.490566 1.0002052 -0.0050261654 -1.2611901e-005 0.0023024487 2.4596568e-005 0.0023296517 0.99974316 -0.004780598
79973584.90566 0.99993277 -0.0056229532 1.0587857e-005 0.0025983762 1.3929093e-005 0.0026117601 0.99931777 -0.0052683949
89969811.320755 0.99993253 -0.0056477487 -9.2736445e-006 0.0029696506 4.4302549e-005 0.0029499321 0.99962085 -0.0054902732
99966037.735849 1.00021 -0.0064313859 4.093803e-005 0.0032593806 2.2112567e-005 0.0032937692 0.99972296 -0.0062340647
109962264.15094 1.0002166 -0.0072951317 2.4359382e-005 0.0036141598 2.5934656e-005 0.0036049907 0.99968946 -0.0070360154
119958490.56604 1.0002464 -0.0082021654 5.0878967e-005 0.0039243833 4.4710003e-005 0.0039443769 0.99977827 -0.0078197122
129954716.98113 1.0001839 -0.0091445446 4.2438623e-005 0.0042354362 5.0592935e-005 0.0042718276 0.9997434 -0.0087384582
139950943.39623 1.0001011 -0.0099025201 4.3325024e-005 0.0045877425 5.1916955e-005 0.0046096742 0.99965835 -0.0094805975
149947169.81132 0.99999195 -0.010602415 4.2045955e-005 0.0049050963 3.8953265e-005 0.0049386993 0.99958515 -0.010050625
159943396.22642 0.99994379 -0.011085868 5.4162461e-005 0.0052375416 5.0955219e-005 0.005252514 0.99964553 -0.010530502
169939622.64151 0.9999125 -0.011496209 7.1361137e-005 0.0055782725 6.127404e-005 0.0055783857 0.99968213 -0.010962434
179935849.0566 0.99994117 -0.011755854 6.1264494e-005 0.0058940537 8.3791907e-005 0.0058992947 0.99960089 -0.011311978
189932075.4717 1.0000923 -0.012522966 8.5463282e-005 0.0062375879 9.5219119e-005 0.006245296 0.9998138 -0.011888176
199928301.88679 1.0000008 -0.013383597 7.7493838e-005 0.0065566367 7.8909099e-005 0.0065475609 0.99968946 -0.012736261
209924528.30189 0.99972337 -0.013954341 9.5878495e-005 0.0068881847 9.4642746e-005 0.0068830927 0.9994418 -0.013380393
219920754.71698 0.99989808 -0.014778554 9.9854311e-005 0.0072117383 9.3380222e-005 0.0071998336 0.9994272 -0.013953447
229916981.13208 0.99971128 -0.015575528 0.00011833129 0.0075093 0.00012341724 0.0075571625 0.99942243 -0.014778465
239913207.54717 0.99959904 -0.016165245 0.00013345848 0.0078325039 0.00012380058 0.0078685768 0.99928957 -0.015526291
249909433.96226 0.999587 -0.016803116 0.00013545644 0.0081726369 0.00013725716 0.0082044341 0.99938345 -0.016074032
259905660.37736 0.99967575 -0.017360508 0.00015565939 0.008491951 0.00011284882 0.0085382704 0.99960238 -0.016576856
269901886.79245 0.99991202 -0.018078595 0.00017124473 0.0088651665 0.00018037716 0.0088611059 1.0000045 -0.017277837
279898113.20755 0.99986035 -0.018684864 0.00019741594 0.0091714384 0.00014718878 0.0092006065 0.99977243 -0.018096909
289894339.62264 0.99992955 -0.019336164 0.00018391199 0.0095065143 0.00013675774 0.0094879847 0.99972159 -0.018908262
299890566.03774 0.99985069 -0.019879013 0.00021787616 0.0097786039 0.00018798374 0.0098593598 0.99941278 -0.019373268
309886792.45283 0.99970788 -0.020485491 0.00018296053 0.010144054 0.00016367494 0.010151418 0.9992525 -0.019712098
319883018.86792 0.99971414 -0.021139592 0.00020681648 0.010461217 0.0002194182 0.010484619 0.99946922 -0.020169258
329879245.28302 0.9997679 -0.021902621 0.00024700304 0.010757167 0.00023567211 0.010806976 0.99956304 -0.02094987
339875471.69811 0.99954474 -0.022708625 0.00024418836 0.011143578 0.00028097001 0.011131338 0.99949533 -0.021773852
349871698.11321 0.9997741 -0.023478091 0.00026545161 0.011451008 0.00025815773 0.011520937 0.99958253 -0.022694141
359867924.5283 0.99960768 -0.024251312 0.00028036349 0.011755228 0.00029130746 0.01181349 0.99947798 -0.02358669
369864150.9434 0.99975634 -0.02504921 0.0002915978 0.0121173 0.00029468164 0.012175941 0.99947643 -0.024280161
379860377.35849 0.99958384 -0.025710285 0.00028871023 0.012465743 0.00031015975 0.012455128 0.99934107 -0.024855986
389856603.77358 0.99956113 -0.026356339 0.00034958217 0.012763888 0.00032526208 0.012794865 0.99930829 -0.025396407
399852830.18868 0.999291 -0.027013868 0.00036008842 0.013054398 0.00033560116 0.013074601 0.99941766 -0.025846183
409849056.60377 0.99922991 -0.027495183 0.00036662049 0.01338882 0.00038277838 0.013453014 0.99939376 -0.026347745
419845283.01887 0.99919784 -0.027923197 0.00039358158 0.013672138 0.00037891977 0.013774594 0.99936152 -0.02694276
429841509.43396 0.99924862 -0.028467923 0.00041539874 0.014064417 0.00039524445 0.014071497 0.99955666 -0.02770707
439837735.84906 0.9990809 -0.029454976 0.00046743301 0.01434709 0.00043205358 0.014405703 0.99934483 -0.028608188
449833962.26415 0.99897343 -0.030218065 0.00044643879 0.014680326 0.0004386818 0.014721362 0.9989143 -0.02942425
459830188.67925 0.99872482 -0.030847222 0.00042134663 0.014986403 0.00043018721 0.015040385 0.99868309 -0.030136257
469826415.09434 0.99863952 -0.031582266 0.00046100654 0.01532781 0.00045168726 0.015388045 0.99850702 -0.030640066
479822641.50943 0.99854773 -0.032030679 0.00047727441 0.015665412 0.00048666564 0.015734702 0.99855739 -0.031029895
489818867.92453 0.99858445 -0.032541782 0.0005152165 0.016007302 0.000520573 0.016042976 0.99881113 -0.031561434
499815094.33962 0.99875325 -0.033107281 0.00052888459 0.016368177 0.00054731593 0.016346257 0.99904871 -0.032115281
509811320.75472 0.99879783 -0.033508673 0.00054114021 0.016656626 0.0005576206 0.016669691 0.99919999 -0.032906197
519807547.16981 0.99874294 -0.033947706 0.00055171968 0.0169327 0.00054704025 0.017013272 0.99916029 -0.033608288
529803773.58491 0.99873972 -0.034528732 0.00058593694 0.0172536 0.00057031587 0.01729765 0.9989208 -0.034146398
539800000 0.99887103 -0.035210371 0.00063122041 0.017646387 0.00057214079 0.017662605 0.99881262 -0.034835681
549796226.41509 0.99864632 -0.036085814 0.0006308048 0.017946923 0.0006050691 0.01801927 0.99862325 -0.035303026
559792452.83019 0.99862123 -0.036681145 0.00064875092 0.018286427 0.00063560065 0.018318016 0.99866438 -0.035792619
569788679.24528 0.99845707 -0.037368208 0.00066661043 0.018625289 0.00067446241 0.018622179 0.99876672 -0.036586285
579784905.66038 0.99840474 -0.037902556 0.00068409322 0.018941037 0.0006595467 0.018986316 0.99891543 -0.03725905
589781132.07547 0.99854207 -0.038463116 0.0007242132 0.019308563 0.00071472488 0.01931526 0.99893266 -0.038064152
599777358.49057 0.99872684 -0.039056301 0.00073748175 0.019587332 0.00074580591 0.019640461 0.99903113 -0.03886351
609773584.90566 0.99878067 -0.039776977 0.00078652136 0.01993276 0.00079561363 0.019993369 0.99896288 -0.039702691
619769811.32075 0.99894953 -0.040579647 0.00086717028 0.0202177 0.00082559744 0.020291142 0.99881858 -0.040274054
629766037.73585 0.99880803 -0.041171044 0.00086570159 0.020537056 0.0008615125 0.020598277 0.99863768 -0.040805906
639762264.15094 0.99863696 -0.041832745 0.00086875865 0.020826614 0.00087377033 0.020900352 0.9984746 -0.041248441
649758490.56604 0.99853331 -0.042369917 0.00087088393 0.021178041 0.00089298654 0.021246679 0.998568 -0.041670561
659754716.98113 0.99842 -0.042958379 0.00088017806 0.021497825 0.00088977627 0.021525458 0.99865007 -0.042222351
669750943.39623 0.99850112 -0.043371141 0.00088671455 0.021847703 0.00088586286 0.021910124 0.99877572 -0.042979598
679747169.81132 0.99847478 -0.044217102 0.00095330144 0.022191569 0.00093594496 0.022262169 0.99874628 -0.043912783
689743396.22642 0.99863529 -0.044962645 0.0010161186 0.022531344 0.00099075772 0.022591673 0.99855077 -0.044859499
699739622.64151 0.99877453 -0.045769304 0.001028724 0.022823822 0.0010299655 0.022887634 0.99847066 -0.045590132
709735849.0566 0.99873424 -0.046636693 0.0010779612 0.023170758 0.0010399125 0.02321315 0.99824387 -0.046204619
719732075.4717 0.99854946 -0.047328949 0.0011083893 0.023465253 0.0010940023 0.023520783 0.99830949 -0.046741337
729728301.88679 0.99847412 -0.047906578 0.0011316799 0.023790475 0.0011076042 0.023828458 0.99835718 -0.047181517
739724528.30189 0.99839598 -0.048562929 0.0011625742 0.024071211 0.0011615162 0.024168378 0.99855596 -0.047885254
749720754.71698 0.99822032 -0.049137041 0.0012270845 0.024402393 0.0011753528 0.024472194 0.99852675 -0.048577562
759716981.13208 0.99830562 -0.04959026 0.0012114812 0.024724387 0.0012164423 0.0248175 0.9985429 -0.049391389
769713207.54717 0.9982506 -0.050348043 0.0012438605 0.025035845 0.0012444444 0.02511923 0.99826914 -0.050101876
779709433.96226 0.99835986 -0.051032715 0.001266801 0.025390342 0.0012727003 0.025438564 0.99804044 -0.050718762
789705660.37736 0.99821031 -0.051921546 0.0013208948 0.025683392 0.0012904732 0.025745634 0.99775791 -0.051396608
799701886.79245 0.9982062 -0.052638769 0.0013507856 0.02598618 0.0013460759 0.02605002 0.99760097 -0.051921576
809698113.20755 0.99815154 -0.053218588 0.001351608 0.02628589 0.0013577999 0.02635251 0.99768585 -0.052443549
819694339.62264 0.99790251 -0.053952783 0.001402765 0.026616512 0.0013763104 0.026717586 0.99779028 -0.052977622
829690566.03774 0.9978711 -0.054493725 0.0014171423 0.02691571 0.0014385488 0.027014583 0.99799484 -0.053877652
839686792.45283 0.99794102 -0.05490908 0.0014307671 0.027246021 0.0014276239 0.027338084 0.9980371 -0.054668546
849683018.86792 0.9980278 -0.055490978 0.0014747796 0.027615886 0.0015021295 0.027664147 0.99793923 -0.055394404
859679245.28302 0.99804127 -0.056251734 0.001495841 0.02792906 0.0015304433 0.028018206 0.99765944 -0.056024581
869675471.69811 0.99794853 -0.056967437 0.0015672343 0.028197672 0.0015708879 0.028344134 0.99732429 -0.056530863
879671698.11321 0.99791062 -0.057608448 0.0015998115 0.028520791 0.0016000769 0.028647197 0.99734759 -0.056903265
889667924.5283 0.99766171 -0.05841592 0.001594645 0.028828461 0.0016041696 0.028922562 0.99717355 -0.057386458
899664150.9434 0.99754006 -0.059024036 0.0016107336 0.02913323 0.0016323477 0.029234808 0.99724674 -0.058015227
909660377.35849 0.99749273 -0.059761643 0.0016695731 0.029457288 0.0016512992 0.029530538 0.997302 -0.058845654
919656603.77358 0.99755406 -0.060366467 0.0016782125 0.029787507 0.0017052377 0.029856937 0.99733526 -0.059725299
929652830.18868 0.99762774 -0.061038703 0.0017099082 0.03008353 0.00171242 0.030210823 0.9972294 -0.060614854
939649056.60377 0.99778605 -0.061654091 0.0017344682 0.03038604 0.00169989 0.03049895 0.99707627 -0.061281413
949645283.01887 0.99775976 -0.062507734 0.0017117864 0.030720232 0.0017137236 0.030854732 0.99679565 -0.061832223
959641509.43396 0.99766755 -0.063129365 0.001769077 0.031104695 0.0017721793 0.031196065 0.99676269 -0.062333912
969637735.84906 0.99760914 -0.063907474 0.001810817 0.031439375 0.0018173009 0.031523515 0.99676418 -0.06265232
979633962.26415 0.99739099 -0.064567849 0.0018456609 0.031733025 0.0018495042 0.031823378 0.99684489 -0.063364461
989630188.67925 0.99739265 -0.065035343 0.0019085286 0.032049403 0.0018814048 0.032145541 0.99698919 -0.063868403
999626415.09434 0.99750799 -0.065645933 0.001920905 0.032367285 0.0019324673 0.032478318 0.99699152 -0.064691365
1009622641.5094 0.99758393 -0.06628257 0.0019424893 0.032687638 0.0019796742 0.03284087 0.99682868 -0.065527037
1019618867.9245 0.99760669 -0.067082345 0.002002025 0.033007432 0.0020391461 0.033152703 0.9965502 -0.066352382
1029615094.3396 0.99756205 -0.068038911 0.0020622481 0.033288307 0.0020790063 0.033438735 0.99623454 -0.066916972
1039611320.7547 0.9976756 -0.068837136 0.0020899186 0.033617549 0.0021074526 0.033749543 0.99617589 -0.067579031
1049607547.1698 0.9975279 -0.069741175 0.0021400789 0.033906315 0.0021031841 0.034035932 0.99620402 -0.068111315
1059603773.5849 0.99739933 -0.070444882 0.0021554157 0.034208864 0.0021494273 0.034340195 0.99618125 -0.068618089
1069600000 0.99723458 -0.071049035 0.0021228436 0.034502376 0.0021808594 0.034639381 0.99641263 -0.069392562
1079596226.4151 0.99713582 -0.071686663 0.002119957 0.034847971 0.0021816115 0.034955636 0.99637747 -0.070195362
1089592452.8302 0.99722689 -0.072274268 0.0021565082 0.035168134 0.0021929527 0.035331812 0.99628764 -0.070901155
1099588679.2453 0.99725246 -0.072963208 0.0021776538 0.035486765 0.002227908 0.035639659 0.99599147 -0.071517646
1109584905.6604 0.99745345 -0.07380788 0.0021999553 0.035836894 0.0022428781 0.035956956 0.99576122 -0.072062463
1119581132.0755 0.99740207 -0.074680403 0.0022377814 0.036163703 0.0022642608 0.036312893 0.99566358 -0.072465837
1129577358.4906 0.99723494 -0.075462252 0.0022494998 0.036498412 0.0023324378 0.036684003 0.99547172 -0.072864383
1139573584.9057 0.99692839 -0.076422602 0.0023150193 0.036854297 0.0023654513 0.036970843 0.9956075 -0.073547214
1149569811.3208 0.99688864 -0.077209689 0.0023508356 0.03716322 0.0023985622 0.037307683 0.99567634 -0.074313201
1159566037.7358 0.9966954 -0.077833951 0.002422479 0.03745633 0.0024568625 0.037612237 0.99587262 -0.075271457
1169562264.1509 0.99650085 -0.078519881 0.0024141446 0.037782263 0.00246468 0.037915803 0.99563706 -0.076056629
1179558490.566 0.99656385 -0.07922326 0.0024309761 0.038149521 0.0024846643 0.038278699 0.99550217 -0.07676284
1189554716.9811 0.99646968 -0.079927593 0.0024745939 0.038470548 0.0025230683 0.038601343 0.99523258 -0.077258557
1199550943.3962 0.99640191 -0.08075726 0.0024984702 0.038808718 0.0025825351 0.038944349 0.99512267 -0.077714622
1209547169.8113 0.99623364 -0.081659019 0.0025410084 0.039153531 0.0026473682 0.039276216 0.99498904 -0.078022793
1219543396.2264 0.99605232 -0.082482383 0.0025992929 0.039504047 0.0026611527 0.039626803 0.99507415 -0.078431651
1229539622.6415 0.99574029 -0.083314449 0.0026475415 0.039805118 0.0027503502 0.039935265 0.99521649 -0.079116374
1239535849.0566 0.99549043 -0.083940417 0.0027338983 0.0401196 0.0027894983 0.040252078 0.99531001 -0.080029786
1249532075.4717 0.99526232 -0.084574759 0.002776257 0.040439915 0.0028492189 0.040549241 0.99516708 -0.080796354
1259528301.8868 0.99507189 -0.08504203 0.0028048716 0.040760163 0.0029327851 0.040877126 0.99493289 -0.081617117
1269524528.3019 0.99490482 -0.085779577 0.0028748158 0.041078489 0.0029890751 0.041187797 0.99474156 -0.082338691
1279520754.717 0.99453276 -0.08646515 0.0029290919 0.041353572 0.0030161047 0.041422464 0.99448317 -0.082891375
1289516981.1321 0.99440807 -0.08724454 0.0029584542 0.041656043 0.0030384148 0.041726917 0.99456 -0.083255529
1299513207.5472 0.99418414 -0.088118464 0.0029483363 0.041930169 0.003043592 0.042061705 0.99465096 -0.083633393
1309509433.9623 0.99367583 -0.088780105 0.0029769568 0.042270839 0.0030715186 0.042341087 0.99474978 -0.084396213
1319505660.3774 0.99337393 -0.089531243 0.0029679155 0.042588577 0.0030463133 0.042622898 0.99473512 -0.085054532
1329501886.7925 0.9930923 -0.090112031 0.0029507391 0.042896613 0.003108507 0.042991929 0.99484491 -0.086024374
1339498113.2075 0.99281293 -0.090776294 0.0029970473 0.043233637 0.0031202203 0.043278944 0.99438351 -0.086699188
1349494339.6226 0.99269521 -0.091256268 0.0029720068 0.043541282 0.0031006574 0.043619845 0.99404573 -0.087327279
1359490566.0377 0.99263895 -0.091882229 0.0029841363 0.043890458 0.0030964799 0.04395872 0.99386317 -0.087812036
1369486792.4528 0.99238694 -0.092399836 0.0029951278 0.044274583 0.0030939495 0.044334169 0.99368846 -0.088286072
1379483018.8679 0.99213433 -0.092990726 0.0030402506 0.044630203 0.0031057033 0.044654727 0.99372208 -0.088595182
1389479245.283 0.99183965 -0.093447775 0.0030662045 0.045002185 0.0031645857 0.045056459 0.99367929 -0.089283377
1399475471.6981 0.99137414 -0.093847007 0.0030930247 0.045365915 0.0031407606 0.045371834 0.99389851 -0.089937061
1409471698.1132 0.99111962 -0.094242483 0.0031420595 0.045734603 0.0031962644 0.045756608 0.99389666 -0.090764463
1419467924.5283 0.9909007 -0.094492882 0.0031465357 0.046092678 0.0032189451 0.046153154 0.99372017 -0.091476023
1429464150.9434 0.99083537 -0.094954103 0.0031735748 0.04647091 0.0032192487 0.046509296 0.99363774 -0.092079312
1439460377.3585 0.99096507 -0.095432624 0.0032727877 0.04691923 0.0032988572 0.046960182 0.99333203 -0.092361167
1449456603.7736 0.99098611 -0.095905811 0.0033504702 0.047330685 0.0033775056 0.047377601 0.99322629 -0.092709407
1459452830.1887 0.99099338 -0.096549362 0.0034892447 0.04772361 0.0035224818 0.047746945 0.9933356 -0.092994064
1469449056.6038 0.99101871 -0.097282261 0.0036646286 0.04805696 0.0036611632 0.048095442 0.99361581 -0.093663365
1479445283.0189 0.9908812 -0.097899899 0.0037727461 0.048325978 0.0037800367 0.048367221 0.99370664 -0.094541237
1489441509.434 0.99076587 -0.098432034 0.0039162673 0.048662752 0.0039425753 0.048691686 0.99353194 -0.095422447
1499437735.8491 0.99059403 -0.098719269 0.0040439088 0.048911184 0.004037749 0.048921548 0.99347091 -0.096170962
1509433962.2642 0.99058759 -0.09934631 0.0041042026 0.049184985 0.0041014301 0.049215123 0.99324757 -0.096961886
1519430188.6792 0.99075657 -0.099758595 0.0041870065 0.0494387 0.0041678827 0.049505103 0.99315107 -0.097433835
1529426415.0943 0.99062061 -0.10048196 0.0042071957 0.049709864 0.0042117704 0.049782373 0.99310511 -0.098003417
1539422641.5094 0.99072772 -0.10130043 0.0042582154 0.050051536 0.0042826468 0.050069161 0.99315608 -0.098448992
1549418867.9245 0.99049938 -0.10209285 0.0043887645 0.050317694 0.0042957943 0.050347175 0.99332988 -0.099034742
1559415094.3396 0.99037355 -0.10274562 0.0043862369 0.050587922 0.004337769 0.050610498 0.99348426 -0.099752754
1569411320.7547 0.99030876 -0.1035067 0.0044422643 0.05083032 0.0043883482 0.050882205 0.99340111 -0.10060386
1579407547.1698 0.99023604 -0.10403578 0.0044266442 0.051099088 0.0043942272 0.051216803 0.99311221 -0.1013433
1589403773.5849 0.99007249 -0.10453045 0.0044438057 0.05139767 0.0044248831 0.051511694 0.99284476 -0.10213766
1599400000 0.99016541 -0.10497701 0.0044208299 0.051714234 0.0044175312 0.051760018 0.9924494 -0.10249794
1609396226.4151 0.99011469 -0.10559897 0.0044224206 0.052001245 0.0043715523 0.052069549 0.99228561 -0.10305247
1619392452.8302 0.99007076 -0.10624838 0.0044487379 0.052326955 0.0043790881 0.052443556 0.99215758 -0.1034607
1629388679.2453 0.98987079 -0.10693327 0.0044671204 0.052675769 0.004388174 0.052791469 0.99241388 -0.10391518
1639384905.6604 0.98966992 -0.10763878 0.0044739149 0.053059094 0.0043819109 0.053141084 0.99266207 -0.10477846
1649381132.0755 0.98941922 -0.1082243 0.0044628754 0.053388495 0.0044335984 0.053494815 0.99269849 -0.10576725
1659377358.4906 0.9893288 -0.10906342 0.0044876263 0.053716458 0.0044533741 0.053875424 0.99262065 -0.10653299
1669373584.9057 0.98920435 -0.10942604 0.0045088003 0.054131728 0.004474327 0.054269768 0.99231088 -0.10719712
1679369811.3208 0.98931307 -0.11011705 0.0045504821 0.05446614 0.0045140237 0.054618761 0.9920913 -0.10778993
1689366037.7358 0.98930073 -0.11071998 0.0045921914 0.054827858 0.0045328531 0.054998487 0.99194241 -0.10807297
1699362264.1509 0.98937029 -0.11132658 0.004657534 0.05521911 0.0045662755 0.055363119 0.99214703 -0.10845023
1709358490.566 0.98931128 -0.112075 0.0046970686 0.055566747 0.0046336353 0.055754311 0.9921177 -0.1090489
1719354716.9811 0.98902524 -0.11259261 0.0047539212 0.055981986 0.004690133 0.056111686 0.9922322 -0.10972568
1729350943.3962 0.98870134 -0.11319074 0.0048313588 0.056339771 0.0047335159 0.056492608 0.99224532 -0.11058038
