!Keysight Technologies,N5222B,MY61253708,A.15.00.15
!Date: Wednesday, June 19, 2024 09:32:26
!Correction: S11(C  2-Port  ) 
!S21(C  2-Port  ) 
!S12(C  2-Port  ) 
!S22(C  2-Port  ) 
!S2P File: Measurements: S11, S21, S12, S22:
# Hz S  RI   R 50
10000000 0.99870729 -0.0024449229 -8.9477893e-005 0.00046232581 3.4407625e-005 0.00030561539 0.99848676 -0.0010055006
19996226.415094 0.99887937 -0.0023879409 -0.00016337658 0.00062800368 -3.8506958e-005 0.0006514095 0.99905288 -0.0024948418
29992452.830189 0.99973464 -0.002494067 -3.7385078e-005 0.00096835243 1.0420801e-005 0.0010165012 0.99957365 -0.0026757717
39988679.245283 1.00003 -0.003056556 -1.5880345e-005 0.0013259788 -3.962715e-005 0.0013783629 0.99974144 -0.003137216
49984905.660377 1.0002328 -0.0037492514 3.2520678e-005 0.0016948016 4.1323074e-005 0.0016642335 0.99992299 -0.0036867559
59981132.075472 1.0003184 -0.00459674 1.8575054e-005 0.0020105469 1.1144963e-005 0.0020062812 0.99982041 -0.0042647719
69977358.490566 1.0001858 -0.005180601 -6.9409725e-007 0.0023593216 5.2055784e-005 0.0023652471 0.99974024 -0.0047633015
79973584.90566 0.99992061 -0.0057447553 4.6592206e-005 0.0026734893 2.2777473e-005 0.0027317381 0.99940425 -0.0052188933
89969811.320755 0.99988496 -0.0058874786 -1.115608e-005 0.0029730825 -4.7020148e-007 0.0030157906 0.99958944 -0.0055175424
99966037.735849 1.0001361 -0.0066372603 -5.8771111e-006 0.0033408424 2.332998e-005 0.0033663001 0.99970484 -0.0062713474
109962264.15094 1.0002167 -0.0075734854 9.2431437e-006 0.0036652684 3.7238875e-005 0.0037068811 0.99970251 -0.0071157515
119958490.56604 1.0001637 -0.008515209 2.1356624e-005 0.0040049152 4.3603126e-005 0.0040395255 0.99967718 -0.0079911649
129954716.98113 1.0001128 -0.0094926059 2.7395785e-005 0.0043296712 3.7273392e-005 0.004348903 0.99967968 -0.0088970661
139950943.39623 1.0000582 -0.010344649 4.016317e-005 0.0046532843 5.0579722e-005 0.0046885489 0.99961495 -0.0096371211
149947169.81132 0.99987191 -0.010946035 4.7051115e-005 0.0049971929 5.3254655e-005 0.0050366893 0.99955547 -0.010243982
159943396.22642 0.99986762 -0.011497587 4.9912836e-005 0.0053454353 4.043011e-005 0.0054001836 0.99968028 -0.010680318
169939622.64151 0.99984753 -0.011905245 7.6584111e-005 0.0056699561 5.6005432e-005 0.0057137511 0.9997226 -0.011133529
179935849.0566 0.99991333 -0.0121755 5.774328e-005 0.0060279123 9.578187e-005 0.0060338145 0.9996314 -0.011462659
189932075.4717 1.0000383 -0.01296699 8.056662e-005 0.0063380371 9.1750408e-005 0.0063839215 0.99987006 -0.012096554
199928301.88679 0.99993014 -0.013775826 0.00010035373 0.006683344 0.00011690741 0.0067276326 0.99973786 -0.012938857
209924528.30189 0.99970913 -0.01441434 0.00010963902 0.0069764941 0.00010842539 0.0070530078 0.99951631 -0.013650224
219920754.71698 0.99982238 -0.015287727 0.000130628 0.0073272842 0.00013339543 0.0073629492 0.99938357 -0.014318466
229916981.13208 0.99953949 -0.016114295 0.00014462322 0.0076440135 0.00013006735 0.0077312817 0.99926579 -0.015091002
239913207.54717 0.99943483 -0.016794957 0.00015163049 0.0079543535 0.00013746539 0.0080580655 0.99928916 -0.015810573
249909433.96226 0.99949604 -0.017440945 0.00013853377 0.008327567 0.00015211594 0.0083852708 0.99941212 -0.016430646
259905660.37736 0.99952519 -0.018029392 0.00013552979 0.0086911088 0.00021654787 0.0087422421 0.99950904 -0.016994447
269901886.79245 0.99972063 -0.018608719 0.00021996326 0.0089642508 0.0001119544 0.0090652732 0.99989718 -0.017726243
279898113.20755 0.99984878 -0.01942423 0.00017100642 0.0093294 0.00014562672 0.009380294 0.99978083 -0.018407419
289894339.62264 0.99975955 -0.020101458 0.00019338867 0.009686118 0.00024812389 0.0096973497 0.99967718 -0.019208699
299890566.03774 0.99966919 -0.020613849 0.00019064848 0.0099573759 0.00018745475 0.010049128 0.99943125 -0.019597948
309886792.45283 0.99947405 -0.021161281 0.00021039625 0.010300669 0.00023164833 0.010397825 0.99928749 -0.02009929
319883018.86792 0.99945146 -0.021771729 0.00020952849 0.010661166 0.00022729347 0.010738436 0.99948752 -0.020566761
329879245.28302 0.99953651 -0.022683769 0.00024260255 0.010963758 0.0002537691 0.011083581 0.99952769 -0.021379411
339875471.69811 0.99928272 -0.023257345 0.00027749746 0.011329936 0.00025168678 0.011432449 0.99946338 -0.022219867
349871698.11321 0.99955833 -0.024129301 0.00025952118 0.01159464 0.00027818466 0.011758111 0.99951738 -0.023075581
359867924.5283 0.9993881 -0.024815708 0.00032695336 0.011943627 0.00031733233 0.012072437 0.99941301 -0.024036735
369864150.9434 0.99956185 -0.025646389 0.00031228899 0.012283687 0.00030758115 0.01241978 0.99946553 -0.024738014
379860377.35849 0.99946231 -0.026370078 0.00033081812 0.012615449 0.0003453868 0.012748262 0.99936897 -0.025401965
389856603.77358 0.99942327 -0.026875287 0.00032440713 0.012962699 0.00034761475 0.013054279 0.99929023 -0.025883287
399852830.18868 0.99923521 -0.02752462 0.00038425345 0.013338628 0.00037372392 0.013408705 0.99939513 -0.026314765
409849056.60377 0.99920255 -0.027973954 0.00039583049 0.013625734 0.00035518367 0.0137447 0.9993729 -0.026807878
419845283.01887 0.9991594 -0.028410465 0.00037970953 0.013956297 0.00043557445 0.014077794 0.99937361 -0.027356118
429841509.43396 0.9992187 -0.029115349 0.00043174718 0.014289731 0.00041996734 0.014418943 0.99953556 -0.028110087
439837735.84906 0.99915659 -0.02996403 0.00044183526 0.014587263 0.00045175327 0.014753745 0.9993102 -0.029127508
449833962.26415 0.99908042 -0.030832827 0.00044211093 0.014930653 0.00046997564 0.015065286 0.99887002 -0.029889911
459830188.67925 0.9989298 -0.031564265 0.00045915646 0.015235983 0.00043990556 0.015412185 0.99874711 -0.030596465
469826415.09434 0.99889332 -0.032343715 0.00043583987 0.015607978 0.00049214019 0.015744468 0.99843466 -0.031295598
479822641.50943 0.99872047 -0.03289631 0.00050078519 0.015985103 0.00049931067 0.016094366 0.99842793 -0.031597391
489818867.92453 0.99885392 -0.033500254 0.00054858159 0.016259767 0.00053007528 0.016447006 0.99883902 -0.032116473
499815094.33962 0.99893427 -0.034166873 0.00054643862 0.016593227 0.00055575883 0.016764574 0.99911159 -0.032679826
509811320.75472 0.99905783 -0.034500264 0.00056102313 0.016954038 0.00054033747 0.017069837 0.999264 -0.033498261
519807547.16981 0.99899548 -0.035025805 0.00059240405 0.017237578 0.00055774255 0.017393777 0.99925697 -0.034225851
529803773.58491 0.99899679 -0.035706371 0.00058335811 0.0176287 0.00062499009 0.01780857 0.99890876 -0.034814477
539800000 0.99905139 -0.036429033 0.0006573326 0.017922916 0.00063514034 0.018124944 0.99877423 -0.035511583
549796226.41509 0.998833 -0.037342757 0.00065625506 0.01820582 0.00066584535 0.018422676 0.99861097 -0.035925448
559792452.83019 0.9986555 -0.0380072 0.00068623479 0.018603697 0.00068869721 0.018765058 0.99860483 -0.036471725
569788679.24528 0.99850446 -0.038676798 0.00071927067 0.018901303 0.0006990144 0.019110162 0.99872035 -0.037303597
579784905.66038 0.99847263 -0.039273456 0.00072425103 0.019252136 0.00070549001 0.019449005 0.99886447 -0.037990786
589781132.07547 0.99856794 -0.039836407 0.0007765023 0.019591339 0.00073540024 0.019779647 0.99890584 -0.038826287
599777358.49057 0.9986161 -0.040507674 0.00076159649 0.019936521 0.00076310989 0.020077797 0.99903113 -0.03965342
609773584.90566 0.99887031 -0.041286238 0.00086078921 0.020273743 0.00085051742 0.020439005 0.99886173 -0.040381342
619769811.32075 0.99886614 -0.041922629 0.00086516561 0.020575123 0.00087623531 0.020795593 0.99878764 -0.040932536
629766037.73585 0.998725 -0.042575121 0.00092302077 0.020885723 0.00090442318 0.021097053 0.99861228 -0.041548729
639762264.15094 0.99864274 -0.043232918 0.00090419222 0.021235345 0.00092107547 0.021405708 0.99844289 -0.041940778
649758490.56604 0.99848187 -0.043770775 0.00093163829 0.021521822 0.00089682685 0.02171587 0.99849844 -0.042354524
659754716.98113 0.99831784 -0.044374526 0.00092196092 0.021899503 0.00093120988 0.022081174 0.99855137 -0.042990893
669750943.39623 0.99826479 -0.044915795 0.00096684648 0.022276614 0.00094830152 0.022425642 0.99866939 -0.043863058
679747169.81132 0.99827224 -0.045631982 0.00100144 0.022568995 0.0010057236 0.022788605 0.99858493 -0.044708647
689743396.22642 0.99846923 -0.046428412 0.0010296404 0.022895372 0.0010539982 0.023123994 0.9984504 -0.045613557
699739622.64151 0.99853516 -0.047188938 0.0010743449 0.023222901 0.0011055917 0.023448402 0.99837476 -0.046311706
709735849.0566 0.99855131 -0.048021145 0.001132121 0.023536768 0.0011506563 0.023768565 0.99815327 -0.047051564
719732075.4717 0.99845338 -0.048831791 0.0011485345 0.023866229 0.0011584251 0.024072183 0.99819076 -0.047640204
729728301.88679 0.99824899 -0.049267292 0.0012076218 0.024222862 0.001169364 0.024405587 0.99823785 -0.048058659
739724528.30189 0.99826497 -0.049949273 0.0012284978 0.024487305 0.0012618448 0.024731163 0.99847019 -0.048768297
749720754.71698 0.99807429 -0.050473288 0.0012597814 0.024806242 0.0012391247 0.02503857 0.99841022 -0.049420625
759716981.13208 0.99818385 -0.051020533 0.0012818333 0.025142318 0.0012602443 0.025392143 0.99838328 -0.050211281
769713207.54717 0.99810773 -0.051716477 0.0012961747 0.025482502 0.0013441276 0.025706511 0.99816388 -0.050852478
779709433.96226 0.99829227 -0.052373521 0.0013367456 0.025817862 0.0013617277 0.026050178 0.99787998 -0.051513433
789705660.37736 0.99808431 -0.053223848 0.0013859011 0.026107246 0.0013854299 0.026360061 0.99765849 -0.05224672
799701886.79245 0.99806488 -0.054055303 0.0014217962 0.026425423 0.0014317678 0.026683845 0.99750888 -0.052852869
809698113.20755 0.998092 -0.054687664 0.001446336 0.026776886 0.0014407036 0.026989745 0.99752337 -0.053294912
819694339.62264 0.99796087 -0.055375457 0.0014316677 0.027069364 0.0014352812 0.027365757 0.99769354 -0.053914905
829690566.03774 0.99789578 -0.056038052 0.0014856393 0.027404916 0.0014947476 0.027684893 0.99791145 -0.054804742
839686792.45283 0.99791229 -0.056429803 0.0014869226 0.027749572 0.0015400569 0.02799782 0.99798501 -0.055616587
849683018.86792 0.99798298 -0.056989312 0.001545456 0.028067145 0.001551464 0.028357502 0.99786723 -0.056351975
859679245.28302 0.99809432 -0.057751566 0.0015854966 0.02841606 0.0015978804 0.02866964 0.99761248 -0.057003111
869675471.69811 0.99802196 -0.058474779 0.0016108565 0.028697168 0.0016410211 0.028987328 0.99725276 -0.057474285
879671698.11321 0.99790424 -0.059225023 0.0016747531 0.029040823 0.001663919 0.029292781 0.99721968 -0.057944231
889667924.5283 0.99773836 -0.060027689 0.0016946346 0.02933789 0.0016992949 0.029620379 0.9970898 -0.05842188
899664150.9434 0.99755299 -0.06074509 0.001690588 0.02967567 0.001718225 0.029973287 0.99714935 -0.059028953
909660377.35849 0.99761719 -0.061418474 0.0017260932 0.030006692 0.0017621573 0.030262917 0.99724776 -0.059913889
919656603.77358 0.99761331 -0.062014803 0.0017332966 0.030311286 0.0017819675 0.030557917 0.9972052 -0.060868666
929652830.18868 0.99758494 -0.062791526 0.0017703241 0.030617684 0.0018063774 0.030897407 0.99705309 -0.061643034
939649056.60377 0.9977262 -0.063342363 0.0018077083 0.030908667 0.0018247087 0.031219114 0.99693567 -0.062344611
949645283.01887 0.99769276 -0.06419231 0.0017943009 0.031245898 0.0018291518 0.031567115 0.9966889 -0.062900707
959641509.43396 0.99766552 -0.064906061 0.0018335022 0.031648051 0.0018867478 0.03192623 0.99665409 -0.063444763
969637735.84906 0.99755049 -0.065660954 0.0018904414 0.031980127 0.0019299975 0.032274466 0.99670386 -0.063754052
979633962.26415 0.99746472 -0.066330321 0.0019556945 0.032273125 0.0019655637 0.032594919 0.9966985 -0.064444497
989630188.67925 0.99745333 -0.066927075 0.0019535478 0.032627244 0.0020037992 0.032916684 0.99686921 -0.065020859
999626415.09434 0.99752522 -0.067490429 0.0019956762 0.032930516 0.0020043422 0.033275686 0.9968605 -0.065870047
1009622641.5094 0.99751168 -0.068161741 0.0020390032 0.033296533 0.0020743646 0.033618532 0.99669009 -0.066701129
1019618867.9245 0.99757862 -0.069067672 0.0020856787 0.033582613 0.0021528406 0.033924516 0.99647957 -0.067491814
1029615094.3396 0.99758613 -0.069956183 0.0021299254 0.033893831 0.0022198875 0.034253411 0.99607146 -0.068162471
1039611320.7547 0.99762601 -0.070775509 0.0021932935 0.034190029 0.0022162711 0.034509517 0.99604523 -0.068723261
1049607547.1698 0.99739379 -0.071731709 0.0022110592 0.034536336 0.0022412227 0.034836117 0.99601793 -0.069349959
1059603773.5849 0.9973287 -0.07236895 0.0022506397 0.034803353 0.0022995891 0.035147533 0.99605876 -0.069938391
1069600000 0.99711657 -0.073026776 0.0022370201 0.035130575 0.0023126435 0.035467602 0.99614942 -0.070578068
1079596226.4151 0.99702221 -0.073757835 0.0022687111 0.035449401 0.0022898307 0.035796337 0.9962467 -0.071374729
1089592452.8302 0.99709517 -0.074348986 0.0022975141 0.035777118 0.0023513623 0.036157828 0.99608821 -0.072086334
1099588679.2453 0.99720979 -0.074962199 0.0022942964 0.036130793 0.0023431703 0.036472522 0.99578488 -0.072743386
1109584905.6604 0.99722189 -0.075753808 0.0023090281 0.036481906 0.0023980355 0.036817007 0.99555665 -0.073293433
1119581132.0755 0.99720269 -0.07677792 0.0023381151 0.036799654 0.0024312222 0.037157476 0.99536049 -0.073711544
1129577358.4906 0.99704134 -0.077513248 0.0023504049 0.03716955 0.0024342537 0.037527233 0.99526644 -0.07419917
1139573584.9057 0.99675906 -0.078454614 0.0024204999 0.037499677 0.0024911668 0.037855055 0.99530184 -0.074854821
1149569811.3208 0.99665934 -0.079287685 0.0024959494 0.037810311 0.0025735586 0.038154244 0.99548322 -0.075593323
1159566037.7358 0.99646586 -0.079911709 0.0025388142 0.038138974 0.0025896849 0.03848004 0.99555862 -0.076641709
1169562264.1509 0.99633741 -0.080617309 0.0025361832 0.038462296 0.0026198551 0.038814045 0.99539095 -0.077420771
1179558490.566 0.99624181 -0.081376702 0.002529793 0.038805407 0.0026349719 0.039203234 0.99524289 -0.07805898
1189554716.9811 0.99625015 -0.082102448 0.0025843717 0.039152302 0.0027157664 0.039531555 0.99502081 -0.078633636
1199550943.3962 0.99620533 -0.082978457 0.0026077908 0.039494149 0.0027289838 0.039847702 0.99480748 -0.079058468
1209547169.8113 0.99605507 -0.083879337 0.0026652375 0.039817039 0.0027793199 0.040151335 0.99471688 -0.079392165
1219543396.2264 0.99572802 -0.08461827 0.0027309847 0.040207688 0.0028387248 0.040552411 0.99479604 -0.079797566
1229539622.6415 0.99559641 -0.085507363 0.0027650148 0.04051704 0.0029009301 0.040909201 0.99495226 -0.080451101
1239535849.0566 0.99524856 -0.086146444 0.0028181039 0.0408209 0.0029830877 0.041209552 0.99500078 -0.081406862
1249532075.4717 0.99495518 -0.086796865 0.0028837614 0.041161507 0.0030504053 0.041493282 0.99489063 -0.08220087
1259528301.8868 0.99477994 -0.087388039 0.0029629692 0.041487113 0.0030882787 0.041818142 0.9946456 -0.083120942
1269524528.3019 0.99464339 -0.088079184 0.0030388013 0.041797161 0.003181098 0.0421337 0.994403 -0.083735764
1279520754.717 0.99432808 -0.088813938 0.0030800705 0.042039026 0.003191218 0.042411532 0.99404532 -0.08432439
1289516981.1321 0.99416202 -0.089576542 0.0030930247 0.042370774 0.0032222448 0.042696349 0.99415761 -0.084706873
1299513207.5472 0.9938525 -0.090430349 0.0030874144 0.042697515 0.0031982269 0.043012947 0.99428767 -0.085099608
1309509433.9623 0.99336535 -0.091160253 0.0031233979 0.043008167 0.0032395981 0.043331265 0.9944523 -0.085785672
1319505660.3774 0.99302137 -0.091840982 0.0031148028 0.0433174 0.0032530949 0.043653499 0.9944036 -0.086427689
1329501886.7925 0.99272615 -0.092496485 0.0031454675 0.043688226 0.0032914001 0.043960229 0.99446744 -0.087397873
1339498113.2075 0.99244201 -0.093116641 0.0031439094 0.043992639 0.0032906523 0.044308815 0.99404836 -0.088133156
1349494339.6226 0.99235386 -0.093630016 0.0031466205 0.044334397 0.0032812711 0.044666965 0.99370742 -0.088721722
1359490566.0377 0.99219692 -0.09412995 0.003143454 0.044706341 0.0032990146 0.044992886 0.99345875 -0.089268655
1369486792.4528 0.99200106 -0.09472993 0.0031685103 0.045038015 0.0033220798 0.045366831 0.99336261 -0.089716107
1379483018.8679 0.99164385 -0.095303863 0.0031969508 0.045389555 0.0032999068 0.045718711 0.99331748 -0.090031281
1389479245.283 0.99132371 -0.095814914 0.0032549705 0.045761138 0.003359925 0.046068743 0.99329829 -0.090754569
1399475471.6981 0.99095654 -0.096155286 0.00324638 0.046155304 0.0033709183 0.04646194 0.99346131 -0.091443568
1409471698.1132 0.99059463 -0.096638501 0.003293935 0.046497542 0.0033992711 0.046835579 0.99351388 -0.092208631
1419467924.5283 0.99035496 -0.096814781 0.0033198241 0.046911377 0.0034108069 0.047201604 0.99333352 -0.0929178
1429464150.9434 0.99027634 -0.097278595 0.0033311322 0.047317632 0.0034536272 0.04755982 0.99322432 -0.093510151
1439460377.3585 0.99041265 -0.097751975 0.0034514004 0.047725022 0.003505351 0.048040107 0.99299759 -0.093856424
1449456603.7736 0.9904567 -0.098319411 0.0035707122 0.048133913 0.0036252085 0.048455954 0.99283475 -0.094099
1459452830.1887 0.99046588 -0.098942935 0.0036972556 0.048536748 0.0037281197 0.048828438 0.99304736 -0.094494164
1469449056.6038 0.99044323 -0.09972325 0.0038357927 0.048890479 0.0038945256 0.049174756 0.99327767 -0.095083237
1479445283.0189 0.99031413 -0.10023236 0.003979357 0.049167167 0.0039926367 0.049468424 0.99330938 -0.096028477
1489441509.434 0.99016702 -0.10081765 0.0041122157 0.049448848 0.0041419398 0.049767718 0.99321651 -0.09687236
1499437735.8491 0.99006867 -0.10110933 0.0042062867 0.049762141 0.0042763222 0.050046448 0.99308139 -0.097707808
1509433962.2642 0.99005288 -0.10165545 0.004285912 0.050029699 0.0043114936 0.050333258 0.99290645 -0.098414406
1519430188.6792 0.99007618 -0.10211578 0.0043691546 0.050284401 0.0044111926 0.050608892 0.99275929 -0.099041164
1529426415.0943 0.9901495 -0.10289639 0.0044130646 0.050576203 0.0044411048 0.050915256 0.99274993 -0.099361628
1539422641.5094 0.99009961 -0.10371312 0.0044933483 0.050881926 0.0045224009 0.051206611 0.99280238 -0.099893503
1549418867.9245 0.98996353 -0.10439859 0.004554783 0.051157601 0.0045717768 0.051502932 0.99302524 -0.10060716
1559415094.3396 0.98987699 -0.10510609 0.0045976099 0.051462948 0.0045822449 0.051799789 0.99307209 -0.10121611
1569411320.7547 0.98976761 -0.1059452 0.0046363361 0.051754665 0.0046156347 0.052060723 0.99297762 -0.10211286
1579407547.1698 0.98964858 -0.10641469 0.0046388032 0.052001767 0.0046380428 0.052402545 0.99266344 -0.10286625
1589403773.5849 0.98961103 -0.10697067 0.0046846606 0.052289121 0.0046457127 0.05268196 0.99255061 -0.10365498
1599400000 0.98965162 -0.10743573 0.0046409126 0.05260152 0.0046877395 0.053000204 0.99206245 -0.1041137
1609396226.4151 0.989564 -0.10801958 0.0046548117 0.052935615 0.0046083024 0.053347554 0.99188656 -0.10456401
1619392452.8302 0.98945457 -0.10861373 0.004646346 0.053272352 0.0046438072 0.053669855 0.99179411 -0.10501099
1629388679.2453 0.98928273 -0.10938287 0.0046545696 0.053591877 0.004636636 0.054000188 0.99206245 -0.10558286
1639384905.6604 0.98903018 -0.11003949 0.0046644146 0.05394296 0.0047108168 0.054372467 0.99238509 -0.10642093
1649381132.0755 0.98880947 -0.11071953 0.0047125239 0.054307379 0.0046839397 0.054741524 0.9923656 -0.10727984
1659377358.4906 0.98865968 -0.11150485 0.0046939179 0.0547252 0.0047081672 0.05511874 0.99227107 -0.10823759
1669373584.9057 0.98860621 -0.11181696 0.0047193407 0.055092379 0.0047361711 0.055473886 0.99198812 -0.10889955
1679369811.3208 0.98871177 -0.11257735 0.0047536595 0.05544892 0.0048024636 0.055903696 0.99183923 -0.10943243
1689366037.7358 0.98865956 -0.11319867 0.0048306342 0.055833008 0.0048070457 0.056268424 0.99159181 -0.10967958
1699362264.1509 0.98878825 -0.11379345 0.0049237395 0.056218158 0.004888 0.056672193 0.99183351 -0.11012773
1709358490.566 0.98866403 -0.11454771 0.0049397945 0.056566365 0.0049678795 0.057047706 0.99184585 -0.11075631
1719354716.9811 0.98842561 -0.11510262 0.0050024744 0.056941569 0.0050412901 0.057431094 0.99193645 -0.11138037
1729350943.3962 0.98815691 -0.11572871 0.0051130764 0.05732096 0.0050514601 0.057825785 0.99193412 -0.11227641
