!Keysight Technologies,N5222B,MY61253708,A.15.00.15
!Date: Wednesday, June 19, 2024 09:03:26
!Correction: S11(C  2-Port  ) 
!S21(C  2-Port  ) 
!S12(C  2-Port  ) 
!S22(C  2-Port  ) 
!S2P File: Measurements: S11, S21, S12, S22:
# Hz S  RI   R 50
10000000 0.9987399 -0.0020512044 0.00015042708 0.00059729104 -3.6703044e-005 0.0005837775 0.99880993 -0.00098890066
19996226.415094 0.99906558 -0.0020376742 3.7799939e-005 0.00069228874 9.3271927e-005 0.00073043141 0.99937785 -0.0022286475
29992452.830189 0.99977827 -0.0024672747 -9.1345573e-006 0.00096688088 -3.2525015e-005 0.0010313027 0.99952501 -0.0028143227
39988679.245283 1.0000187 -0.0031279176 -8.8339089e-005 0.0013688318 1.2653312e-005 0.0014301598 0.99966604 -0.0032652766
49984905.660377 1.0001383 -0.0039031208 -1.420133e-005 0.0017689462 6.8257796e-006 0.0017917819 0.99978375 -0.0038264096
59981132.075472 1.0003848 -0.0046970546 5.7588506e-005 0.0021391541 1.8618593e-005 0.002122863 0.99981689 -0.0043226182
69977358.490566 1.0000101 -0.0052843709 -1.523348e-005 0.0024707853 2.3143293e-005 0.0024767066 0.99963552 -0.0048782844
79973584.90566 0.99982238 -0.0058573186 4.8511662e-005 0.0028489023 4.6088826e-007 0.0028323191 0.99932909 -0.0054513514
89969811.320755 0.99986011 -0.0060375035 2.595922e-005 0.0031360372 4.6658446e-005 0.003164493 0.99951607 -0.005748421
99966037.735849 1.0000325 -0.0067726672 1.227454e-005 0.0034984385 5.6777091e-005 0.0035196887 0.99959379 -0.0065525919
109962264.15094 1.0000654 -0.0077567399 3.4368131e-005 0.0038853961 1.8397521e-005 0.003907003 0.99957997 -0.007404685
119958490.56604 1.0001366 -0.0087709427 3.9276667e-005 0.0042195539 5.8426755e-005 0.0042477283 0.99962533 -0.0083062053
129954716.98113 1.0000659 -0.0097860694 5.7624537e-005 0.0045665037 5.1684678e-005 0.0045877891 0.99958384 -0.0092256367
139950943.39623 0.99994612 -0.010641888 6.2626932e-005 0.0049181404 3.5481207e-005 0.0049634841 0.9995296 -0.010021348
149947169.81132 0.99984044 -0.0113222 7.2427792e-005 0.0052931756 7.428648e-005 0.0053117345 0.99946809 -0.010681301
159943396.22642 0.99978411 -0.011821508 6.7335553e-005 0.0056254324 6.371201e-005 0.0056719421 0.99954545 -0.011123985
169939622.64151 0.99981278 -0.012201846 7.4247539e-005 0.0059850453 6.8942376e-005 0.0060253399 0.99962342 -0.011566408
179935849.0566 0.99982655 -0.012526393 0.00010274211 0.0063160127 9.9385856e-005 0.0063906177 0.99955857 -0.012020588
189932075.4717 0.99997407 -0.013333678 9.6925767e-005 0.0066808397 0.0001075624 0.0067127366 0.99971294 -0.01259613
199928301.88679 0.99993622 -0.014206171 0.00010372675 0.0070115263 9.5549505e-005 0.0070469286 0.99964666 -0.013522834
209924528.30189 0.99970865 -0.014958516 0.00010753621 0.0073818178 0.00010532327 0.0074255574 0.99937898 -0.014253885
219920754.71698 0.99960738 -0.015867591 0.00013890862 0.0077246563 0.00014378573 0.0077749561 0.99922836 -0.015018523
229916981.13208 0.99942434 -0.016694188 0.00015425961 0.0080536827 0.00015614321 0.0081114387 0.99912149 -0.015773952
239913207.54717 0.9993003 -0.017338835 0.00014556211 0.008403983 0.00014276867 0.0084953522 0.99913448 -0.016542515
249909433.96226 0.99934042 -0.018014252 0.00016396865 0.0087786019 0.00015890622 0.0088108405 0.99925923 -0.017161876
259905660.37736 0.99952728 -0.018653631 0.00023218198 0.0090938639 0.00020031491 0.0091659492 0.99946421 -0.017788053
269901886.79245 0.99971342 -0.019183472 0.00017659762 0.0095173055 0.00019981153 0.0095431283 0.9998219 -0.018483654
279898113.20755 0.99979067 -0.019938529 0.00025114394 0.0098256124 0.00019986602 0.0099218842 0.99960762 -0.01930733
289894339.62264 0.99963886 -0.020808518 0.00025531556 0.01019191 0.00025574677 0.010240749 0.99945915 -0.020093977
299890566.03774 0.99957979 -0.021312237 0.00020868238 0.010574574 0.00026444346 0.010614176 0.99926752 -0.020541936
309886792.45283 0.99933606 -0.02198457 0.00018476485 0.010906128 0.00024536927 0.010964344 0.99915409 -0.02106557
319883018.86792 0.99923694 -0.022510618 0.0002303645 0.011215947 0.00024974206 0.011337927 0.99918914 -0.021513641
329879245.28302 0.99916637 -0.023358762 0.00026697339 0.011549356 0.00034333998 0.011673469 0.99930716 -0.022274256
339875471.69811 0.99922657 -0.024055302 0.00033311162 0.011929968 0.00029686524 0.012011596 0.99917138 -0.02307684
349871698.11321 0.99937755 -0.024870425 0.0003350412 0.012294989 0.00028512115 0.012379859 0.99920201 -0.024042279
359867924.5283 0.99920297 -0.025734574 0.00033431454 0.012632327 0.00036215456 0.0127351 0.99924898 -0.024952859
369864150.9434 0.99945253 -0.0265356 0.00033021974 0.013006263 0.00034571555 0.013083375 0.99925935 -0.0256733
379860377.35849 0.99936652 -0.027312145 0.00040018396 0.013352063 0.00035884534 0.013440466 0.99911177 -0.026419982
389856603.77358 0.9992587 -0.027925342 0.0003949143 0.013682608 0.00041062664 0.013806846 0.99914038 -0.026841611
399852830.18868 0.99902076 -0.028431922 0.00043932348 0.014044738 0.00037565827 0.014151641 0.99917126 -0.027357578
409849056.60377 0.99902523 -0.028899331 0.00046611551 0.014359648 0.0004442629 0.014490388 0.99917722 -0.027828891
419845283.01887 0.99900782 -0.029365748 0.00044812309 0.014763875 0.00048981234 0.014809813 0.99930865 -0.028432995
429841509.43396 0.99906909 -0.030071974 0.00048105838 0.01509256 0.00047026202 0.015182611 0.99940789 -0.029185146
439837735.84906 0.99903494 -0.030946821 0.00051857589 0.015404066 0.00050447136 0.015521228 0.99918592 -0.030227065
449833962.26415 0.99889648 -0.031843513 0.00050949818 0.015761564 0.00052797096 0.015839089 0.99895006 -0.031058967
459830188.67925 0.9987967 -0.032623887 0.00052649947 0.016098451 0.0005220212 0.016195042 0.99871933 -0.031878531
469826415.09434 0.998721 -0.033533305 0.00055352785 0.016484432 0.00054892432 0.016583942 0.99847001 -0.032479554
479822641.50943 0.99854505 -0.034047894 0.00058398512 0.016811769 0.00057003787 0.016946508 0.99850148 -0.033011973
489818867.92453 0.99874872 -0.034628093 0.0005808915 0.017163265 0.00062053278 0.017281391 0.99880493 -0.033571571
499815094.33962 0.99881768 -0.035328448 0.00064064423 0.017527845 0.00059026666 0.017637713 0.99911869 -0.034237206
509811320.75472 0.99888963 -0.035661258 0.00069966423 0.017840188 0.00065508537 0.017971445 0.99930382 -0.035094097
519807547.16981 0.99893403 -0.036295861 0.00061742449 0.018182043 0.00065252092 0.01829776 0.99919641 -0.035908282
529803773.58491 0.99883193 -0.036983013 0.0006562667 0.018562643 0.00069682579 0.018688828 0.99891979 -0.036525548
539800000 0.99900287 -0.037722364 0.00066131703 0.018912802 0.00073892297 0.019066256 0.99870515 -0.037226498
549796226.41509 0.99863935 -0.038640797 0.00071826344 0.019264897 0.0007254472 0.01940386 0.99850428 -0.037798762
559792452.83019 0.99836862 -0.0393399 0.00075862557 0.019631516 0.00079427753 0.019737283 0.99836504 -0.038212717
569788679.24528 0.99828714 -0.0400365 0.00080245035 0.019944521 0.00078061782 0.020107605 0.99852991 -0.039012045
579784905.66038 0.99826807 -0.040642925 0.00080577796 0.020355521 0.00077952864 0.020468282 0.99874914 -0.039731331
589781132.07547 0.9984479 -0.041209728 0.00086653885 0.020677827 0.00089393184 0.020802641 0.99879694 -0.040746123
599777358.49057 0.9985261 -0.041892171 0.00087584183 0.021016067 0.00083972048 0.021221047 0.99883258 -0.041455954
609773584.90566 0.99872261 -0.042746276 0.00091892981 0.021381218 0.00093061826 0.02151439 0.99868631 -0.042440373
619769811.32075 0.9987067 -0.043487906 0.00093846675 0.021702226 0.0009936057 0.021913851 0.99856138 -0.042955667
629766037.73585 0.99852818 -0.044144839 0.0010300446 0.022012025 0.0010099113 0.022151023 0.99834013 -0.043445081
639762264.15094 0.99835902 -0.044772536 0.0010589524 0.022343468 0.0010310435 0.022536367 0.99820095 -0.043990463
649758490.56604 0.99825644 -0.045394659 0.0011097165 0.022690829 0.0010382077 0.022831734 0.99820054 -0.044398203
659754716.98113 0.99801099 -0.045915455 0.0010947045 0.023049109 0.0010468783 0.023237538 0.99833691 -0.044988453
669750943.39623 0.99805951 -0.046464771 0.0010879282 0.023461733 0.0010818909 0.023625659 0.99842954 -0.045790195
679747169.81132 0.99807221 -0.047190253 0.0011263028 0.02376716 0.0011429964 0.023980634 0.99837613 -0.046817861
689743396.22642 0.99816418 -0.048054278 0.001180334 0.024139896 0.0011848295 0.024310378 0.99821877 -0.047762781
699739622.64151 0.99830866 -0.04892695 0.0012049712 0.024490796 0.0012285262 0.024642177 0.99800479 -0.04853639
709735849.0566 0.99828666 -0.049873434 0.0012741329 0.024809422 0.0012435996 0.02500492 0.9977892 -0.049112797
719732075.4717 0.99815643 -0.050489545 0.0012907735 0.025151979 0.0013117949 0.02528372 0.99787855 -0.049756646
729728301.88679 0.9980818 -0.051130712 0.0013136389 0.025481526 0.0013545975 0.025637047 0.99797124 -0.05016771
739724528.30189 0.99789691 -0.051719308 0.0013818955 0.025855305 0.0013553374 0.026030011 0.99812019 -0.050884038
749720754.71698 0.99790633 -0.05224511 0.0014235275 0.026158923 0.0014108662 0.026383929 0.99814874 -0.051565886
759716981.13208 0.99789739 -0.0527623 0.0014187284 0.026508233 0.0014481312 0.026685214 0.99811673 -0.052390903
769713207.54717 0.99782056 -0.053536177 0.001473031 0.026824163 0.0014840988 0.027046686 0.99790162 -0.053108454
779709433.96226 0.9979496 -0.054171693 0.0014984168 0.027225748 0.0015498525 0.027398968 0.99754912 -0.053775799
789705660.37736 0.99786621 -0.055174232 0.0015494479 0.027564149 0.0015547425 0.027722983 0.99729925 -0.054478854
799701886.79245 0.99780273 -0.055942804 0.0015823347 0.027863719 0.0015534274 0.028083274 0.9972406 -0.055162519
809698113.20755 0.99771631 -0.056658879 0.0015918138 0.028199801 0.0015937807 0.028428275 0.9972899 -0.055608913
819694339.62264 0.99754375 -0.057305336 0.0016438421 0.028539984 0.0016185539 0.028737983 0.99749976 -0.05625242
829690566.03774 0.99753535 -0.057859302 0.0016795425 0.028892731 0.0017007766 0.029105186 0.99765766 -0.057235301
839686792.45283 0.99751347 -0.058325917 0.0016834484 0.029217955 0.0017140936 0.029437523 0.99772531 -0.058071494
849683018.86792 0.99770159 -0.05908677 0.0017366654 0.029568657 0.0017512359 0.029810788 0.99756068 -0.058824107
859679245.28302 0.99775982 -0.059802592 0.0018072017 0.029930815 0.0018114187 0.030126393 0.99732494 -0.059512615
869675471.69811 0.99765086 -0.060603887 0.0018615015 0.030257402 0.001809069 0.030454982 0.99688405 -0.060029209
879671698.11321 0.99743295 -0.061319418 0.0018757855 0.030568268 0.0018980606 0.030804316 0.99699438 -0.060462214
889667924.5283 0.99730551 -0.062095374 0.0018878523 0.030906262 0.001891722 0.031141762 0.99679112 -0.060991168
899664150.9434 0.99713081 -0.062842101 0.0019397894 0.031243224 0.0019557839 0.031485286 0.99686891 -0.061637938
909660377.35849 0.99717039 -0.063565508 0.0019861604 0.031580906 0.0019815275 0.031808406 0.99693811 -0.062606052
919656603.77358 0.99717486 -0.064268246 0.0019932715 0.031928837 0.0019911267 0.032167654 0.99696851 -0.063495383
929652830.18868 0.99724048 -0.065023243 0.0020269454 0.03225318 0.0020342814 0.032501675 0.99679792 -0.064444304
939649056.60377 0.99741751 -0.065679997 0.0020397669 0.032573637 0.0020655077 0.032843411 0.99667722 -0.065185785
949645283.01887 0.99738723 -0.066506818 0.0020204592 0.03294139 0.0020993478 0.03318195 0.99645245 -0.065715596
959641509.43396 0.99722624 -0.067236602 0.0020660441 0.033307292 0.0020990279 0.033553399 0.9963333 -0.066256702
969637735.84906 0.99718773 -0.067946911 0.0021393765 0.033690497 0.0021660496 0.033947859 0.9963547 -0.066631109
979633962.26415 0.99689651 -0.068718851 0.0022245548 0.03398829 0.0022339935 0.034260046 0.99636841 -0.067273438
989630188.67925 0.99694759 -0.069225788 0.0022285935 0.034328487 0.0022364408 0.03461292 0.99655193 -0.067923188
999626415.09434 0.99706531 -0.069860309 0.0023059882 0.034681547 0.0023202281 0.034960054 0.99642372 -0.068806022
1009622641.5094 0.99703741 -0.070520207 0.0023059221 0.035050891 0.0023362357 0.035360161 0.99629784 -0.06967023
1019618867.9245 0.99705899 -0.071430787 0.0023468216 0.035415851 0.002395594 0.035695013 0.99602729 -0.0705726
1029615094.3396 0.99710888 -0.072424978 0.0024394598 0.03571675 0.0024715122 0.03601969 0.99560326 -0.071154028
1039611320.7547 0.99709654 -0.073311925 0.0024668686 0.036047742 0.0024972325 0.036330678 0.99556452 -0.071855843
1049607547.1698 0.9969449 -0.074367039 0.0025374081 0.036364611 0.0025361653 0.036638234 0.99556994 -0.072429992
1059603773.5849 0.99682975 -0.075009197 0.0025234744 0.036646198 0.002558385 0.036988217 0.99561054 -0.072974473
1069600000 0.99645472 -0.075566053 0.00255665 0.03700443 0.002589209 0.037332989 0.99574775 -0.07373929
1079596226.4151 0.99643427 -0.076234996 0.0025589061 0.037377242 0.0026063845 0.037641432 0.99571162 -0.074574299
1089592452.8302 0.99651939 -0.076862842 0.0026164334 0.037703834 0.002674127 0.037999816 0.9956525 -0.075228751
1099588679.2453 0.99660289 -0.077551126 0.0026060566 0.038047094 0.0026497804 0.038363025 0.99528939 -0.075929642
1109584905.6604 0.99667722 -0.078530669 0.0026587201 0.038400829 0.0026965616 0.038723335 0.99507964 -0.076502964
1119581132.0755 0.99669987 -0.079486668 0.0026677544 0.038767803 0.0027559125 0.039086491 0.99489647 -0.076959841
1129577358.4906 0.99644303 -0.080241024 0.0027043764 0.039160185 0.0027522724 0.039455734 0.99475157 -0.077453673
1139573584.9057 0.99624443 -0.081238419 0.0027716989 0.039478529 0.0028603766 0.039813288 0.99481916 -0.078141153
1149569811.3208 0.99610966 -0.082116522 0.0028327822 0.039839312 0.0028927531 0.040165573 0.99494332 -0.078931041
1159566037.7358 0.99586511 -0.082801253 0.0028508026 0.040141962 0.0029617082 0.040475801 0.99504536 -0.079911441
1169562264.1509 0.99569172 -0.083436251 0.002880672 0.040474344 0.0029476825 0.040808681 0.99489248 -0.080767751
1179558490.566 0.99559641 -0.084145069 0.0028968812 0.040845122 0.0030099628 0.041177791 0.99467784 -0.081499346
1189554716.9811 0.99560672 -0.084854305 0.0029707635 0.041197278 0.0030514356 0.041535605 0.99446464 -0.081980705
1199550943.3962 0.99556243 -0.085743964 0.0029912833 0.04158986 0.003131574 0.041889332 0.99416655 -0.082426041
1209547169.8113 0.99545801 -0.086780295 0.003062387 0.041956186 0.0031327112 0.042235982 0.99415934 -0.082793534
1219543396.2264 0.99514866 -0.087534994 0.0030773599 0.042311255 0.0032226085 0.042602014 0.99420166 -0.083169162
1229539622.6415 0.99489772 -0.088445783 0.0031545777 0.042652339 0.0032833479 0.042994119 0.99433523 -0.084010869
1239535849.0566 0.9946481 -0.089068145 0.0032375148 0.043000583 0.0033748727 0.043319035 0.99443269 -0.084884644
1249532075.4717 0.99429768 -0.089797735 0.0033057185 0.043315195 0.0034211732 0.04365214 0.99428141 -0.085735321
1259528301.8868 0.99409616 -0.090306222 0.0033339113 0.043676525 0.0034671947 0.04394345 0.99406427 -0.086684108
1269524528.3019 0.99394643 -0.091028452 0.0034275632 0.044033974 0.0035571363 0.044268943 0.99376035 -0.087358505
1279520754.717 0.99353248 -0.09184882 0.0034824342 0.044295546 0.0036234683 0.044570342 0.99351567 -0.087941363
1289516981.1321 0.99344468 -0.092672527 0.0034993486 0.044627398 0.0036511626 0.044860061 0.9935143 -0.08841148
1299513207.5472 0.99304062 -0.093567491 0.0035163965 0.044930957 0.0036622342 0.045246717 0.99372578 -0.088774443
1309509433.9623 0.99260217 -0.094269231 0.0035376456 0.045266703 0.0036673527 0.045525081 0.9937616 -0.089589149
1319505660.3774 0.99222696 -0.094960138 0.0035175113 0.045610346 0.0036798362 0.045886196 0.99373507 -0.090166911
1329501886.7925 0.99189448 -0.095616668 0.003576206 0.045962576 0.0037160814 0.046214443 0.99373901 -0.091123372
1339498113.2075 0.99151146 -0.096188873 0.0036044139 0.046292864 0.003754436 0.046552248 0.99334252 -0.091878682
1349494339.6226 0.99141514 -0.096768111 0.0035757287 0.046619557 0.0037306515 0.046900012 0.99290305 -0.092443407
1359490566.0377 0.99133694 -0.097368985 0.0035960358 0.047025643 0.0037783869 0.047267728 0.99277544 -0.093075335
1369486792.4528 0.99110138 -0.097909689 0.0036255904 0.047384057 0.0037713479 0.047632348 0.99255556 -0.093555063
1379483018.8679 0.9907819 -0.098558769 0.0036648768 0.047804583 0.0037687963 0.047982812 0.99249846 -0.093860127
1389479245.283 0.99049509 -0.099206179 0.0037305243 0.048171058 0.0038135182 0.048409183 0.99250299 -0.094668627
1399475471.6981 0.99008071 -0.09956497 0.0037036445 0.048577249 0.0038093254 0.048778191 0.99271584 -0.095248997
1409471698.1132 0.98971236 -0.099837326 0.0037743659 0.048964594 0.0038687699 0.049198337 0.99271899 -0.096184865
1419467924.5283 0.98949295 -0.10013682 0.003778073 0.049334586 0.0038908739 0.049561054 0.99248362 -0.096876413
1429464150.9434 0.98942637 -0.10058516 0.0038543977 0.049776711 0.0039584599 0.049992785 0.99243367 -0.097474486
1439460377.3585 0.98953152 -0.10109366 0.0039365469 0.050244037 0.0040317727 0.050461654 0.99211425 -0.097892419
1449456603.7736 0.98952675 -0.10169101 0.0040643811 0.050659142 0.0041035134 0.05086711 0.99203873 -0.0981417
1459452830.1887 0.98957062 -0.10242406 0.004229242 0.051057704 0.004248688 0.051318914 0.99212104 -0.098558247
1469449056.6038 0.98957932 -0.10311693 0.0043771826 0.05143176 0.0043851845 0.051680841 0.99232101 -0.099236339
1479445283.0189 0.98941821 -0.10368107 0.0045012953 0.051748928 0.0045379745 0.051937304 0.99232054 -0.10013628
1489441509.434 0.98928535 -0.10429737 0.0046573002 0.052045975 0.0046566464 0.052286405 0.99223483 -0.10105252
1499437735.8491 0.98914844 -0.10464516 0.0047252662 0.052344516 0.004758222 0.052568879 0.99217951 -0.10188317
1509433962.2642 0.98911625 -0.10511237 0.0048815971 0.052615564 0.0048730364 0.052872524 0.99192655 -0.10255407
1519430188.6792 0.98925233 -0.10561714 0.004919121 0.052912381 0.0049371626 0.053165521 0.99179196 -0.10313687
1529426415.0943 0.98918819 -0.10629824 0.0049757529 0.053225454 0.0049797595 0.053471655 0.9917016 -0.1036185
1539422641.5094 0.98921841 -0.10715149 0.0050267116 0.053549681 0.0050545991 0.053788893 0.99178118 -0.10408438
1549418867.9245 0.989052 -0.10801953 0.0051134294 0.053826191 0.0051128138 0.054104671 0.99203897 -0.10484569
1559415094.3396 0.98895907 -0.1086922 0.0051427968 0.05414639 0.0051604751 0.054417823 0.9921999 -0.10560054
1569411320.7547 0.98881251 -0.10950778 0.0052236775 0.054415129 0.0052006394 0.054713964 0.99209213 -0.10640304
1579407547.1698 0.98870313 -0.11001651 0.0052620731 0.054721609 0.0052181287 0.05502839 0.9917109 -0.10722643
1589403773.5849 0.98862618 -0.1105569 0.0052639078 0.055022165 0.0052447896 0.055307679 0.99137497 -0.10798836
1599400000 0.98851037 -0.11099601 0.0052494872 0.055358216 0.005223237 0.055648677 0.99105138 -0.10850275
1609396226.4151 0.98857576 -0.11172646 0.0052459817 0.055695836 0.0052375561 0.05596064 0.99090379 -0.10895157
1619392452.8302 0.98852193 -0.11227953 0.0052745733 0.056040701 0.0052428897 0.056321006 0.99083793 -0.10940778
1629388679.2453 0.98829973 -0.11302036 0.0053234529 0.056422789 0.0052837562 0.056757148 0.99104309 -0.10999933
1639384905.6604 0.98806572 -0.11381846 0.0053378646 0.056804407 0.0052679935 0.05712295 0.99127179 -0.11091314
1649381132.0755 0.98782933 -0.11445001 0.0052997041 0.057144143 0.0053401385 0.057508126 0.99126077 -0.11180058
1659377358.4906 0.98761773 -0.11526954 0.0053580999 0.057555608 0.0053406004 0.057905193 0.99122751 -0.11274272
1669373584.9057 0.98756248 -0.11572047 0.0053995429 0.0579441 0.0054106279 0.058289837 0.99086094 -0.11341753
1679369811.3208 0.98758996 -0.11635791 0.0054589473 0.058361873 0.0054763481 0.058715343 0.99070901 -0.11392635
1689366037.7358 0.98764032 -0.1170665 0.0054944865 0.058728594 0.0055066664 0.059058968 0.99039805 -0.11425832
1699362264.1509 0.98774093 -0.11767617 0.0055790329 0.059097432 0.0055402042 0.059493456 0.99059457 -0.11472614
1709358490.566 0.98762578 -0.11836059 0.0056525916 0.05947404 0.0056378981 0.059900023 0.99064118 -0.11532514
1719354716.9811 0.9872992 -0.1189827 0.0057172701 0.059903599 0.0057205707 0.060330737 0.99075651 -0.11590543
1729350943.3962 0.98700565 -0.11960354 0.0057752486 0.060289614 0.005790513 0.060719833 0.99072051 -0.11694351
