!Keysight Technologies,N5222B,MY61253708,A.15.00.15
!Date: Wednesday, June 19, 2024 09:47:13
!Correction: S11(C  2-Port  ) 
!S21(C  2-Port  ) 
!S12(C  2-Port  ) 
!S22(C  2-Port  ) 
!S2P File: Measurements: S11, S21, S12, S22:
# Hz S  RI   R 50
10000000 0.99882549 -0.0029783249 0.00018856957 0.00015964705 -0.00016661399 0.00016626071 0.99858069 -0.0011119545
19996226.415094 0.99888772 -0.0033262968 8.2883256e-005 0.00073740352 0.00011208019 0.00064800435 0.99946856 -0.0034201443
29992452.830189 0.9997775 -0.002396524 -1.5355938e-005 0.00096699392 1.9595027e-006 0.0010402367 0.9994036 -0.0027171671
39988679.245283 1.0000814 -0.0030025244 -3.6313359e-005 0.0013072923 3.5234116e-005 0.0013902714 0.99969482 -0.0030850321
49984905.660377 1.0002525 -0.0037270188 8.2258484e-006 0.0016724556 -2.5675399e-007 0.0016719826 0.99976099 -0.0036255121
59981132.075472 1.0004077 -0.0045817196 8.8467496e-006 0.0020286667 -1.873076e-005 0.0019592887 0.99979222 -0.0042067468
69977358.490566 1.0001894 -0.0051427614 1.7458508e-005 0.0023131971 2.5322202e-005 0.0023137615 0.99968582 -0.0047539491
79973584.90566 0.99992198 -0.0057809055 5.4831617e-008 0.0026200234 1.143734e-005 0.0026608424 0.99935585 -0.005222559
89969811.320755 0.99996936 -0.0058169663 -2.348097e-007 0.0030020569 -1.7337734e-006 0.0029937825 0.99959481 -0.0054394007
99966037.735849 1.0001882 -0.0066358894 3.1973992e-005 0.0032930982 1.6308564e-005 0.003331606 0.99966902 -0.0062164068
109962264.15094 1.0001681 -0.0075779855 2.1625892e-006 0.0036361623 3.5678619e-005 0.0036606723 0.99966341 -0.0070714802
119958490.56604 1.0001993 -0.0084446371 2.774992e-005 0.0039470727 3.6097714e-005 0.0039797821 0.99971712 -0.0078898072
129954716.98113 1.0001943 -0.0094076693 4.2965403e-005 0.0042963326 2.7296832e-005 0.0043182224 0.99965608 -0.0087946057
139950943.39623 1.0000648 -0.010162827 5.4519303e-005 0.0046277307 4.8120055e-005 0.0046600243 0.9995684 -0.0095235687
149947169.81132 0.99995124 -0.010884404 7.6329568e-005 0.0049693407 5.0038332e-005 0.0049931207 0.99954033 -0.010108232
159943396.22642 0.99994886 -0.01142025 6.8038004e-005 0.0052841017 4.4371467e-005 0.0053247367 0.99965233 -0.010594785
169939622.64151 0.99990141 -0.011809587 6.4597174e-005 0.0056118928 6.8445574e-005 0.0056496775 0.99967802 -0.011019446
179935849.0566 1.0000014 -0.012086064 6.130524e-005 0.0059685372 8.1052887e-005 0.0060028508 0.99958801 -0.011420071
189932075.4717 1.0000099 -0.012822241 8.0415513e-005 0.0062667537 7.6895114e-005 0.0063140066 0.99984765 -0.011926949
199928301.88679 0.99997383 -0.013624549 6.6436129e-005 0.0066044275 7.7207806e-005 0.0066404389 0.99970758 -0.012842536
209924528.30189 0.9997564 -0.014208764 9.1702794e-005 0.0069100498 9.0875081e-005 0.006993582 0.99949819 -0.013572276
219920754.71698 0.99986261 -0.015041918 0.00011546072 0.0072615892 0.00013194163 0.0073411562 0.99935603 -0.014142781
229916981.13208 0.9996922 -0.015938044 0.00012180419 0.0075799455 0.00012114272 0.0076328227 0.99932212 -0.01491335
239913207.54717 0.9995631 -0.016628275 0.00013369393 0.0078977104 0.00013663253 0.0079708528 0.99931049 -0.015659081
249909433.96226 0.99954337 -0.017262936 0.00013894029 0.0082271248 0.00015073642 0.0083099827 0.99936032 -0.016322762
259905660.37736 0.99963868 -0.017861247 0.00015570456 0.0085702278 0.00015017297 0.0086169625 0.99957943 -0.016827077
269901886.79245 0.99982327 -0.018458769 0.00018663728 0.0088935141 0.00015152013 0.0090029472 0.99986291 -0.017529547
279898113.20755 0.9999271 -0.019153818 0.00019763177 0.0091878949 0.00015472015 0.0093202125 0.999762 -0.01824306
289894339.62264 0.99981225 -0.019911975 0.000250021 0.0095174331 0.00021714019 0.0096534062 0.99967122 -0.01900506
299890566.03774 0.9997468 -0.020484865 0.0001988227 0.0098915016 0.00021518464 0.0099600414 0.99944103 -0.019383669
309886792.45283 0.99948841 -0.020938411 0.00019757007 0.010209027 0.00020433473 0.01035047 0.99938756 -0.019747779
319883018.86792 0.99958885 -0.021603733 0.00024759723 0.010548232 0.00025384082 0.010658714 0.9994967 -0.020414472
329879245.28302 0.99955499 -0.022327513 0.00026369374 0.0108591 0.00022360263 0.010980723 0.99955308 -0.021182269
339875471.69811 0.99945402 -0.023017295 0.00025498739 0.01119259 0.00024881237 0.011315314 0.99945766 -0.021930799
349871698.11321 0.99953628 -0.023931175 0.0003312598 0.011548812 0.0002170545 0.011632449 0.99956477 -0.022887021
359867924.5283 0.99941099 -0.024693966 0.00026064273 0.011894796 0.00029129256 0.011971638 0.99947238 -0.023806125
369864150.9434 0.9996534 -0.025427431 0.00032066507 0.012206456 0.0002840308 0.01229918 0.99948847 -0.024469227
379860377.35849 0.99955571 -0.026144981 0.00033392338 0.012520432 0.00031850673 0.012665574 0.9994188 -0.025199905
389856603.77358 0.99947077 -0.026736945 0.0003608847 0.012854008 0.00034338329 0.012982741 0.99931908 -0.02566427
399852830.18868 0.99928063 -0.027330071 0.00037562381 0.013193936 0.00036312919 0.013260009 0.99943829 -0.026134074
409849056.60377 0.9991653 -0.027807312 0.00035149368 0.013522788 0.00036651624 0.013596631 0.99937963 -0.026678843
419845283.01887 0.99927229 -0.028252453 0.00036556786 0.013819555 0.00041523669 0.013940437 0.99933046 -0.027137578
429841509.43396 0.99932885 -0.028851748 0.00043336861 0.014156211 0.00044370349 0.014273597 0.99941415 -0.027895093
439837735.84906 0.9991774 -0.029774204 0.00041324086 0.014485962 0.00044118578 0.014658598 0.99924785 -0.028846085
449833962.26415 0.99907172 -0.030613512 0.00044442434 0.014794499 0.00045288214 0.01492994 0.99878263 -0.029645711
459830188.67925 0.99894559 -0.031346768 0.00042375363 0.015141933 0.00044510374 0.015230753 0.9986614 -0.030369312
469826415.09434 0.99891645 -0.032008588 0.00043366291 0.015463845 0.00045727799 0.015629206 0.99838656 -0.030854106
479822641.50943 0.99883687 -0.032582119 0.00050575635 0.015796905 0.00045066443 0.015982918 0.99835932 -0.031248152
489818867.92453 0.99894434 -0.033101201 0.00053876452 0.016117247 0.0005232105 0.016291633 0.9987368 -0.031821787
499815094.33962 0.99895281 -0.033783942 0.00054811966 0.016456489 0.00056398846 0.016614715 0.9989959 -0.032369316
509811320.75472 0.99912566 -0.03416054 0.00057174894 0.016783649 0.00057367515 0.016885977 0.99917376 -0.033111237
519807547.16981 0.99898434 -0.034787476 0.00056828372 0.017109916 0.00059888093 0.017240033 0.99913287 -0.033868462
529803773.58491 0.99893659 -0.035357594 0.00061450712 0.017465107 0.00061635673 0.017560665 0.9988482 -0.034374416
539800000 0.99894512 -0.036062911 0.00064044236 0.017763468 0.00062132254 0.017935934 0.99871343 -0.035050303
549796226.41509 0.99883997 -0.036815822 0.00064348569 0.018123863 0.00064772693 0.018216444 0.99856889 -0.035479069
559792452.83019 0.99874496 -0.037582546 0.00066588167 0.018422466 0.00064832158 0.018618666 0.99848652 -0.035986423
569788679.24528 0.99855834 -0.038206488 0.00065680919 0.018753389 0.00067789759 0.018924851 0.99864197 -0.036799073
579784905.66038 0.99854839 -0.038826376 0.00072181888 0.019098083 0.00071995601 0.019263892 0.99881369 -0.037518032
589781132.07547 0.9986546 -0.039484352 0.00072561949 0.019415095 0.0007122485 0.019584563 0.99890375 -0.038407803
599777358.49057 0.99873781 -0.040148377 0.00077094883 0.019747766 0.00080780871 0.0199003 0.99888504 -0.039180368
609773584.90566 0.99888188 -0.040874589 0.00076622097 0.020082438 0.00082019722 0.020219149 0.99874085 -0.03997039
619769811.32075 0.99901569 -0.041593134 0.00086425943 0.020416835 0.00086867018 0.02057125 0.99868542 -0.0404706
629766037.73585 0.9989062 -0.04219082 0.0008766558 0.020738639 0.00084316079 0.02088315 0.99858665 -0.041073352
639762264.15094 0.99867785 -0.042860717 0.00088137691 0.021012761 0.00084761251 0.021226006 0.99849969 -0.041452318
649758490.56604 0.99852777 -0.043438107 0.00089303311 0.02136061 0.00091720186 0.021550138 0.99853897 -0.041986093
659754716.98113 0.99846268 -0.043910891 0.00091359857 0.021690872 0.00095481146 0.021865152 0.99862075 -0.042474866
669750943.39623 0.99844068 -0.04437533 0.00089825504 0.022011193 0.00090721902 0.022242188 0.99872953 -0.043280661
679747169.81132 0.99840194 -0.045172848 0.00095980545 0.022372084 0.00095256825 0.022588141 0.99867368 -0.044219747
689743396.22642 0.99858046 -0.046003282 0.0010367278 0.022705982 0.0010268204 0.0228737 0.99850374 -0.045129329
699739622.64151 0.99866563 -0.046734303 0.0010704556 0.023027794 0.0010344209 0.023224799 0.99838924 -0.045905441
709735849.0566 0.9986645 -0.047572583 0.0010965479 0.023359878 0.0010756752 0.023544718 0.99816418 -0.046498187
719732075.4717 0.99856925 -0.048256516 0.0011270707 0.023637591 0.0011024443 0.02382612 0.99824286 -0.047055364
729728301.88679 0.99844348 -0.048919469 0.0011544079 0.023952043 0.0011654412 0.024176927 0.99835426 -0.047560126
739724528.30189 0.99837422 -0.049546421 0.001188206 0.024281587 0.0011945306 0.024504161 0.99843758 -0.048321068
749720754.71698 0.99825639 -0.050045997 0.0012428099 0.024619363 0.001205611 0.024832411 0.99849844 -0.048985347
759716981.13208 0.99830484 -0.050594956 0.0012477254 0.024914073 0.0012485478 0.025114957 0.99844396 -0.04973349
769713207.54717 0.99818563 -0.051308155 0.0012593484 0.025224857 0.0013027117 0.025470778 0.9981966 -0.050452739
779709433.96226 0.99836385 -0.051879335 0.0013277219 0.025563085 0.0012989759 0.025792381 0.99790114 -0.051076297
789705660.37736 0.99827039 -0.052820742 0.001357167 0.025871454 0.001320201 0.026084341 0.99769807 -0.051764518
799701886.79245 0.99815965 -0.053558409 0.0013707457 0.026206609 0.0013595996 0.026458438 0.9975698 -0.052315354
809698113.20755 0.99815458 -0.054130763 0.0013935559 0.026544927 0.0014012589 0.02674043 0.99758375 -0.052797318
819694339.62264 0.99792796 -0.05481264 0.0014270111 0.026846875 0.0014365809 0.027062928 0.99766231 -0.053350955
829690566.03774 0.99791878 -0.055477023 0.0014563054 0.027163293 0.001446547 0.02741728 0.99792111 -0.054286152
839686792.45283 0.99795896 -0.0558891 0.001474326 0.027508855 0.0015072911 0.027706666 0.99787128 -0.05509901
849683018.86792 0.9981218 -0.056592129 0.0015124225 0.02779999 0.0015173415 0.028058793 0.9978736 -0.05580347
859679245.28302 0.9980737 -0.057282537 0.0015491685 0.028153388 0.0015514493 0.028382085 0.99750662 -0.056444764
869675471.69811 0.99810112 -0.057984948 0.001595797 0.028463639 0.0016035121 0.02870464 0.99724722 -0.056910932
879671698.11321 0.99797928 -0.058655899 0.0016266773 0.028758574 0.0016335545 0.028992558 0.99723929 -0.057395428
889667924.5283 0.99781275 -0.059475094 0.001618728 0.029068489 0.0016672863 0.029329898 0.9970876 -0.057886034
899664150.9434 0.99768817 -0.060159832 0.0016837623 0.029390153 0.0016627777 0.029658854 0.99711907 -0.058409929
909660377.35849 0.99760121 -0.060817346 0.0017106235 0.029676467 0.0017186753 0.029955858 0.99728304 -0.059345722
919656603.77358 0.99779439 -0.061500102 0.0017293319 0.030050896 0.0017463719 0.030285168 0.99726897 -0.060180932
929652830.18868 0.99772573 -0.062215447 0.001740966 0.030339781 0.0017642323 0.03057524 0.99714077 -0.0611206
939649056.60377 0.99787104 -0.0628407 0.001766108 0.03063336 0.0017886702 0.030928075 0.99694717 -0.061816633
949645283.01887 0.99784082 -0.063670941 0.0017403467 0.030993726 0.0017685932 0.031286884 0.99676585 -0.062307741
959641509.43396 0.9977048 -0.064311981 0.0017897738 0.031351566 0.0018279143 0.031619467 0.99665666 -0.062772751
969637735.84906 0.99768394 -0.065031052 0.0018637907 0.031682316 0.0018539792 0.031955384 0.99668884 -0.063145548
979633962.26415 0.99750155 -0.065751612 0.0019057638 0.031990521 0.0019468053 0.032283429 0.99670362 -0.063813373
989630188.67925 0.99757898 -0.066347778 0.0019616326 0.032301858 0.0019570999 0.03263846 0.99690551 -0.064413249
999626415.09434 0.99754381 -0.066955835 0.0019587129 0.032612987 0.0019835047 0.032930322 0.99687052 -0.065210313
1009622641.5094 0.99765503 -0.067541689 0.0019922294 0.032969784 0.0020126225 0.033326726 0.99676156 -0.066039518
1019618867.9245 0.99770862 -0.068396091 0.0020429469 0.033273932 0.0020623598 0.033585168 0.9964568 -0.066855669
1029615094.3396 0.99770349 -0.069293201 0.0021168245 0.033607144 0.0021459237 0.033903643 0.99617207 -0.067421257
1039611320.7547 0.99775726 -0.070201427 0.0021169847 0.033898078 0.0021820441 0.034198001 0.99602622 -0.068083256
1049607547.1698 0.99761927 -0.071012408 0.0021622211 0.034198884 0.0021734245 0.034520056 0.99601716 -0.06865868
1059603773.5849 0.9974978 -0.07174775 0.0021637632 0.034460664 0.0022267457 0.034828972 0.99611223 -0.069208592
1069600000 0.99723119 -0.072492093 0.0022084229 0.034793228 0.0022616219 0.035139065 0.99623561 -0.069973946
1079596226.4151 0.99726379 -0.073065594 0.0022027474 0.035143524 0.002258053 0.03548903 0.99624032 -0.070752382
1089592452.8302 0.99731529 -0.073718935 0.0022223601 0.035451502 0.0023089815 0.035797823 0.99622488 -0.071409792
1099588679.2453 0.99735183 -0.074422985 0.0022354554 0.035806216 0.0022997595 0.036135502 0.99585795 -0.072090149
1109584905.6604 0.99743968 -0.07513985 0.0022543855 0.036131393 0.0023390241 0.036486622 0.99566394 -0.072607368
1119581132.0755 0.99743229 -0.076141849 0.0022782725 0.036461942 0.0023527136 0.036807884 0.99544227 -0.07300283
1129577358.4906 0.99724889 -0.076865375 0.0023077466 0.036819555 0.0023860577 0.037160866 0.99537826 -0.07343629
1139573584.9057 0.99696112 -0.077746123 0.0023672171 0.037123289 0.002481143 0.037499923 0.99543762 -0.074144214
1149569811.3208 0.99690002 -0.07854677 0.0024515716 0.037464771 0.0025075385 0.037811968 0.99551696 -0.074829213
1159566037.7358 0.99669564 -0.079281747 0.002465615 0.037774239 0.0025092643 0.038145334 0.99567395 -0.075837523
1169562264.1509 0.99651802 -0.07994628 0.002460314 0.038087327 0.0025569964 0.038420755 0.99548882 -0.076681584
1179558490.566 0.99643475 -0.080756038 0.0024877777 0.038431861 0.0025799309 0.038833138 0.99538678 -0.077341244
1189554716.9811 0.99643195 -0.081429541 0.0025176723 0.038792461 0.0026187478 0.039139107 0.99507231 -0.077885121
1199550943.3962 0.99638617 -0.082268745 0.0025257338 0.039141066 0.0026614815 0.039503805 0.99489522 -0.078354001
1209547169.8113 0.99625313 -0.083091542 0.0025885841 0.039481543 0.0027028257 0.039809 0.99483156 -0.078605831
1219543396.2264 0.99601585 -0.08397451 0.0026445822 0.039843179 0.0027335947 0.040195044 0.9949255 -0.079014376
1229539622.6415 0.995767 -0.084797114 0.0027093124 0.040155329 0.0028284099 0.040503159 0.99502867 -0.079739183
1239535849.0566 0.99554318 -0.085310698 0.002755844 0.040452182 0.002875898 0.040838741 0.99510622 -0.080610484
1249532075.4717 0.99516529 -0.086030498 0.0028222359 0.040762566 0.0029848171 0.041108042 0.99501449 -0.081457391
1259528301.8868 0.99500299 -0.086483419 0.002870325 0.041111767 0.0030409563 0.041468937 0.99468076 -0.082251757
1269524528.3019 0.99485546 -0.087278366 0.0029615965 0.041405052 0.0031208731 0.04172723 0.99454772 -0.082972646
1279520754.717 0.99445981 -0.08798565 0.0029624198 0.041681461 0.0031228529 0.042027202 0.99422801 -0.083551846
1289516981.1321 0.99441755 -0.088898748 0.0030150479 0.041995019 0.0031490568 0.042310875 0.99433631 -0.083960503
1299513207.5472 0.99399805 -0.089659274 0.0030264352 0.042291805 0.0031523742 0.042639434 0.99445885 -0.084329158
1309509433.9623 0.99357247 -0.090420544 0.0030527534 0.042607334 0.0031879945 0.042942438 0.99452108 -0.085015714
1319505660.3774 0.99331695 -0.091101602 0.0030293986 0.042946123 0.0031468542 0.043266241 0.99453652 -0.085631773
1329501886.7925 0.99304259 -0.091767579 0.0030656159 0.043287091 0.0031839833 0.04356917 0.99460006 -0.086643457
1339498113.2075 0.9927001 -0.092364877 0.0030907057 0.043592814 0.0032253461 0.04388772 0.99419576 -0.087292314
1349494339.6226 0.99257588 -0.092800558 0.0030552023 0.043910768 0.0032227156 0.044224236 0.99384081 -0.087922193
1359490566.0377 0.99247241 -0.093400836 0.0030651987 0.044275716 0.003245132 0.044565853 0.99368763 -0.088387936
1369486792.4528 0.9922666 -0.093894571 0.0030892035 0.044626538 0.0032084836 0.044923339 0.99348003 -0.088865876
1379483018.8679 0.99198329 -0.094463997 0.0031133327 0.045009796 0.0032233982 0.04528214 0.99353695 -0.089227371
1389479245.283 0.99159908 -0.095044971 0.0031650234 0.045372512 0.0032590237 0.045691073 0.9934386 -0.089940697
1399475471.6981 0.99129391 -0.095402032 0.0031961333 0.045740329 0.0032651462 0.046054944 0.99370205 -0.090571254
1409471698.1132 0.99088347 -0.095831431 0.0032381273 0.046093859 0.0033036186 0.046403483 0.9936685 -0.091429979
1419467924.5283 0.99068302 -0.096113682 0.0032119546 0.046476852 0.0033381889 0.046782218 0.99345404 -0.092135459
1429464150.9434 0.99056929 -0.096549422 0.0032692794 0.046901703 0.0033871755 0.047155835 0.99337339 -0.092692524
1439460377.3585 0.99070287 -0.096947968 0.0033612503 0.047289342 0.0034557479 0.047592185 0.99307877 -0.09303546
1449456603.7736 0.99074572 -0.097524509 0.0034418656 0.047710437 0.0035316581 0.047992252 0.99309605 -0.093404099
1459452830.1887 0.99078786 -0.098187536 0.0035807285 0.048092689 0.0036664531 0.048400149 0.99314243 -0.093674541
1469449056.6038 0.9907217 -0.098803192 0.0037413808 0.048414078 0.0037765317 0.048733085 0.99337828 -0.094315678
1479445283.0189 0.99069792 -0.099509746 0.0038313966 0.048722908 0.0039277133 0.049035411 0.99348295 -0.095194019
1489441509.434 0.99059188 -0.09998861 0.0040208083 0.049014967 0.004061874 0.049331129 0.99331319 -0.096030682
1499437735.8491 0.99034929 -0.1003395 0.0040987488 0.049293056 0.0041608121 0.049572393 0.99322933 -0.096835434
1509433962.2642 0.99041438 -0.10084634 0.004177412 0.049561385 0.0042438749 0.049864233 0.99309081 -0.09766385
1519430188.6792 0.99044877 -0.1013642 0.0042490829 0.049854301 0.0042944606 0.050174233 0.99290448 -0.098109573
1529426415.0943 0.99046516 -0.10198915 0.0043228175 0.05013255 0.0043297075 0.05045101 0.99289453 -0.098615527
1539422641.5094 0.9905082 -0.10292158 0.0043694167 0.050416589 0.0044316114 0.050699759 0.99294502 -0.09900064
1549418867.9245 0.99037111 -0.10365991 0.0044728797 0.050725654 0.0044634454 0.051049378 0.99315482 -0.099786699
1559415094.3396 0.99025238 -0.10426888 0.0044493563 0.05099757 0.0044887345 0.05132702 0.99326044 -0.10041735
1569411320.7547 0.9901008 -0.10505284 0.0045414865 0.051277943 0.0045218114 0.051627614 0.99316794 -0.10123515
1579407547.1698 0.98999411 -0.10559124 0.0045398157 0.051532179 0.0045424462 0.051900778 0.99290544 -0.10194141
1589403773.5849 0.98997402 -0.10614324 0.0045194421 0.051861256 0.0045589413 0.052211933 0.99267364 -0.10278308
1599400000 0.98996407 -0.10659796 0.0045347987 0.052184824 0.0045574391 0.052465241 0.99233598 -0.10329428
1609396226.4151 0.9898895 -0.10724849 0.0045516333 0.052465748 0.0045289388 0.052811604 0.99207735 -0.1037273
1619392452.8302 0.98988521 -0.10791919 0.0045650341 0.052804429 0.0045579225 0.053190012 0.99206561 -0.10432053
1629388679.2453 0.98969007 -0.10854539 0.0045188814 0.053133003 0.0045724325 0.053532615 0.99236596 -0.10465822
1639384905.6604 0.9893775 -0.1092142 0.0045516016 0.05345457 0.0045546247 0.053899065 0.99253428 -0.10552688
1649381132.0755 0.9891907 -0.10982335 0.0045600273 0.053841412 0.0045703799 0.054204449 0.99250293 -0.10647964
1659377358.4906 0.98904634 -0.11065096 0.0045942869 0.0542285 0.0046039261 0.054660313 0.99249041 -0.10729834
1669373584.9057 0.98906928 -0.11105274 0.004626344 0.054593764 0.0046296236 0.054991383 0.99228245 -0.10795611
1679369811.3208 0.9891001 -0.11176008 0.0046467902 0.054963958 0.0046643941 0.055366281 0.99204266 -0.10855818
1689366037.7358 0.98907042 -0.11235106 0.0047481619 0.055319861 0.0046811923 0.055731378 0.99178064 -0.10877398
1699362264.1509 0.98914695 -0.11298949 0.0047511412 0.055657342 0.0047732508 0.056142904 0.99200857 -0.10932969
1709358490.566 0.98901176 -0.11357634 0.0048292745 0.056031778 0.0048061041 0.056511048 0.9920572 -0.1097547
1719354716.9811 0.98877227 -0.11417148 0.004871523 0.056464419 0.0048707016 0.056928281 0.99208993 -0.11045215
1729350943.3962 0.98844302 -0.11481246 0.0049647521 0.056801591 0.0049666818 0.057260878 0.99210054 -0.11136472
