!Keysight Technologies,N5222B,MY61253708,A.15.00.15
!Date: Wednesday, June 19, 2024 09:27:30
!Correction: S11(C  2-Port  ) 
!S21(C  2-Port  ) 
!S12(C  2-Port  ) 
!S22(C  2-Port  ) 
!S2P File: Measurements: S11, S21, S12, S22:
# Hz S  RI   R 50
10000000 0.99854034 -0.0023715794 -9.3174196e-005 0.00010434916 -3.9656843e-005 0.00028038459 0.99858463 -0.00080525875
19996226.415094 0.99888706 -0.0022436082 3.6243931e-005 0.00071219529 0.00013526899 0.00078201218 0.9992044 -0.0023185909
29992452.830189 0.99971485 -0.0024140179 3.6194368e-005 0.0010286492 -1.5867845e-005 0.00099089113 0.99961084 -0.0026667714
39988679.245283 1.0000666 -0.0030399263 1.5793179e-005 0.0013626619 5.5816054e-006 0.0013410439 0.99969429 -0.0031175613
49984905.660377 1.00018 -0.0037665963 2.764829e-005 0.0016504207 2.4063804e-005 0.0017127917 0.999816 -0.0036901236
59981132.075472 1.0002415 -0.0046241879 1.4310703e-005 0.0020080849 -8.4638014e-006 0.0019803559 0.9997468 -0.0043185055
69977358.490566 1.0000864 -0.0052647963 5.4988217e-005 0.0023421666 -3.8433885e-005 0.0023335563 0.99962145 -0.0048113298
79973584.90566 0.999852 -0.0057559609 9.1627007e-006 0.0026457966 5.3822412e-005 0.0026734204 0.9993521 -0.0053257644
89969811.320755 0.99987227 -0.0059602261 2.902071e-005 0.0029877482 1.0383665e-005 0.0030355568 0.9995535 -0.0055371523
99966037.735849 1.000033 -0.0066965669 2.4608744e-005 0.0033496951 2.1921238e-005 0.0033582065 0.99959862 -0.0063526183
109962264.15094 1.0000862 -0.0076344162 5.4498261e-005 0.003688849 2.6069931e-005 0.0037241762 0.99964064 -0.0071705878
119958490.56604 1.0001318 -0.0085586905 5.7066791e-006 0.0040209945 2.9390445e-005 0.0040428219 0.99965346 -0.0080528259
129954716.98113 1.0000432 -0.009529233 3.0801399e-005 0.0043499847 3.5803299e-005 0.0043855608 0.9996286 -0.0089789927
139950943.39623 0.99996608 -0.010345034 5.2169387e-005 0.0046988605 2.8706345e-005 0.0047243722 0.99953103 -0.0097138733
149947169.81132 0.99988216 -0.011046916 3.7686666e-005 0.0050297007 5.4373173e-005 0.0050529097 0.99949145 -0.010307372
159943396.22642 0.9998486 -0.011590928 6.2118517e-005 0.0053669168 4.9020397e-005 0.005397575 0.99959099 -0.010757059
169939622.64151 0.99979335 -0.011943415 8.0388912e-005 0.0056959996 5.8763369e-005 0.0057491474 0.99964172 -0.011180192
179935849.0566 0.99983251 -0.012227684 5.5424287e-005 0.0059961891 7.5632823e-005 0.0060848426 0.9995572 -0.011581361
189932075.4717 0.99996901 -0.013040751 5.8059115e-005 0.0063589429 7.2197057e-005 0.0064121932 0.99975276 -0.012190908
199928301.88679 0.99990767 -0.013861507 7.3346542e-005 0.0066834693 0.00010626693 0.006746687 0.99964619 -0.013066173
209924528.30189 0.99969113 -0.014451608 0.00010200066 0.0070387111 9.4766729e-005 0.0070703146 0.99944222 -0.013801143
219920754.71698 0.99969554 -0.01531288 0.00012742169 0.0073688496 0.00011345767 0.0074419091 0.99929488 -0.01444
229916981.13208 0.99946409 -0.016194969 0.0001147876 0.0076853647 0.00011424767 0.0077689905 0.99919742 -0.015196413
239913207.54717 0.99939144 -0.016815351 0.000132127 0.0080296518 0.00013489636 0.0080945781 0.99921352 -0.015931223
249909433.96226 0.9994365 -0.017532498 0.0001412211 0.0083536459 0.00015972927 0.0084309578 0.99927711 -0.01656273
259905660.37736 0.99947816 -0.018208146 0.00010605296 0.0087054539 0.00013079308 0.0087781483 0.99951065 -0.017122805
269901886.79245 0.99968266 -0.018716261 0.00019136025 0.0090151224 0.00016047235 0.0090786396 0.99981952 -0.017770827
279898113.20755 0.99984413 -0.01954931 0.00021702261 0.0093960539 0.00016416586 0.0094934031 0.99970347 -0.018498376
289894339.62264 0.99970055 -0.020256311 0.0002185097 0.0097250454 0.00017168047 0.0097643565 0.99956512 -0.019253552
299890566.03774 0.99965698 -0.020666748 0.0001957654 0.0099901007 0.0002382875 0.01015903 0.9993692 -0.019796759
309886792.45283 0.99942005 -0.021298327 0.00019201904 0.010357338 0.00021501502 0.010448879 0.9992466 -0.02019275
319883018.86792 0.99946773 -0.0219872 0.00024657045 0.01071177 0.00020104554 0.010804746 0.99931824 -0.020707071
329879245.28302 0.99931753 -0.022617966 0.00024817605 0.01106621 0.00025502685 0.011137257 0.99940783 -0.02142182
339875471.69811 0.99943143 -0.02341564 0.00022767344 0.011398221 0.00027368451 0.01145975 0.9993403 -0.022290051
349871698.11321 0.99948192 -0.024304122 0.00029752287 0.011680401 0.00025330554 0.011818958 0.9994151 -0.023193032
359867924.5283 0.99925673 -0.025052577 0.00030520279 0.012022013 0.00034084078 0.012174011 0.99937344 -0.02412045
369864150.9434 0.99951077 -0.02577278 0.00030585518 0.012384877 0.0003266912 0.012483585 0.9993521 -0.024820626
379860377.35849 0.99942118 -0.026396528 0.00032481947 0.012684608 0.00034324243 0.012810423 0.99923521 -0.025526375
389856603.77358 0.99929082 -0.02710095 0.00038939808 0.013044361 0.00037792185 0.013153188 0.99930084 -0.026006371
399852830.18868 0.99915695 -0.027653366 0.00033914763 0.013379342 0.00032617943 0.013454173 0.99931794 -0.026428312
409849056.60377 0.99920768 -0.028096044 0.0004024232 0.013742185 0.00040044682 0.013800035 0.99924415 -0.026955314
419845283.01887 0.99912417 -0.028601557 0.00040953094 0.014043727 0.0003988957 0.014167745 0.99924886 -0.027465314
429841509.43396 0.99919081 -0.029160619 0.00037530949 0.014374252 0.00038617384 0.014465954 0.99948514 -0.028236717
439837735.84906 0.99909896 -0.030083597 0.0004098661 0.014712888 0.00042767229 0.014832223 0.99922061 -0.029169932
449833962.26415 0.99911612 -0.030945092 0.00046083517 0.01495603 0.00047076261 0.015149726 0.99876833 -0.030065387
459830188.67925 0.99890625 -0.031722277 0.00045179063 0.015313854 0.0004208223 0.015469098 0.99862516 -0.030676842
469826415.09434 0.99879789 -0.032498747 0.00045587262 0.015685875 0.00044394378 0.015822351 0.99839908 -0.031325012
479822641.50943 0.9986667 -0.033097669 0.00051477179 0.016012641 0.00050254911 0.016199293 0.9984439 -0.031736761
489818867.92453 0.99882942 -0.03366819 0.00052934838 0.016372707 0.00055028731 0.016515251 0.99876779 -0.032281727
499815094.33962 0.99897933 -0.034264177 0.00058458932 0.016679026 0.00060967403 0.016840104 0.99901241 -0.032911956
509811320.75472 0.999102 -0.034718469 0.0006101738 0.017043751 0.00060816313 0.017169116 0.99919361 -0.033683881
519807547.16981 0.99896234 -0.035286307 0.00064032339 0.017375834 0.00055724662 0.017492084 0.99916202 -0.034453422
529803773.58491 0.99893463 -0.035870075 0.00058786012 0.01769321 0.00059832167 0.017860951 0.99885499 -0.034982264
539800000 0.99896145 -0.036597565 0.00063795038 0.01803568 0.00062067597 0.018168049 0.99870855 -0.035658866
549796226.41509 0.99880338 -0.037464559 0.00065724459 0.018325666 0.00067610433 0.018523034 0.99861157 -0.03621456
559792452.83019 0.99852335 -0.03824544 0.00068791024 0.018702272 0.00062213279 0.018866878 0.99847424 -0.036656708
569788679.24528 0.99844205 -0.038795203 0.00071414281 0.019007143 0.00064966129 0.019178741 0.99868637 -0.037416428
579784905.66038 0.99842435 -0.039470561 0.00071713282 0.019371459 0.00073244283 0.019565392 0.99881423 -0.038101383
589781132.07547 0.99853671 -0.040016711 0.00075131468 0.019681334 0.00080154836 0.019836411 0.99889088 -0.039110065
599777358.49057 0.99861848 -0.040673316 0.00079465378 0.020047503 0.00081650168 0.020217536 0.99887675 -0.039865166
609773584.90566 0.99881595 -0.041394785 0.00086133671 0.020358114 0.00081798149 0.020516748 0.99872553 -0.040730655
619769811.32075 0.99889874 -0.042193979 0.00090274587 0.020693649 0.00088288309 0.020882525 0.99875838 -0.041241556
629766037.73585 0.99862033 -0.042810291 0.00092194416 0.020994514 0.00091678742 0.021159511 0.99852526 -0.041717589
639762264.15094 0.99852544 -0.043479905 0.00094555761 0.021296706 0.00090302248 0.02153009 0.99834806 -0.042155981
649758490.56604 0.99840802 -0.044076994 0.00093484623 0.021674173 0.00095212273 0.021815419 0.9984408 -0.04260619
659754716.98113 0.99815333 -0.044481188 0.0009585144 0.021984756 0.00094805285 0.022200417 0.99853069 -0.04323557
669750943.39623 0.99818164 -0.045066655 0.00092628784 0.022318672 0.00095371529 0.022550924 0.99858898 -0.044066846
679747169.81132 0.99817353 -0.0458358 0.0010106857 0.022680502 0.00098685734 0.02288164 0.99858296 -0.044992633
689743396.22642 0.9983753 -0.046664 0.0010578688 0.02301068 0.0010460867 0.023181943 0.99842465 -0.045918465
699739622.64151 0.99850333 -0.047463238 0.0011147177 0.023373179 0.0011112234 0.02350984 0.99832284 -0.046635956
709735849.0566 0.99837828 -0.048376091 0.0011545168 0.023685962 0.0011279171 0.02384592 0.9980554 -0.047290884
719732075.4717 0.99835479 -0.048971921 0.0011792709 0.02395824 0.0011813645 0.024196368 0.99813211 -0.047831625
729728301.88679 0.99832302 -0.049541473 0.0012037884 0.024269428 0.0011975886 0.024536412 0.99814546 -0.04825893
739724528.30189 0.99809992 -0.050222605 0.0012455122 0.024609387 0.001258282 0.024836 0.99831355 -0.048995718
749720754.71698 0.99804246 -0.050733134 0.0012723212 0.024967769 0.0012319107 0.025194928 0.99836677 -0.049698204
759716981.13208 0.99809349 -0.051276624 0.0012901984 0.025246661 0.0012933174 0.025525656 0.99829471 -0.050492913
769713207.54717 0.99802107 -0.051954478 0.0012925062 0.025572544 0.0013649175 0.025835454 0.99809009 -0.051144272
779709433.96226 0.99822539 -0.052646935 0.0013504641 0.02592444 0.0013783006 0.02616737 0.99785441 -0.051808007
789705660.37736 0.99808991 -0.053582996 0.0013577649 0.026267432 0.0013814205 0.026482584 0.99762291 -0.052624077
799701886.79245 0.9980222 -0.054270685 0.0014192322 0.026566613 0.0014229529 0.02680237 0.99743724 -0.053135186
809698113.20755 0.99800634 -0.05491972 0.0014314065 0.026874952 0.0014519317 0.027140008 0.997455 -0.053617805
819694339.62264 0.99778038 -0.055521935 0.0014957809 0.027209453 0.0015117289 0.027464628 0.99758321 -0.05420506
829690566.03774 0.9977994 -0.056178987 0.0015121046 0.027534606 0.0015262216 0.027819239 0.99783432 -0.055065304
839686792.45283 0.9978416 -0.056525558 0.0015332522 0.027862299 0.0015563751 0.028127784 0.99782473 -0.0559223
849683018.86792 0.9980616 -0.057323612 0.0015542721 0.028248172 0.0015902815 0.028457701 0.99783677 -0.056650005
859679245.28302 0.99804902 -0.058053017 0.0015940405 0.028538395 0.0016036294 0.028777428 0.99749184 -0.057302684
869675471.69811 0.99786216 -0.058762878 0.0016506407 0.028854111 0.0016706688 0.029113576 0.99713582 -0.05782795
879671698.11321 0.99777704 -0.059451096 0.001686725 0.02915502 0.0016972581 0.029433286 0.99712759 -0.058214597
889667924.5283 0.99762714 -0.060210019 0.001706644 0.02947621 0.0017277673 0.029739678 0.99702561 -0.058685482
899664150.9434 0.99740773 -0.061001033 0.0017286371 0.029777218 0.0017361166 0.030076083 0.99704146 -0.059337527
909660377.35849 0.99747616 -0.061614975 0.0017901831 0.030126762 0.0017608558 0.030435359 0.99722821 -0.060261801
919656603.77358 0.99751389 -0.062349662 0.0017591082 0.030426437 0.0017868225 0.030743713 0.99719405 -0.061106056
929652830.18868 0.99748957 -0.063027829 0.0017813239 0.030747158 0.0018488048 0.031041898 0.9970392 -0.062026113
939649056.60377 0.99769133 -0.063716322 0.0018324042 0.031057401 0.0018190872 0.031353738 0.9968012 -0.062716395
949645283.01887 0.99768668 -0.064543255 0.001790449 0.031452101 0.001859242 0.031706527 0.99664783 -0.063233323
959641509.43396 0.99761164 -0.065158606 0.0018757936 0.031776465 0.001899479 0.032080308 0.9965896 -0.063728899
969637735.84906 0.99740994 -0.065897375 0.0019369554 0.03213992 0.0019437727 0.032430775 0.99656737 -0.064094752
979633962.26415 0.99731243 -0.066688672 0.0019927002 0.032406081 0.0019917467 0.032736961 0.99662817 -0.064744614
989630188.67925 0.99730349 -0.067122161 0.00199176 0.03273033 0.0020492887 0.0330658 0.99683118 -0.06536603
999626415.09434 0.9974063 -0.067818433 0.0020235023 0.033080719 0.0020826738 0.033412725 0.99675751 -0.066223919
1009622641.5094 0.9974063 -0.068458825 0.0020583663 0.033438567 0.0021233093 0.03378671 0.9966746 -0.067060694
1019618867.9245 0.99749416 -0.069304109 0.0021267552 0.033752024 0.0021833871 0.034096308 0.99635667 -0.067881584
1029615094.3396 0.99747694 -0.070257455 0.0021786084 0.034075268 0.0022288747 0.03438548 0.99601471 -0.068464041
1039611320.7547 0.99749166 -0.071101755 0.0022259485 0.034357883 0.0022462774 0.034693677 0.99592501 -0.069161683
1049607547.1698 0.9973734 -0.072027713 0.0022520544 0.034670338 0.0022843007 0.035009939 0.99590802 -0.069805145
1059603773.5849 0.99724865 -0.072688252 0.0022588354 0.034935318 0.0023118872 0.03531976 0.995987 -0.070285231
1069600000 0.99695504 -0.073330551 0.0022573685 0.035278212 0.0022874437 0.035628892 0.99604613 -0.071004152
1079596226.4151 0.99695826 -0.074006647 0.0023160116 0.035648536 0.0023411447 0.035996988 0.99602586 -0.071806081
1089592452.8302 0.99698979 -0.074657053 0.0023284061 0.035969455 0.0023727594 0.036314894 0.99601907 -0.072513342
1099588679.2453 0.99699378 -0.075303316 0.0023151487 0.036285557 0.0023961198 0.036642581 0.99566132 -0.073079228
1109584905.6604 0.9971028 -0.076107472 0.0023562089 0.036639526 0.0024098586 0.036964502 0.99541795 -0.073665649
1119581132.0755 0.99713939 -0.077102229 0.0023823217 0.037023365 0.002455709 0.037302069 0.99525386 -0.074088141
1129577358.4906 0.99695492 -0.077889889 0.002437612 0.037362535 0.0024657827 0.037717551 0.9951517 -0.0745489
1139573584.9057 0.99658704 -0.078749508 0.0024792943 0.037656747 0.0025473088 0.038021974 0.99520522 -0.075217307
1149569811.3208 0.99662471 -0.079657629 0.0025154133 0.037981141 0.0026125177 0.038349491 0.99534678 -0.075946674
1159566037.7358 0.99629736 -0.080284268 0.0025708405 0.038306743 0.0026447531 0.038703561 0.99543709 -0.07699579
1169562264.1509 0.99614179 -0.080916405 0.0025438145 0.038622078 0.0026547685 0.039030291 0.99528921 -0.077791095
1179558490.566 0.99619311 -0.081682518 0.0025464031 0.038991828 0.0026714215 0.039399255 0.99518234 -0.078459024
1189554716.9811 0.99618566 -0.082430959 0.0026178714 0.039326936 0.0027227942 0.039698631 0.99489421 -0.078929335
1199550943.3962 0.99609751 -0.083284378 0.0026378203 0.039694022 0.0027756188 0.040040448 0.99470103 -0.079500377
1209547169.8113 0.99589908 -0.084209025 0.0027195765 0.040012848 0.0028312765 0.040363953 0.99462306 -0.079790697
1219543396.2264 0.99579781 -0.085070178 0.0027333717 0.040373322 0.0028912486 0.040734705 0.99467736 -0.080165878
1229539622.6415 0.99545288 -0.085869491 0.0028465334 0.040713355 0.0029423516 0.041061401 0.99479532 -0.080862612
1239535849.0566 0.99517143 -0.086469531 0.0028500855 0.041012622 0.0030105906 0.041410796 0.99490416 -0.081792444
1249532075.4717 0.99481505 -0.087133065 0.0029282183 0.041347679 0.0030739971 0.041705579 0.99478698 -0.082666144
1259528301.8868 0.99466324 -0.087727517 0.0029639527 0.041687865 0.003127465 0.042019933 0.99445909 -0.08349821
1269524528.3019 0.99452794 -0.088478357 0.003050629 0.041977029 0.0031833351 0.0423306 0.99427521 -0.084189594
1279520754.717 0.99418008 -0.08914613 0.0030979738 0.042276692 0.0032580635 0.042611245 0.99403322 -0.084705748
1289516981.1321 0.99405026 -0.08998403 0.0031236289 0.042554416 0.0032524103 0.042909127 0.9940933 -0.085136741
1299513207.5472 0.9937315 -0.090818465 0.0031829122 0.04287684 0.003280757 0.043205485 0.99417216 -0.08554101
1309509433.9623 0.9932766 -0.09155722 0.0031400714 0.043202575 0.0032812161 0.043506708 0.99428064 -0.086300716
1319505660.3774 0.99293661 -0.092316166 0.0031428132 0.043540355 0.0033014128 0.04386878 0.99430162 -0.086901322
1329501886.7925 0.99262166 -0.092966467 0.0031905025 0.043864436 0.0033202544 0.044188421 0.9942891 -0.087879032
1339498113.2075 0.99237835 -0.093434125 0.0032035038 0.044160571 0.0033465717 0.044503313 0.99392468 -0.088533372
1349494339.6226 0.9921369 -0.093992919 0.0031867255 0.044546675 0.00334311 0.044838946 0.99351126 -0.089197606
1359490566.0377 0.99204242 -0.094633162 0.0031992644 0.044876188 0.0033648666 0.045176886 0.99330497 -0.089701653
1369486792.4528 0.99179941 -0.095152617 0.0032248059 0.045260534 0.003352331 0.045526974 0.9931978 -0.090221167
1379483018.8679 0.99147737 -0.095730186 0.0032374235 0.045612108 0.0033845501 0.045884904 0.99317527 -0.090482689
1389479245.283 0.99113959 -0.096191734 0.0033035111 0.046020459 0.0033605658 0.046293993 0.99320507 -0.091190308
1399475471.6981 0.99074948 -0.096603066 0.0032782741 0.046353389 0.003410954 0.046663295 0.99336445 -0.091851652
1409471698.1132 0.99036616 -0.096977092 0.003325369 0.046708439 0.0034226195 0.047038849 0.99343228 -0.092709869
1419467924.5283 0.99026436 -0.097226977 0.0033496637 0.047134202 0.0034231693 0.047409657 0.99315619 -0.09342742
1429464150.9434 0.9900943 -0.097791016 0.0034253132 0.047529697 0.0035225227 0.047791883 0.99312133 -0.093948752
1439460377.3585 0.99029499 -0.098173216 0.0035081729 0.047954842 0.0036072051 0.048253421 0.99283242 -0.094343603
1449456603.7736 0.99029821 -0.098665953 0.0035956316 0.048350118 0.0036736354 0.048651673 0.99274153 -0.094596893
1459452830.1887 0.99027157 -0.099445224 0.0037537608 0.048767015 0.0037940852 0.049020045 0.9928025 -0.094997674
1469449056.6038 0.99038815 -0.1000784 0.0039345026 0.049101304 0.0039364984 0.049418028 0.99304229 -0.095594257
1479445283.0189 0.99014658 -0.10069039 0.0040130848 0.049359526 0.0040720259 0.049720559 0.99320507 -0.096549936
1489441509.434 0.99005687 -0.10122511 0.0041602831 0.049697667 0.0041887909 0.050002843 0.99297881 -0.097370595
1499437735.8491 0.98988712 -0.1015338 0.0042459182 0.049971469 0.0042975005 0.050292917 0.99293756 -0.09825176
1509433962.2642 0.9899354 -0.10211834 0.0043587005 0.050250389 0.0043843314 0.050562494 0.99268311 -0.098915674
1519430188.6792 0.9900769 -0.10255048 0.0043974109 0.050522473 0.0043834336 0.050846457 0.99259835 -0.099485189
1529426415.0943 0.99001956 -0.10326841 0.0044759866 0.050821066 0.0045154598 0.051128637 0.99250048 -0.099858493
1539422641.5094 0.99004132 -0.10408617 0.0045407745 0.051110111 0.0045505948 0.051425409 0.99259073 -0.10043669
1549418867.9245 0.98986733 -0.1048847 0.0046100887 0.051390857 0.0045920014 0.051726878 0.99280274 -0.10113625
1559415094.3396 0.98969984 -0.10551089 0.0046559051 0.05166591 0.0046446584 0.052036103 0.99293852 -0.10181272
1569411320.7547 0.98960131 -0.10636142 0.0046988893 0.051955141 0.0046805469 0.052338943 0.99283159 -0.10264793
1579407547.1698 0.98951101 -0.1068147 0.0046757963 0.052235372 0.0046975426 0.052632354 0.99247986 -0.10339624
1589403773.5849 0.98944277 -0.10738152 0.0047467612 0.052538577 0.004701199 0.05292888 0.99235469 -0.10405952
1599400000 0.98935771 -0.1077835 0.0047063548 0.05281217 0.0047143456 0.053187437 0.99186003 -0.10456914
1609396226.4151 0.98939735 -0.10843888 0.0047003413 0.053154398 0.0047076615 0.053549774 0.99169976 -0.10503437
1619392452.8302 0.98940587 -0.10915443 0.0046849754 0.053500861 0.0046889801 0.053869907 0.99171031 -0.10560986
1629388679.2453 0.98914123 -0.10986182 0.0047281832 0.05389934 0.0046769772 0.054245394 0.99197125 -0.10605836
1639384905.6604 0.98892659 -0.11051201 0.0047291303 0.054237422 0.0047254688 0.054628041 0.99216622 -0.10695207
1649381132.0755 0.98871857 -0.11112979 0.0047607571 0.054528415 0.0047526527 0.055 0.99221438 -0.10782921
1659377358.4906 0.98857188 -0.11195901 0.0047912896 0.054972775 0.0047594439 0.055359647 0.99210966 -0.10873017
1669373584.9057 0.98853588 -0.11240732 0.0047998554 0.05530224 0.0047875056 0.055746894 0.99180984 -0.10936413
1679369811.3208 0.98853546 -0.11303279 0.0048397556 0.055675555 0.0048516309 0.056113705 0.99155688 -0.10990539
1689366037.7358 0.98853773 -0.11368006 0.0049066693 0.056077965 0.0049067363 0.05651994 0.99140346 -0.11020622
1699362264.1509 0.98875082 -0.11428158 0.0049550552 0.056472585 0.0049477806 0.056898221 0.99166977 -0.11074677
1709358490.566 0.98862612 -0.11496843 0.0050005354 0.056814615 0.0050078845 0.057323013 0.99156678 -0.11130168
1719354716.9811 0.98822743 -0.11559519 0.0050416756 0.05718229 0.0050803926 0.057656094 0.99168426 -0.11191824
1729350943.3962 0.98788077 -0.11613783 0.0051536839 0.057602014 0.0051191803 0.058078531 0.99163985 -0.11285719
