!Keysight Technologies,N5222B,MY61253708,A.15.00.15
!Date: Wednesday, June 19, 2024 09:31:49
!Correction: S11(C  2-Port  ) 
!S21(C  2-Port  ) 
!S12(C  2-Port  ) 
!S22(C  2-Port  ) 
!S2P File: Measurements: S11, S21, S12, S22:
# Hz S  RI   R 50
10000000 0.99864471 -0.0023559928 0.00015661452 5.0088591e-005 0.00026631245 0.00029872151 0.99871349 -0.00069573522
19996226.415094 0.99891198 -0.0022310913 -5.1415351e-005 0.00076332409 0.00013176701 0.00052520161 0.99907655 -0.0025126636
29992452.830189 0.99972051 -0.002442956 -4.0721177e-005 0.0011085584 6.7881017e-005 0.0010383021 0.99944705 -0.0026551485
39988679.245283 1.0000843 -0.0030556768 1.9470608e-006 0.0013872375 -4.2351458e-006 0.0013903301 0.99962246 -0.0031456798
49984905.660377 1.0001954 -0.0037254095 3.7326186e-005 0.0016189178 2.5049667e-006 0.0016757208 0.99979818 -0.0037023425
59981132.075472 1.0003432 -0.0046823621 -2.1088694e-005 0.0019535015 2.7662027e-005 0.0020109261 0.99983746 -0.0043001771
69977358.490566 1.0001926 -0.0051638074 2.0790143e-005 0.0023151285 -1.253251e-005 0.0023901444 0.99961275 -0.0048745181
79973584.90566 0.99989897 -0.005769372 3.2037846e-005 0.002646015 -4.3933396e-005 0.0027076325 0.99931598 -0.0053133667
89969811.320755 0.99994671 -0.0059339106 1.7191167e-005 0.0030112383 1.2495439e-005 0.0030235914 0.99956393 -0.0055998564
99966037.735849 1.0001155 -0.0066672713 2.1837186e-006 0.0033378531 2.0208012e-005 0.003373852 0.99960357 -0.0063574761
109962264.15094 1.0001655 -0.0075161159 5.4012169e-005 0.0036625292 3.3505727e-005 0.0036997374 0.99962038 -0.0072019249
119958490.56604 1.0001603 -0.0085020363 3.3709686e-005 0.0040022195 5.4950593e-005 0.0040380526 0.99966204 -0.0081185102
129954716.98113 1.0001162 -0.0094812214 2.7038273e-005 0.0043400913 4.2479718e-005 0.0043645268 0.9996385 -0.0089939237
139950943.39623 1.0000942 -0.010258904 5.9002225e-005 0.004676498 5.1821262e-005 0.0047155567 0.99955207 -0.0097480863
149947169.81132 0.9999581 -0.010970026 4.7929352e-005 0.005007457 5.5885175e-005 0.0050493847 0.99949074 -0.010351151
159943396.22642 0.99990797 -0.011493415 6.383867e-005 0.005348918 7.3489733e-005 0.0053849583 0.99961555 -0.01083535
169939622.64151 0.99989671 -0.011846945 6.4569002e-005 0.0057009561 7.2260853e-005 0.0057217935 0.9996233 -0.011284761
179935849.0566 1.0000086 -0.012149125 6.9986214e-005 0.006000503 7.1184826e-005 0.0060750116 0.99955839 -0.011696339
189932075.4717 1.000095 -0.012904257 6.7728106e-005 0.0063583106 0.00010476424 0.0064271195 0.99978358 -0.012232453
199928301.88679 0.99998665 -0.013749599 9.8827062e-005 0.0066454345 0.00010427961 0.0067185755 0.99967033 -0.013062686
209924528.30189 0.99973243 -0.014403656 9.4697811e-005 0.0070232963 0.00010286726 0.0070858058 0.99941963 -0.013802871
219920754.71698 0.99982393 -0.015227944 0.00011429354 0.0073348242 0.00012060883 0.0073625986 0.99924892 -0.014501154
229916981.13208 0.99953103 -0.01610142 0.00015318464 0.0076993974 0.00010379404 0.0077167614 0.99921024 -0.015287668
239913207.54717 0.99946165 -0.016729143 0.00013967212 0.0080051403 0.00010915671 0.0080931019 0.99918187 -0.016008198
249909433.96226 0.99950731 -0.017353147 0.00015143305 0.0083693201 0.00016251579 0.0083983652 0.99931639 -0.016609043
259905660.37736 0.99962395 -0.01794669 0.000141297 0.0086774481 0.00018218858 0.0087429406 0.999502 -0.017239898
269901886.79245 0.99962509 -0.018644005 0.00013836811 0.0089991009 0.00016576285 0.009093713 0.99986446 -0.017850563
279898113.20755 0.99989724 -0.01922968 0.00024133176 0.0093092471 0.00016096816 0.0094119813 0.99974883 -0.018698126
289894339.62264 0.99980432 -0.020074397 0.00019242242 0.0096595585 0.00022870768 0.0098191146 0.99962819 -0.019407302
299890566.03774 0.99973005 -0.020520359 0.00023443718 0.01001974 0.00021320581 0.010075795 0.99935079 -0.01989767
309886792.45283 0.99953955 -0.021116152 0.00018183968 0.010364043 0.0002754546 0.010396147 0.99918455 -0.020303689
319883018.86792 0.99952614 -0.021725237 0.00024368521 0.010716178 0.00026606023 0.010781731 0.99927825 -0.02087611
329879245.28302 0.99947119 -0.022505015 0.00024366286 0.010999939 0.00026479131 0.011075437 0.99939907 -0.021537155
339875471.69811 0.99947053 -0.023334384 0.00028100295 0.01129664 0.00026786572 0.011469428 0.99932075 -0.022403024
349871698.11321 0.99950838 -0.024115175 0.00027551106 0.011640987 0.00025977916 0.011757304 0.99935979 -0.023292124
359867924.5283 0.99941969 -0.024883002 0.0003120671 0.012004346 0.00033734785 0.012091758 0.99930668 -0.024172068
369864150.9434 0.99959892 -0.025651664 0.00028787553 0.012321173 0.00031860895 0.012427169 0.99929154 -0.024893165
379860377.35849 0.99948424 -0.026260346 0.00031973096 0.012632404 0.00030737184 0.0127546 0.99921513 -0.025716275
389856603.77358 0.99944621 -0.026946723 0.00034052553 0.013008478 0.00034181867 0.013081282 0.99921298 -0.026024014
399852830.18868 0.99918169 -0.02757138 0.00036740955 0.01333051 0.00040241983 0.013425047 0.99925989 -0.026526332
409849056.60377 0.99918449 -0.028042415 0.00038807216 0.013656319 0.00038398159 0.013759075 0.99931383 -0.02696811
419845283.01887 0.99913895 -0.028438419 0.00038869586 0.013965372 0.00040025357 0.014145905 0.99932444 -0.02752918
429841509.43396 0.99924064 -0.029057294 0.00038430933 0.01433843 0.0004516663 0.014431311 0.99948478 -0.028331518
439837735.84906 0.99907923 -0.030028313 0.00045468274 0.014647218 0.00045947719 0.014762959 0.9993971 -0.029208526
449833962.26415 0.99906713 -0.0308007 0.00047397567 0.014963081 0.00044380082 0.015130777 0.99890786 -0.030052483
459830188.67925 0.99882984 -0.03150171 0.00046755606 0.015275117 0.00047437893 0.015431225 0.99879515 -0.030829698
469826415.09434 0.9988367 -0.032361329 0.00049956096 0.015654355 0.0004663975 0.015800428 0.99853992 -0.031395257
479822641.50943 0.99875504 -0.032890595 0.00051518739 0.016012741 0.00053526345 0.016122714 0.99859887 -0.031907901
489818867.92453 0.99881053 -0.033436596 0.00050171046 0.016332364 0.00055190315 0.016500678 0.99890852 -0.032493472
499815094.33962 0.99884778 -0.033978879 0.00057236757 0.016657904 0.00058062421 0.016802829 0.99917388 -0.033000171
509811320.75472 0.99906576 -0.034370415 0.00061406021 0.01699882 0.00057980535 0.017077766 0.99930334 -0.03395015
519807547.16981 0.99889886 -0.034977853 0.00055527734 0.017311316 0.00060751848 0.017451808 0.99931508 -0.034653842
529803773.58491 0.99886048 -0.035582364 0.00062682386 0.017618116 0.00067027286 0.017799869 0.99899399 -0.035246789
539800000 0.9989993 -0.036292091 0.00059317285 0.017996464 0.00065293722 0.018130083 0.99882293 -0.03595826
549796226.41509 0.99873841 -0.037147582 0.00063532405 0.018322578 0.00067546358 0.018477987 0.99864602 -0.036420524
559792452.83019 0.99858212 -0.037830442 0.0007023057 0.018676613 0.00063650217 0.018827323 0.99851298 -0.036938787
569788679.24528 0.99848568 -0.038534403 0.00071146386 0.018993163 0.00068705156 0.019125104 0.99872077 -0.037750125
579784905.66038 0.9984889 -0.039216012 0.00070978154 0.019334819 0.0007420521 0.019483462 0.99875635 -0.038415723
589781132.07547 0.99852282 -0.039760381 0.00079252385 0.019656327 0.00072870962 0.019773316 0.9989084 -0.039326191
599777358.49057 0.99871421 -0.040403455 0.00077042542 0.020018088 0.00080402382 0.020167338 0.99898762 -0.040086657
609773584.90566 0.99884868 -0.041198783 0.00086536561 0.020327328 0.0008518821 0.020499814 0.99881244 -0.040985681
619769811.32075 0.99890387 -0.041896254 0.00090682879 0.02066173 0.00090305461 0.020794224 0.99876118 -0.041571707
629766037.73585 0.99882007 -0.042476982 0.00093732495 0.020976463 0.00091414619 0.021126181 0.99855256 -0.042055786
639762264.15094 0.99858242 -0.043262258 0.00090392027 0.02126194 0.00092864432 0.021472031 0.99840063 -0.042519003
649758490.56604 0.99840087 -0.043711066 0.00089580053 0.021527052 0.00092882616 0.021788657 0.99840921 -0.043038011
659754716.98113 0.99830747 -0.044169784 0.00092527363 0.02193607 0.00092817098 0.022105182 0.99854386 -0.04357031
669750943.39623 0.99833906 -0.044726372 0.00092708599 0.022299852 0.00093712006 0.022483459 0.99857032 -0.044319659
679747169.81132 0.99832153 -0.045575462 0.0010320294 0.022641562 0.0010260383 0.022834791 0.99856234 -0.045254514
689743396.22642 0.99849468 -0.046324313 0.0010197759 0.02292748 0.0010518953 0.02311692 0.99831164 -0.046189398
699739622.64151 0.99858618 -0.047178477 0.0011105714 0.023264144 0.0011103349 0.023497336 0.99830097 -0.046877593
709735849.0566 0.99852735 -0.048001312 0.0011702701 0.023625761 0.0011384849 0.023828482 0.99803478 -0.047542252
719732075.4717 0.99843603 -0.048805445 0.001163844 0.023941973 0.0011595525 0.024110164 0.99807763 -0.04810667
729728301.88679 0.99839079 -0.049279243 0.0011805529 0.024254896 0.0012255497 0.024450049 0.99821913 -0.048575372
739724528.30189 0.99826849 -0.049872026 0.0012349207 0.024569876 0.001229058 0.024793394 0.99835867 -0.04922083
749720754.71698 0.99811649 -0.05046086 0.0012763659 0.024894776 0.0012688665 0.025073105 0.99839801 -0.049940169
759716981.13208 0.99824876 -0.050942004 0.0012917193 0.025222111 0.0012798952 0.025432214 0.99833471 -0.050650477
769713207.54717 0.99812073 -0.051686347 0.0013350323 0.025506888 0.0013616569 0.025773667 0.99805838 -0.051378489
779709433.96226 0.99826008 -0.052267376 0.0013295994 0.025896018 0.0013716639 0.02611471 0.99790096 -0.052031845
789705660.37736 0.99804914 -0.053254366 0.0013881987 0.026174242 0.0014122324 0.026422508 0.99763381 -0.052765995
799701886.79245 0.99807942 -0.053972572 0.0014489042 0.026535155 0.0014449265 0.026758522 0.99745601 -0.053340465
809698113.20755 0.99798924 -0.054568589 0.0014385688 0.026807196 0.0014391798 0.027068419 0.99755597 -0.053769603
819694339.62264 0.99785382 -0.055239707 0.0014504688 0.027167013 0.0014744424 0.027367845 0.9976483 -0.054446787
829690566.03774 0.99788332 -0.055841982 0.0014954805 0.027486105 0.001552606 0.027726952 0.99792683 -0.055313498
839686792.45283 0.99794972 -0.056286454 0.001512093 0.027775791 0.0015678871 0.028039902 0.99795502 -0.056131721
849683018.86792 0.99804103 -0.056952514 0.0015817333 0.028149009 0.0015878745 0.028371289 0.99781376 -0.056885466
859679245.28302 0.99801445 -0.057716757 0.0015694425 0.028460056 0.0015883753 0.028692722 0.99753284 -0.057525933
869675471.69811 0.99801624 -0.058461726 0.0016447455 0.028783532 0.0016143238 0.029048851 0.99727666 -0.058031142
879671698.11321 0.99783891 -0.059113488 0.0016481022 0.029086476 0.0017043154 0.029364884 0.99720865 -0.058430769
889667924.5283 0.99770111 -0.059875667 0.0017306972 0.029394163 0.0017159628 0.02968622 0.99703813 -0.058982044
899664150.9434 0.99749154 -0.060621142 0.0017198389 0.029732464 0.0017252266 0.030013664 0.99711072 -0.059624583
909660377.35849 0.99758357 -0.061243638 0.0017448142 0.030042939 0.0017725923 0.030331146 0.99724215 -0.060532317
919656603.77358 0.99749357 -0.06191501 0.0017802152 0.030385084 0.00181795 0.030674722 0.99720001 -0.061445832
929652830.18868 0.99757504 -0.062661767 0.0018374408 0.03067133 0.0018205987 0.030945726 0.99715263 -0.062312245
939649056.60377 0.99775881 -0.063271403 0.0018440764 0.031004377 0.0018078508 0.031299178 0.9969604 -0.063047618
949645283.01887 0.99770463 -0.064207666 0.0018150981 0.031335577 0.001866093 0.031646769 0.99666578 -0.063566014
959641509.43396 0.99759984 -0.064852118 0.0018461365 0.031720843 0.001887151 0.031980436 0.99668652 -0.06410405
969637735.84906 0.99750423 -0.06557855 0.0019187648 0.032050051 0.0019551786 0.032350022 0.99659401 -0.064433545
979633962.26415 0.99736476 -0.066246204 0.0019613842 0.032360338 0.0019948317 0.032646008 0.99666631 -0.065103754
989630188.67925 0.99738771 -0.066821545 0.0019883979 0.032713413 0.0020332485 0.032964073 0.99683243 -0.065681309
999626415.09434 0.99743962 -0.067447215 0.0020376621 0.032995351 0.0020319745 0.033357292 0.99679345 -0.06659323
1009622641.5094 0.99749124 -0.068074539 0.0020488054 0.033346731 0.0020912234 0.033665247 0.99664587 -0.067426533
1019618867.9245 0.99746174 -0.068858162 0.0020908895 0.033676721 0.0021880097 0.033992883 0.99637884 -0.068244264
1029615094.3396 0.99752951 -0.069865525 0.0021815896 0.033992048 0.0022037085 0.034293436 0.99604994 -0.068860888
1039611320.7547 0.99754226 -0.070748359 0.00218408 0.034285657 0.0022524381 0.034620579 0.99595767 -0.06950143
1049607547.1698 0.99739897 -0.071533538 0.0022199694 0.034593418 0.0022507317 0.034919493 0.99593824 -0.070033938
1059603773.5849 0.99730432 -0.072212428 0.0022445805 0.03487847 0.002322766 0.035225257 0.99595058 -0.070674807
1069600000 0.99710166 -0.072894841 0.0022589676 0.03523124 0.0023166388 0.035559028 0.9961651 -0.071307421
1079596226.4151 0.99707025 -0.073542051 0.0022963574 0.035533518 0.0023450875 0.03591156 0.99610406 -0.072085701
1089592452.8302 0.99707711 -0.074271142 0.0023223087 0.035849635 0.002358445 0.036236193 0.99608004 -0.072868526
1099588679.2453 0.99713576 -0.074841112 0.0022991151 0.036202941 0.0023927577 0.03654401 0.99566442 -0.073532045
1109584905.6604 0.99718547 -0.075679243 0.0023516286 0.036539476 0.0024055671 0.036886603 0.99549311 -0.074026734
1119581132.0755 0.99721098 -0.076656133 0.0023605032 0.036903333 0.0024632625 0.037255742 0.99527788 -0.074483022
1129577358.4906 0.99701381 -0.077483416 0.0023973677 0.037239298 0.0024718307 0.03758866 0.9951396 -0.074906409
1139573584.9057 0.99675846 -0.078337312 0.0024427958 0.037592109 0.0025584064 0.037973456 0.99527603 -0.075597614
1149569811.3208 0.99665338 -0.079178952 0.0025123938 0.037912712 0.0025895927 0.038245495 0.99540287 -0.076254554
1159566037.7358 0.99646389 -0.079856128 0.0025789095 0.038200334 0.0026166588 0.038562141 0.99549973 -0.077349395
1169562264.1509 0.9962191 -0.080475092 0.0025494676 0.038517307 0.0026356187 0.038901255 0.9952935 -0.078137785
1179558490.566 0.99624294 -0.081275463 0.0025596241 0.038893923 0.0026763983 0.039263655 0.99519753 -0.078781947
1189554716.9811 0.99626827 -0.081961423 0.0025958251 0.039248008 0.0027245646 0.039617322 0.99493116 -0.079395056
1199550943.3962 0.99619699 -0.082792461 0.0026373472 0.039569728 0.0027600732 0.039948568 0.99476111 -0.079718083
1209547169.8113 0.99596715 -0.083770782 0.0026655709 0.039910726 0.0028252462 0.040266022 0.99464631 -0.080106184
1219543396.2264 0.99573666 -0.084547371 0.0027244003 0.040272191 0.002872278 0.04066018 0.99474108 -0.080520317
1229539622.6415 0.99556226 -0.085384965 0.0028244518 0.040604353 0.0029177777 0.041001476 0.99483639 -0.081219524
1239535849.0566 0.99527854 -0.086056024 0.0028789891 0.040917147 0.002998177 0.041288532 0.99492449 -0.082124949
1249532075.4717 0.99496782 -0.086723901 0.0029121032 0.041254349 0.0030445536 0.041575704 0.99475706 -0.082994133
1259528301.8868 0.99474651 -0.087191343 0.0029658619 0.041564204 0.0031443574 0.041887373 0.99448359 -0.083922148
1269524528.3019 0.9946003 -0.087978929 0.0030414499 0.041882902 0.0031874571 0.042234369 0.99426734 -0.084601551
1279520754.717 0.9942466 -0.088660248 0.0030901046 0.042167008 0.0032340335 0.042492691 0.99403679 -0.085103467
1289516981.1321 0.99418432 -0.089517355 0.0031114342 0.042472366 0.0032447902 0.042780016 0.99413395 -0.085501909
1299513207.5472 0.99378663 -0.090359837 0.0031383391 0.042808346 0.0032605827 0.043138295 0.99417937 -0.085957289
1309509433.9623 0.99334013 -0.091007456 0.0031275488 0.043073334 0.0032657692 0.04341726 0.99430341 -0.086626172
1319505660.3774 0.99298054 -0.091776118 0.0031247344 0.043453973 0.0032820664 0.043754037 0.99437582 -0.087298229
1329501886.7925 0.99271154 -0.09246546 0.0031521842 0.043728516 0.0033225939 0.044080917 0.99437582 -0.08827436
1339498113.2075 0.99241543 -0.092918694 0.0032014763 0.044068523 0.0033508819 0.044384874 0.99395567 -0.089008301
1349494339.6226 0.99225783 -0.093522638 0.0031919987 0.044418126 0.0033177184 0.044722434 0.99352092 -0.089627437
1359490566.0377 0.99214518 -0.094012707 0.0031744577 0.044785582 0.003313724 0.045084365 0.99339378 -0.090141267
1369486792.4528 0.99190778 -0.094605446 0.0032016365 0.045163147 0.0033472944 0.04541821 0.99323738 -0.090558171
1379483018.8679 0.99170852 -0.095192656 0.0032005752 0.045509145 0.0033312438 0.045776404 0.99315524 -0.090941526
1389479245.283 0.9912228 -0.095697552 0.0032726172 0.045904052 0.0033687558 0.046169385 0.99310982 -0.091591477
1399475471.6981 0.99087656 -0.09605518 0.0032553989 0.04621952 0.0033544619 0.046541899 0.99334019 -0.092374325
1409471698.1132 0.99059528 -0.096413299 0.0033295902 0.046630271 0.0034161774 0.046921082 0.99340028 -0.093043834
1419467924.5283 0.99041384 -0.096719623 0.0033699255 0.047005121 0.003473877 0.047308922 0.99318302 -0.093826771
1429464150.9434 0.99020189 -0.097176254 0.0033543501 0.047422785 0.0034963023 0.047692437 0.99315858 -0.094401181
1439460377.3585 0.99042523 -0.097673595 0.0034655361 0.0478765 0.0035569742 0.048095435 0.99281615 -0.094723746
1449456603.7736 0.99038523 -0.098185018 0.0035977531 0.048264857 0.0036480054 0.048533175 0.99274939 -0.095040888
1459452830.1887 0.99043137 -0.098852694 0.0037054103 0.048649043 0.0037872903 0.048932865 0.99280679 -0.095395535
1469449056.6038 0.99041742 -0.099486977 0.0039041983 0.049009401 0.0039446894 0.049274936 0.99303985 -0.096051425
1479445283.0189 0.99035186 -0.10022003 0.0039866008 0.049262069 0.0040401975 0.049571626 0.993119 -0.096892953
1489441509.434 0.99019122 -0.10064119 0.0041158628 0.049594432 0.0041420832 0.049882006 0.99292135 -0.097814888
1499437735.8491 0.98996282 -0.10098535 0.0042744353 0.04987875 0.0042923745 0.050159991 0.9928714 -0.098672658
1509433962.2642 0.98999113 -0.10151086 0.0043263761 0.050157622 0.0043776571 0.050424598 0.99272358 -0.099292219
1519430188.6792 0.99016911 -0.10197625 0.0044040401 0.050395995 0.0044421479 0.05073731 0.99254519 -0.09990561
1529426415.0943 0.99008501 -0.10275975 0.0044441037 0.050695606 0.0044677965 0.050997175 0.9923842 -0.10035822
1539422641.5094 0.99010742 -0.10351912 0.0045252023 0.051005632 0.0045317477 0.051321983 0.99259567 -0.10086682
1549418867.9245 0.99003333 -0.10434435 0.0046000406 0.051291984 0.0045961002 0.051595245 0.99278486 -0.1015121
1559415094.3396 0.98990464 -0.10505813 0.0046060923 0.051560968 0.0046249088 0.051909298 0.99288774 -0.10213304
1569411320.7547 0.98978049 -0.1057298 0.0046515418 0.051824104 0.004680112 0.052208088 0.99283898 -0.102966
1579407547.1698 0.98958355 -0.10630587 0.0046859467 0.05212849 0.0047368417 0.052540384 0.99250853 -0.1038617
1589403773.5849 0.98962772 -0.10678235 0.0046992693 0.052382231 0.0046858024 0.052786946 0.99231434 -0.10456735
1599400000 0.98959893 -0.10731491 0.0046808477 0.052687816 0.0046976823 0.053090092 0.99187458 -0.10498729
1609396226.4151 0.98957318 -0.10797176 0.0046623927 0.053033777 0.0047105597 0.053420193 0.99174327 -0.10551292
1619392452.8302 0.98957038 -0.10850424 0.0046919957 0.053360131 0.0046739187 0.053743683 0.99168873 -0.10598028
1629388679.2453 0.98927945 -0.10928518 0.0047161002 0.053738363 0.0046795085 0.054128882 0.99183971 -0.10650834
1639384905.6604 0.98905677 -0.10991305 0.004717174 0.054065987 0.0047239475 0.054502886 0.99211395 -0.10732417
1649381132.0755 0.98889434 -0.11054215 0.0046983194 0.054421481 0.0047412068 0.054873466 0.99212402 -0.10829082
1659377358.4906 0.98876023 -0.11134261 0.0047292411 0.054830354 0.0047711115 0.055253249 0.99202591 -0.1091243
1669373584.9057 0.98868769 -0.11173104 0.0047115497 0.055212628 0.0048037036 0.055625468 0.9917239 -0.1097877
1679369811.3208 0.98870289 -0.11247417 0.0048102923 0.055504773 0.0048261229 0.056011278 0.99153101 -0.11028361
1689366037.7358 0.98864722 -0.11306557 0.0048368908 0.05594527 0.0049160477 0.056404568 0.9913761 -0.11061993
1699362264.1509 0.9888292 -0.1136748 0.0049326755 0.056327656 0.0048944894 0.05677665 0.99149227 -0.11110486
1709358490.566 0.98865455 -0.11437052 0.0049721394 0.056671195 0.0049426341 0.057165049 0.99158877 -0.11157371
1719354716.9811 0.98840117 -0.11494893 0.0050217379 0.05706761 0.0050472263 0.05753582 0.9916302 -0.11229339
