!Keysight Technologies,N5222B,MY61253708,A.15.00.15
!Date: Wednesday, June 19, 2024 10:40:50
!Correction: S11(C  2-Port  ) 
!S21(C  2-Port  ) 
!S12(C  2-Port  ) 
!S22(C  2-Port  ) 
!S2P File: Measurements: S11, S21, S12, S22:
# Hz S  RI   R 50
10000000 0.99813879 -0.0035307705 -0.00019773582 0.0005406175 8.5340464e-005 0.00025203731 0.99846536 -0.0017037094
19996226.415094 0.999735 -0.0023581386 1.8374703e-005 0.00062593789 -6.2612409e-005 0.00056760421 0.99991554 -0.0022152662
29992452.830189 0.99947333 -0.0026284456 -0.0001021151 0.00095264055 -3.3166492e-005 0.0010112758 0.99932605 -0.0027339756
39988679.245283 1.0000331 -0.0030756891 -2.3207875e-005 0.0013280917 1.7281243e-005 0.0012956777 0.99975109 -0.003128171
49984905.660377 1.0002545 -0.0037219524 -2.6513007e-006 0.0016265404 5.6527788e-006 0.0016127885 0.99995518 -0.00361076
59981132.075472 1.0004318 -0.0045634806 -1.2510573e-006 0.0019648054 2.3397384e-005 0.0019527443 0.99997342 -0.0041326284
69977358.490566 1.0001879 -0.0051047057 3.286036e-005 0.0022646342 3.227936e-005 0.002261363 0.99985081 -0.0046386793
79973584.90566 0.99993551 -0.0056967139 5.6775985e-005 0.0025614202 -2.3174332e-005 0.0025607194 0.99948418 -0.0051194131
89969811.320755 0.99990273 -0.0057231486 -4.9469527e-006 0.0028879233 2.9863208e-005 0.0029097763 0.99969399 -0.0052866936
99966037.735849 1.0001638 -0.006487444 2.6893103e-005 0.0032315576 1.2464006e-005 0.0032318919 0.99978477 -0.0060492009
109962264.15094 1.0001245 -0.0073702335 2.6369409e-005 0.0035520364 2.9860938e-005 0.0035542257 0.99981403 -0.0068293661
119958490.56604 1.0001861 -0.0082487762 3.1276955e-005 0.0038633056 3.7305057e-005 0.0039009003 0.9998464 -0.0076975226
129954716.98113 1.0001523 -0.0092366338 3.0317227e-005 0.0041916496 2.9637595e-005 0.0041969041 0.99987686 -0.0086078048
139950943.39623 1.0001216 -0.010055644 3.6092621e-005 0.0044863396 4.7443158e-005 0.0045355549 0.99976671 -0.0093294084
149947169.81132 0.9999553 -0.010713339 2.8279843e-005 0.004829396 4.1601481e-005 0.0048399037 0.99970293 -0.0099110603
159943396.22642 0.99987525 -0.011180371 4.2312546e-005 0.0051844977 3.8394704e-005 0.0051837848 0.99976927 -0.010330111
169939622.64151 0.99986947 -0.011544809 6.0725957e-005 0.0054942328 6.8692432e-005 0.0055146748 0.99982756 -0.010697976
179935849.0566 0.99988651 -0.011710167 7.5271935e-005 0.00580983 6.6725304e-005 0.0058270395 0.99972504 -0.011027783
189932075.4717 0.99999213 -0.012513697 9.284378e-005 0.0061301189 9.0491958e-005 0.0061366148 0.99998569 -0.011587709
199928301.88679 0.99993753 -0.013303339 9.4868359e-005 0.0064252582 8.1129139e-005 0.0064582052 0.99984622 -0.012471437
209924528.30189 0.99964666 -0.013881594 7.6682307e-005 0.0067997142 9.3400129e-005 0.0067892359 0.99961996 -0.013150007
219920754.71698 0.9998039 -0.014647722 0.00010820804 0.0071291272 0.00011206651 0.0071040504 0.999511 -0.013721138
229916981.13208 0.99961501 -0.015536755 0.0001306429 0.0074041719 0.0001144174 0.0074282764 0.9994505 -0.014497399
239913207.54717 0.99951547 -0.016242296 0.00012209029 0.0077367057 0.00014074266 0.007762874 0.99942285 -0.015194871
249909433.96226 0.99951005 -0.016818851 0.00014496199 0.0080481172 0.00016053044 0.0080736801 0.99950802 -0.015774786
259905660.37736 0.99967611 -0.017371505 0.00014520017 0.0083938669 0.00016018469 0.0084202057 0.99971139 -0.016250759
269901886.79245 0.99976379 -0.017971098 0.0001236524 0.008706796 0.00017426023 0.0087086847 1.0001436 -0.01702714
279898113.20755 1.0000111 -0.01876238 0.00016667135 0.0090449583 0.00016239891 0.0091063827 1.000011 -0.017736107
289894339.62264 0.99983335 -0.019454777 0.00016979221 0.0093534142 0.00019263895 0.0094069131 0.99998808 -0.018465251
299890566.03774 0.99977136 -0.020014107 0.00022770348 0.0096583841 0.00019724411 0.0097344229 0.99962944 -0.018854767
309886792.45283 0.99957955 -0.020553887 0.00019041443 0.009962922 0.00019422144 0.0099942507 0.99953622 -0.019328631
319883018.86792 0.99955893 -0.021201491 0.00022293627 0.010328405 0.00022630021 0.010327493 0.99967802 -0.019751608
329879245.28302 0.99958563 -0.021809697 0.00021208636 0.010608184 0.00019495282 0.010645821 0.99979389 -0.020563841
339875471.69811 0.99951714 -0.022559248 0.00025727856 0.010951502 0.00025456003 0.010960325 0.99972957 -0.021335013
349871698.11321 0.9997012 -0.023466796 0.00027211313 0.011244007 0.0002381627 0.011292416 0.99982822 -0.022331655
359867924.5283 0.99949574 -0.024192363 0.00028856052 0.011581023 0.00028475141 0.011614095 0.99978232 -0.023185372
369864150.9434 0.99978215 -0.025026232 0.00028399541 0.011922171 0.00029911706 0.011951937 0.99976677 -0.024004132
379860377.35849 0.99952632 -0.025682554 0.00032231677 0.012249358 0.00034303754 0.012283089 0.99964303 -0.024711519
389856603.77358 0.99953002 -0.026288569 0.00035752263 0.012582805 0.00034487387 0.012592782 0.99960327 -0.02513355
399852830.18868 0.9992981 -0.026772559 0.00032856129 0.012875156 0.00030710967 0.012911115 0.99958259 -0.02572155
409849056.60377 0.99917424 -0.027246503 0.0003594759 0.013221575 0.00033436026 0.013262506 0.99957448 -0.026273187
419845283.01887 0.99915755 -0.027750403 0.00035345741 0.013509546 0.00037861615 0.013561027 0.99946767 -0.026790529
429841509.43396 0.9991554 -0.028369278 0.00037785433 0.013845142 0.00040166546 0.013876492 0.99957645 -0.027517468
439837735.84906 0.99908435 -0.029287755 0.00041519559 0.014141494 0.00041711912 0.014210464 0.99926692 -0.028548926
449833962.26415 0.9989168 -0.030127376 0.00043468038 0.014476907 0.00043814583 0.014515843 0.99872804 -0.029314876
459830188.67925 0.99869895 -0.030732185 0.00042809313 0.014778243 0.00042543001 0.01484785 0.99842054 -0.029922038
469826415.09434 0.99866903 -0.031483829 0.00044254772 0.015143643 0.00044834707 0.015194298 0.99808687 -0.030402511
479822641.50943 0.99855387 -0.031986222 0.00049426348 0.015435957 0.00043965061 0.015512971 0.99810052 -0.030707188
489818867.92453 0.9986797 -0.032480568 0.00049019512 0.015774837 0.00052419305 0.015838034 0.99842501 -0.031162113
499815094.33962 0.9985621 -0.033017963 0.00054749288 0.01608843 0.00053452142 0.016115705 0.99860132 -0.031578749
509811320.75472 0.99877363 -0.033319578 0.00056916272 0.016386539 0.00056214631 0.016452078 0.99875236 -0.032248992
519807547.16981 0.99873149 -0.033869684 0.00057385489 0.016672628 0.00057362113 0.016769653 0.99876654 -0.032929122
529803773.58491 0.99870151 -0.034395754 0.0005729245 0.016995255 0.00057996251 0.017094266 0.99853194 -0.033393085
539800000 0.99873608 -0.035033897 0.0005897081 0.017342394 0.00057953596 0.017426481 0.99847895 -0.033987328
549796226.41509 0.99867022 -0.03587687 0.00059240358 0.017746881 0.00061116507 0.017725524 0.99822849 -0.034362048
559792452.83019 0.99850094 -0.036583036 0.00060813595 0.017976016 0.00062788092 0.018061709 0.99826306 -0.034797072
569788679.24528 0.99830139 -0.03726846 0.00066679809 0.018341489 0.00064092083 0.01835699 0.99848455 -0.035568744
579784905.66038 0.99834698 -0.037752919 0.00067766139 0.018687667 0.0006707554 0.018694326 0.99872249 -0.036207139
589781132.07547 0.99849755 -0.038407207 0.00070874114 0.018988611 0.00068364479 0.019008171 0.99886513 -0.037057459
599777358.49057 0.99869394 -0.038962185 0.00072558783 0.01928319 0.0007583499 0.019335464 0.99894571 -0.037867099
609773584.90566 0.99887967 -0.039776467 0.0007532966 0.019596141 0.00077009085 0.019674236 0.99885356 -0.038670979
619769811.32075 0.99896353 -0.04047209 0.00080434885 0.019927923 0.00078669423 0.019984329 0.99877334 -0.039222777
629766037.73585 0.99877524 -0.041139245 0.00083811022 0.020231809 0.00081151817 0.020302916 0.99863958 -0.039697111
639762264.15094 0.99863017 -0.041681558 0.00081866328 0.020542249 0.0008633784 0.020591753 0.9984895 -0.040059566
649758490.56604 0.99841368 -0.042269886 0.00085250288 0.020879053 0.00083845528 0.020915654 0.99867111 -0.040501803
659754716.98113 0.99835944 -0.042799175 0.00084932242 0.021178544 0.00088137574 0.021248819 0.99871469 -0.041081518
669750943.39623 0.99835116 -0.04321003 0.00086636096 0.021504752 0.00085818442 0.021595826 0.99882782 -0.041905463
679747169.81132 0.99839538 -0.04399728 0.00091152184 0.021872001 0.00091856183 0.021917019 0.99892581 -0.042839959
689743396.22642 0.99858177 -0.044864446 0.00097741093 0.022194857 0.0009502694 0.022261634 0.99871945 -0.043816864
699739622.64151 0.99872655 -0.045630574 0.00098037254 0.022491667 0.00098706037 0.022556733 0.99863696 -0.044517994
709735849.0566 0.99876177 -0.046514221 0.0010424819 0.022785405 0.0010372556 0.022904899 0.99841666 -0.045219421
719732075.4717 0.99851441 -0.047177494 0.0010718438 0.023119321 0.0010509701 0.023184793 0.99848086 -0.045788169
729728301.88679 0.99845678 -0.047778934 0.0010942323 0.023419224 0.001083632 0.023489568 0.99856997 -0.046322346
739724528.30189 0.99834728 -0.048359111 0.0011389083 0.023736915 0.0011101947 0.023781303 0.99871683 -0.046966553
749720754.71698 0.99823606 -0.048874855 0.0011808849 0.024022179 0.00115562 0.024117852 0.9987458 -0.047692686
759716981.13208 0.99826014 -0.049364358 0.0011751661 0.024336873 0.0011708206 0.024436625 0.99874759 -0.048427641
769713207.54717 0.99812323 -0.050089896 0.0012115603 0.02467601 0.0012027677 0.024720306 0.9983747 -0.049147785
779709433.96226 0.9983629 -0.050713066 0.0012402899 0.024977921 0.0012754184 0.02505766 0.9981212 -0.049832709
789705660.37736 0.99819654 -0.051628023 0.0012920937 0.02530827 0.0012626993 0.02536935 0.99788821 -0.050489932
799701886.79245 0.99814427 -0.052421749 0.0013135383 0.025634162 0.0013079802 0.025695056 0.9977119 -0.051080137
809698113.20755 0.99804902 -0.05302529 0.0013384675 0.025932441 0.0013163479 0.026008023 0.99769485 -0.051544294
819694339.62264 0.99785513 -0.053659916 0.0013511558 0.026198555 0.0013658889 0.026328512 0.99784553 -0.052139312
829690566.03774 0.99785674 -0.05424571 0.0013945606 0.026545163 0.0013964446 0.026641469 0.9980644 -0.053000122
839686792.45283 0.99789315 -0.054614127 0.0014057457 0.02684796 0.0014077411 0.026934721 0.99804068 -0.053821981
849683018.86792 0.99801874 -0.055249572 0.0014004768 0.027176877 0.0014692359 0.027268011 0.99793935 -0.054496616
859679245.28302 0.99800062 -0.055855662 0.0014967471 0.027500309 0.0014790976 0.027566426 0.99761462 -0.055070102
869675471.69811 0.99789751 -0.056681871 0.0015231632 0.027790714 0.0015329132 0.027894497 0.99725091 -0.055556029
879671698.11321 0.99776167 -0.057257473 0.0015522845 0.028103577 0.0015488183 0.028207956 0.99722475 -0.055932045
889667924.5283 0.99767065 -0.058083743 0.0015615728 0.028397571 0.0015744269 0.02849577 0.99706274 -0.056401998
899664150.9434 0.99749672 -0.058810711 0.0015846677 0.028700573 0.0015931185 0.028828828 0.9970746 -0.05699116
909660377.35849 0.99743491 -0.059407026 0.0015950683 0.029008968 0.0015957807 0.029127844 0.99730349 -0.057838395
919656603.77358 0.9975158 -0.060037792 0.0016183998 0.029329998 0.0016350159 0.029432865 0.9972614 -0.058735147
929652830.18868 0.99757028 -0.060730994 0.0016481793 0.029643849 0.0016578576 0.029747322 0.99709344 -0.059566736
939649056.60377 0.99770093 -0.061365426 0.0016892152 0.029939501 0.0016714809 0.030066676 0.99694788 -0.060241014
949645283.01887 0.99768376 -0.062176578 0.0016540554 0.030286839 0.0016858485 0.030385649 0.99663943 -0.060755007
959641509.43396 0.9976427 -0.062802315 0.0016864324 0.030632172 0.0017234525 0.030736826 0.99663198 -0.061133236
969637735.84906 0.99755478 -0.063475311 0.0017478215 0.030972948 0.0017496655 0.031049736 0.99667418 -0.061436176
979633962.26415 0.99739236 -0.064157605 0.0018244868 0.031274211 0.0017954125 0.031359307 0.99671537 -0.062035248
989630188.67925 0.99742711 -0.064669013 0.0018490236 0.031573493 0.0018536029 0.031686798 0.99694824 -0.062631309
999626415.09434 0.99747103 -0.065363169 0.0018606577 0.031874534 0.0018774532 0.032032434 0.99689913 -0.063446164
1009622641.5094 0.99752522 -0.065928414 0.0018683742 0.032217439 0.0019347677 0.032320805 0.99674624 -0.064313516
1019618867.9245 0.99764246 -0.066807762 0.0019567888 0.032537706 0.0019792141 0.032665413 0.99649131 -0.065125734
1029615094.3396 0.99765074 -0.067632258 0.0019995188 0.032832563 0.0020130146 0.032946579 0.99611175 -0.06560412
1039611320.7547 0.99763721 -0.068507642 0.0020254934 0.033128768 0.0020365948 0.033234373 0.99611592 -0.066282213
1049607547.1698 0.99755782 -0.069382533 0.002052471 0.033393525 0.0020600103 0.033526257 0.99617243 -0.066801585
1059603773.5849 0.99746871 -0.070002586 0.002081993 0.033710137 0.00208598 0.033832598 0.9961552 -0.067332566
1069600000 0.99720824 -0.070697695 0.0020702705 0.033984523 0.0021128077 0.034138329 0.99638879 -0.068008274
1079596226.4151 0.99716198 -0.071277946 0.002079396 0.034331996 0.0021230504 0.034483325 0.99638271 -0.068783879
1089592452.8302 0.99717468 -0.0718849 0.0020916732 0.034658462 0.0021654395 0.034788758 0.99631393 -0.06949684
1099588679.2453 0.99724436 -0.072518498 0.0021311715 0.034976162 0.0021737982 0.035132758 0.99601173 -0.070108801
1109584905.6604 0.99745482 -0.073362246 0.0021644477 0.035310358 0.0021653259 0.03544436 0.99580204 -0.070719957
1119581132.0755 0.99741983 -0.074366629 0.002163297 0.03565897 0.0021957569 0.035787497 0.99559927 -0.0710724
1129577358.4906 0.99726599 -0.075096607 0.0021888707 0.035995454 0.0022499766 0.03616545 0.99552059 -0.071531624
1139573584.9057 0.99699754 -0.075993627 0.0022078874 0.03633298 0.0023352243 0.036454588 0.99562383 -0.072190434
1149569811.3208 0.99687672 -0.076807305 0.0022945835 0.03661707 0.0023411771 0.036768939 0.99577767 -0.07289689
1159566037.7358 0.99669862 -0.077412039 0.0023435196 0.03692212 0.002363814 0.037044089 0.99586755 -0.073952675
1169562264.1509 0.99653798 -0.078065366 0.0023421403 0.037229784 0.0023898762 0.037382115 0.99572915 -0.074706823
1179558490.566 0.99653757 -0.078687876 0.0023486945 0.037581101 0.0024063303 0.037739031 0.99561381 -0.075410932
1189554716.9811 0.99649841 -0.07948038 0.0023785345 0.037906703 0.0024683625 0.038061645 0.99530035 -0.075902581
1199550943.3962 0.99648911 -0.080285817 0.0024002567 0.038254183 0.0025133062 0.03838177 0.99515426 -0.076345682
1209547169.8113 0.99625742 -0.081175879 0.0024490729 0.038581342 0.0025103167 0.038683821 0.99506247 -0.076594353
1219543396.2264 0.99614382 -0.082021341 0.0025001713 0.038934257 0.0025859885 0.03906396 0.99515402 -0.077023685
1229539622.6415 0.99581563 -0.082788408 0.0026137922 0.039236959 0.0026560221 0.039377905 0.99532557 -0.077748746
1239535849.0566 0.9956286 -0.0835253 0.0026283078 0.039548643 0.0026763035 0.039663669 0.99538636 -0.078591377
1249532075.4717 0.99531025 -0.084125429 0.002674367 0.039863471 0.0027691768 0.03998325 0.99530417 -0.079445988
1259528301.8868 0.99518561 -0.084588885 0.0027231779 0.040183879 0.0028292667 0.040316727 0.9950757 -0.080344975
1269524528.3019 0.99502766 -0.085353225 0.0028165355 0.040499676 0.0029019294 0.040587507 0.99481642 -0.080985695
1279520754.717 0.99472809 -0.086032309 0.0028271 0.040760282 0.0029336002 0.040836018 0.99457502 -0.081509769
1289516981.1321 0.99463689 -0.08681947 0.0028590988 0.04103573 0.0029402794 0.041113023 0.9946242 -0.08193025
1299513207.5472 0.99425089 -0.087751925 0.0028505996 0.041340578 0.0029605068 0.041446872 0.99478292 -0.082259119
1309509433.9623 0.99389029 -0.088322476 0.0028689709 0.041641511 0.0029975111 0.041715432 0.99491447 -0.082960635
1319505660.3774 0.99348313 -0.089112669 0.0028467039 0.041987933 0.0029532015 0.042040404 0.99491835 -0.083620071
1329501886.7925 0.99317396 -0.089779407 0.0028859954 0.042320102 0.0029956326 0.04237543 0.99497032 -0.08454749
1339498113.2075 0.99292719 -0.090284139 0.0028976705 0.042611547 0.0029932149 0.042677797 0.99452782 -0.085276991
1349494339.6226 0.99285501 -0.090783887 0.0028851931 0.042929079 0.0029702289 0.042985007 0.99416405 -0.08588887
1359490566.0377 0.99271274 -0.091427326 0.0029206034 0.043280818 0.0029752683 0.043340288 0.99402851 -0.086379737
1369486792.4528 0.99253446 -0.091867208 0.0029270807 0.043630064 0.0029788325 0.043655954 0.99385571 -0.086824864
1379483018.8679 0.99223495 -0.092510104 0.0029448278 0.044004578 0.0029830355 0.044033967 0.99386239 -0.087164588
1389479245.283 0.99197066 -0.093045473 0.0029779952 0.044360381 0.0030646957 0.04437419 0.99392974 -0.087851912
1399475471.6981 0.99148178 -0.093432844 0.0029815082 0.044680737 0.0030584149 0.044708982 0.99404556 -0.088468969
1409471698.1132 0.99116349 -0.093831018 0.0030348483 0.045064762 0.0030932259 0.045096103 0.99401134 -0.089364089
1419467924.5283 0.99106115 -0.094089568 0.003028811 0.045401383 0.0030895136 0.045481849 0.99392265 -0.089994907
1429464150.9434 0.99092287 -0.094533384 0.0030628871 0.045838736 0.0031115171 0.045876458 0.99380076 -0.09062013
1439460377.3585 0.99111569 -0.094996288 0.00315277 0.0462556 0.0031748386 0.046312775 0.99349535 -0.090882301
1449456603.7736 0.9911238 -0.095511168 0.00324657 0.046654858 0.0032961145 0.046675421 0.99340522 -0.091231421
1459452830.1887 0.99116552 -0.096224993 0.0033852551 0.047014058 0.0033981409 0.047082379 0.99360144 -0.091544956
1469449056.6038 0.99109042 -0.096968383 0.0035475362 0.047361013 0.0035463655 0.047427565 0.99383026 -0.092215508
1479445283.0189 0.99104375 -0.097590581 0.0036841778 0.047627937 0.0036862653 0.047719017 0.99388254 -0.093096048
1489441509.434 0.99090189 -0.098069996 0.0038205609 0.047950104 0.0038225185 0.04800801 0.99376118 -0.093969226
1499437735.8491 0.99075091 -0.098391771 0.0038779099 0.048176929 0.003897408 0.048267093 0.9936676 -0.094814837
1509433962.2642 0.99071187 -0.098924473 0.003976135 0.04850176 0.003989296 0.048538435 0.99351692 -0.095507294
1519430188.6792 0.99086612 -0.099413514 0.0040579811 0.048745256 0.0040575098 0.048786327 0.99338472 -0.096050322
1529426415.0943 0.9908241 -0.10004041 0.004094027 0.049020298 0.0041050501 0.049041256 0.99334955 -0.09644714
1539422641.5094 0.99084181 -0.1008684 0.0041363141 0.049294237 0.0041198013 0.049358003 0.9933598 -0.096887916
1549418867.9245 0.99068522 -0.1017092 0.0041908426 0.04957648 0.0041706711 0.049619772 0.99357277 -0.097580984
1559415094.3396 0.99060464 -0.10235831 0.0042407382 0.049886085 0.0042115282 0.049914584 0.9937585 -0.098210394
1569411320.7547 0.99038094 -0.10313098 0.004292761 0.050113268 0.004268379 0.050156966 0.99368668 -0.099136859
1579407547.1698 0.99033868 -0.10362832 0.0042863078 0.050345846 0.0042792927 0.050468862 0.9933548 -0.099926203
1589403773.5849 0.99025726 -0.10415778 0.0043382011 0.05066441 0.0042999387 0.050743893 0.99310184 -0.10059634
1599400000 0.99025077 -0.10462835 0.004307338 0.051012222 0.0042445818 0.05101205 0.99271929 -0.10100257
1609396226.4151 0.99017012 -0.1052549 0.0043057092 0.051288426 0.0042845039 0.051326524 0.99249899 -0.10161461
1619392452.8302 0.99017024 -0.10579669 0.0042902492 0.051618062 0.0042384136 0.051677659 0.99255645 -0.10203782
1629388679.2453 0.98998815 -0.10646215 0.0043006372 0.051933277 0.0042287484 0.052033011 0.99274158 -0.10249236
1639384905.6604 0.98972297 -0.1071503 0.0043135844 0.052301306 0.0042335493 0.052442972 0.99305046 -0.1033541
1649381132.0755 0.98955762 -0.10779572 0.004336182 0.052630782 0.0042945296 0.052748095 0.99302065 -0.10428965
1659377358.4906 0.98940635 -0.10849306 0.0043440629 0.052985787 0.004303569 0.053110451 0.9929567 -0.10515478
1669373584.9057 0.98933756 -0.10899604 0.004360212 0.053349685 0.0043205158 0.053471293 0.99264336 -0.10575923
1679369811.3208 0.98928469 -0.1096476 0.0044169826 0.053709228 0.0043744575 0.053797893 0.99244797 -0.10633942
1689366037.7358 0.9893049 -0.11033952 0.0044964645 0.054051604 0.0044044871 0.054188266 0.99223477 -0.10665542
1699362264.1509 0.98946404 -0.11088146 0.0045078769 0.054414883 0.0044358484 0.054595724 0.99248284 -0.10707356
1709358490.566 0.98934066 -0.11147521 0.0045617549 0.054792162 0.0045139631 0.054936223 0.99246967 -0.10755251
1719354716.9811 0.98903149 -0.11209023 0.0045894589 0.055164032 0.0045598224 0.055292189 0.99255955 -0.10829148
