!Keysight Technologies,N5222B,MY61253708,A.15.00.15
!Date: Wednesday, June 19, 2024 09:22:33
!Correction: S11(C  2-Port  ) 
!S21(C  2-Port  ) 
!S12(C  2-Port  ) 
!S22(C  2-Port  ) 
!S2P File: Measurements: S11, S21, S12, S22:
# Hz S  RI   R 50
10000000 0.99885869 -0.0024389923 -0.00026975138 9.5459269e-005 -0.00015131006 0.00017213981 0.99863338 -0.0014348328
19996226.415094 0.99899352 -0.002086997 8.771065e-005 0.00077719952 0.00010875464 0.00055942178 0.99914777 -0.0022467375
29992452.830189 0.99966419 -0.0023156703 -5.7428813e-005 0.001036233 4.9487426e-005 0.0010308054 0.99948239 -0.002676338
39988679.245283 0.99995148 -0.003044188 -4.942849e-006 0.0014348344 6.1020335e-005 0.0013566223 0.99972916 -0.0031626076
49984905.660377 1.0001237 -0.0037772059 1.1117663e-007 0.0017568949 5.4899487e-005 0.0017421204 0.99974751 -0.0037318766
59981132.075472 1.0003421 -0.0046835542 5.9314363e-005 0.0020065568 2.1796557e-005 0.0020539179 0.99977565 -0.0042625964
69977358.490566 1.0000464 -0.0052204169 6.9964808e-006 0.0023977747 1.6183225e-005 0.0023863395 0.99959481 -0.0047933329
79973584.90566 0.99986631 -0.0057995915 5.7331752e-005 0.0026971467 8.6867949e-006 0.0027245441 0.99926829 -0.0052391589
89969811.320755 0.99982941 -0.0059897602 4.14307e-005 0.0030083479 2.0634034e-005 0.0030561369 0.99953705 -0.0055889785
99966037.735849 1.0000697 -0.0066833347 1.3103476e-005 0.0033798274 1.1185475e-005 0.003388077 0.99960339 -0.0063644201
109962264.15094 1.0000998 -0.0076185465 2.0994048e-005 0.0037284298 4.744617e-005 0.003733696 0.99958777 -0.007203564
119958490.56604 1.0000858 -0.0086314976 2.521975e-005 0.0040330789 3.0833529e-005 0.0040945453 0.99960756 -0.0080901682
129954716.98113 1.0000794 -0.0096114576 4.0145591e-005 0.0043730922 5.5961194e-005 0.0044320822 0.99960893 -0.0090228021
139950943.39623 0.99998271 -0.010383207 4.8809248e-005 0.0046932991 5.5972487e-005 0.0047424356 0.99952483 -0.0097497683
149947169.81132 0.9998914 -0.011122257 6.1545987e-005 0.0050639911 6.685569e-005 0.0051032882 0.99945754 -0.010361254
159943396.22642 0.99983144 -0.011626422 5.3915428e-005 0.0053744256 6.278092e-005 0.0054274239 0.99955213 -0.010816336
169939622.64151 0.99986637 -0.012019247 7.6248834e-005 0.0057291961 6.6485663e-005 0.0057713804 0.99962944 -0.011242069
179935849.0566 0.99989116 -0.012325644 0.0001018811 0.0060585756 8.7689026e-005 0.0061056106 0.99958289 -0.011645466
189932075.4717 1.0000005 -0.013124883 6.0694758e-005 0.0064249383 0.00011381693 0.006443724 0.99973977 -0.012220562
199928301.88679 0.99990386 -0.013935179 7.6371594e-005 0.0067622424 0.00012826687 0.0067974222 0.99961436 -0.013152748
209924528.30189 0.99970585 -0.014537916 9.4727962e-005 0.0070665595 0.0001170371 0.0071146893 0.99937576 -0.013873726
219920754.71698 0.99967396 -0.015374929 0.00011917786 0.0074170306 0.00012762193 0.0074561406 0.99922138 -0.014543295
229916981.13208 0.99950391 -0.016235054 0.00013168762 0.0077413619 0.00012643961 0.0077887806 0.99918842 -0.015297651
239913207.54717 0.99936968 -0.016978715 0.00013741736 0.0080693215 0.00013997797 0.0081450529 0.99914265 -0.016028149
249909433.96226 0.99939954 -0.017629623 0.00015315763 0.0083951885 0.00015326147 0.0084631182 0.99929523 -0.016661793
259905660.37736 0.99954891 -0.018192291 0.00012680842 0.0087635033 0.00014837831 0.0088117113 0.99953043 -0.017297149
269901886.79245 0.99967903 -0.018815994 0.00018262793 0.0091314986 0.00016451743 0.0091977594 0.99973792 -0.017901927
279898113.20755 0.99978596 -0.019572407 0.00018963288 0.0094426433 0.00018151384 0.0095138485 0.99967504 -0.018704906
289894339.62264 0.99968982 -0.020267546 0.00020751124 0.0097655198 0.00017957762 0.009843288 0.99955958 -0.019430637
299890566.03774 0.99968153 -0.020838618 0.00018516951 0.010115364 0.00019868324 0.010180243 0.99941242 -0.019908607
309886792.45283 0.99932295 -0.021437302 0.00019394269 0.010443844 0.00026858813 0.010551353 0.99926484 -0.020353802
319883018.86792 0.99945927 -0.022001594 0.00025106315 0.010727184 0.00020637456 0.010863341 0.99940443 -0.020815104
329879245.28302 0.99930584 -0.022685766 0.00023321528 0.011138678 0.00024444563 0.011180926 0.99944371 -0.021578223
339875471.69811 0.99927366 -0.023456365 0.00027547567 0.011471369 0.00027532747 0.01157102 0.99931812 -0.022457778
349871698.11321 0.99944812 -0.02431494 0.00030742656 0.011780375 0.00029295683 0.011917749 0.99941421 -0.023365706
359867924.5283 0.9992674 -0.025153637 0.00033737952 0.012082154 0.00033808872 0.012195328 0.99929047 -0.024273425
369864150.9434 0.99950713 -0.025947839 0.00034214556 0.01249906 0.00034471089 0.012535517 0.99934465 -0.024882495
379860377.35849 0.99939167 -0.026624441 0.00036671502 0.012784919 0.0003130862 0.012894757 0.99923098 -0.025634378
389856603.77358 0.99930167 -0.027059466 0.00036974344 0.013142993 0.00034005009 0.013180769 0.9992274 -0.026158214
399852830.18868 0.99916792 -0.027791023 0.00038028695 0.013453817 0.00036293641 0.013567245 0.99928707 -0.026579678
409849056.60377 0.99908972 -0.028236298 0.00039450204 0.013734877 0.00039359965 0.013892938 0.99916488 -0.02707329
419845283.01887 0.99903655 -0.028602839 0.00040015858 0.014102028 0.00042674318 0.01424627 0.99922597 -0.027605683
429841509.43396 0.99921948 -0.02932322 0.00044559967 0.014431166 0.00044332026 0.014569858 0.99940693 -0.028358221
439837735.84906 0.99920607 -0.030329332 0.00045083906 0.014774825 0.0004726206 0.014919324 0.999259 -0.029341847
449833962.26415 0.99906033 -0.031145722 0.00046758773 0.015094137 0.00044796988 0.015226065 0.99885297 -0.030225039
459830188.67925 0.99892473 -0.031947643 0.00048204325 0.015434135 0.00042694388 0.015586774 0.99860907 -0.030878693
469826415.09434 0.99888045 -0.032679647 0.00048276968 0.015790792 0.00049974304 0.015932232 0.99839282 -0.031505853
479822641.50943 0.99869865 -0.033288822 0.00051442208 0.016137939 0.00050709932 0.016276184 0.99846756 -0.031923242
489818867.92453 0.99886012 -0.033822984 0.00053645438 0.016472489 0.00055752322 0.01658877 0.99876958 -0.032477468
499815094.33962 0.99892098 -0.034559578 0.00060362043 0.016803743 0.00057998532 0.016944347 0.99908733 -0.03303051
509811320.75472 0.99898016 -0.034871411 0.00055507832 0.01713975 0.00058064092 0.017262248 0.99923003 -0.033886198
519807547.16981 0.99895048 -0.035497069 0.00060934341 0.017431606 0.00059539312 0.017607301 0.9991408 -0.034713537
529803773.58491 0.99884081 -0.035989374 0.00061053876 0.017790658 0.00062591676 0.017952342 0.99881512 -0.03524074
539800000 0.99904251 -0.036794797 0.00064272201 0.018149063 0.0006581815 0.018272726 0.99870753 -0.035899416
549796226.41509 0.99875683 -0.037671238 0.0007220679 0.018464524 0.00066417828 0.018630987 0.99853635 -0.03636083
559792452.83019 0.9985491 -0.03838861 0.00070951413 0.018848453 0.00066822208 0.018979054 0.9984231 -0.036888361
569788679.24528 0.99845445 -0.039067894 0.00069914199 0.019149447 0.000698396 0.019320447 0.99865407 -0.037679702
579784905.66038 0.99842733 -0.039646603 0.00072903931 0.019501837 0.00070506427 0.019646429 0.99871659 -0.03840252
589781132.07547 0.99847329 -0.040251255 0.00081132259 0.019851532 0.00079572946 0.020013742 0.99885237 -0.039273024
599777358.49057 0.99867845 -0.040995538 0.00082849525 0.020196097 0.0008136481 0.020329721 0.99893153 -0.040080994
609773584.90566 0.99880964 -0.041659571 0.00084205088 0.020450903 0.0008825048 0.020639053 0.99865943 -0.040963188
619769811.32075 0.99886262 -0.042392164 0.00087923463 0.020856306 0.00092542078 0.021006735 0.99865532 -0.041487634
629766037.73585 0.99865717 -0.042995989 0.00092557445 0.021160476 0.00093692169 0.021315094 0.9984324 -0.041938931
639762264.15094 0.99842399 -0.04369837 0.00093159731 0.021448471 0.00090979878 0.021655001 0.99828118 -0.042420447
649758490.56604 0.99835312 -0.044278339 0.00094843842 0.021769943 0.000946966 0.021969881 0.99841392 -0.042939067
659754716.98113 0.99815792 -0.044797868 0.0009146696 0.022123031 0.000967131 0.022317408 0.99850452 -0.043505162
669750943.39623 0.9982782 -0.045349509 0.00095254648 0.022456206 0.00098957075 0.02264398 0.99847138 -0.044279307
679747169.81132 0.99817556 -0.046145834 0.0010093861 0.022792792 0.0010375809 0.023008043 0.99846196 -0.045220375
689743396.22642 0.99837846 -0.046891063 0.0010989299 0.023130056 0.0010292949 0.023376744 0.99831015 -0.046195835
699739622.64151 0.99845958 -0.047683001 0.0011006854 0.023514602 0.0010992978 0.023711175 0.99826616 -0.046887189
709735849.0566 0.9984318 -0.048567243 0.001151599 0.023796121 0.0011692537 0.024019793 0.99801439 -0.047565654
719732075.4717 0.99835598 -0.049308896 0.0011666426 0.02416582 0.0012203921 0.02433718 0.99814731 -0.048117608
729728301.88679 0.99820876 -0.04965511 0.0012203669 0.024455335 0.0012169946 0.024662012 0.99812865 -0.048598826
739724528.30189 0.9981252 -0.050374195 0.0012211879 0.0247679 0.0012199879 0.025001748 0.99828249 -0.049289867
749720754.71698 0.99804723 -0.050881729 0.0012782137 0.025096366 0.0012715003 0.02531323 0.99832517 -0.04995136
759716981.13208 0.9980998 -0.051472455 0.0012902617 0.025440186 0.0012983158 0.025659099 0.9982574 -0.050730586
769713207.54717 0.99796599 -0.052199781 0.0013416642 0.025743801 0.0013537761 0.025998265 0.99802125 -0.051466554
779709433.96226 0.99814963 -0.052838787 0.0013848819 0.02608026 0.0013810166 0.026299538 0.99772072 -0.05215729
789705660.37736 0.99801993 -0.05381453 0.001387788 0.026423138 0.0014304472 0.026605805 0.9974457 -0.052837551
799701886.79245 0.9979285 -0.054589987 0.0014583478 0.026728019 0.0014461037 0.0269561 0.99736655 -0.053459525
809698113.20755 0.99790752 -0.055201009 0.0014834637 0.027064418 0.001480747 0.027279178 0.99747282 -0.053858712
819694339.62264 0.99779445 -0.05591768 0.001480951 0.027366614 0.0014625336 0.027633423 0.99754065 -0.054511994
829690566.03774 0.99780154 -0.056504726 0.001532306 0.027681805 0.001522271 0.027940098 0.9978025 -0.055384368
839686792.45283 0.99787116 -0.056914866 0.0015609227 0.02803367 0.0015922356 0.028277408 0.99782717 -0.056178182
849683018.86792 0.99792874 -0.057646401 0.0015830188 0.028360303 0.0015845515 0.02865129 0.99770582 -0.056995086
859679245.28302 0.99797261 -0.058309942 0.0016353549 0.028732553 0.0016326336 0.028964747 0.99740601 -0.057618111
869675471.69811 0.99782723 -0.059086829 0.0016788309 0.029057426 0.0016826168 0.029296104 0.99710625 -0.058166474
879671698.11321 0.99775386 -0.059718225 0.0016876033 0.029319653 0.0017022823 0.029580876 0.9971379 -0.058580775
889667924.5283 0.99760062 -0.060557306 0.0017342465 0.029669732 0.0017750748 0.029920513 0.99694073 -0.059062719
899664150.9434 0.99741876 -0.06123212 0.0017539803 0.029985324 0.0017810408 0.030248804 0.9970094 -0.059662014
909660377.35849 0.99741292 -0.061939925 0.0017869533 0.030292096 0.0017816927 0.030566905 0.99712586 -0.060575664
919656603.77358 0.99751806 -0.062624618 0.0018219501 0.030635625 0.0018580025 0.030908111 0.99714661 -0.061460227
929652830.18868 0.99751961 -0.063382953 0.0018545482 0.03096484 0.0018817428 0.031259649 0.99700618 -0.062371463
939649056.60377 0.99767298 -0.064000607 0.0018438399 0.031282309 0.0018762359 0.031528722 0.99680328 -0.063121617
949645283.01887 0.99760181 -0.064869605 0.0018484428 0.031619273 0.0018602792 0.031918921 0.99656534 -0.063673496
959641509.43396 0.99752629 -0.065561414 0.0018881708 0.031988062 0.0019168342 0.032297708 0.99648952 -0.064146459
969637735.84906 0.99741536 -0.066302896 0.0019423971 0.032304548 0.0019616876 0.032636721 0.99654514 -0.064461321
979633962.26415 0.99724573 -0.066986933 0.0020095236 0.032632913 0.0020521637 0.032957554 0.99657935 -0.06514442
989630188.67925 0.99730903 -0.06750679 0.0020331927 0.032948535 0.0020566192 0.033261482 0.9966979 -0.065762579
999626415.09434 0.9973051 -0.068095326 0.0020561181 0.033270836 0.0020903666 0.033614088 0.9966625 -0.066479146
1009622641.5094 0.99731463 -0.068818197 0.0020973124 0.033646028 0.0021536211 0.033956897 0.99647802 -0.067442387
1019618867.9245 0.99746227 -0.069690689 0.0021676058 0.033970781 0.0022059917 0.034297511 0.99628532 -0.068311691
1029615094.3396 0.99731338 -0.070609629 0.002183388 0.034259059 0.0022638328 0.034558035 0.99587703 -0.068853438
1039611320.7547 0.99745208 -0.071503609 0.0022404725 0.034556091 0.0022545606 0.034863852 0.99586087 -0.069538236
1049607547.1698 0.99736696 -0.072412834 0.0022874619 0.034926109 0.0023295465 0.035241909 0.99580151 -0.070141554
1059603773.5849 0.99716467 -0.073043197 0.0023124237 0.035185307 0.0023272969 0.0355119 0.99582601 -0.070662767
1069600000 0.99700487 -0.073750913 0.0023096986 0.035507157 0.0023499113 0.035858728 0.99603081 -0.07136637
1079596226.4151 0.9969334 -0.074319243 0.0023325281 0.035845976 0.0023872461 0.036203451 0.99597967 -0.072168313
1089592452.8302 0.99692845 -0.075044245 0.0023829602 0.036177561 0.0024182973 0.036573254 0.99596351 -0.072887152
1099588679.2453 0.9970175 -0.075688332 0.0023840163 0.036499821 0.0024361629 0.03687064 0.99554813 -0.073532522
1109584905.6604 0.9971208 -0.076482013 0.0023979731 0.036852226 0.0024671294 0.037185933 0.99534297 -0.074088007
1119581132.0755 0.99698919 -0.077509739 0.0024138042 0.037174948 0.0024716998 0.037545253 0.9951843 -0.074515387
1129577358.4906 0.99680972 -0.078279793 0.0024445802 0.037558202 0.0025102403 0.037929013 0.99498552 -0.075010717
1139573584.9057 0.99657786 -0.079170465 0.002492724 0.03790947 0.0025834907 0.038236074 0.995121 -0.075741112
1149569811.3208 0.99654913 -0.080043361 0.0025605455 0.038229872 0.0026351386 0.038609013 0.99527913 -0.076443247
1159566037.7358 0.99634588 -0.080656439 0.002598458 0.038545758 0.0026680082 0.038916368 0.99532878 -0.077378273
1169562264.1509 0.99612725 -0.081306517 0.0025958978 0.038876221 0.0026912931 0.039215002 0.99518591 -0.078234822
1179558490.566 0.9960674 -0.082076505 0.0026252388 0.039215975 0.0027315093 0.039601382 0.99502403 -0.078905553
1189554716.9811 0.99606144 -0.08281073 0.0026751831 0.039581187 0.0028053233 0.039961558 0.99479401 -0.079407811
1199550943.3962 0.99601471 -0.083695382 0.0027292427 0.039913736 0.0028377548 0.040281914 0.9945938 -0.07988292
1209547169.8113 0.99583524 -0.084582597 0.0027490249 0.04024623 0.0028479928 0.040554807 0.99448395 -0.08026737
1219543396.2264 0.99569929 -0.085359499 0.002799069 0.040616393 0.0028975061 0.040988918 0.99458641 -0.080593765
1229539622.6415 0.99539268 -0.086248755 0.0028631222 0.040958706 0.0029549971 0.041322872 0.9947232 -0.081266165
1239535849.0566 0.99508262 -0.086912245 0.0029291157 0.041268434 0.0030616 0.041646793 0.99483228 -0.082228899
1249532075.4717 0.99476177 -0.087644607 0.0029927546 0.04160155 0.0031290252 0.041958991 0.99470919 -0.083089724
1259528301.8868 0.99457002 -0.088096678 0.003041653 0.041928671 0.0031570643 0.042274714 0.99433118 -0.083960474
1269524528.3019 0.99445999 -0.088854104 0.0031222869 0.042239353 0.0032556355 0.042580415 0.99416405 -0.084708691
1279520754.717 0.99397784 -0.089498974 0.0031474489 0.042521279 0.0033035756 0.042864963 0.99384671 -0.085237741
1289516981.1321 0.99390882 -0.0903745 0.0032011364 0.042847555 0.0033057583 0.043141887 0.99395084 -0.085605443
1299513207.5472 0.9936837 -0.091281265 0.0032005813 0.043143682 0.003319297 0.043454356 0.99406588 -0.085971355
1309509433.9623 0.99316728 -0.091959387 0.0032079071 0.0434555 0.0033254372 0.043806288 0.99419791 -0.08679311
1319505660.3774 0.99284726 -0.092680946 0.0031887721 0.04379826 0.0033502784 0.044113945 0.99418443 -0.087398395
1329501886.7925 0.9924773 -0.093406707 0.0032458566 0.044113696 0.0033940505 0.044436917 0.99422485 -0.088364601
1339498113.2075 0.99226964 -0.093846112 0.0032474827 0.044453781 0.0034050085 0.044767298 0.99383813 -0.089062929
1349494339.6226 0.99194545 -0.094417199 0.0032290262 0.044797998 0.0033962224 0.045087494 0.99342614 -0.089756921
1359490566.0377 0.99198699 -0.095073193 0.0032627676 0.045166995 0.0033744499 0.045475461 0.99328244 -0.090204418
1369486792.4528 0.99172109 -0.095539331 0.0032999786 0.045531049 0.0034297071 0.045805283 0.99298584 -0.090646207
1379483018.8679 0.99141234 -0.096145988 0.0032707418 0.045886669 0.0034362264 0.046165962 0.99305135 -0.091030791
1389479245.283 0.99106282 -0.096697062 0.0033500604 0.046281517 0.003456682 0.046579085 0.99297607 -0.09175685
1399475471.6981 0.99073458 -0.097030312 0.0033835135 0.046623528 0.0034465361 0.046916336 0.99321222 -0.09241724
1409471698.1132 0.990372 -0.097475536 0.0034003302 0.047013372 0.0035120081 0.047305033 0.99326491 -0.093171798
1419467924.5283 0.99020559 -0.09776935 0.0034126984 0.047350265 0.0035177469 0.047674064 0.99304163 -0.09391737
1429464150.9434 0.98997223 -0.098198473 0.003493173 0.047773734 0.003534982 0.04808145 0.99290681 -0.094431221
1439460377.3585 0.99020302 -0.098636612 0.0035644136 0.04820203 0.0036413269 0.048504043 0.99268937 -0.094823197
1449456603.7736 0.99020278 -0.099199712 0.0036501167 0.048674166 0.0037093684 0.048901152 0.99253011 -0.095149443
1459452830.1887 0.99017036 -0.099884421 0.003796488 0.049027555 0.0038606133 0.049354978 0.99275029 -0.095460415
1469449056.6038 0.99026799 -0.10057119 0.003957497 0.049389146 0.0039999057 0.049686752 0.9928782 -0.096166611
1479445283.0189 0.9900856 -0.10122741 0.0041077202 0.049666435 0.0041509955 0.049947754 0.99302596 -0.097060621
1489441509.434 0.99002391 -0.10168973 0.0042309072 0.050033487 0.0042751189 0.050328106 0.9928062 -0.097919703
1499437735.8491 0.98978209 -0.10203227 0.0043052118 0.050287418 0.0043810979 0.050579235 0.99278033 -0.098765552
1509433962.2642 0.98982668 -0.10254379 0.0043882909 0.050543949 0.0044331197 0.050892312 0.99256599 -0.099479027
1519430188.6792 0.98993713 -0.10306662 0.0044599958 0.050842687 0.0045068674 0.051113218 0.99237692 -0.10005626
1529426415.0943 0.98988676 -0.10372394 0.0045309011 0.051094182 0.0045390576 0.051422738 0.99236977 -0.10050496
1539422641.5094 0.98985076 -0.10467956 0.0046110279 0.051434472 0.0046014986 0.051744364 0.99234343 -0.10094164
1549418867.9245 0.98965812 -0.10538228 0.0047054626 0.051710762 0.0046919519 0.052021705 0.99267703 -0.10168776
1559415094.3396 0.98964196 -0.10608262 0.0047029983 0.051981088 0.0047553629 0.052353069 0.9928 -0.10236481
1569411320.7547 0.98943979 -0.10683686 0.0047485437 0.052273594 0.0047570756 0.052607629 0.99276978 -0.1030947
1579407547.1698 0.98941261 -0.10736649 0.0047931606 0.052534148 0.0048056366 0.05294558 0.99228472 -0.1038544
1589403773.5849 0.98935211 -0.10795259 0.0047839452 0.052844636 0.0047765914 0.053213231 0.9921155 -0.10465342
1599400000 0.98927975 -0.10833225 0.0047346484 0.05313541 0.0048041865 0.053529743 0.99175429 -0.10511035
1609396226.4151 0.98929906 -0.10908148 0.0047858162 0.053476341 0.0047871051 0.053876903 0.99160892 -0.10568909
1619392452.8302 0.98921543 -0.10958835 0.0048314519 0.053845245 0.0047789775 0.054196265 0.99156368 -0.10612518
1629388679.2453 0.98895025 -0.11042532 0.0048026983 0.054176647 0.004783703 0.05456686 0.99181753 -0.10666093
1639384905.6604 0.98882306 -0.11093605 0.0047666593 0.054570582 0.0048000533 0.054947112 0.99199206 -0.10749922
1649381132.0755 0.98858845 -0.11169747 0.0048188679 0.054871667 0.0048288256 0.055309206 0.99206191 -0.10844311
1659377358.4906 0.98838687 -0.11240065 0.0048255231 0.055273965 0.0048985928 0.055664096 0.99199909 -0.10933331
1669373584.9057 0.98834997 -0.11288581 0.0048976918 0.055644255 0.0048888274 0.056101006 0.99172378 -0.10995608
1679369811.3208 0.98831564 -0.11354592 0.0049193408 0.056064453 0.0049316548 0.056435466 0.9914397 -0.11046329
1689366037.7358 0.98837709 -0.11420545 0.0049872771 0.056378871 0.0049848296 0.056847252 0.99124324 -0.11079511
1699362264.1509 0.98852915 -0.11481127 0.0050594807 0.056747735 0.0050325179 0.057229437 0.99142563 -0.11129396
1709358490.566 0.98843813 -0.11547163 0.0051252265 0.057164632 0.0050884886 0.057654563 0.99141711 -0.11178638
1719354716.9811 0.98810923 -0.11614531 0.0051498525 0.057545237 0.0051764119 0.057995759 0.99149716 -0.11262038
1729350943.3962 0.98776054 -0.11667854 0.0052646138 0.057931405 0.0052616857 0.058382098 0.99146664 -0.11340028
