!Keysight Technologies,N5222B,MY61253708,A.15.00.15
!Date: Wednesday, June 19, 2024 09:56:33
!Correction: S11(C  2-Port  ) 
!S21(C  2-Port  ) 
!S12(C  2-Port  ) 
!S22(C  2-Port  ) 
!S2P File: Measurements: S11, S21, S12, S22:
# Hz S  RI   R 50
10000000 0.99852514 -0.0028489828 -8.8667271e-005 0.00017986473 -3.4801778e-005 0.00020582689 0.99867439 -0.0011000037
19996226.415094 0.99994445 -0.0031915307 2.677794e-005 0.00069852348 -5.4615986e-005 0.00057034765 1.0003481 -0.0030826032
29992452.830189 0.99974692 -0.0025093257 2.0835054e-005 0.0010265685 1.9505882e-005 0.00098595361 0.99954212 -0.0026553273
39988679.245283 1.0000412 -0.0030503124 8.7173976e-006 0.0012963284 2.7972361e-005 0.0013696393 0.999695 -0.0030460656
49984905.660377 1.0002226 -0.0036789775 1.7447164e-005 0.0016381277 9.2812697e-006 0.0016691568 0.99985379 -0.0036000609
59981132.075472 1.0003881 -0.0045003593 4.0404964e-005 0.0019691174 1.0223361e-005 0.0020103261 0.99982828 -0.0041340888
69977358.490566 1.0002171 -0.0051407758 -1.0502335e-005 0.002282405 -2.5613117e-006 0.0023025118 0.9997375 -0.0047190748
79973584.90566 0.99992728 -0.0057347417 2.0964071e-005 0.0026059875 2.3935107e-005 0.0026211126 0.99943435 -0.0051934421
89969811.320755 0.99997306 -0.0058335066 -2.9243529e-006 0.0029572058 1.0534888e-005 0.0029565566 0.99969119 -0.0054269433
99966037.735849 1.0001889 -0.006628871 2.7372502e-005 0.0032511761 2.0258245e-005 0.0033284116 0.99971902 -0.0062207133
109962264.15094 1.00017 -0.0075318515 4.0361308e-005 0.0036065432 1.4869496e-005 0.0036487731 0.99973589 -0.0070212036
119958490.56604 1.0001726 -0.0083737373 2.1142769e-005 0.0039334302 4.0032552e-005 0.0039825952 0.99976039 -0.0078696907
129954716.98113 1.0001318 -0.0093422532 3.6049634e-005 0.0042834906 3.1573349e-005 0.0042959885 0.99972761 -0.0087219477
139950943.39623 1.0000824 -0.010114156 5.0328978e-005 0.0046178284 4.8850285e-005 0.004621102 0.99967539 -0.0094532017
149947169.81132 0.99992692 -0.010797828 4.0763291e-005 0.0049343314 5.2413205e-005 0.0049781133 0.9996261 -0.01007992
159943396.22642 0.99993277 -0.01138401 5.2372692e-005 0.0052768914 6.7546265e-005 0.0052904319 0.99969125 -0.010537148
169939622.64151 0.9998942 -0.01177346 8.1855571e-005 0.0056205187 6.1876839e-005 0.0056451275 0.99971932 -0.010978311
179935849.0566 0.99996513 -0.01205197 4.9159746e-005 0.0059662759 6.4625638e-005 0.0059663979 0.99960965 -0.011342257
189932075.4717 1.0000697 -0.012828082 7.6736789e-005 0.006246252 8.3760358e-005 0.0063278731 0.9998318 -0.011905849
199928301.88679 0.99993086 -0.013673455 8.6965389e-005 0.0065939841 0.00010293897 0.0066296491 0.99973166 -0.01276648
209924528.30189 0.99964029 -0.01415813 8.5023348e-005 0.0069152792 0.00012705289 0.006967606 0.99950618 -0.013466075
219920754.71698 0.99988222 -0.014959395 0.00010416936 0.007248153 0.00010709255 0.0072874734 0.99940372 -0.014050275
229916981.13208 0.99972892 -0.015858054 0.00013398263 0.0075731301 0.00010727136 0.0076276083 0.99939269 -0.014846474
239913207.54717 0.99956876 -0.016494865 0.00012417932 0.0079164105 0.00011575865 0.0079477662 0.99936777 -0.015561879
249909433.96226 0.99955678 -0.017144829 0.00014130492 0.0082225949 0.00013086246 0.0082957549 0.99944407 -0.016224563
259905660.37736 0.99967223 -0.01768291 0.00011312775 0.0085930498 0.00013315817 0.0086253844 0.99955893 -0.016767681
269901886.79245 0.99975395 -0.018325016 0.00016981084 0.0088989325 0.00015404227 0.0089758029 0.99994034 -0.017423823
279898113.20755 0.99982667 -0.019051716 0.00018920423 0.0092015145 0.00018358231 0.0092621613 0.99982494 -0.018181384
289894339.62264 0.99979216 -0.019751996 0.00019037724 0.009516554 0.00016163522 0.0096209701 0.99973345 -0.01892671
299890566.03774 0.99969572 -0.020323634 0.00016343175 0.0098920921 0.00019920664 0.0099644568 0.99959487 -0.019348115
309886792.45283 0.99949086 -0.020877928 0.00023451709 0.010227351 0.00022467016 0.010276363 0.99940157 -0.019801468
319883018.86792 0.99963903 -0.021535426 0.00021049241 0.010544838 0.00024450896 0.010629157 0.99955153 -0.020304739
329879245.28302 0.99962348 -0.022285581 0.00024265144 0.010866662 0.00026363134 0.010950279 0.99963099 -0.02105853
339875471.69811 0.99960107 -0.023023531 0.00027456949 0.011215952 0.00024824264 0.01123183 0.99956018 -0.02185481
349871698.11321 0.99959242 -0.023893207 0.00030135713 0.011507173 0.00024636555 0.011595547 0.99954855 -0.022727728
359867924.5283 0.9994843 -0.024623215 0.00027026283 0.011896987 0.00028001843 0.011928489 0.99955106 -0.023605913
369864150.9434 0.99963522 -0.025399685 0.00030590617 0.012191478 0.00029318151 0.012262812 0.99951679 -0.024357349
379860377.35849 0.99950409 -0.026017159 0.00030516787 0.012525475 0.00034720404 0.012559378 0.99939716 -0.025057748
389856603.77358 0.99944437 -0.026649296 0.00034018047 0.012846602 0.00033102278 0.012899635 0.99948245 -0.02555418
399852830.18868 0.99932802 -0.027284205 0.00035480922 0.013173926 0.0003714161 0.013226515 0.99944347 -0.026088029
409849056.60377 0.99926072 -0.027653404 0.00034120039 0.013485561 0.00035314664 0.013569406 0.99940175 -0.02659215
419845283.01887 0.99917638 -0.028177828 0.00039961562 0.013842585 0.00039891526 0.013905131 0.99935675 -0.027069539
429841509.43396 0.99938142 -0.028729081 0.00041328324 0.014142819 0.00038955361 0.014260285 0.99953234 -0.027781218
439837735.84906 0.99920052 -0.029692441 0.00039354456 0.014442025 0.00045711687 0.014553441 0.99925655 -0.028800651
449833962.26415 0.99906528 -0.030464888 0.00046079 0.0147708 0.0004431433 0.014864815 0.9988445 -0.029566646
459830188.67925 0.99893081 -0.031157911 0.00043234974 0.015117896 0.0004584589 0.015162134 0.9986043 -0.03027913
469826415.09434 0.99885213 -0.031899482 0.00046322402 0.015422581 0.0004617204 0.01553667 0.99841189 -0.030768722
479822641.50943 0.99883938 -0.03248173 0.00051564991 0.01579278 0.00049300189 0.015881874 0.99843758 -0.031188861
489818867.92453 0.99891925 -0.033061355 0.00051049236 0.016104698 0.00054016476 0.016240684 0.99866939 -0.031678259
499815094.33962 0.99898744 -0.033681422 0.0005375375 0.016433345 0.00054658111 0.016522842 0.99892205 -0.032194555
509811320.75472 0.99907982 -0.034085769 0.00059112359 0.016738815 0.00057830667 0.016880959 0.99902689 -0.033014107
519807547.16981 0.99897671 -0.034651816 0.00053036958 0.017090693 0.00060355617 0.017162159 0.99905717 -0.033743262
529803773.58491 0.99895561 -0.035221845 0.00057999045 0.017423756 0.00055981334 0.017511658 0.99884486 -0.034313768
539800000 0.99905819 -0.035897166 0.00065508485 0.017724652 0.00058888248 0.017829731 0.99872756 -0.034860104
549796226.41509 0.99881113 -0.036692619 0.00062881829 0.018079104 0.00062010996 0.018196138 0.99857765 -0.03528887
559792452.83019 0.99877691 -0.037463516 0.00064126309 0.018377669 0.00066632591 0.018543452 0.99853456 -0.035799235
569788679.24528 0.99859196 -0.03808111 0.00064703682 0.018737176 0.0006533782 0.0188511 0.99869311 -0.036543846
579784905.66038 0.99854684 -0.038667411 0.00070169289 0.019088581 0.00068104232 0.019190503 0.99887586 -0.03726092
589781132.07547 0.99860978 -0.039325804 0.00074935053 0.01941918 0.0007558018 0.019515585 0.99894315 -0.038114101
599777358.49057 0.99875623 -0.039959729 0.00075439364 0.019700369 0.00074270368 0.01984513 0.99893975 -0.038948387
609773584.90566 0.99891508 -0.040690444 0.00082184467 0.020032763 0.00082762784 0.020164106 0.99885285 -0.039713085
619769811.32075 0.9989807 -0.041391343 0.0008267248 0.02037177 0.00082775066 0.020497007 0.99886721 -0.040283322
629766037.73585 0.99886167 -0.042007536 0.00086978078 0.020670198 0.00086829718 0.020817593 0.99854976 -0.040778428
639762264.15094 0.9986707 -0.042724773 0.00087453681 0.020985126 0.00089627621 0.021122932 0.99848425 -0.04128018
649758490.56604 0.99858338 -0.043289766 0.00089371111 0.021333005 0.00088532781 0.021425286 0.99857116 -0.041771591
659754716.98113 0.99846745 -0.043752313 0.00089150481 0.021645259 0.00089608692 0.021763401 0.99866486 -0.042345136
669750943.39623 0.9984796 -0.044292301 0.00091431569 0.021970628 0.00093317218 0.022154823 0.99876064 -0.043003201
679747169.81132 0.99840909 -0.044950716 0.00094862666 0.022349851 0.00094945088 0.022497106 0.99873078 -0.044009477
689743396.22642 0.99862325 -0.045812488 0.0010112813 0.022665882 0.0010268474 0.02282818 0.99850988 -0.044916332
699739622.64151 0.99864554 -0.046593487 0.0010318272 0.022989776 0.001051872 0.023149639 0.99847126 -0.045618057
709735849.0566 0.99860674 -0.047405958 0.0010843098 0.023310123 0.0010995803 0.023446893 0.99832493 -0.046287008
719732075.4717 0.99853396 -0.048149526 0.0010963953 0.023630997 0.0011050603 0.023747392 0.99838781 -0.04687494
729728301.88679 0.99840122 -0.048699796 0.0011423947 0.023934044 0.0011482555 0.024094697 0.99833643 -0.047360152
739724528.30189 0.9983716 -0.049337953 0.0011404366 0.024280032 0.0011825678 0.024409916 0.99857831 -0.048077166
749720754.71698 0.99824476 -0.049898773 0.001223152 0.024564274 0.0012456733 0.024715187 0.9985199 -0.048763499
759716981.13208 0.99832273 -0.050459832 0.0012568086 0.024910938 0.0012250915 0.025030646 0.99847329 -0.049542755
769713207.54717 0.99826688 -0.051172376 0.0012722146 0.025213497 0.0012755077 0.025379598 0.99823028 -0.050205797
779709433.96226 0.9983995 -0.051766776 0.0012753241 0.025542175 0.0012882774 0.0256707 0.99797076 -0.050827648
789705660.37736 0.99820983 -0.052629948 0.0013451586 0.025859421 0.001325937 0.025991837 0.99771827 -0.051564008
799701886.79245 0.9982419 -0.053369761 0.0013673427 0.026167864 0.0013677683 0.026322853 0.99762392 -0.052096397
809698113.20755 0.99815261 -0.054003507 0.0013892688 0.026488788 0.001372762 0.026658576 0.99765033 -0.052553892
819694339.62264 0.997962 -0.05465582 0.001414415 0.026824651 0.0014498192 0.026977468 0.99769723 -0.05313921
829690566.03774 0.99795038 -0.055292189 0.0014677662 0.027118936 0.0014576782 0.027310498 0.99795902 -0.0541071
839686792.45283 0.99798518 -0.05579254 0.0014836383 0.027462894 0.0014892267 0.027637009 0.99800873 -0.054838479
849683018.86792 0.9981153 -0.056380458 0.0014922458 0.02776652 0.0014810506 0.027916914 0.99790907 -0.055531539
859679245.28302 0.99810266 -0.057099462 0.0015567234 0.028133947 0.0015520509 0.0282676 0.99761748 -0.056181282
869675471.69811 0.9980517 -0.057830751 0.001590685 0.028414423 0.0015981039 0.028559214 0.99727631 -0.056690186
879671698.11321 0.99799478 -0.058420889 0.0016227763 0.028745543 0.0016476999 0.02888673 0.99726361 -0.057111751
889667924.5283 0.99785721 -0.059316874 0.0016372213 0.029048571 0.0016386406 0.029216556 0.99710679 -0.057589293
899664150.9434 0.9976207 -0.059935927 0.0016615028 0.029356156 0.0016736453 0.029522382 0.99710608 -0.058188349
909660377.35849 0.99773741 -0.060586452 0.0016956707 0.029686909 0.0017117541 0.029866025 0.99731219 -0.059015334
919656603.77358 0.99772209 -0.061227486 0.0017060363 0.030008933 0.0017186762 0.030190099 0.99731696 -0.059938207
929652830.18868 0.99774265 -0.061990947 0.0017424375 0.030276248 0.0017687073 0.03047362 0.99711514 -0.060791463
939649056.60377 0.99786043 -0.06257683 0.0017361157 0.030601477 0.0017710822 0.030784372 0.99701959 -0.061518312
949645283.01887 0.9978199 -0.063489929 0.0017275083 0.030958006 0.0017632076 0.031139946 0.99678844 -0.061982118
959641509.43396 0.99772185 -0.064127356 0.001781635 0.031301782 0.0018017022 0.031490438 0.99668866 -0.062500417
969637735.84906 0.9976995 -0.064876497 0.0018495927 0.031659488 0.0018469328 0.031855885 0.99674153 -0.062883407
979633962.26415 0.99755138 -0.065564796 0.0019100294 0.03196409 0.0019014077 0.032142214 0.99677813 -0.063516915
989630188.67925 0.99757791 -0.066095471 0.0019555399 0.032241177 0.0019234186 0.032478515 0.9969666 -0.064095378
999626415.09434 0.99762011 -0.066710532 0.0019484293 0.032584265 0.0019653235 0.032808449 0.99691916 -0.064879447
1009622641.5094 0.99765521 -0.06736511 0.0019943928 0.032935549 0.0020194398 0.033132076 0.99672288 -0.065716609
1019618867.9245 0.99776024 -0.068177819 0.0020120717 0.033238739 0.0020453827 0.033483669 0.99651027 -0.066487446
1029615094.3396 0.99773687 -0.06902948 0.0020767832 0.033575825 0.0021012761 0.033763424 0.99616289 -0.06712994
1039611320.7547 0.99769056 -0.069917202 0.0021324875 0.033859018 0.0021342384 0.034077849 0.99610937 -0.067680627
1049607547.1698 0.99761552 -0.070777044 0.0021761509 0.034138452 0.0021835039 0.034383878 0.99607509 -0.068329342
1059603773.5849 0.99750173 -0.071515977 0.0021789689 0.034449954 0.0022049807 0.034698617 0.99609792 -0.068860948
1069600000 0.9972862 -0.072184056 0.0021887207 0.034750335 0.002228871 0.03503162 0.99622798 -0.069613189
1079596226.4151 0.99727547 -0.072898597 0.0021756794 0.035094246 0.002218483 0.035324123 0.99626678 -0.070374057
1089592452.8302 0.99733692 -0.07349351 0.0022003222 0.035431772 0.0022540865 0.035630487 0.99625182 -0.071130186
1099588679.2453 0.99736583 -0.074125856 0.0022223406 0.035756268 0.0022724699 0.036000907 0.99593925 -0.071678966
1109584905.6604 0.99742764 -0.074953705 0.0022659441 0.03608755 0.0023061261 0.036307864 0.99566489 -0.072241232
1119581132.0755 0.9973954 -0.075824484 0.002255945 0.036409721 0.0023238882 0.036659829 0.99552709 -0.072664708
1129577358.4906 0.99722767 -0.07652843 0.0023179427 0.036799602 0.0023835264 0.037018411 0.99537551 -0.073122531
1139573584.9057 0.99704808 -0.077480525 0.0023347475 0.037102628 0.0024002632 0.037352908 0.99551111 -0.073764414
1149569811.3208 0.99692994 -0.078315444 0.0024225633 0.037437078 0.0024573831 0.037667211 0.995588 -0.074496329
1159566037.7358 0.9967401 -0.079020619 0.0024417331 0.037739094 0.0025098789 0.037997894 0.995736 -0.07549572
1169562264.1509 0.99657071 -0.079663634 0.002451282 0.038065013 0.0025344826 0.038303927 0.99558371 -0.076307327
1179558490.566 0.99652112 -0.080389708 0.0024662656 0.038416758 0.0025714135 0.038657885 0.99544829 -0.076978803
1189554716.9811 0.99646187 -0.081153333 0.0024865866 0.038733542 0.0025950456 0.039002847 0.99514598 -0.077504545
1199550943.3962 0.99647433 -0.08198306 0.0025099199 0.039086822 0.0026092995 0.039333321 0.99501169 -0.077977806
1209547169.8113 0.99629134 -0.082870796 0.0025726175 0.039421566 0.0026916526 0.0396658 0.99492544 -0.078296408
1219543396.2264 0.99604601 -0.083667323 0.0026380527 0.039803378 0.0027327994 0.040020544 0.9949742 -0.078685045
1229539622.6415 0.99585384 -0.084425479 0.0027000345 0.040084831 0.0027876217 0.04035677 0.9951731 -0.079366654
1239535849.0566 0.99557698 -0.085014939 0.0027755257 0.040405866 0.0028700503 0.040664453 0.99527889 -0.080244094
1249532075.4717 0.99527889 -0.085772336 0.0028086454 0.04074686 0.0029243345 0.040983249 0.99507844 -0.081013113
1259528301.8868 0.99504232 -0.08625111 0.0028428379 0.041072082 0.0030058436 0.041279167 0.9947927 -0.081927389
1269524528.3019 0.99491072 -0.087015986 0.002915727 0.04135678 0.0030597467 0.041572522 0.99461597 -0.082538068
1279520754.717 0.99456912 -0.087778136 0.0029620961 0.041654073 0.0030947551 0.041848779 0.99437547 -0.083123624
1289516981.1321 0.99449259 -0.088609397 0.0029984992 0.041954711 0.0031276001 0.042128503 0.99442053 -0.083567083
1299513207.5472 0.99415493 -0.089456379 0.0030076876 0.042274684 0.003107734 0.042470999 0.99452651 -0.08394742
1309509433.9623 0.99372715 -0.090109736 0.0030005286 0.042555448 0.0031598564 0.042720422 0.99463487 -0.084685862
1319505660.3774 0.99341893 -0.090898305 0.0030154167 0.042912737 0.0031323619 0.043098953 0.99464786 -0.085354269
1329501886.7925 0.99310207 -0.091495961 0.003038317 0.043234266 0.003166521 0.043419246 0.99470937 -0.086246222
1339498113.2075 0.99284923 -0.092012733 0.0030889139 0.043546669 0.0031702165 0.043755021 0.99432987 -0.086943984
1349494339.6226 0.9926278 -0.092547297 0.0030487408 0.043880038 0.0031686598 0.044060022 0.99393469 -0.087511405
1359490566.0377 0.99254698 -0.093103141 0.0030699316 0.044231161 0.003174141 0.04440771 0.99377674 -0.088063717
1369486792.4528 0.99231273 -0.09366557 0.0030567739 0.044622675 0.0031938395 0.044775128 0.99368823 -0.088472307
1379483018.8679 0.9920662 -0.094182894 0.0031055296 0.044960938 0.003193672 0.045117445 0.99361897 -0.088833056
1389479245.283 0.99177849 -0.094762385 0.003152119 0.045342632 0.0032288134 0.045503341 0.99358219 -0.08954373
1399475471.6981 0.9913398 -0.09516874 0.0031603873 0.045666091 0.0032600667 0.045849808 0.99375302 -0.0902538
1409471698.1132 0.99107492 -0.095490962 0.0032305343 0.046066903 0.0032857752 0.046189819 0.99381 -0.091053322
1419467924.5283 0.99085319 -0.095882803 0.0031916825 0.046441115 0.0032943152 0.046572849 0.99356818 -0.091778308
1429464150.9434 0.99073803 -0.096286565 0.0032518171 0.046819374 0.0033392813 0.046968423 0.99350441 -0.092302084
1439460377.3585 0.99084944 -0.096775487 0.0033669164 0.047279529 0.0033868756 0.047428887 0.99325317 -0.092681006
1449456603.7736 0.99085343 -0.097290605 0.0034324788 0.047679394 0.0035063084 0.047772147 0.99314487 -0.09297812
1459452830.1887 0.99089026 -0.097956449 0.0036158953 0.048091821 0.0036049504 0.048172422 0.99329841 -0.093242109
1469449056.6038 0.99088478 -0.098539472 0.0037583858 0.048397027 0.0037328824 0.048519745 0.99355674 -0.09387821
1479445283.0189 0.99076146 -0.099087775 0.0038285968 0.048670236 0.0038737995 0.048843473 0.99352282 -0.094784334
1489441509.434 0.99071717 -0.099687874 0.0039886925 0.048970431 0.0040354747 0.049124643 0.99348426 -0.095651776
1499437735.8491 0.9905535 -0.10007569 0.0040979199 0.04927218 0.0040992461 0.049419809 0.99330962 -0.096433014
1509433962.2642 0.9905268 -0.10062976 0.004159986 0.049541373 0.0041902428 0.049694173 0.99320036 -0.097223327
1519430188.6792 0.9906286 -0.1011329 0.00425837 0.04978805 0.0042541474 0.049967408 0.99308693 -0.097753495
1529426415.0943 0.99062574 -0.10181627 0.0042886045 0.050101556 0.0042918399 0.050243542 0.99294567 -0.09814471
1539422641.5094 0.99064392 -0.10261703 0.0043353424 0.050372913 0.0043588532 0.050579898 0.9930951 -0.098719709
1549418867.9245 0.99047977 -0.10340862 0.0044236351 0.050635029 0.0043645045 0.050831463 0.99329704 -0.099375471
1559415094.3396 0.99042857 -0.10410282 0.0044566188 0.050941229 0.0044316556 0.051122241 0.99338192 -0.10006711
1569411320.7547 0.99024886 -0.10485768 0.0045077931 0.051189862 0.0044655651 0.051390622 0.99334586 -0.10085614
1579407547.1698 0.99017793 -0.10534337 0.0045253406 0.051455636 0.0045172451 0.051766161 0.99304384 -0.1016444
1589403773.5849 0.99015474 -0.10584179 0.0045184288 0.051793091 0.0044963136 0.052040059 0.99289417 -0.10237855
1599400000 0.99007493 -0.10634077 0.004498261 0.052060291 0.0045243809 0.052288573 0.99244851 -0.10277584
1609396226.4151 0.99004269 -0.10702077 0.0045081833 0.052415263 0.004499394 0.052564271 0.99227411 -0.10334007
1619392452.8302 0.99002838 -0.1075356 0.0045389235 0.052741468 0.0044805724 0.052938994 0.99212301 -0.10376313
1629388679.2453 0.9897635 -0.10822561 0.0045565963 0.053042568 0.0044913311 0.053300247 0.99246025 -0.10421932
1639384905.6604 0.98953837 -0.10890142 0.0045654429 0.053422205 0.0045056851 0.053700067 0.99261707 -0.10508027
1649381132.0755 0.98938614 -0.10962099 0.0045393985 0.053780377 0.0045434758 0.05403192 0.9926697 -0.10598466
1659377358.4906 0.9891721 -0.11032447 0.0045822039 0.054143883 0.004559882 0.054419219 0.99261254 -0.10692781
1669373584.9057 0.9891448 -0.11091087 0.0046391054 0.05454858 0.0046340693 0.05475362 0.99229026 -0.10759017
1679369811.3208 0.98927498 -0.11150959 0.0046388358 0.054921374 0.0045871278 0.055141568 0.99207228 -0.10812041
1689366037.7358 0.98918962 -0.11213619 0.0047062468 0.055278089 0.0046696719 0.05556605 0.99196172 -0.1083824
1699362264.1509 0.98937654 -0.11266428 0.0047612404 0.055633336 0.0047137942 0.05592436 0.9921937 -0.10881214
1709358490.566 0.98914433 -0.11329894 0.0047971075 0.055978343 0.0047619268 0.056298852 0.99219382 -0.10942504
1719354716.9811 0.98894274 -0.11391327 0.004845988 0.056358736 0.0048479754 0.056679331 0.99213952 -0.11005747
1729350943.3962 0.9886272 -0.11452237 0.0049141068 0.056752585 0.0048966277 0.057058446 0.99221456 -0.11095008
