!Keysight Technologies,N5222B,MY61253708,A.15.00.15
!Date: Wednesday, June 19, 2024 09:17:00
!Correction: S11(C  2-Port  ) 
!S21(C  2-Port  ) 
!S12(C  2-Port  ) 
!S22(C  2-Port  ) 
!S2P File: Measurements: S11, S21, S12, S22:
# Hz S  RI   R 50
10000000 0.99885666 -0.002448678 1.7887854e-005 0.00033848383 1.2828823e-005 0.00049343437 0.99864537 -0.001271069
19996226.415094 0.9990586 -0.0020716488 -0.0001085033 0.00064873835 8.82069e-005 0.00070904585 0.9992249 -0.0022042096
29992452.830189 0.99974251 -0.0024919212 3.4289056e-005 0.0010594832 -2.1138432e-005 0.0010696157 0.99940169 -0.0026549101
39988679.245283 1.0000134 -0.0030993223 -8.8564499e-005 0.0013381538 1.1806434e-005 0.0014236224 0.99968559 -0.0031046569
49984905.660377 1.00012 -0.0037949383 1.6858219e-005 0.0016984938 4.2743282e-005 0.0017078504 0.99977726 -0.0037913024
59981132.075472 1.0003577 -0.0046792924 7.7367935e-005 0.002102202 6.9591333e-006 0.0020541025 0.9997282 -0.004388541
69977358.490566 1.0001264 -0.0052469093 1.4777535e-005 0.0023881169 -3.4913392e-006 0.0023518906 0.99961084 -0.0049104281
79973584.90566 0.99986178 -0.005851984 3.5338686e-005 0.0027311752 1.7071259e-005 0.0027326425 0.99924988 -0.0053676665
89969811.320755 0.99991083 -0.0059774518 2.0278967e-005 0.0030688576 3.1605246e-005 0.0030914878 0.9994961 -0.0057316124
99966037.735849 1.0000887 -0.0067591667 4.2784028e-005 0.0033960941 3.4487573e-005 0.0034469985 0.999578 -0.006521672
109962264.15094 1.0000985 -0.0077097416 3.3967604e-005 0.0037476642 2.4469802e-005 0.0037589308 0.99961555 -0.00734438
119958490.56604 1.0001093 -0.0086707473 4.6742382e-005 0.0040671974 3.567012e-005 0.0041278065 0.99960363 -0.0082498193
129954716.98113 1.000038 -0.0096616149 2.8901733e-005 0.0044421833 4.0266896e-005 0.0044490499 0.9996143 -0.0091673434
139950943.39623 1.0000007 -0.010476444 5.6176679e-005 0.0047581634 3.1769247e-005 0.0048139375 0.9994939 -0.009973567
149947169.81132 0.99982631 -0.01116696 5.287677e-005 0.0051110913 5.1280251e-005 0.005143139 0.99944806 -0.010578901
159943396.22642 0.99983013 -0.011710852 9.4011193e-005 0.0054465882 5.7910103e-005 0.0054947184 0.99952781 -0.011016756
169939622.64151 0.9998107 -0.012078673 7.9000136e-005 0.0057896692 7.6074037e-005 0.0058346526 0.99961549 -0.011455312
179935849.0566 0.9998492 -0.012357742 6.2222709e-005 0.0061340476 8.2811574e-005 0.0061942581 0.99950439 -0.011853248
189932075.4717 0.9999609 -0.013159603 7.9979189e-005 0.0064617824 9.6277334e-005 0.0065147383 0.99972391 -0.012476087
199928301.88679 0.99995756 -0.014031559 9.7326934e-005 0.006805961 0.00010684179 0.0068677827 0.99962801 -0.013380051
209924528.30189 0.99969643 -0.014680594 8.1342296e-005 0.0071554207 0.00010130368 0.00723889 0.99939984 -0.014094502
219920754.71698 0.99973619 -0.015567631 0.00013779011 0.0074966052 0.00012903241 0.0075336662 0.99920934 -0.014777035
229916981.13208 0.99942803 -0.016407907 0.0001446018 0.0078510623 0.00014607818 0.0078949984 0.99915177 -0.0155707
239913207.54717 0.99936312 -0.017048953 0.00016003998 0.0081583792 0.0001411509 0.0082267849 0.99908638 -0.016301319
249909433.96226 0.99935335 -0.017662853 0.00015374925 0.0085109295 0.00014148769 0.0085850945 0.99922776 -0.016945601
259905660.37736 0.99943089 -0.018298537 0.00017262483 0.0088538602 0.00016796635 0.0089548714 0.99940711 -0.017541409
269901886.79245 0.99956691 -0.019099072 0.00020168221 0.0091881435 0.0001249779 0.0092989244 0.99975353 -0.018232509
279898113.20755 0.99962902 -0.019596726 0.000176562 0.0094825383 0.00017080107 0.0096039576 0.99956453 -0.01897338
289894339.62264 0.99962342 -0.020428479 0.00020619202 0.0098545384 0.00025333744 0.0099445079 0.99949312 -0.019732445
299890566.03774 0.99960393 -0.020902187 0.00024866522 0.010210508 0.00019079004 0.010284048 0.99923831 -0.020217419
309886792.45283 0.99936646 -0.021567002 0.0002153297 0.010508859 0.00020111667 0.01062631 0.99912679 -0.02069851
319883018.86792 0.99945921 -0.022161603 0.00025334768 0.01090009 0.00023374008 0.010993587 0.99922383 -0.021190673
329879245.28302 0.9993192 -0.022977859 0.00024733879 0.011231665 0.00030134898 0.01131341 0.99922764 -0.02196753
339875471.69811 0.9993487 -0.023621932 0.00027642795 0.011591285 0.00025636214 0.011663252 0.99915123 -0.022735313
349871698.11321 0.9993974 -0.024439901 0.00030526007 0.011906639 0.00031716749 0.012027318 0.99927378 -0.02369374
359867924.5283 0.99933755 -0.025240868 0.00030136807 0.012208163 0.00035452656 0.012326102 0.99922395 -0.024587184
369864150.9434 0.99942905 -0.0261603 0.00035868795 0.01258785 0.0003478392 0.012670348 0.99923468 -0.025311947
379860377.35849 0.99934483 -0.026865929 0.00034311647 0.012948977 0.00036541512 0.013024118 0.9991805 -0.025982037
389856603.77358 0.99924892 -0.027408659 0.00035008835 0.01325413 0.00041258475 0.013359476 0.99909985 -0.02642867
399852830.18868 0.99912632 -0.02795431 0.00039505074 0.013576605 0.00038629817 0.013677287 0.99922049 -0.026925564
409849056.60377 0.99912661 -0.028389735 0.00043122415 0.013899384 0.00039451555 0.014025766 0.99918121 -0.027406741
419845283.01887 0.99911982 -0.028913438 0.00044076145 0.01429355 0.0003945441 0.014403172 0.99927968 -0.02798906
429841509.43396 0.99913996 -0.029561341 0.00042610476 0.014593687 0.00044508791 0.014753012 0.99943161 -0.028659672
439837735.84906 0.999125 -0.030539304 0.00051281939 0.014954298 0.00047702226 0.015065004 0.99920005 -0.029755458
449833962.26415 0.99897581 -0.031380802 0.00046984339 0.015268617 0.00051146746 0.015394012 0.99891335 -0.030577123
459830188.67925 0.99886084 -0.032078415 0.00048688147 0.015610874 0.0004971358 0.015717879 0.99868929 -0.031419843
469826415.09434 0.99879694 -0.03286618 0.00047053676 0.015934598 0.00050950935 0.016111217 0.99848235 -0.031976998
479822641.50943 0.99869591 -0.033428319 0.00052503054 0.016286073 0.00051187328 0.016429221 0.99854791 -0.032439657
489818867.92453 0.99878997 -0.03398478 0.00055069383 0.016637197 0.00058846315 0.016764475 0.99882722 -0.033012271
499815094.33962 0.99876845 -0.034640044 0.00057583256 0.01699302 0.00061557256 0.01710907 0.99908817 -0.033617258
509811320.75472 0.99891382 -0.034972645 0.00059806992 0.017308222 0.00065997615 0.017417099 0.99920422 -0.034514904
519807547.16981 0.99893069 -0.035649359 0.00064235693 0.017653544 0.0006804904 0.017781274 0.99913937 -0.035318851
529803773.58491 0.99896532 -0.036273986 0.00068175513 0.017982483 0.00066757482 0.01814636 0.9988997 -0.035968393
539800000 0.99891716 -0.03699559 0.00065169716 0.018347086 0.00065023894 0.018531241 0.99874771 -0.036624789
549796226.41509 0.99873704 -0.037835866 0.00065364316 0.018684821 0.00069172587 0.018862069 0.99849665 -0.037059128
559792452.83019 0.99843758 -0.038662583 0.00073681772 0.019017277 0.00072606094 0.019159772 0.99846852 -0.037619263
569788679.24528 0.99842197 -0.039277852 0.00071704853 0.0193794 0.00076456228 0.019517068 0.99856836 -0.038365155
579784905.66038 0.99832755 -0.039831154 0.0007641589 0.019736396 0.00074204733 0.019882573 0.99875748 -0.039190888
589781132.07547 0.99849308 -0.040516883 0.00080189109 0.020028217 0.00080245826 0.020213142 0.99881399 -0.039973438
599777358.49057 0.99854052 -0.041092634 0.00082416553 0.020396559 0.0008263085 0.020552402 0.99883103 -0.0408355
609773584.90566 0.99871171 -0.04198901 0.00086214358 0.020730089 0.00085511419 0.020899903 0.99864501 -0.041700624
619769811.32075 0.99880517 -0.042655975 0.00094162393 0.021026989 0.00094325375 0.021197449 0.99859715 -0.042302132
629766037.73585 0.99861813 -0.043312401 0.00093897805 0.021318737 0.00094005559 0.021533202 0.99835646 -0.042769164
639762264.15094 0.99850905 -0.043902457 0.00097134453 0.021682752 0.00098168897 0.021859946 0.99828708 -0.043278456
649758490.56604 0.99831975 -0.044538632 0.00098995166 0.022018388 0.0009410819 0.022186445 0.99835682 -0.043679401
659754716.98113 0.99816257 -0.045062125 0.0010229778 0.022348193 0.0010100426 0.022535685 0.99835706 -0.044280976
669750943.39623 0.9981339 -0.045573801 0.0010171407 0.022709312 0.00098199723 0.022890482 0.99837065 -0.045093268
679747169.81132 0.99815249 -0.046329811 0.001080821 0.023067804 0.0010682869 0.023253405 0.99838388 -0.046019241
689743396.22642 0.99833339 -0.047141939 0.0010757847 0.023400035 0.001052957 0.02361455 0.99819148 -0.047023207
699739622.64151 0.99844325 -0.048012733 0.0011885213 0.023737643 0.0011342112 0.023926148 0.99814522 -0.047739059
709735849.0566 0.99837434 -0.04884766 0.0011828839 0.024049353 0.0011978338 0.024242992 0.99783635 -0.048339784
719732075.4717 0.99828571 -0.049628109 0.0012166463 0.024405524 0.0012279996 0.024592463 0.9979769 -0.048932374
729728301.88679 0.99827278 -0.050164342 0.001298056 0.024683926 0.0012784749 0.024944924 0.99801588 -0.049376577
739724528.30189 0.99803191 -0.050748214 0.0012897756 0.025050629 0.0012854608 0.025256088 0.99824792 -0.050035208
749720754.71698 0.99800527 -0.051277831 0.0012898073 0.025384914 0.0013521914 0.025591396 0.99823946 -0.050730884
759716981.13208 0.99800813 -0.051792413 0.0013615321 0.025686551 0.0013765134 0.025916953 0.99820632 -0.051526457
769713207.54717 0.99789226 -0.052569747 0.0013667028 0.026027583 0.0014083637 0.026232721 0.997962 -0.052258879
779709433.96226 0.99805206 -0.053105049 0.0014180292 0.026366306 0.0014309182 0.026575919 0.99770248 -0.052911237
789705660.37736 0.99793118 -0.054252863 0.0014629709 0.026707426 0.0014667427 0.026914349 0.99745446 -0.053631902
799701886.79245 0.99795997 -0.055007488 0.0014614183 0.027035492 0.0015045125 0.027229385 0.99732423 -0.054181963
809698113.20755 0.99788773 -0.055588335 0.0015076809 0.027350729 0.0015269527 0.027561108 0.99735439 -0.05475302
819694339.62264 0.99767315 -0.05623132 0.0015290747 0.027693834 0.0015652901 0.027904537 0.99750841 -0.055327147
829690566.03774 0.99764955 -0.056822926 0.0015563909 0.027979024 0.0015781745 0.028240591 0.99775791 -0.056229591
839686792.45283 0.99776077 -0.057357132 0.0016061431 0.028341141 0.0016008867 0.028567692 0.99780524 -0.057071894
849683018.86792 0.99790752 -0.057898775 0.0016428276 0.028667718 0.0016222547 0.028932413 0.9976846 -0.057847284
859679245.28302 0.9978503 -0.05865407 0.0016778093 0.028985038 0.0016692523 0.029258842 0.99742329 -0.058464795
869675471.69811 0.99771374 -0.059497803 0.0017123995 0.029340787 0.0017433688 0.029605184 0.99703294 -0.05901137
879671698.11321 0.99768472 -0.060166869 0.001773918 0.029639268 0.0017690068 0.029910062 0.99704719 -0.059418298
889667924.5283 0.99762678 -0.060989618 0.0017722435 0.02997933 0.0018075546 0.030231737 0.99695033 -0.059982836
899664150.9434 0.99728763 -0.061591268 0.0018279161 0.030306896 0.0018095681 0.030557495 0.99696159 -0.060599267
909660377.35849 0.99735826 -0.062336147 0.0018408904 0.030634703 0.0018561217 0.0309118 0.99708194 -0.061500698
919656603.77358 0.99738538 -0.063070506 0.001847812 0.030939654 0.0018565953 0.031253904 0.99709302 -0.062480792
929652830.18868 0.9973222 -0.06374377 0.001910598 0.031270213 0.0019219313 0.031567745 0.99691069 -0.063271999
939649056.60377 0.99747765 -0.064392835 0.0018924214 0.031592626 0.0019203108 0.031888235 0.99674523 -0.064135075
949645283.01887 0.99751508 -0.065296158 0.0019037082 0.03199156 0.0019393701 0.03220227 0.99653447 -0.064575836
959641509.43396 0.99742913 -0.066055387 0.0019757943 0.032314546 0.0019723615 0.032578405 0.99642402 -0.065109193
969637735.84906 0.9973042 -0.066654444 0.0020082137 0.032648489 0.002038558 0.032969963 0.99646598 -0.065554947
979633962.26415 0.99717015 -0.067398481 0.0020730046 0.032975946 0.002064321 0.033259016 0.99650806 -0.066198751
989630188.67925 0.99713224 -0.067874283 0.002137471 0.033326283 0.0021441709 0.03360875 0.9966408 -0.066792101
999626415.09434 0.99719489 -0.068567872 0.0021334756 0.033639491 0.0021604113 0.033929117 0.99656475 -0.067640275
1009622641.5094 0.99726814 -0.069319293 0.0021683145 0.033972643 0.0021811109 0.03432041 0.99641544 -0.068509683
1019618867.9245 0.99732828 -0.070114195 0.00222085 0.034325603 0.0023047547 0.034635145 0.99613076 -0.06937319
1029615094.3396 0.99731624 -0.071065754 0.002284199 0.034645353 0.0023254864 0.034928765 0.99582851 -0.069976449
1039611320.7547 0.99737012 -0.071971506 0.0023342567 0.034943938 0.002339052 0.035286892 0.995767 -0.070651591
1049607547.1698 0.99721879 -0.072890624 0.002356482 0.03523992 0.0023755233 0.035572261 0.99576896 -0.071233101
1059603773.5849 0.99703991 -0.073539346 0.0023478838 0.035572819 0.0024066567 0.035920385 0.99575895 -0.071793199
1069600000 0.99683964 -0.074201137 0.0023689289 0.035886232 0.0024409555 0.036204346 0.99585545 -0.07255429
1079596226.4151 0.99674994 -0.07480555 0.0023943931 0.036247764 0.0024759858 0.036560737 0.99591488 -0.073304564
1089592452.8302 0.99681354 -0.075440437 0.0024277195 0.036570437 0.0025104312 0.036902931 0.99584675 -0.074021459
1099588679.2453 0.9968791 -0.076149642 0.0024287421 0.036908288 0.0025152545 0.037232041 0.99546117 -0.07471323
1109584905.6604 0.99695736 -0.076996416 0.0024459939 0.037231069 0.0025472641 0.037571654 0.99519974 -0.075199977
1119581132.0755 0.99690717 -0.077979274 0.0024889009 0.037595816 0.0025641755 0.037929107 0.99497551 -0.075632215
1129577358.4906 0.99680865 -0.078855217 0.0025569014 0.037950225 0.0025926903 0.038310427 0.99496675 -0.076121092
1139573584.9057 0.99647689 -0.079721779 0.0025629466 0.038291998 0.0026489301 0.038668893 0.99498659 -0.076770365
1149569811.3208 0.99632305 -0.080557086 0.0026461231 0.038637292 0.0027136479 0.038983751 0.99511147 -0.077562772
1159566037.7358 0.99608588 -0.081237614 0.0026641404 0.038913164 0.0027684662 0.039313801 0.99522495 -0.078662813
1169562264.1509 0.99588078 -0.081878811 0.0026611779 0.039259292 0.0027690362 0.039611541 0.99505234 -0.07938993
1179558490.566 0.99597651 -0.082620159 0.0026829047 0.039626338 0.0028216015 0.039996646 0.99489993 -0.080132857
1189554716.9811 0.99592888 -0.083349288 0.0027048225 0.039973166 0.0028669909 0.040324304 0.99454498 -0.080628395
1199550943.3962 0.99584782 -0.084225059 0.0027585011 0.040343247 0.0029500704 0.040679209 0.9944644 -0.081042498
1209547169.8113 0.99570072 -0.085120752 0.0028443113 0.040654097 0.0029266551 0.041016567 0.99427676 -0.081447601
1219543396.2264 0.99545515 -0.086021826 0.0028960635 0.041043807 0.0029920973 0.041437414 0.99441338 -0.081778347
1229539622.6415 0.99514842 -0.086771846 0.002954457 0.041343637 0.0030700956 0.041728664 0.99458563 -0.082542121
1239535849.0566 0.99498641 -0.087444514 0.003032879 0.041692778 0.0031370474 0.042052269 0.99467117 -0.083495051
1249532075.4717 0.99456203 -0.088087313 0.0030736055 0.042008646 0.0032015522 0.042390745 0.99445581 -0.084265575
1259528301.8868 0.99436915 -0.088674396 0.0031303093 0.04234805 0.0032718256 0.04269103 0.99421775 -0.085172057
1269524528.3019 0.99419105 -0.089431286 0.0031839553 0.042685553 0.0033227224 0.042999081 0.994048 -0.085891932
1279520754.717 0.9938702 -0.09017282 0.003260961 0.042945318 0.0033946349 0.043268893 0.9937408 -0.086408421
1289516981.1321 0.99375242 -0.091023624 0.0032723928 0.043271452 0.0034080343 0.0435705 0.993801 -0.086976439
1299513207.5472 0.99339294 -0.091843247 0.0032708999 0.04359084 0.003446646 0.043922778 0.99391878 -0.087326199
1309509433.9623 0.99297673 -0.092513755 0.0033094101 0.043922458 0.0034488412 0.044225466 0.99393463 -0.088091984
1319505660.3774 0.99261016 -0.093246698 0.0032957271 0.044261616 0.00346696 0.044568919 0.99403906 -0.08866173
1329501886.7925 0.99230361 -0.093919843 0.0033641253 0.04456196 0.0034653619 0.044896144 0.99405766 -0.089696705
1339498113.2075 0.99204135 -0.094384998 0.0033514556 0.044914931 0.003505975 0.045228403 0.99356866 -0.090367138
1349494339.6226 0.99182492 -0.094984122 0.0033410522 0.045280486 0.0035070581 0.045561563 0.99323058 -0.090973407
1359490566.0377 0.99173748 -0.095589459 0.0033680983 0.045646366 0.0034726895 0.045924515 0.993011 -0.091539651
1369486792.4528 0.99145883 -0.096178263 0.003391454 0.045998022 0.0035131946 0.046282329 0.99282861 -0.091946036
1379483018.8679 0.9912225 -0.096734852 0.0033994266 0.046375912 0.0035018115 0.04664937 0.99287117 -0.092321813
1389479245.283 0.9908576 -0.097297013 0.003448233 0.046744261 0.0035658497 0.047052406 0.9928239 -0.093021214
1399475471.6981 0.99043775 -0.097663343 0.0034637079 0.047147486 0.0035439581 0.047387742 0.99303913 -0.093736708
1409471698.1132 0.99013054 -0.098023638 0.0034871052 0.04752101 0.0036363376 0.047757387 0.99301368 -0.094628155
1419467924.5283 0.98990148 -0.098255306 0.0035248641 0.047887079 0.0036473963 0.048166662 0.99286932 -0.095285237
1429464150.9434 0.98981512 -0.098733127 0.0035645869 0.048297115 0.003689874 0.048552491 0.99269998 -0.095808297
1439460377.3585 0.99002737 -0.099207059 0.0036694584 0.048767738 0.0037371106 0.048987366 0.99245632 -0.09616293
1449456603.7736 0.98998916 -0.099789247 0.0038208226 0.049144715 0.0038463594 0.049419135 0.99231052 -0.096579552
1459452830.1887 0.98995781 -0.10051185 0.0039108619 0.049567964 0.0039808992 0.049836285 0.99240804 -0.096934348
1469449056.6038 0.99007875 -0.10118276 0.00407888 0.049911667 0.004113731 0.050166212 0.9926582 -0.097535193
1479445283.0189 0.98985863 -0.10185209 0.0041932082 0.050202701 0.0042627277 0.050473474 0.99270767 -0.098479509
1489441509.434 0.98970109 -0.10232905 0.0043345261 0.050529376 0.0043937881 0.050814576 0.99257475 -0.099311829
1499437735.8491 0.98957372 -0.10265392 0.0044602789 0.050834384 0.0044930652 0.051089574 0.99260002 -0.10022712
1509433962.2642 0.98959941 -0.10319862 0.0045743948 0.051064227 0.0045640552 0.051377643 0.99227583 -0.10088527
1519430188.6792 0.98970675 -0.10370865 0.0046115909 0.051360287 0.0046526045 0.051675126 0.99212956 -0.10146388
1529426415.0943 0.98966533 -0.10439089 0.0046761483 0.051647045 0.0046895407 0.051941372 0.99212682 -0.10190317
1539422641.5094 0.98966831 -0.10516708 0.0047467761 0.051950768 0.0047449181 0.052261055 0.99218452 -0.10233792
1549418867.9245 0.98948085 -0.10603784 0.0048173675 0.052234385 0.0048274603 0.052532293 0.99246621 -0.10312574
1559415094.3396 0.98941213 -0.10666156 0.0048616286 0.052562773 0.0048501939 0.052859031 0.99250638 -0.10376653
1569411320.7547 0.98920757 -0.10752049 0.0049067419 0.052813534 0.0048884908 0.053143833 0.99244642 -0.10459344
1579407547.1698 0.98913443 -0.10798866 0.0048996089 0.053071979 0.0049009211 0.053450529 0.99205536 -0.10544544
1589403773.5849 0.98911154 -0.10847303 0.0049096681 0.0533855 0.0049383361 0.053766355 0.99189532 -0.1061599
1599400000 0.9891178 -0.10893935 0.004896706 0.053662952 0.0049317405 0.05405901 0.99143595 -0.10661861
1609396226.4151 0.98907667 -0.10961792 0.004933862 0.054044947 0.0049099466 0.054404393 0.9912346 -0.10707597
1619392452.8302 0.9890424 -0.11021894 0.0049319193 0.054404527 0.0048850905 0.054716319 0.99118906 -0.10753927
1629388679.2453 0.98875844 -0.11095759 0.0049371254 0.054720767 0.0049161762 0.05508982 0.99142092 -0.10810962
1639384905.6604 0.98862499 -0.11169619 0.0049445271 0.055094525 0.0049095796 0.055521045 0.99162078 -0.10898301
1649381132.0755 0.98841029 -0.11235175 0.004965676 0.055429287 0.0049819592 0.055838909 0.99168038 -0.10996962
1659377358.4906 0.98811722 -0.11307898 0.0050012339 0.055835284 0.0049999747 0.056240689 0.99159706 -0.11084703
1669373584.9057 0.98810965 -0.11355768 0.0050336067 0.056230657 0.0050675208 0.056663472 0.9913168 -0.11150717
1679369811.3208 0.98818702 -0.11417803 0.0050947415 0.056629751 0.0050729178 0.057002991 0.99105901 -0.11189923
1689366037.7358 0.98813087 -0.1148769 0.0051684193 0.056977794 0.0051258374 0.057444669 0.99084127 -0.11226988
1699362264.1509 0.98824185 -0.11545818 0.0051763766 0.057382528 0.0051539624 0.057803478 0.99108696 -0.11277016
1709358490.566 0.98816764 -0.1161522 0.0052745081 0.05770595 0.005249125 0.058225721 0.99115568 -0.11343594
1719354716.9811 0.98782825 -0.11682135 0.0053398665 0.058131509 0.0052728876 0.058543205 0.99107051 -0.11395362
1729350943.3962 0.98752534 -0.11741236 0.0053672995 0.058495115 0.0054048505 0.058983184 0.99116302 -0.11500645
