!Keysight Technologies,N5222B,MY61253708,A.15.00.15
!Date: Wednesday, June 19, 2024 09:13:55
!Correction: S11(C  2-Port  ) 
!S21(C  2-Port  ) 
!S12(C  2-Port  ) 
!S22(C  2-Port  ) 
!S2P File: Measurements: S11, S21, S12, S22:
# Hz S  RI   R 50
10000000 0.9988277 -0.0023171604 0.00033330399 0.00045574733 0.00025073008 0.00043459429 0.9989655 -0.00077942014
19996226.415094 0.99906188 -0.0021084547 4.5995461e-005 0.00079063221 0.00013759112 0.00074028532 0.99930882 -0.0020436943
29992452.830189 0.99980915 -0.0023934841 -1.8296705e-005 0.0010067379 -2.1222717e-005 0.0010130075 0.99945128 -0.0026821792
39988679.245283 1.0000806 -0.0030910373 1.4423233e-005 0.0014336418 3.9528866e-005 0.0013978704 0.99966711 -0.0031665266
49984905.660377 1.0001915 -0.0038463771 3.7389575e-005 0.0017444339 1.5768979e-005 0.0017266688 0.99978864 -0.0037769377
59981132.075472 1.000365 -0.0047762394 2.5623303e-005 0.0020363615 2.0310516e-005 0.0021015767 0.99974352 -0.0043261945
69977358.490566 1.0001374 -0.0052747745 5.07443e-005 0.0023740462 1.2189157e-005 0.0024400565 0.99965417 -0.0048735291
79973584.90566 0.99991912 -0.0059048533 2.625864e-005 0.0027084833 3.752613e-005 0.0027198007 0.99936962 -0.0054127574
89969811.320755 0.99993891 -0.0060395896 1.7346698e-005 0.0030750809 1.0347692e-005 0.0030857464 0.99957013 -0.005700171
99966037.735849 1.0001349 -0.0068423003 3.803015e-005 0.0033951283 2.2971653e-005 0.0034553874 0.99962765 -0.0064294934
109962264.15094 1.0001094 -0.0077208728 2.6255148e-005 0.0037518945 2.550811e-005 0.0037973688 0.99966091 -0.0073205382
119958490.56604 1.0001339 -0.0086883008 6.2318752e-005 0.0040949755 3.6264071e-005 0.0041246377 0.99963593 -0.0082010329
129954716.98113 1.0001128 -0.0097274482 5.3981785e-005 0.0044356943 3.5776058e-005 0.0044814027 0.99964368 -0.0091454685
139950943.39623 1.0000099 -0.010558259 5.0096904e-005 0.0048069647 6.2253821e-005 0.0048308154 0.99952799 -0.0098783784
149947169.81132 0.99986529 -0.011271387 5.2123563e-005 0.005132474 6.6009583e-005 0.0051475386 0.99949783 -0.010484248
159943396.22642 0.99980688 -0.011755854 4.6623405e-005 0.0054641231 5.693757e-005 0.0054981522 0.99955857 -0.010969579
169939622.64151 0.99985021 -0.012168303 7.5412972e-005 0.0058209258 7.4715237e-005 0.005856025 0.99963087 -0.011394016
179935849.0566 0.99991202 -0.012447089 0.00010818918 0.0061207097 8.6922315e-005 0.006210241 0.99955493 -0.011806786
189932075.4717 0.9999913 -0.013243467 5.9970422e-005 0.0064994702 6.9999136e-005 0.0065090745 0.99977767 -0.012403786
199928301.88679 0.99992722 -0.014056206 0.00012338068 0.0068463548 0.00011660566 0.006871318 0.99961919 -0.013315111
209924528.30189 0.99963957 -0.014741361 8.96235e-005 0.0071576796 0.00012197171 0.0072453697 0.99941367 -0.014043599
219920754.71698 0.99980074 -0.015617192 0.00011908822 0.0075078942 0.00014858227 0.0075620217 0.99926525 -0.014774114
229916981.13208 0.99948072 -0.016498387 0.0001255055 0.0078161359 0.00012664194 0.0078983568 0.99919653 -0.015517086
239913207.54717 0.99934477 -0.017205978 0.00014087041 0.0081723072 0.0001412226 0.008258502 0.99918205 -0.016194245
249909433.96226 0.99941438 -0.017797619 0.00016492046 0.0085330419 0.00015721633 0.0085752727 0.99927312 -0.016819298
259905660.37736 0.99958616 -0.018402427 0.0001533567 0.0088624712 0.00016997987 0.0089378338 0.99943161 -0.017481565
269901886.79245 0.99969888 -0.019074857 0.0001277955 0.009215652 0.00018174876 0.0092969909 0.99977821 -0.018073544
279898113.20755 0.99978948 -0.019753262 0.00019181822 0.0095412619 0.00014840043 0.0096237492 0.99963295 -0.018840179
289894339.62264 0.99976325 -0.020592123 0.00019650394 0.0098854871 0.00017218199 0.0099439863 0.99958718 -0.019663364
299890566.03774 0.99965817 -0.02098906 0.00019274908 0.010170951 0.00022935797 0.01034841 0.99934369 -0.020080388
309886792.45283 0.9994393 -0.021703117 0.00021432724 0.010582685 0.00023199536 0.010646692 0.99918979 -0.020554669
319883018.86792 0.99945301 -0.022251725 0.00026971847 0.010919564 0.0002550967 0.011016453 0.99927044 -0.021099389
329879245.28302 0.9993813 -0.023059994 0.00025232648 0.011250057 0.00027064374 0.011402881 0.99935675 -0.021837294
339875471.69811 0.99919969 -0.023750074 0.00030075572 0.011575137 0.00024135958 0.011704599 0.9993453 -0.022647351
349871698.11321 0.9993819 -0.024549901 0.00036334503 0.011937624 0.00028053368 0.011983534 0.9993009 -0.023552209
359867924.5283 0.99928653 -0.025418997 0.00027101533 0.012273317 0.00031886809 0.012356983 0.99931616 -0.024531096
369864150.9434 0.99946833 -0.026212484 0.00037671975 0.012603315 0.00033401046 0.012720179 0.99934477 -0.025271147
379860377.35849 0.99937642 -0.026868835 0.00033460162 0.01293677 0.00034310645 0.013025413 0.99921566 -0.025991485
389856603.77358 0.99935281 -0.027506143 0.00037305476 0.013263918 0.00035705278 0.013384776 0.99925077 -0.026437998
399852830.18868 0.99907404 -0.028096288 0.00041775173 0.013634495 0.00041318033 0.013756044 0.99923879 -0.026828349
409849056.60377 0.99909067 -0.028585942 0.00041958471 0.013953734 0.00039854465 0.014063853 0.99922758 -0.027347052
419845283.01887 0.99910432 -0.028984725 0.00042086653 0.014278091 0.00044135423 0.014422293 0.9993118 -0.027951777
429841509.43396 0.99923038 -0.029668331 0.00045320019 0.014660189 0.00045033311 0.014754327 0.99944633 -0.028666824
439837735.84906 0.9990899 -0.030580938 0.00051580882 0.014980951 0.00049493753 0.015091489 0.99921066 -0.029725343
449833962.26415 0.99903369 -0.03152585 0.00047391746 0.015261822 0.00047972519 0.015429153 0.99885798 -0.030547291
459830188.67925 0.99890244 -0.032250196 0.00051007001 0.015617492 0.00047000684 0.015786745 0.99866486 -0.031279832
469826415.09434 0.99887073 -0.03305319 0.00049291877 0.016008392 0.00049484428 0.016136324 0.9983561 -0.031843156
479822641.50943 0.99877262 -0.033733144 0.00052584428 0.016332459 0.00050065201 0.016497694 0.99842429 -0.032328077
489818867.92453 0.99890077 -0.034253031 0.00056267623 0.016735323 0.00055447174 0.016820645 0.99873835 -0.032860577
499815094.33962 0.99896979 -0.034754485 0.00058276951 0.017005429 0.00059097679 0.017128998 0.99906856 -0.033443987
509811320.75472 0.999017 -0.035333328 0.00061613839 0.017411051 0.00062482728 0.017463343 0.99919862 -0.034301545
519807547.16981 0.99893188 -0.035847008 0.0006384505 0.017659953 0.00063663721 0.017823741 0.99915397 -0.03498587
529803773.58491 0.99888361 -0.036461264 0.00066160224 0.018026907 0.00067004468 0.018171111 0.99889618 -0.035739839
539800000 0.99892855 -0.037154496 0.00064562541 0.018345743 0.00064622844 0.018510358 0.99867773 -0.03635858
549796226.41509 0.99877495 -0.038099766 0.00067517953 0.018686045 0.00073688151 0.018845702 0.99846673 -0.036825895
559792452.83019 0.99849296 -0.03876552 0.00068676751 0.019066371 0.00074758846 0.019239936 0.99841571 -0.037353426
569788679.24528 0.99834162 -0.039497554 0.00074834749 0.019393824 0.00073911343 0.019560341 0.99861747 -0.038054019
579784905.66038 0.99838102 -0.040085979 0.00078622589 0.019761134 0.00077280973 0.019890713 0.99874383 -0.038871251
589781132.07547 0.99848276 -0.040698141 0.00082124304 0.020098925 0.00083692838 0.020275367 0.99881303 -0.03979367
599777358.49057 0.99861532 -0.041339815 0.0008713156 0.020448368 0.00084126275 0.020606922 0.99889255 -0.04055956
609773584.90566 0.99871999 -0.042177085 0.00087211776 0.020733399 0.00088787189 0.020976111 0.9986769 -0.041387379
619769811.32075 0.99881589 -0.042844683 0.00090483623 0.021103177 0.00090692425 0.021245874 0.99862194 -0.042038947
629766037.73585 0.99866867 -0.043581098 0.00095089152 0.021395028 0.00095429737 0.021576485 0.99841613 -0.042486459
639762264.15094 0.99844605 -0.044193447 0.00097778928 0.021712311 0.0009769618 0.021904366 0.99833268 -0.042992637
649758490.56604 0.99828476 -0.044804707 0.00094777346 0.022073062 0.00095288502 0.022266388 0.99833363 -0.043403149
659754716.98113 0.9981041 -0.045290291 0.00097449962 0.022393633 0.0010220204 0.022600424 0.99837244 -0.043944031
669750943.39623 0.99804449 -0.045753598 0.0010260846 0.022756958 0.0010175849 0.022979442 0.99850833 -0.044829339
679747169.81132 0.99818242 -0.04656668 0.0010579177 0.023109382 0.0010355534 0.023318594 0.99847758 -0.045828693
689743396.22642 0.99828577 -0.047388166 0.0011286596 0.023451196 0.0011207024 0.02366084 0.99828905 -0.046783537
699739622.64151 0.99840999 -0.048177034 0.0011538481 0.023789153 0.0011703372 0.023996957 0.99822783 -0.047529012
709735849.0566 0.99839211 -0.049144372 0.0011889949 0.024130402 0.0011972127 0.024338577 0.99795556 -0.048146293
719732075.4717 0.99831724 -0.049826473 0.0012576315 0.024428587 0.0012504295 0.024676487 0.99800134 -0.048690826
729728301.88679 0.99821031 -0.050373077 0.0012652203 0.024766084 0.0012791445 0.024984322 0.9980557 -0.049201518
739724528.30189 0.99807459 -0.051020354 0.0013029021 0.025091974 0.0012894254 0.025314644 0.99823165 -0.04982245
749720754.71698 0.99798125 -0.051499337 0.0013489034 0.025477648 0.0013352283 0.025672231 0.99828732 -0.050545454
759716981.13208 0.9980576 -0.051988125 0.0013437374 0.025793735 0.00134518 0.025958929 0.99825859 -0.051334053
769713207.54717 0.9980849 -0.052779138 0.001387056 0.026088372 0.0013840059 0.026305055 0.99797386 -0.052060127
779709433.96226 0.99816251 -0.053394172 0.0014281851 0.026421469 0.001433025 0.026640149 0.99776626 -0.052713916
789705660.37736 0.99805725 -0.054412901 0.0014544185 0.02675911 0.0014502332 0.026943928 0.99747831 -0.053443938
799701886.79245 0.99792898 -0.055159599 0.0014785985 0.027073245 0.0014860835 0.027290601 0.99736315 -0.054043502
809698113.20755 0.99784952 -0.055812478 0.0015149286 0.027410831 0.0015340587 0.027617879 0.99743718 -0.054483697
819694339.62264 0.99778426 -0.056431264 0.001544096 0.027745564 0.0015264028 0.027974412 0.99752069 -0.055088192
829690566.03774 0.99777651 -0.0571042 0.0015799543 0.028058056 0.0015886473 0.028322518 0.99778605 -0.056024104
839686792.45283 0.99784452 -0.057444006 0.0015852638 0.028391596 0.001620885 0.028645247 0.99780834 -0.056923985
849683018.86792 0.99782723 -0.058194704 0.0016360579 0.028735392 0.0016596238 0.028976142 0.99764901 -0.057627991
859679245.28302 0.99786198 -0.058864862 0.0016579293 0.029091863 0.0016781241 0.029310688 0.99741125 -0.058248013
869675471.69811 0.9978838 -0.059687197 0.0017170198 0.029400997 0.0017400067 0.029655742 0.99699211 -0.058730006
879671698.11321 0.99772191 -0.060311988 0.0017631277 0.029716264 0.0017622334 0.029992934 0.99701804 -0.059185907
889667924.5283 0.99754 -0.061255425 0.0017937794 0.030028246 0.001787479 0.03030145 0.99692899 -0.059723705
899664150.9434 0.99738628 -0.061945736 0.0018018205 0.030377852 0.0018224148 0.030641817 0.99694681 -0.060409874
909660377.35849 0.9973554 -0.062656999 0.0018407283 0.030684395 0.0018564933 0.031004187 0.99711323 -0.061271787
919656603.77358 0.99742824 -0.063356206 0.0018520304 0.031041577 0.0018800185 0.031308565 0.9970777 -0.062169895
929652830.18868 0.99739909 -0.064051688 0.0018792273 0.031367686 0.0019068979 0.031635705 0.99693066 -0.063125521
939649056.60377 0.99759012 -0.064683795 0.0018960647 0.031674344 0.0019291667 0.031952381 0.99677414 -0.063835472
949645283.01887 0.99753487 -0.065570436 0.0019321438 0.032033604 0.0019644713 0.032302924 0.99658561 -0.064385243
959641509.43396 0.9975155 -0.066281855 0.0019468246 0.032393385 0.0019822037 0.032670207 0.99647129 -0.064816356
969637735.84906 0.99735898 -0.066959292 0.0020207632 0.032770205 0.0020408873 0.033028737 0.99653041 -0.065255821
979633962.26415 0.99720389 -0.067730449 0.0021034686 0.033045795 0.0020873051 0.033350039 0.99649668 -0.065904997
989630188.67925 0.99718738 -0.06825012 0.0020907735 0.033389963 0.0021415092 0.033713873 0.99663532 -0.066584349
999626415.09434 0.99724561 -0.06888321 0.0021371339 0.033742543 0.00216759 0.034025844 0.99662822 -0.067392468
1009622641.5094 0.99730736 -0.069552749 0.002161229 0.034054961 0.002201491 0.034387004 0.99650776 -0.06826292
1019618867.9245 0.99736917 -0.07044518 0.0022298968 0.034415234 0.0022868421 0.034752205 0.99623489 -0.069092467
1029615094.3396 0.99732417 -0.071408153 0.0022818875 0.034726493 0.0023206733 0.035042807 0.99575931 -0.069639236
1039611320.7547 0.99740016 -0.072245389 0.0023344774 0.035035379 0.0023325654 0.035382651 0.99573481 -0.070334554
1049607547.1698 0.9971894 -0.073150128 0.0023338117 0.03533097 0.002366398 0.035652984 0.99572152 -0.070952863
1059603773.5849 0.9971171 -0.073831648 0.0023753233 0.03561968 0.0024400167 0.035983853 0.99575549 -0.07145831
1069600000 0.99681634 -0.074518055 0.0023745019 0.035959404 0.0024390295 0.036334593 0.99595106 -0.072214842
1079596226.4151 0.99681461 -0.075160123 0.0023971624 0.036327619 0.0024624239 0.036667343 0.99593139 -0.073049918
1089592452.8302 0.99685597 -0.075801551 0.0024253801 0.036666844 0.0025133034 0.03700088 0.99582529 -0.073790371
1099588679.2453 0.99683583 -0.076476872 0.002440786 0.036982775 0.0025046691 0.037325203 0.99547958 -0.074390918
1109584905.6604 0.99695301 -0.077275008 0.0024797199 0.037344914 0.0025283219 0.037662134 0.99520624 -0.074960992
1119581132.0755 0.99688268 -0.078362346 0.0024839914 0.037675716 0.0025855494 0.03802456 0.9950583 -0.075363904
1129577358.4906 0.99669921 -0.0790838 0.0025514085 0.038065381 0.0026122034 0.038410157 0.99490398 -0.075772166
1139573584.9057 0.99651015 -0.080017656 0.0025647301 0.038385414 0.002672622 0.038764786 0.99497461 -0.076514453
1149569811.3208 0.99639457 -0.080910698 0.0026669204 0.038731877 0.0027252708 0.039073519 0.9951117 -0.077283882
1159566037.7358 0.9962399 -0.081582963 0.0026598917 0.039022867 0.002774518 0.039378297 0.9952817 -0.07827875
1169562264.1509 0.99597526 -0.082213998 0.0026986077 0.039344128 0.002791822 0.039728548 0.99508905 -0.079171658
1179558490.566 0.99602878 -0.082975566 0.0027390469 0.039731275 0.0028296774 0.040129948 0.99485028 -0.079818584
1189554716.9811 0.99591601 -0.083753586 0.0027527297 0.040095277 0.0028798636 0.040432286 0.99466681 -0.080334097
1199550943.3962 0.99588257 -0.084608853 0.0028077196 0.040430769 0.0029167496 0.04078706 0.9944666 -0.080774426
1209547169.8113 0.99573994 -0.085426882 0.0028565982 0.040769234 0.0029665958 0.04110029 0.99439037 -0.081067771
1219543396.2264 0.99551386 -0.086335108 0.002883275 0.041135699 0.003005865 0.041515518 0.99444473 -0.081490412
1229539622.6415 0.99525595 -0.087163419 0.0029739868 0.04147527 0.0030802786 0.04181993 0.99464571 -0.082204789
1239535849.0566 0.99501818 -0.087869704 0.0030431254 0.04177846 0.0031337999 0.042167619 0.99464679 -0.083196402
1249532075.4717 0.99467075 -0.088604197 0.0030908389 0.042137653 0.0032437439 0.042480253 0.9945029 -0.084031411
1259528301.8868 0.99444783 -0.08906275 0.0031521395 0.042471666 0.003275549 0.042802706 0.99419653 -0.084927231
1269524528.3019 0.99432725 -0.089781851 0.0031806119 0.042751558 0.0033462308 0.043114591 0.99396831 -0.085585028
1279520754.717 0.99392468 -0.090560928 0.0032683364 0.043090872 0.0034010701 0.043374993 0.99373055 -0.086140044
1289516981.1321 0.9937849 -0.09127754 0.0032785907 0.043377474 0.0034267167 0.04369558 0.9938004 -0.086550951
1299513207.5472 0.99343503 -0.092288077 0.003308719 0.043733768 0.0034677535 0.044006526 0.9938972 -0.086979181
1309509433.9623 0.99307501 -0.09287034 0.0033186404 0.044024024 0.0034786873 0.044340435 0.9940235 -0.08766073
1319505660.3774 0.992558 -0.093679264 0.0033212109 0.044337139 0.0034712702 0.044669017 0.99405789 -0.088395208
1329501886.7925 0.9923228 -0.094361693 0.0033379849 0.044672772 0.0035111196 0.044999585 0.99404621 -0.089374095
1339498113.2075 0.9920606 -0.094792932 0.0033672247 0.045020048 0.0035170689 0.045302078 0.99364978 -0.090072274
1349494339.6226 0.99180055 -0.09542717 0.0033331313 0.045388162 0.0034720064 0.045706734 0.99324477 -0.09069854
1359490566.0377 0.99181068 -0.096039414 0.0033519901 0.045766003 0.0035078116 0.046016544 0.992993 -0.091230273
1369486792.4528 0.99159372 -0.096502304 0.0033512898 0.046116114 0.0035272557 0.046405405 0.9928081 -0.091673523
1379483018.8679 0.99122256 -0.097142383 0.0034198388 0.046499271 0.0035390914 0.046735484 0.99279606 -0.092054814
1389479245.283 0.99087405 -0.097707301 0.0034741554 0.046861239 0.0035909284 0.047158509 0.99281985 -0.092737347
1399475471.6981 0.99041581 -0.098098248 0.0034593381 0.047236688 0.003618883 0.047523223 0.9930194 -0.093482524
1409471698.1132 0.99008709 -0.098459713 0.0035387755 0.047639038 0.0036203528 0.047876406 0.99304867 -0.094256841
1419467924.5283 0.9898873 -0.098668069 0.0035326146 0.047978491 0.0036509922 0.04826935 0.99285007 -0.095063686
1429464150.9434 0.98977119 -0.099180877 0.0036051515 0.048423741 0.0036916137 0.048677228 0.99274719 -0.095495611
1439460377.3585 0.98991668 -0.099625677 0.0036792979 0.048879072 0.0037710564 0.049132418 0.9925223 -0.09583436
1449456603.7736 0.9899388 -0.10017796 0.0037846258 0.049260587 0.0038367342 0.049558379 0.99234313 -0.096192285
1459452830.1887 0.98999071 -0.10090685 0.003947122 0.049692389 0.0039677415 0.04995133 0.99249202 -0.09654671
1469449056.6038 0.99003875 -0.10161024 0.0041438481 0.049978677 0.0041645765 0.050294142 0.99276167 -0.097157717
1479445283.0189 0.98993403 -0.10216031 0.004251495 0.050319437 0.0042632045 0.050628867 0.99276108 -0.098154157
1489441509.434 0.98982167 -0.10277095 0.0043429285 0.050590016 0.0044030193 0.050904978 0.99264967 -0.099069506
1499437735.8491 0.98958886 -0.10309124 0.0044932496 0.050870128 0.0045087263 0.051227316 0.9925065 -0.099814296
1509433962.2642 0.98960871 -0.10358799 0.0045742332 0.051184013 0.0045870775 0.051506549 0.99231106 -0.10055858
1519430188.6792 0.98963839 -0.10418105 0.0046668965 0.05147763 0.0046694279 0.051803842 0.99221295 -0.10110667
1529426415.0943 0.98965764 -0.10482275 0.0047035236 0.051756576 0.0046782251 0.052064225 0.99210286 -0.10150644
1539422641.5094 0.98970777 -0.10557777 0.0047526881 0.052090973 0.0047882977 0.052345805 0.99217075 -0.1019466
1549418867.9245 0.98947078 -0.10647593 0.0048050135 0.052354474 0.0048251851 0.052670904 0.99244827 -0.10272343
1559415094.3396 0.98937631 -0.10716268 0.0048693251 0.05265877 0.0048570056 0.052983642 0.99256033 -0.10339519
1569411320.7547 0.98917222 -0.10792539 0.0049224747 0.052922666 0.0049343379 0.053262893 0.99249935 -0.10430026
1579407547.1698 0.98911887 -0.10850234 0.0049485676 0.053216416 0.0049457122 0.053565785 0.99210829 -0.10510217
1589403773.5849 0.98908877 -0.10893723 0.004940046 0.053487938 0.0049709901 0.053874403 0.99193698 -0.10581577
1599400000 0.98902702 -0.10943022 0.0049242452 0.053805545 0.0049092118 0.054247968 0.99149942 -0.10625595
1609396226.4151 0.98896962 -0.11007726 0.004904517 0.054173242 0.0049405401 0.054511331 0.99134403 -0.10678252
1619392452.8302 0.9890672 -0.11075515 0.0049448442 0.054520473 0.0049185716 0.054868653 0.99133039 -0.10721391
1629388679.2453 0.98876619 -0.11151081 0.0049547348 0.054870445 0.0049262904 0.055239588 0.99157274 -0.10778585
1639384905.6604 0.98857516 -0.11214487 0.0049727666 0.055251859 0.0049497336 0.055662178 0.99173313 -0.10859839
1649381132.0755 0.98829293 -0.11279887 0.0049885493 0.055588275 0.0049757883 0.056035362 0.9917897 -0.10953718
1659377358.4906 0.98815632 -0.11355928 0.0049786866 0.055956446 0.005012909 0.056350403 0.99172187 -0.11047962
1669373584.9057 0.98810852 -0.11401249 0.0050759823 0.05637455 0.0050632153 0.056807991 0.99140292 -0.11113244
1679369811.3208 0.98820281 -0.11467233 0.0050984453 0.056778785 0.0050838199 0.057164099 0.99116647 -0.11169773
1689366037.7358 0.98816806 -0.11531568 0.0051369816 0.057150461 0.0051178057 0.057595432 0.99094808 -0.11202034
1699362264.1509 0.98826265 -0.1159731 0.0051837843 0.057500705 0.0051672598 0.05799 0.99119294 -0.11238642
1709358490.566 0.98816848 -0.11663117 0.0052779922 0.057880722 0.0052960059 0.05834426 0.99122798 -0.11297916
1719354716.9811 0.98788416 -0.11727765 0.0053308047 0.058281813 0.0053415149 0.058744319 0.99124098 -0.11378101
1729350943.3962 0.98752463 -0.11786026 0.0054220799 0.058654834 0.005460171 0.059127264 0.99126416 -0.11454678
