!Keysight Technologies,N5222B,MY61253708,A.15.00.15
!Date: Wednesday, June 19, 2024 09:29:58
!Correction: S11(C  2-Port  ) 
!S21(C  2-Port  ) 
!S12(C  2-Port  ) 
!S22(C  2-Port  ) 
!S2P File: Measurements: S11, S21, S12, S22:
# Hz S  RI   R 50
10000000 0.99879342 -0.0027563572 7.1391951e-005 0.00015725779 -0.00012514033 9.580703e-005 0.99857974 -0.00091078877
19996226.415094 0.99894398 -0.0020891428 0.00024349749 0.00070270442 0.00012740503 0.00060427585 0.99914289 -0.0024656951
29992452.830189 0.99970502 -0.0024844408 1.2214878e-005 0.00096603 6.8659981e-005 0.0010877613 0.99941432 -0.0026322305
39988679.245283 0.99996841 -0.0030005723 2.1297383e-005 0.0013724207 3.682432e-005 0.001377264 0.99971139 -0.0031840205
49984905.660377 1.0001841 -0.0037576854 -4.3010863e-005 0.0016894292 -5.622278e-007 0.0016933358 0.99984229 -0.0036460459
59981132.075472 1.0002493 -0.0046384931 2.0713313e-005 0.0020269474 6.9579633e-005 0.002015911 0.99982464 -0.0042135715
69977358.490566 1.0001274 -0.0051595699 4.1246531e-005 0.0023635498 -7.7204859e-006 0.002363197 0.99970502 -0.0047397483
79973584.90566 0.99986482 -0.0057598948 3.6492711e-005 0.0026978771 1.7906772e-005 0.0026794127 0.99939448 -0.0052749217
89969811.320755 0.9998374 -0.0059216917 1.9171974e-005 0.0029857969 1.0463875e-005 0.0030384599 0.9995724 -0.005549252
99966037.735849 1.000039 -0.0067409277 2.7938746e-005 0.0033303394 2.0383974e-005 0.0033562002 0.999659 -0.0063017756
109962264.15094 1.0000834 -0.007553339 1.2941426e-005 0.0036692685 3.1609437e-005 0.0037074001 0.9996444 -0.007122457
119958490.56604 1.0001187 -0.0085344911 2.8547365e-005 0.0039866054 3.1993492e-005 0.0040563541 0.99968916 -0.0080161095
129954716.98113 1.0000892 -0.0095468462 5.548296e-005 0.0043189558 6.513251e-005 0.0043904744 0.99968576 -0.0089023411
139950943.39623 1.0000147 -0.010343457 3.986682e-005 0.0046500843 3.1969452e-005 0.0047234362 0.99958789 -0.0096921679
149947169.81132 0.99988621 -0.010988027 6.0612801e-005 0.0050302213 4.9151713e-005 0.0050458219 0.99953163 -0.010260522
159943396.22642 0.99983823 -0.01154989 5.5404846e-005 0.0053643733 7.0766546e-005 0.0053793779 0.99962252 -0.010712057
169939622.64151 0.99980885 -0.011922091 6.9188187e-005 0.0056779454 6.8636029e-005 0.0057514054 0.99966788 -0.011168301
179935849.0566 0.99985904 -0.012264669 9.7541371e-005 0.0060337139 8.2593295e-005 0.0060870685 0.99962813 -0.011554837
189932075.4717 0.99997413 -0.012983739 8.1610866e-005 0.0063431072 4.8110262e-005 0.0064259442 0.99979663 -0.012110949
199928301.88679 0.99997616 -0.013809174 0.00010137178 0.0066754594 0.00013171742 0.0067515499 0.99968433 -0.01301378
209924528.30189 0.99971777 -0.014397293 0.0001003379 0.0070065926 8.0368947e-005 0.007074384 0.99946815 -0.013710678
219920754.71698 0.99972904 -0.015334964 0.00011690916 0.0073367204 0.0001236042 0.0073944121 0.99927014 -0.014396429
229916981.13208 0.99954283 -0.016156048 0.0001446316 0.0076662274 0.00012414157 0.0077354196 0.99923009 -0.015164644
239913207.54717 0.99940926 -0.01687393 0.00013359722 0.0079991315 0.00013416336 0.0081169568 0.99922323 -0.015884174
249909433.96226 0.9994337 -0.017507434 0.00012583798 0.0083319433 0.00012620469 0.0084022926 0.99935311 -0.016490847
259905660.37736 0.99957371 -0.018113852 0.00015651202 0.0086942147 0.00014584651 0.0087579563 0.99947035 -0.017086089
269901886.79245 0.99957311 -0.018701985 0.00013475784 0.0089715403 0.00017012609 0.0091096079 0.99986589 -0.017751276
279898113.20755 0.99972874 -0.019463256 0.00014091097 0.0093430681 0.00016488135 0.009436937 0.99978042 -0.018449992
289894339.62264 0.99980009 -0.020123988 0.00018989388 0.0096522383 0.00020806491 0.0097226892 0.99966758 -0.01927352
299890566.03774 0.99969655 -0.020661682 0.00019057724 0.010025322 0.00023090094 0.0101408 0.99941933 -0.019700676
309886792.45283 0.9994036 -0.021278247 0.00019482558 0.010345927 0.00022066315 0.010393901 0.99931848 -0.020212553
319883018.86792 0.99944663 -0.02175805 0.00023500994 0.010706131 0.0002489714 0.010739446 0.99933565 -0.020657271
329879245.28302 0.99942756 -0.022478133 0.00023879902 0.011013041 0.00026431447 0.011140146 0.99947393 -0.021461874
339875471.69811 0.99934787 -0.023410775 0.00029574241 0.011345922 0.00025956577 0.011452014 0.99947482 -0.022240087
349871698.11321 0.99952126 -0.024217486 0.00028051226 0.011721498 0.00027623097 0.011794373 0.99940175 -0.023176134
359867924.5283 0.9993434 -0.02494967 0.00031263148 0.012012504 0.00029076962 0.01213406 0.99936748 -0.024020553
369864150.9434 0.99953032 -0.025753558 0.0003072049 0.012350718 0.00031887181 0.012417192 0.99941492 -0.024803132
379860377.35849 0.99942178 -0.026422352 0.00033088541 0.012674497 0.00034869183 0.012823489 0.99932373 -0.025497705
389856603.77358 0.99935019 -0.026867807 0.00036387239 0.013011557 0.00033777207 0.013112694 0.99930871 -0.025913
399852830.18868 0.99912423 -0.027482748 0.00036668032 0.013319887 0.00039444538 0.013411251 0.99929917 -0.026369065
409849056.60377 0.99910194 -0.028031342 0.00040004955 0.013701431 0.00038441183 0.013807409 0.99936879 -0.026917202
419845283.01887 0.99911517 -0.028481036 0.00039384654 0.014000669 0.00044074329 0.01410948 0.99928325 -0.027400851
429841509.43396 0.99930024 -0.029154956 0.00044048019 0.014336023 0.00040468667 0.014428996 0.9994303 -0.028126448
439837735.84906 0.99919003 -0.030100584 0.0004163211 0.014625203 0.00045503001 0.014782207 0.99926376 -0.029146463
449833962.26415 0.99908519 -0.030891567 0.00045720441 0.014966678 0.00045427447 0.015124402 0.99888891 -0.029948622
459830188.67925 0.99896741 -0.031584352 0.00050826138 0.015321422 0.00045207143 0.015425559 0.99864036 -0.030735135
469826415.09434 0.99892884 -0.032409072 0.00047200778 0.015635654 0.00046598678 0.015788775 0.99844509 -0.031235278
479822641.50943 0.99892306 -0.032956593 0.00051283836 0.015983228 0.00049246871 0.01616344 0.99849993 -0.03167925
489818867.92453 0.99883878 -0.033611447 0.00055191573 0.016324406 0.00056483643 0.016497154 0.99874806 -0.032180876
499815094.33962 0.99890053 -0.034269929 0.0005666879 0.016647369 0.00058387825 0.016839515 0.99902493 -0.03276065
509811320.75472 0.99904191 -0.034672353 0.00055030012 0.016977062 0.00056433358 0.017138671 0.99923986 -0.033614725
519807547.16981 0.99902546 -0.035215199 0.00058742333 0.017267264 0.00058671692 0.017451469 0.99914867 -0.034336299
529803773.58491 0.99897611 -0.035744488 0.00059365947 0.017665507 0.00063144136 0.017793372 0.99888742 -0.034942478
539800000 0.99906546 -0.036434159 0.00061433157 0.018006779 0.00064309291 0.018159807 0.99875134 -0.035632923
549796226.41509 0.99873465 -0.037288934 0.00067995302 0.018301778 0.00064040162 0.018496761 0.99857855 -0.03607142
559792452.83019 0.99860597 -0.038065255 0.00067338627 0.018654931 0.0006509237 0.018785816 0.99853659 -0.036554813
569788679.24528 0.99851692 -0.038723946 0.00069645979 0.018997628 0.00070114248 0.01911564 0.99861515 -0.037253827
579784905.66038 0.99845093 -0.039307848 0.00070903462 0.019303583 0.00070951367 0.019465666 0.99875385 -0.038052544
589781132.07547 0.9985894 -0.039924055 0.00078270491 0.019634826 0.00078593381 0.019851236 0.99895275 -0.038926125
599777358.49057 0.99873662 -0.040604979 0.00081469677 0.019980198 0.00076800678 0.020145701 0.99892616 -0.03978321
609773584.90566 0.99877673 -0.041365094 0.00086624746 0.02033918 0.00081734266 0.020485178 0.99880904 -0.040547743
619769811.32075 0.99888337 -0.042152941 0.00091048889 0.020671707 0.00091172848 0.020851122 0.99869454 -0.041082293
629766037.73585 0.99875808 -0.04274106 0.00088032708 0.020939849 0.0009112712 0.02110948 0.99859893 -0.041607141
639762264.15094 0.99855697 -0.043375969 0.00093740574 0.02126562 0.00093019893 0.021481052 0.9983483 -0.042043164
649758490.56604 0.99843657 -0.043944851 0.0009298441 0.021582237 0.00097605214 0.021761144 0.99850249 -0.042575613
659754716.98113 0.9982487 -0.044422269 0.00092244241 0.021929897 0.00094391964 0.02213794 0.99844712 -0.043168038
669750943.39623 0.99830675 -0.044968724 0.00095164031 0.022278938 0.00096580666 0.022497697 0.99855334 -0.043861955
679747169.81132 0.99823022 -0.045686536 0.0010663645 0.02263044 0.0010350693 0.022829985 0.99853557 -0.044893071
689743396.22642 0.9983747 -0.046503514 0.0010496005 0.0229719 0.0010518404 0.023180915 0.9984169 -0.045782745
699739622.64151 0.99854243 -0.047301799 0.0011105184 0.023292601 0.0011211643 0.023493359 0.99835145 -0.04648453
709735849.0566 0.99846709 -0.048208848 0.0011305854 0.023629837 0.0011782387 0.023798762 0.99806893 -0.047131106
719732075.4717 0.99837428 -0.048803985 0.0012007812 0.023912845 0.0011678138 0.024138365 0.99812132 -0.047761202
729728301.88679 0.99833274 -0.049433678 0.0011647223 0.024224063 0.0011786111 0.024454594 0.99818957 -0.04818207
739724528.30189 0.99812448 -0.050080225 0.0012329509 0.024579503 0.0012190887 0.024776137 0.99837506 -0.048793241
749720754.71698 0.99810207 -0.050590888 0.0012466656 0.024868291 0.0012606313 0.025107767 0.99835753 -0.049544871
759716981.13208 0.99817562 -0.051133573 0.0012678094 0.025256805 0.0012909528 0.025436454 0.99834013 -0.050338119
769713207.54717 0.99800825 -0.051889986 0.0013258234 0.025537712 0.0013425425 0.025773585 0.99811912 -0.051111251
779709433.96226 0.99820322 -0.052465912 0.0013468497 0.025881125 0.0013558182 0.026117459 0.99783647 -0.051688336
789705660.37736 0.99818385 -0.053349227 0.0013481881 0.026184777 0.0013823202 0.026414778 0.99756694 -0.052369118
799701886.79245 0.99806786 -0.054199487 0.0014218753 0.026471496 0.0014423076 0.026734058 0.99748427 -0.05302757
809698113.20755 0.99802643 -0.054751113 0.0014180727 0.026807025 0.001445096 0.027080964 0.99755704 -0.053429022
819694339.62264 0.99782991 -0.055502504 0.0014465381 0.027149297 0.0014568469 0.0274322 0.99756628 -0.054099441
829690566.03774 0.99786985 -0.056097716 0.0015176479 0.02748115 0.0014897864 0.027715756 0.9978081 -0.054923981
839686792.45283 0.99795645 -0.056515127 0.0015146607 0.027793201 0.0015587928 0.028042216 0.9979291 -0.055733442
849683018.86792 0.99802244 -0.057199478 0.0015728627 0.028133411 0.0015811769 0.028408099 0.99777639 -0.056521475
859679245.28302 0.99802774 -0.057900131 0.0015897844 0.028459284 0.0016009696 0.028695492 0.99750459 -0.057132542
869675471.69811 0.9978919 -0.058644354 0.0016352031 0.028804505 0.0016782191 0.029079068 0.99720347 -0.057640314
879671698.11321 0.99781156 -0.059299912 0.0016568576 0.02909052 0.0016860228 0.029351918 0.99718976 -0.058087185
889667924.5283 0.99768597 -0.060121804 0.001695564 0.029400248 0.001732097 0.02967409 0.99697495 -0.05857721
899664150.9434 0.99752355 -0.060843617 0.0017215274 0.029737696 0.0017066067 0.030026693 0.99700522 -0.059204876
909660377.35849 0.99755526 -0.061460808 0.0017450433 0.030064236 0.0017667441 0.030319542 0.99721599 -0.060096458
919656603.77358 0.99759424 -0.062156349 0.0017778641 0.030374359 0.0018018223 0.030649759 0.99722785 -0.060982868
929652830.18868 0.99756062 -0.0629403 0.0017869323 0.030680539 0.0018220935 0.030972827 0.99707812 -0.061865389
939649056.60377 0.99771953 -0.063588202 0.0018099081 0.031022556 0.0018361136 0.031285718 0.99687374 -0.062556505
949645283.01887 0.99769491 -0.064449027 0.0018101074 0.031364892 0.0018264761 0.031673606 0.99671704 -0.063074157
959641509.43396 0.99758172 -0.065064669 0.0018494502 0.031714328 0.0018964978 0.03199371 0.9965902 -0.063641697
969637735.84906 0.99749798 -0.065740377 0.0019224128 0.032062683 0.0019508768 0.032346983 0.99671698 -0.063931406
979633962.26415 0.99737555 -0.066487841 0.0019612706 0.032337047 0.0020001025 0.032662865 0.99665952 -0.064628169
989630188.67925 0.99745917 -0.067054242 0.0019923644 0.032682642 0.00201324 0.033001456 0.996849 -0.065187752
999626415.09434 0.99744123 -0.067676961 0.0020347945 0.033020649 0.002045799 0.033320419 0.99683273 -0.066049427
1009622641.5094 0.99746186 -0.06829457 0.0020445092 0.033344846 0.0020908872 0.033666529 0.99661744 -0.06686911
1019618867.9245 0.99755204 -0.069167569 0.0021163984 0.03367931 0.0021537766 0.033999633 0.99640518 -0.067770541
1029615094.3396 0.9975248 -0.070130199 0.0021789772 0.033975549 0.0022142259 0.034291144 0.99597907 -0.068331003
1039611320.7547 0.99752015 -0.070971757 0.0021814751 0.034275405 0.0022381796 0.034613423 0.99596632 -0.06902501
1049607547.1698 0.99728054 -0.071878374 0.0022184341 0.034587964 0.0022665926 0.034921646 0.99595791 -0.069569618
1059603773.5849 0.99724764 -0.072591305 0.0022567837 0.034871891 0.002279711 0.035223704 0.99595755 -0.070097804
1069600000 0.99707413 -0.073251814 0.0022635888 0.035223816 0.0022956096 0.035547942 0.99618208 -0.070732117
1079596226.4151 0.99706042 -0.073805951 0.0022864225 0.035548158 0.0023143254 0.03589391 0.9961676 -0.071532346
1089592452.8302 0.99710786 -0.074484378 0.0022929898 0.035879791 0.0023466162 0.036223188 0.99606001 -0.072253406
1099588679.2453 0.99710464 -0.075153232 0.0023289584 0.03621313 0.0023654625 0.036537908 0.99575293 -0.072887868
1109584905.6604 0.99714673 -0.075954378 0.0023290366 0.036548469 0.0024091201 0.036908031 0.9955219 -0.073498994
1119581132.0755 0.99710375 -0.076961234 0.0023457394 0.036908388 0.0024241023 0.037266437 0.99528205 -0.073921233
1129577358.4906 0.99698067 -0.077729255 0.0023923703 0.037256006 0.0024710279 0.037628565 0.99520713 -0.07432127
1139573584.9057 0.99676013 -0.078591585 0.0024338784 0.037603457 0.0025434578 0.037961733 0.99525243 -0.075085402
1149569811.3208 0.99663055 -0.079511017 0.002515696 0.037899308 0.0025676743 0.038309071 0.99542308 -0.075775519
1159566037.7358 0.99639702 -0.080217153 0.0025495561 0.0381823 0.0026213201 0.038555525 0.99552262 -0.076766163
1169562264.1509 0.99626684 -0.08069098 0.002538383 0.038523547 0.0026434399 0.038904611 0.99532127 -0.077644169
1179558490.566 0.99629605 -0.081608698 0.0025665187 0.038898516 0.0026436276 0.039278176 0.99522263 -0.078322209
1189554716.9811 0.99621457 -0.082235277 0.0025924072 0.03924625 0.002698984 0.039606325 0.99495041 -0.078921854
1199550943.3962 0.99610221 -0.083127022 0.0026291851 0.039587922 0.0027704518 0.039945103 0.99470478 -0.079189122
1209547169.8113 0.99597627 -0.084083334 0.0026778765 0.039922249 0.0028150184 0.040271275 0.99468428 -0.079566166
1219543396.2264 0.99572825 -0.084861323 0.0027181474 0.040291641 0.0028642896 0.040668823 0.99477136 -0.079980686
1229539622.6415 0.9954766 -0.085620433 0.0027875304 0.0406067 0.0029263943 0.041002609 0.99488544 -0.080637842
1239535849.0566 0.99527776 -0.086351454 0.0028566159 0.040893767 0.0029936032 0.041305445 0.99496013 -0.081612051
1249532075.4717 0.99490815 -0.087038353 0.0029722017 0.041234244 0.0030702362 0.041569572 0.99478984 -0.08237274
1259528301.8868 0.99477851 -0.087493032 0.0029359553 0.041597404 0.0031201821 0.041933335 0.99454892 -0.083326936
1269524528.3019 0.99455541 -0.088279784 0.0030259211 0.041890353 0.0031944923 0.042201336 0.99435753 -0.083992928
1279520754.717 0.99424595 -0.088961147 0.0030620939 0.042160351 0.0031977352 0.042516999 0.99410468 -0.084540464
1289516981.1321 0.99412036 -0.089797854 0.0030626245 0.042500086 0.00324497 0.042790122 0.99409515 -0.084948957
1299513207.5472 0.99384785 -0.090678096 0.0031065587 0.042790256 0.0032346398 0.043118153 0.99426234 -0.085303664
1309509433.9623 0.99331754 -0.091355622 0.0031314623 0.043098323 0.0032803509 0.043418605 0.99435139 -0.086061031
1319505660.3774 0.99293184 -0.092077807 0.0031079724 0.043415707 0.003279374 0.04375954 0.99433631 -0.086631894
1329501886.7925 0.99265003 -0.092744201 0.0031656101 0.043753326 0.0032851286 0.044070765 0.99441338 -0.087611496
1339498113.2075 0.99237806 -0.09329474 0.0031901505 0.044058111 0.003322361 0.044369824 0.99397135 -0.088335842
1349494339.6226 0.99221277 -0.093835205 0.0031694081 0.044423372 0.0032717478 0.044743918 0.99358803 -0.088958628
1359490566.0377 0.99212277 -0.094422221 0.0031764209 0.04480933 0.003268268 0.045054786 0.99347121 -0.089501619
1369486792.4528 0.99185848 -0.094923198 0.003202131 0.045148604 0.0033223666 0.045432892 0.99321008 -0.089984208
1379483018.8679 0.99160582 -0.095544383 0.0032062503 0.045531411 0.0033307604 0.045774445 0.99322712 -0.090299278
1389479245.283 0.9912557 -0.096041143 0.0032414887 0.045878105 0.0033612847 0.046170257 0.99319315 -0.091011822
1399475471.6981 0.99089181 -0.096414655 0.003256239 0.046237022 0.0033810083 0.046527278 0.99345171 -0.091640383
1409471698.1132 0.99050498 -0.096789658 0.0033219308 0.046655163 0.0034239343 0.046907172 0.99339056 -0.092477463
1419467924.5283 0.99038363 -0.097027391 0.003361634 0.046977799 0.0034670131 0.047279421 0.99323791 -0.093169749
1429464150.9434 0.9901948 -0.097528577 0.0033352412 0.047393698 0.0034823213 0.047700465 0.99313021 -0.093813449
1439460377.3585 0.99031639 -0.097945213 0.003480061 0.04788392 0.0035462184 0.048102736 0.99291223 -0.094001204
1449456603.7736 0.99039602 -0.098585457 0.0035844613 0.04826685 0.0036680242 0.048574932 0.99282497 -0.094441101
1459452830.1887 0.99040127 -0.099266171 0.0037140772 0.048617683 0.0037824996 0.048922367 0.9929353 -0.094749093
1469449056.6038 0.99037278 -0.099939317 0.0038806275 0.049003959 0.0039405217 0.049311746 0.99313861 -0.095406771
1479445283.0189 0.9902305 -0.10049367 0.0039927848 0.049247567 0.0040268968 0.049583953 0.99317145 -0.096270308
1489441509.434 0.99015939 -0.10102722 0.0041447077 0.049579654 0.0041580405 0.049898431 0.99310601 -0.097179145
1499437735.8491 0.9899438 -0.10138023 0.0042777285 0.049837127 0.004317712 0.050169006 0.99297315 -0.097977698
1509433962.2642 0.99009383 -0.10177412 0.0043385238 0.050151125 0.0043346528 0.050471913 0.99279016 -0.098697379
1519430188.6792 0.99013084 -0.10243687 0.004399199 0.050406467 0.0044019036 0.050702028 0.99266791 -0.099242866
1529426415.0943 0.99006885 -0.10306987 0.0044327006 0.050717242 0.0044915881 0.051034398 0.99258697 -0.099704176
1539422641.5094 0.99008727 -0.10385018 0.0044877431 0.050999798 0.0045412364 0.051318433 0.99267113 -0.10017452
1549418867.9245 0.98997736 -0.10466665 0.0045595719 0.051307678 0.0045880722 0.051616728 0.99289089 -0.100866
1559415094.3396 0.98981327 -0.10538682 0.0045971833 0.051489886 0.0045691971 0.051882863 0.99299884 -0.10152587
1569411320.7547 0.9896915 -0.1061506 0.0046506124 0.051823419 0.0046649128 0.05219328 0.9929496 -0.1023268
1579407547.1698 0.98958766 -0.10662289 0.0046494314 0.052084818 0.0046890159 0.052491024 0.99259573 -0.10315421
1589403773.5849 0.98955309 -0.1070649 0.0046460703 0.052390888 0.0046749301 0.052772321 0.9923842 -0.10386142
1599400000 0.98953688 -0.10764277 0.0046897819 0.052728828 0.0046857856 0.05310484 0.99190784 -0.10441607
1609396226.4151 0.98949128 -0.10830981 0.0046896688 0.053041801 0.0046522953 0.053414691 0.99184805 -0.10484999
1619392452.8302 0.98940432 -0.10893291 0.0046579074 0.05336751 0.0046823155 0.053768806 0.99172181 -0.10536563
1629388679.2453 0.98920161 -0.10957241 0.0046877097 0.053691737 0.0046764482 0.054104917 0.99201947 -0.10581154
1639384905.6604 0.98899823 -0.11022688 0.0047032931 0.05407308 0.0046839658 0.054545041 0.99216104 -0.10669188
1649381132.0755 0.9887777 -0.11092326 0.0047197808 0.054430731 0.004733339 0.054881364 0.99222332 -0.10760689
1659377358.4906 0.98861682 -0.11166474 0.004746452 0.054802984 0.0047288742 0.05528792 0.99213153 -0.10856652
1669373584.9057 0.98852044 -0.11217317 0.004742411 0.05519871 0.0047640791 0.0556393 0.99182677 -0.10913038
1679369811.3208 0.98862159 -0.11271027 0.0048135025 0.055533245 0.0048211124 0.056021392 0.99160761 -0.1096659
1689366037.7358 0.98852342 -0.11351249 0.0048868265 0.05598785 0.0048484262 0.056400113 0.99143881 -0.10999417
1699362264.1509 0.98874742 -0.11406413 0.0049493127 0.056334801 0.004908571 0.056756258 0.99171579 -0.11038411
1709358490.566 0.98850811 -0.11466514 0.0049556764 0.056672443 0.0049949987 0.05716778 0.99171704 -0.11096504
1719354716.9811 0.98826134 -0.11533713 0.0050413534 0.057071257 0.0050102994 0.057497986 0.99174583 -0.11160129
1729350943.3962 0.98806459 -0.11596772 0.0050626639 0.057417408 0.0051434226 0.057904471 0.9918108 -0.11252335
