!Keysight Technologies,N5222B,MY61253708,A.15.00.15
!Date: Wednesday, June 19, 2024 09:48:31
!Correction: S11(C  2-Port  ) 
!S21(C  2-Port  ) 
!S12(C  2-Port  ) 
!S22(C  2-Port  ) 
!S2P File: Measurements: S11, S21, S12, S22:
# Hz S  RI   R 50
10000000 0.99873078 -0.0027369857 0.00019343611 9.8489283e-005 -6.3288666e-005 0.00040581237 0.9985323 -0.0011382103
19996226.415094 0.99906939 -0.0034251809 -1.6631937e-005 0.00061709154 6.1317987e-005 0.00076419127 0.99975908 -0.0035125017
29992452.830189 0.99967384 -0.002481848 -6.71405e-006 0.0010008452 1.739178e-005 0.00099244923 0.99953204 -0.0026885271
39988679.245283 1.0000676 -0.0029753298 6.5496839e-005 0.0013194205 4.6391957e-005 0.0013620974 0.9997102 -0.0030877739
49984905.660377 1.0001612 -0.0037132502 1.7071725e-005 0.0016841395 1.2571982e-005 0.0016840682 0.99986833 -0.0036325455
59981132.075472 1.0003731 -0.0045480728 1.687475e-005 0.002006826 -2.8734212e-005 0.0019952459 0.9998523 -0.0041986704
69977358.490566 1.000204 -0.0051762462 2.5448138e-005 0.0023087042 3.5200032e-005 0.0023547248 0.99967355 -0.0046583824
79973584.90566 0.99996269 -0.0057332218 -1.733622e-005 0.0026473491 3.3300603e-006 0.0026945695 0.99937773 -0.0051569045
89969811.320755 0.99993002 -0.0058618486 2.4633948e-005 0.0029599417 2.6781461e-005 0.0030045887 0.99959457 -0.0054480731
99966037.735849 1.0001961 -0.0065955073 3.3256249e-005 0.0033084438 3.8680329e-005 0.0033530199 0.99971646 -0.0062588006
109962264.15094 1.0001264 -0.007539615 4.18938e-005 0.0036285692 2.5437505e-005 0.0036648805 0.99967945 -0.0070679933
119958490.56604 1.0001702 -0.0084480345 4.3153064e-005 0.0039443662 3.2805721e-005 0.0040001967 0.99970555 -0.0078971386
129954716.98113 1.0001097 -0.0094185174 6.4843567e-005 0.0042980788 5.028327e-005 0.0043368083 0.99970156 -0.0087719262
139950943.39623 1.0000594 -0.010180539 3.5266727e-005 0.0046451739 4.9973925e-005 0.0046791886 0.9996326 -0.009526005
149947169.81132 0.99998719 -0.01086852 5.1589683e-005 0.0049721999 3.5645906e-005 0.0049983361 0.99958122 -0.010109216
159943396.22642 0.9999578 -0.01148212 6.2051462e-005 0.0052945851 4.5156805e-005 0.0053307028 0.99966288 -0.010601878
169939622.64151 0.99988604 -0.011800267 5.5291574e-005 0.0056428295 5.5357988e-005 0.0056776349 0.99970835 -0.011045612
179935849.0566 0.99994963 -0.012054682 0.000106149 0.0059619495 7.0232898e-005 0.0060211876 0.99962777 -0.011385977
189932075.4717 1.0000606 -0.012841493 0.00010313466 0.0062924214 9.0108486e-005 0.0063223196 0.99985415 -0.011936992
199928301.88679 1.0000136 -0.013671041 9.4801537e-005 0.0066438806 7.6828292e-005 0.0066426517 0.99973911 -0.012832284
209924528.30189 0.99975985 -0.014253408 0.00010998698 0.0069712186 9.1651687e-005 0.0070053721 0.99949723 -0.013531074
219920754.71698 0.9999088 -0.015025944 9.75437e-005 0.0072860233 0.00010102382 0.0073321639 0.9994061 -0.014133573
229916981.13208 0.99965578 -0.01595217 0.00014754757 0.007613047 0.00012051198 0.007679421 0.99934959 -0.014920175
239913207.54717 0.99956524 -0.01659964 0.00014089746 0.0079428228 0.00013848676 0.0079951501 0.99931455 -0.015634004
249909433.96226 0.9995721 -0.017222792 0.00013847975 0.0082708606 0.00013547158 0.0083167758 0.99942422 -0.016288877
259905660.37736 0.99971724 -0.017865628 0.00017809169 0.0086107254 0.00019466784 0.0086335428 0.99962425 -0.016921788
269901886.79245 0.99970913 -0.01843977 0.00014183042 0.0089369472 0.0001556793 0.009009704 0.99993044 -0.017523512
279898113.20755 0.99984396 -0.019202992 0.00017490541 0.0092609525 0.00016906345 0.0093021253 0.99977189 -0.018281341
289894339.62264 0.9998188 -0.019894004 0.00014481507 0.0095851757 0.00021558534 0.0096481768 0.99969578 -0.019026101
299890566.03774 0.99972475 -0.020433277 0.00020070281 0.0098998435 0.000210342 0.0099656647 0.99939209 -0.019386172
309886792.45283 0.99949926 -0.020949721 0.00022449688 0.010275605 0.00019087445 0.010328085 0.99940205 -0.019901708
319883018.86792 0.99955928 -0.021633059 0.00021094456 0.010580466 0.00021199603 0.010655513 0.99952924 -0.020373136
329879245.28302 0.99956644 -0.022256613 0.00022039795 0.010901501 0.0002265363 0.01100667 0.9995718 -0.021156788
339875471.69811 0.99941003 -0.023130633 0.00027117867 0.011247697 0.0002733632 0.011350298 0.99956012 -0.021964312
349871698.11321 0.99960893 -0.023948699 0.00026772404 0.011573047 0.00025675306 0.011650061 0.99956107 -0.022829652
359867924.5283 0.99946547 -0.024800271 0.00027632201 0.011916116 0.00030434877 0.011995422 0.99952614 -0.023769438
369864150.9434 0.99962533 -0.025481671 0.00030442281 0.012251487 0.00029867562 0.012328379 0.9994871 -0.024522394
379860377.35849 0.99949634 -0.026134893 0.00030201511 0.012582297 0.00028327852 0.012675417 0.9993329 -0.025167421
389856603.77358 0.99938053 -0.026803672 0.00035608839 0.012900446 0.00034436444 0.012960382 0.99941349 -0.025675923
399852830.18868 0.9992609 -0.027329654 0.00036534714 0.013248161 0.00037736678 0.013348661 0.99941003 -0.026145071
409849056.60377 0.99926895 -0.027790027 0.00036439559 0.013533034 0.00035093864 0.01362562 0.99942851 -0.026639311
419845283.01887 0.99926168 -0.028254241 0.00035029231 0.013894109 0.00039533339 0.013959046 0.99935782 -0.027155936
429841509.43396 0.99930549 -0.028966367 0.00039258786 0.014212592 0.00042996276 0.014295215 0.99951613 -0.027935475
439837735.84906 0.99917936 -0.02975893 0.000442944 0.014561493 0.0004587227 0.014652955 0.99920368 -0.028895095
449833962.26415 0.99917901 -0.030656964 0.00043831486 0.014888169 0.00043864176 0.014960988 0.99880296 -0.029634982
459830188.67925 0.99896586 -0.031278402 0.00044905907 0.015173012 0.00044620223 0.015254864 0.99859446 -0.030378073
469826415.09434 0.99885404 -0.032060385 0.00045848079 0.015510778 0.00046082865 0.015598296 0.99837077 -0.030926883
479822641.50943 0.99880117 -0.032578975 0.00048737763 0.015843179 0.00052437512 0.015941244 0.99841386 -0.031337149
489818867.92453 0.9989022 -0.03320083 0.00056296447 0.016216302 0.00051460322 0.016289625 0.99870563 -0.031801641
499815094.33962 0.99903166 -0.033866465 0.0005111089 0.016530281 0.00053518172 0.016615627 0.99898118 -0.032356888
509811320.75472 0.99902111 -0.034301866 0.0006132003 0.016780304 0.00057118421 0.016912352 0.99911863 -0.033096954
519807547.16981 0.99903572 -0.034770638 0.00057883421 0.017147558 0.00058726082 0.017249754 0.99916339 -0.033842623
529803773.58491 0.99899733 -0.035384357 0.00059927255 0.017501835 0.00058601145 0.017554488 0.99887496 -0.034470618
539800000 0.99903202 -0.03599602 0.00064861146 0.017833458 0.00059811422 0.017908586 0.99876964 -0.035078883
549796226.41509 0.99896091 -0.037024826 0.00066457735 0.018147944 0.00066652056 0.018267039 0.99859893 -0.035529256
559792452.83019 0.99873042 -0.037617922 0.00066961721 0.018501863 0.0006499365 0.018604461 0.99857754 -0.035987139
569788679.24528 0.99854809 -0.03829807 0.00066059688 0.018819308 0.0006829151 0.018958628 0.99869525 -0.036758095
579784905.66038 0.9984684 -0.038909547 0.00068538124 0.019138796 0.00071604655 0.019246792 0.99882692 -0.037514724
589781132.07547 0.99865031 -0.039512992 0.00073439907 0.019455923 0.00071991887 0.019622222 0.99894059 -0.038404673
599777358.49057 0.99872077 -0.040176421 0.00076152198 0.019840192 0.00076985732 0.019930908 0.99892676 -0.03916195
609773584.90566 0.99884248 -0.040954035 0.00082918513 0.020143906 0.00084000669 0.020259969 0.99884737 -0.040032834
619769811.32075 0.99899501 -0.041634828 0.00083739636 0.020481201 0.00082169473 0.020621633 0.998752 -0.040507793
629766037.73585 0.99884516 -0.04226616 0.00087057147 0.020768892 0.0008971775 0.020912055 0.99862653 -0.041088045
639762264.15094 0.9986859 -0.042847499 0.00088955066 0.021095183 0.00087108044 0.021222452 0.99849379 -0.04151614
649758490.56604 0.99857169 -0.043535739 0.0009430456 0.021442834 0.00093158847 0.021543674 0.99854451 -0.041897088
659754716.98113 0.99844211 -0.044061214 0.00090252049 0.021757256 0.00091575924 0.021894187 0.99866009 -0.042503327
669750943.39623 0.99840182 -0.044425011 0.00094741397 0.02211138 0.000958296 0.022253441 0.99869156 -0.04331845
679747169.81132 0.99840063 -0.045252629 0.00098404533 0.022443783 0.00096302165 0.022577995 0.99874395 -0.044245899
689743396.22642 0.99856991 -0.046019614 0.001023829 0.022758769 0.0010149023 0.022951238 0.99850202 -0.045132846
699739622.64151 0.99866319 -0.046842456 0.0010523768 0.023093797 0.0010626111 0.02324543 0.99846387 -0.045938849
709735849.0566 0.99863368 -0.047663718 0.0010863956 0.02342353 0.0010998969 0.023556335 0.99821424 -0.046542346
719732075.4717 0.99848974 -0.048461884 0.0011193408 0.023740213 0.0011154632 0.023888066 0.99827814 -0.047143221
729728301.88679 0.99845517 -0.048974395 0.0011658557 0.024080636 0.0011821697 0.024209201 0.99831086 -0.047557056
739724528.30189 0.99833775 -0.049553305 0.0011934512 0.024382822 0.00118426 0.024531383 0.99853361 -0.048233122
749720754.71698 0.99820447 -0.050093189 0.0012501637 0.024707222 0.0012129834 0.024850739 0.99845302 -0.049013674
759716981.13208 0.99826622 -0.050638109 0.0012512831 0.025042877 0.0012421748 0.025200795 0.99841535 -0.049761117
769713207.54717 0.99827111 -0.051402688 0.0012672879 0.025323015 0.0012817373 0.025512177 0.9981792 -0.05045411
779709433.96226 0.99836928 -0.051993564 0.0013066872 0.025666617 0.0013184501 0.025813937 0.99797964 -0.051081292
789705660.37736 0.99819022 -0.052939355 0.0013698051 0.025999265 0.0013490105 0.026159892 0.99774617 -0.051832616
799701886.79245 0.99816704 -0.053656757 0.0014014356 0.026306927 0.0013872078 0.026480768 0.99758798 -0.052352071
809698113.20755 0.99809808 -0.054240718 0.0013869009 0.026642483 0.0013942495 0.026786029 0.9976151 -0.052807108
819694339.62264 0.99799067 -0.054898381 0.0014242125 0.026938096 0.0014116401 0.027112234 0.99768192 -0.053482324
829690566.03774 0.99796462 -0.05548957 0.0014735581 0.02725438 0.0014657825 0.027441185 0.9978829 -0.054297
839686792.45283 0.99795389 -0.055945367 0.0014669374 0.027584137 0.0015035882 0.027760863 0.99798441 -0.055086076
849683018.86792 0.99808091 -0.056646019 0.0015211354 0.027902268 0.0015160271 0.028070251 0.99790013 -0.05590196
859679245.28302 0.99819595 -0.05733791 0.0015527857 0.028217234 0.0015530819 0.02840706 0.99761313 -0.05645448
869675471.69811 0.99799424 -0.058054239 0.0015889583 0.028531326 0.0016271397 0.028712483 0.99726617 -0.056913465
879671698.11321 0.99800301 -0.058727071 0.0016444616 0.02885567 0.0016580289 0.029059568 0.99721992 -0.057366498
889667924.5283 0.99790221 -0.059515119 0.0016559362 0.029180275 0.0016489513 0.029370204 0.99711418 -0.057902902
899664150.9434 0.99757004 -0.060282528 0.0017007841 0.02948891 0.0016879654 0.02967464 0.99714196 -0.05846864
909660377.35849 0.99756593 -0.060914397 0.001712617 0.029824145 0.001717269 0.030006511 0.99725336 -0.059329614
919656603.77358 0.99770486 -0.061501339 0.0017184955 0.030117063 0.0017333133 0.03031276 0.99730015 -0.060208961
929652830.18868 0.9976632 -0.062276006 0.0017527798 0.030432452 0.0017467802 0.030672878 0.99712145 -0.061021537
939649056.60377 0.99780583 -0.062944353 0.001776644 0.030760977 0.0017721523 0.03097583 0.99698853 -0.061792016
949645283.01887 0.99783301 -0.063796483 0.0017555982 0.031122446 0.0017991799 0.031367999 0.99678057 -0.062281203
959641509.43396 0.99776077 -0.064434975 0.0017846422 0.031472124 0.0018392662 0.03166651 0.99664313 -0.062818259
969637735.84906 0.99767506 -0.065167874 0.0018629888 0.031811543 0.0018596044 0.032010034 0.99671698 -0.063200384
979633962.26415 0.99749202 -0.065824568 0.0019036676 0.032108944 0.0019435184 0.0323341 0.99674916 -0.063830316
989630188.67925 0.99759096 -0.066352665 0.0019513201 0.032426767 0.0019515883 0.032656766 0.99695373 -0.064381778
999626415.09434 0.99763143 -0.067005545 0.0019814186 0.032758195 0.0019833511 0.03298587 0.9969002 -0.06518501
1009622641.5094 0.99759072 -0.067696616 0.0020277463 0.033066656 0.0020432491 0.033357512 0.99678004 -0.066047862
1019618867.9245 0.99773389 -0.068477616 0.0020541847 0.033421166 0.002113699 0.033661246 0.99648207 -0.066890687
1029615094.3396 0.99765515 -0.069318473 0.0020893496 0.033717804 0.0021397155 0.033951923 0.99611884 -0.067413479
1039611320.7547 0.99769187 -0.070193946 0.0021451078 0.034018032 0.0021750797 0.034256574 0.99604827 -0.068094939
1049607547.1698 0.99760413 -0.071154043 0.0021602251 0.034303948 0.0022091684 0.034568153 0.99606174 -0.068691522
1059603773.5849 0.99749041 -0.071781486 0.0021976568 0.034606982 0.0022155521 0.034888182 0.99611551 -0.069221795
1069600000 0.99724245 -0.072457433 0.0021940414 0.034928471 0.0022364408 0.035200413 0.99622226 -0.069950581
1079596226.4151 0.99719989 -0.073181637 0.0022121351 0.035247535 0.0022591436 0.035520144 0.99623579 -0.070695587
1089592452.8302 0.99725515 -0.073807776 0.0022459701 0.035586018 0.0023112623 0.035870936 0.99620599 -0.071425825
1099588679.2453 0.99728864 -0.074435055 0.0022640005 0.035916947 0.0023235511 0.036174942 0.995893 -0.072067827
1109584905.6604 0.99741262 -0.075274423 0.0022979677 0.036276247 0.0023529809 0.036527622 0.9956494 -0.072596133
1119581132.0755 0.99739259 -0.076196715 0.0023033419 0.036617201 0.0023521599 0.036868531 0.99546671 -0.073055491
1129577358.4906 0.99726617 -0.076901108 0.0023357458 0.036937431 0.0023707431 0.037239999 0.99539971 -0.073464483
1139573584.9057 0.99694824 -0.07787627 0.0023876168 0.037301578 0.0024568951 0.03754336 0.99540949 -0.074147731
1149569811.3208 0.99680412 -0.078621857 0.0024447981 0.037599288 0.0024900658 0.037868779 0.99557853 -0.074869499
1159566037.7358 0.99664277 -0.079347134 0.0024641184 0.037916567 0.0025442271 0.038182534 0.99564707 -0.075876743
1169562264.1509 0.99644572 -0.079913497 0.0024878681 0.038225535 0.0025235433 0.038509682 0.9955219 -0.076635152
1179558490.566 0.9965288 -0.080756247 0.0024719054 0.038579635 0.0025729467 0.038865324 0.99536693 -0.077379853
1189554716.9811 0.99635875 -0.081503242 0.0025160015 0.038931761 0.0026277332 0.039218664 0.9951787 -0.077892661
1199550943.3962 0.996436 -0.082391679 0.0025599301 0.039290816 0.002663536 0.03953293 0.99488568 -0.078377724
1209547169.8113 0.9962281 -0.083262593 0.0026029516 0.039627559 0.0027170032 0.039847113 0.99488175 -0.07862702
1219543396.2264 0.99597692 -0.084083647 0.0026746355 0.039979998 0.0027769585 0.040236447 0.99493331 -0.079001442
1229539622.6415 0.99570048 -0.084858865 0.0027406458 0.040269591 0.0028348379 0.040569212 0.99502242 -0.079682171
1239535849.0566 0.99554837 -0.085538268 0.0028004181 0.040602185 0.002900701 0.040859316 0.99516803 -0.080611289
1249532075.4717 0.99526447 -0.086175367 0.002847526 0.040909328 0.002965291 0.041180991 0.99496675 -0.081505798
1259528301.8868 0.99501574 -0.086686462 0.0028857682 0.041282102 0.0030379612 0.041516293 0.99479902 -0.082271606
1269524528.3019 0.9948566 -0.087448746 0.0029368028 0.041566484 0.0031164195 0.041824091 0.99456882 -0.08295092
1279520754.717 0.99443901 -0.088105008 0.003005344 0.041855808 0.0031553416 0.042088527 0.99429977 -0.083528705
1289516981.1321 0.99439389 -0.088926286 0.0030206805 0.042167284 0.0031570997 0.042387538 0.99434173 -0.083971828
1299513207.5472 0.99404955 -0.089794189 0.0030484945 0.042443857 0.0031530093 0.042706337 0.99448884 -0.084382236
1309509433.9623 0.99361759 -0.090535253 0.0030661728 0.042755131 0.0031888587 0.042981114 0.99457407 -0.085066944
1319505660.3774 0.99326605 -0.091230467 0.0030324096 0.043103114 0.0032049585 0.043288935 0.99460256 -0.085686937
1329501886.7925 0.99299073 -0.091867447 0.0030865222 0.043427058 0.0032277685 0.043632634 0.99462903 -0.086690843
1339498113.2075 0.99270064 -0.092368275 0.0030941432 0.043727111 0.0032619294 0.0439393 0.9942168 -0.087399423
1349494339.6226 0.99257606 -0.092900842 0.0030952175 0.044090804 0.0031972248 0.044298813 0.99384701 -0.087977827
1359490566.0377 0.99247742 -0.093440384 0.0030753016 0.044433534 0.0032144841 0.044640511 0.99366391 -0.08847031
1369486792.4528 0.99218357 -0.093994677 0.0031124614 0.044817481 0.003228006 0.044989776 0.9934628 -0.088967264
1379483018.8679 0.991934 -0.094604038 0.0031491881 0.045180082 0.0032325343 0.045359056 0.99352247 -0.089251645
1389479245.283 0.9915868 -0.095153064 0.0032056738 0.045561444 0.0032684542 0.045712937 0.9934622 -0.089959592
1399475471.6981 0.99111843 -0.095529616 0.0031801127 0.045893095 0.0032882486 0.046088174 0.99367845 -0.090621054
1409471698.1132 0.99082011 -0.095882669 0.0032335822 0.046276413 0.0033252239 0.046430733 0.99369633 -0.091439694
1419467924.5283 0.99073929 -0.096196562 0.0032798732 0.046640038 0.0033273632 0.04680796 0.99349207 -0.092156738
1429464150.9434 0.99059618 -0.096677959 0.0032883808 0.047044676 0.0033479743 0.04720439 0.99337292 -0.092749953
1439460377.3585 0.99075317 -0.097127452 0.0033838013 0.047493625 0.0034582037 0.047659669 0.99313384 -0.093046024
1449456603.7736 0.9907732 -0.097678572 0.0034549413 0.047863465 0.0035718437 0.048059609 0.99303317 -0.093452334
1459452830.1887 0.99072886 -0.098302841 0.0036121085 0.048284709 0.0036369953 0.048462581 0.99317765 -0.093696564
1469449056.6038 0.99077749 -0.098963261 0.0038003428 0.048621271 0.0038318038 0.048817869 0.9934091 -0.094335526
1479445283.0189 0.99060392 -0.09962374 0.0039061503 0.04889565 0.0039282935 0.049090456 0.99354726 -0.095228173
1489441509.434 0.9905557 -0.10011113 0.0040170811 0.049200818 0.0040821694 0.049371026 0.99329805 -0.096108079
1499437735.8491 0.99042344 -0.10046223 0.00412466 0.049488112 0.0041762106 0.049672395 0.99325186 -0.096860617
1509433962.2642 0.99042833 -0.10096088 0.0042318772 0.049761131 0.0042158524 0.049932539 0.99302882 -0.097632229
1519430188.6792 0.99051791 -0.10153013 0.0042866748 0.050027113 0.0043007396 0.050231524 0.99293453 -0.098169208
1529426415.0943 0.99041533 -0.10219672 0.0043211635 0.050295934 0.0043485872 0.050512303 0.99282533 -0.098613024
1539422641.5094 0.99050206 -0.10298075 0.0043867449 0.050601151 0.0044023423 0.050815709 0.99293286 -0.099126831
1549418867.9245 0.9903397 -0.10379811 0.0044590319 0.050905276 0.0044414606 0.051105849 0.99311733 -0.099816844
1559415094.3396 0.99023914 -0.10445175 0.0044957511 0.051172957 0.004487263 0.051416308 0.99337268 -0.10042387
1569411320.7547 0.99005866 -0.1052224 0.0045501878 0.051441785 0.0045410404 0.051677532 0.99322712 -0.10130163
1579407547.1698 0.98999625 -0.10568985 0.0046020681 0.051713347 0.0045351041 0.051975027 0.99286115 -0.102045
1589403773.5849 0.98991024 -0.10626221 0.0045900773 0.051985234 0.0045715813 0.052262567 0.99270445 -0.10273436
1599400000 0.98986232 -0.10670802 0.0045411559 0.052301038 0.0045477925 0.052556708 0.99230367 -0.10321918
1609396226.4151 0.9898544 -0.10734268 0.0045513241 0.052623607 0.004543147 0.052904159 0.99213266 -0.10375211
1619392452.8302 0.98985118 -0.10798052 0.0045880694 0.052969523 0.0045439377 0.053210743 0.99216378 -0.10427001
1629388679.2453 0.98961437 -0.10867012 0.0045947786 0.053329244 0.0045439675 0.053604964 0.99234605 -0.1047526
1639384905.6604 0.98932368 -0.10932418 0.0045829872 0.053640459 0.004591905 0.053957876 0.99258995 -0.10561199
1649381132.0755 0.98928648 -0.11001679 0.0046190806 0.054032605 0.004599994 0.054305632 0.99257672 -0.10650879
1659377358.4906 0.98911583 -0.11075488 0.0045963898 0.054392956 0.0046044048 0.054693028 0.99250329 -0.10737666
1669373584.9057 0.98905659 -0.11120764 0.0046491041 0.054802723 0.0046503092 0.05506232 0.99216247 -0.10804451
1679369811.3208 0.98907989 -0.11181918 0.0046653794 0.055160012 0.0046999408 0.055458259 0.99211884 -0.10856757
1689366037.7358 0.98900056 -0.1126045 0.0047718585 0.055516891 0.0046975315 0.055853136 0.99186671 -0.10885519
1699362264.1509 0.98916852 -0.11306158 0.004804709 0.05590222 0.0047730496 0.056198623 0.99206346 -0.10933474
1709358490.566 0.98910689 -0.11376728 0.0048507471 0.056247376 0.0048431484 0.056608088 0.99208653 -0.10985766
1719354716.9811 0.9887771 -0.11437401 0.0049182512 0.056639835 0.0048826095 0.056967616 0.99214274 -0.1105032
1729350943.3962 0.98849344 -0.11488622 0.0050144587 0.057039134 0.0049773604 0.057381097 0.99214137 -0.11137122
