!Keysight Technologies,N5222B,MY61253708,A.15.00.15
!Date: Wednesday, June 19, 2024 09:54:33
!Correction: S11(C  2-Port  ) 
!S21(C  2-Port  ) 
!S12(C  2-Port  ) 
!S22(C  2-Port  ) 
!S2P File: Measurements: S11, S21, S12, S22:
# Hz S  RI   R 50
10000000 0.99859118 -0.0027676821 0.00010291213 0.00013734131 0.00021741015 0.00033597287 0.99891502 -0.0011966228
19996226.415094 0.99938226 -0.0035047233 6.5144093e-005 0.00067274779 4.5552384e-005 0.00068515888 1.0003061 -0.0034291446
29992452.830189 0.99970531 -0.0024946332 2.3906061e-005 0.0009638656 3.2366603e-005 0.0010274535 0.99940723 -0.0026846826
39988679.245283 1.0000626 -0.0029337555 -1.5307596e-005 0.0013599281 1.7847167e-005 0.0013382186 0.99971569 -0.0031032115
49984905.660377 1.0001947 -0.0036242604 -6.370421e-006 0.0016513187 1.51071e-005 0.0016719832 0.99981588 -0.0036098659
59981132.075472 1.0003358 -0.0045617223 1.4616933e-005 0.0019575909 1.8622959e-006 0.0020094065 0.99984658 -0.0042730272
69977358.490566 1.0001709 -0.0051516164 -3.1760428e-006 0.0022975854 4.6754223e-005 0.0023311451 0.99976617 -0.0047907587
79973584.90566 0.9998917 -0.0057303309 1.5632249e-005 0.0026245925 1.2136996e-005 0.0026592938 0.99935693 -0.0053204298
89969811.320755 0.99993271 -0.0057913661 7.9169404e-006 0.0029859976 3.5432749e-005 0.0029794844 0.99958992 -0.0055246353
99966037.735849 1.0001925 -0.0066099018 2.3492728e-005 0.0033130019 8.0489554e-007 0.0033360948 0.99969977 -0.0063035786
109962264.15094 1.0001628 -0.0074326247 4.0053157e-005 0.0036061781 6.5596541e-006 0.0036703923 0.99963939 -0.0071284026
119958490.56604 1.0002114 -0.0083729327 3.9770035e-005 0.0039698435 4.7478243e-005 0.0039919354 0.99969184 -0.0079728067
129954716.98113 1.0001442 -0.0092926025 5.0168019e-005 0.0042897845 5.2633812e-005 0.0043063313 0.99968261 -0.0088539124
139950943.39623 1.0001026 -0.010062147 5.302373e-005 0.004647525 4.7664595e-005 0.004643051 0.99959731 -0.0096001234
149947169.81132 0.99996233 -0.010763675 6.0244231e-005 0.0049465476 4.9434369e-005 0.0049984902 0.99957114 -0.010222346
159943396.22642 0.99994624 -0.011314005 5.9202779e-005 0.0052970033 5.9514772e-005 0.005310188 0.9996388 -0.01068902
169939622.64151 0.99988312 -0.01170408 7.131591e-005 0.0056397025 5.676155e-005 0.0056533539 0.99967086 -0.011147179
179935849.0566 0.99993891 -0.011988312 4.6538305e-005 0.0059544998 8.2388986e-005 0.00597218 0.99959028 -0.01152429
189932075.4717 1.0000858 -0.012805462 8.5271196e-005 0.0062557701 7.9452526e-005 0.0062841587 0.99973488 -0.012049198
199928301.88679 1.0000403 -0.013577282 8.031656e-005 0.0066065504 9.9930097e-005 0.0066419658 0.99965525 -0.012918562
209924528.30189 0.99976152 -0.014062703 0.00011155033 0.0069190641 8.929288e-005 0.0069836173 0.99948311 -0.013581887
219920754.71698 0.99989152 -0.014964074 0.00010417262 0.0072789579 0.00011832919 0.007315659 0.99939138 -0.014202803
229916981.13208 0.99961466 -0.015821427 0.00012013922 0.0075830836 0.00010097143 0.0076509467 0.99937588 -0.015009165
239913207.54717 0.99956036 -0.016442288 0.00012437125 0.0079167467 0.0001190886 0.0079818731 0.99932057 -0.015764341
249909433.96226 0.99960351 -0.017102659 0.00014562788 0.0082515385 0.00013682037 0.0082818689 0.99935752 -0.016346991
259905660.37736 0.99964368 -0.017720073 0.00012790412 0.0085430378 0.00014634617 0.0085996557 0.99958307 -0.016966552
269901886.79245 0.99981683 -0.018391073 0.00017243647 0.0089302333 0.00017246127 0.0089385007 0.99996483 -0.017732248
279898113.20755 0.99985904 -0.018988252 0.00017592311 0.0092553459 0.00016723899 0.0092727337 0.99968874 -0.018373594
289894339.62264 0.99984491 -0.019747704 0.00022747647 0.0095293876 0.0001868913 0.0096373251 0.99959671 -0.019211769
299890566.03774 0.99971771 -0.02034241 0.00017476501 0.0098912027 0.00019967603 0.0099495864 0.99943274 -0.019597083
309886792.45283 0.99959719 -0.020744257 0.0002096477 0.010208771 0.0002227166 0.010327891 0.99933022 -0.019962512
319883018.86792 0.99970794 -0.021418482 0.00021248357 0.010580484 0.00025118561 0.010590155 0.99948269 -0.020531565
329879245.28302 0.99962652 -0.022206485 0.00021648919 0.010900786 0.00028584525 0.01094057 0.99950171 -0.021287352
339875471.69811 0.99959534 -0.022937797 0.00024381978 0.011256429 0.00024766917 0.011275198 0.99945706 -0.022060439
349871698.11321 0.99968445 -0.023844749 0.00024201279 0.011544357 0.00026219268 0.011609787 0.9994697 -0.022993773
359867924.5283 0.99953634 -0.024614275 0.00026592426 0.011880221 0.000242888 0.011964564 0.9993915 -0.023927659
369864150.9434 0.99960732 -0.025254488 0.00034240028 0.012198915 0.00029391749 0.012272467 0.99939513 -0.024522215
379860377.35849 0.99960554 -0.026038066 0.00032607932 0.012524923 0.00034065964 0.012608913 0.99935687 -0.025283739
389856603.77358 0.99943519 -0.026562899 0.0003504674 0.012899611 0.00034481753 0.012915942 0.99934232 -0.02563405
399852830.18868 0.99936986 -0.027223289 0.00033677742 0.013186284 0.00035219919 0.013269503 0.99938846 -0.026153475
409849056.60377 0.99924618 -0.02774963 0.00038554808 0.013505253 0.00037603127 0.013604642 0.99937993 -0.026661804
419845283.01887 0.99923325 -0.028212547 0.00040434068 0.013870411 0.00037660543 0.013909791 0.99939239 -0.027135432
429841509.43396 0.99923056 -0.028756142 0.0004285723 0.014177555 0.00037672464 0.014244606 0.99959415 -0.02793929
439837735.84906 0.99906921 -0.0297544 0.00042526936 0.014520136 0.00046149548 0.014578755 0.99939513 -0.028902158
449833962.26415 0.99896491 -0.030451149 0.00046873651 0.014783503 0.00046533812 0.014879159 0.99894053 -0.029662013
459830188.67925 0.99882793 -0.031102687 0.0004506968 0.015151955 0.00044072745 0.015206875 0.99878287 -0.030409247
469826415.09434 0.99882716 -0.031912625 0.00047037657 0.015472144 0.00042719347 0.015573277 0.99860704 -0.03089577
479822641.50943 0.99870151 -0.032462791 0.00051113323 0.015827127 0.00048446166 0.015919885 0.99867481 -0.031463511
489818867.92453 0.99878621 -0.032964349 0.00053234352 0.016141295 0.00052086776 0.016244717 0.9988786 -0.03197068
499815094.33962 0.99883425 -0.033507049 0.00053511094 0.01647356 0.00057019712 0.016551804 0.99914104 -0.032572657
509811320.75472 0.9989152 -0.03395512 0.00060675538 0.01677449 0.00054051838 0.016870502 0.99922162 -0.033389665
519807547.16981 0.99890924 -0.034495324 0.00059457589 0.017100114 0.00055736676 0.017224792 0.99926353 -0.034090906
529803773.58491 0.99888921 -0.035121232 0.00057573151 0.017463103 0.00060013589 0.017564964 0.9990561 -0.034745902
539800000 0.99902797 -0.035778835 0.00061382935 0.017796449 0.00060694152 0.017909583 0.99889052 -0.035357758
549796226.41509 0.99881643 -0.036579132 0.0006342032 0.018076189 0.000653903 0.018173084 0.9987638 -0.035864145
559792452.83019 0.9986726 -0.037207633 0.00063704513 0.018468164 0.00066328514 0.018537188 0.99866796 -0.036332697
569788679.24528 0.99848938 -0.037936628 0.00069200899 0.018762983 0.00066144904 0.01886439 0.99881315 -0.037096381
579784905.66038 0.99852931 -0.038467683 0.00072204741 0.0190873 0.0007098983 0.019226713 0.99888903 -0.037841745
589781132.07547 0.99869925 -0.039084375 0.00072880834 0.019410115 0.0007399749 0.019542735 0.99902689 -0.038683534
599777358.49057 0.99872828 -0.039760768 0.00081025809 0.019791635 0.00077886693 0.019879581 0.9989897 -0.039456218
609773584.90566 0.99890226 -0.040582333 0.00083669985 0.020087782 0.0007993835 0.020248417 0.99884224 -0.040284552
619769811.32075 0.99890721 -0.041221142 0.00083227688 0.020382199 0.00085084513 0.020529758 0.99881428 -0.040859163
629766037.73585 0.99882966 -0.041843772 0.00087930635 0.020751501 0.00085288379 0.020873293 0.99868977 -0.04134357
639762264.15094 0.99869728 -0.042503834 0.00091594062 0.021019552 0.00088846241 0.021154812 0.99852657 -0.041847736
649758490.56604 0.99855697 -0.043064669 0.00088029122 0.021346372 0.00090655824 0.021496834 0.99858135 -0.042291015
659754716.98113 0.99846363 -0.043546319 0.00089264009 0.021681437 0.00087479316 0.021808997 0.99862337 -0.042878687
669750943.39623 0.998483 -0.044141352 0.00092676049 0.0220704 0.00092714094 0.022174656 0.99866539 -0.043683171
679747169.81132 0.99845612 -0.044802085 0.00096892193 0.022397464 0.00097941607 0.022510381 0.99864101 -0.044614695
689743396.22642 0.9986645 -0.045625865 0.001019977 0.022701783 0.0010422999 0.022843761 0.99854386 -0.045463651
699739622.64151 0.99870986 -0.046416491 0.0010626726 0.023043463 0.0010741176 0.023188191 0.998402 -0.046179414
709735849.0566 0.99868077 -0.047323793 0.0011161851 0.023357579 0.0011003655 0.02348982 0.99813485 -0.04676
719732075.4717 0.99852639 -0.04795301 0.0011153454 0.023676626 0.0011459691 0.023802053 0.99821985 -0.047415972
729728301.88679 0.99852443 -0.048548222 0.001155219 0.024004497 0.001161743 0.024091486 0.99832642 -0.047790021
739724528.30189 0.99838817 -0.049237266 0.0012129559 0.024312545 0.0011976128 0.024485782 0.99843776 -0.048554435
749720754.71698 0.9982996 -0.049756289 0.0012330837 0.02462708 0.0012382665 0.024760846 0.99848998 -0.049217492
759716981.13208 0.99832892 -0.05029434 0.001239513 0.024914779 0.0012353407 0.025101259 0.99843526 -0.049987674
769713207.54717 0.99825376 -0.050999105 0.001277267 0.025266374 0.0012797695 0.025394365 0.99818832 -0.050679088
779709433.96226 0.99843371 -0.051605027 0.0012820482 0.025600949 0.0013054903 0.025738169 0.99792475 -0.05129347
789705660.37736 0.99826646 -0.052488029 0.0013560671 0.02591175 0.0013433183 0.026069272 0.99779546 -0.052013934
799701886.79245 0.99819958 -0.053262293 0.0014134217 0.02622344 0.0013353936 0.026388124 0.99757504 -0.0525392
809698113.20755 0.99813402 -0.053870082 0.0013946367 0.026544394 0.0013835314 0.026689878 0.99766427 -0.053046614
819694339.62264 0.99797809 -0.054511547 0.0014304901 0.026858954 0.0014284626 0.027059294 0.9977811 -0.053651929
829690566.03774 0.99795306 -0.055169344 0.0014572768 0.027169097 0.0014739055 0.027353875 0.99796641 -0.054512203
839686792.45283 0.99804938 -0.055610925 0.001475493 0.027496113 0.0015221769 0.027651243 0.99801254 -0.055364877
849683018.86792 0.99816084 -0.056224875 0.001511408 0.027849831 0.0015369803 0.028008442 0.99789006 -0.05610913
859679245.28302 0.9980799 -0.05691579 0.001523396 0.028171707 0.0015571015 0.028332837 0.99770713 -0.056752533
869675471.69811 0.99799126 -0.057691276 0.0015712604 0.028493242 0.0015895283 0.028649628 0.99730903 -0.057259411
879671698.11321 0.99791163 -0.05830349 0.0016077574 0.02876552 0.0016180226 0.028958475 0.99735045 -0.057657108
889667924.5283 0.99782038 -0.05911389 0.0016402928 0.029085964 0.0016711419 0.029257491 0.99718511 -0.058240622
899664150.9434 0.99760503 -0.059681296 0.0016829353 0.029433776 0.0016861642 0.029597402 0.99723369 -0.058755845
909660377.35849 0.99756759 -0.0604617 0.0017051753 0.02976528 0.001715132 0.029899431 0.99743211 -0.059613839
919656603.77358 0.99763316 -0.06108132 0.0017132689 0.030029655 0.0017293631 0.030236 0.99736917 -0.060455635
929652830.18868 0.99759614 -0.061794996 0.0017596204 0.030355692 0.0017727409 0.03053328 0.99718958 -0.061372966
939649056.60377 0.99784219 -0.062438995 0.0017600181 0.030671554 0.0017718626 0.0308707 0.99706829 -0.062082976
949645283.01887 0.9977628 -0.063224554 0.001765498 0.031007567 0.0017652481 0.031205688 0.99684238 -0.06265828
959641509.43396 0.99771154 -0.063939422 0.0018018503 0.031359129 0.001806587 0.03158085 0.9968074 -0.063182294
969637735.84906 0.99760997 -0.064702898 0.0018700296 0.031721771 0.0018371511 0.031913888 0.99683505 -0.063505679
979633962.26415 0.99750572 -0.065395422 0.0019014264 0.032028031 0.0018970035 0.032215971 0.99683464 -0.064193241
989630188.67925 0.99751896 -0.065891355 0.0019313777 0.032332562 0.001940554 0.032544345 0.99705017 -0.064797908
999626415.09434 0.99755269 -0.06648615 0.0019780397 0.032633759 0.0019953968 0.032889448 0.99694681 -0.065569073
1009622641.5094 0.99758965 -0.06712684 0.001995285 0.032993626 0.0020351112 0.033212196 0.9967739 -0.066395387
1019618867.9245 0.99768597 -0.067980647 0.00203032 0.033306822 0.0020798938 0.033527207 0.99661255 -0.067210585
1029615094.3396 0.99766815 -0.068870366 0.0021165842 0.033604287 0.0021257857 0.033810705 0.99622679 -0.067796171
1039611320.7547 0.99767363 -0.06973049 0.0021321811 0.033921994 0.0021730317 0.034142345 0.99620563 -0.068484426
1049607547.1698 0.99752355 -0.070655271 0.0021685087 0.034223959 0.0021761586 0.034468103 0.99615508 -0.069012865
1059603773.5849 0.99739701 -0.07126531 0.0021823095 0.034515031 0.0022014799 0.034777064 0.99615163 -0.069556028
1069600000 0.99725378 -0.071924776 0.0021796972 0.034837015 0.0022411458 0.035089366 0.99633729 -0.070313871
1079596226.4151 0.99718297 -0.07262636 0.0021811728 0.035144329 0.0022534612 0.035405796 0.99630511 -0.071060896
1089592452.8302 0.99729025 -0.073282868 0.0022065314 0.035506222 0.0022872621 0.035728537 0.99623281 -0.071870953
1099588679.2453 0.99734986 -0.0738931 0.0022351891 0.035818007 0.0023040362 0.036058106 0.99594641 -0.072435528
1109584905.6604 0.99745005 -0.074728847 0.0022650259 0.036163878 0.0023358837 0.036403425 0.99572891 -0.072990134
1119581132.0755 0.9973501 -0.075743258 0.0022887471 0.036497708 0.0023061861 0.03675805 0.99547499 -0.073380843
1129577358.4906 0.99717641 -0.076398253 0.0023216605 0.03684707 0.0023857187 0.037100419 0.99537849 -0.07383582
1139573584.9057 0.99692154 -0.077231705 0.0023486977 0.037172925 0.0024376549 0.037416741 0.99549937 -0.074498683
1149569811.3208 0.99690092 -0.078131586 0.0024154235 0.037508406 0.0024845884 0.037748758 0.99564761 -0.075272411
1159566037.7358 0.99659193 -0.078811765 0.0024286732 0.03781306 0.0025112536 0.038024977 0.99578249 -0.076206446
1169562264.1509 0.99647033 -0.079476327 0.0024514478 0.038133793 0.0025130492 0.038382385 0.99558359 -0.077043235
1179558490.566 0.9964503 -0.080224052 0.0024621214 0.03848391 0.002568627 0.038744293 0.99545318 -0.077750623
1189554716.9811 0.99637747 -0.080986351 0.0025124326 0.038830381 0.0025878465 0.039078183 0.99521494 -0.078256607
1199550943.3962 0.99639535 -0.081833512 0.0025393218 0.039173018 0.0026575662 0.03941625 0.9950242 -0.07869342
1209547169.8113 0.99628943 -0.082677767 0.0025745956 0.039523996 0.002717223 0.039729148 0.99493104 -0.079040051
1219543396.2264 0.99604154 -0.083450258 0.0026255185 0.039881211 0.0027353526 0.04011447 0.99498302 -0.079446435
1229539622.6415 0.99575222 -0.084292471 0.0027234387 0.040177014 0.0028339867 0.040433809 0.99511361 -0.0801135
1239535849.0566 0.99548495 -0.084926814 0.0027634781 0.040490333 0.0028757369 0.0407658 0.99525106 -0.080995113
1249532075.4717 0.99529517 -0.085592531 0.0028233514 0.040812708 0.0029596121 0.041048165 0.99510181 -0.081782281
1259528301.8868 0.99498504 -0.086076498 0.0028771646 0.041120589 0.0030024145 0.041372754 0.99482942 -0.082685649
1269524528.3019 0.99485767 -0.086819589 0.0029276777 0.041449487 0.0030527059 0.041633412 0.99461174 -0.083300263
1279520754.717 0.99449998 -0.087540708 0.0029852134 0.041731201 0.0030982681 0.041923106 0.99433064 -0.083896793
1289516981.1321 0.99442303 -0.088393092 0.0030128686 0.042017922 0.0031178715 0.042226434 0.99443924 -0.084366083
1299513207.5472 0.99410105 -0.089195698 0.0030114222 0.042323038 0.0031442139 0.04254188 0.9944827 -0.084730178
1309509433.9623 0.99364805 -0.089932054 0.0030301968 0.042638622 0.0031977389 0.042849138 0.9946453 -0.085495949
1319505660.3774 0.99335539 -0.09063445 0.0030427212 0.042974159 0.0031458819 0.043148559 0.99468118 -0.086073294
1329501886.7925 0.99306476 -0.091259539 0.0030645486 0.043296017 0.0031716842 0.043468419 0.99462008 -0.087043792
1339498113.2075 0.99272799 -0.091772288 0.0030602412 0.043635361 0.0032110028 0.043816339 0.99427384 -0.087741703
1349494339.6226 0.99253452 -0.092368439 0.0030654101 0.043966997 0.0031685387 0.044131417 0.99389511 -0.088353917
1359490566.0377 0.99252927 -0.092921764 0.0030752067 0.044326045 0.003196178 0.044476535 0.99377263 -0.088876277
1369486792.4528 0.99227536 -0.093380392 0.0030870074 0.044691943 0.0032328432 0.044836931 0.99353337 -0.089267999
1379483018.8679 0.99201983 -0.093949668 0.0031155259 0.045033731 0.0032209924 0.045183934 0.99358195 -0.089591593
1389479245.283 0.99165928 -0.094497472 0.0031768437 0.045420367 0.0032194853 0.045570359 0.99352312 -0.090348184
1399475471.6981 0.99129963 -0.094944954 0.0031855311 0.04577212 0.0032952204 0.045925971 0.99371099 -0.091018111
1409471698.1132 0.99097413 -0.095331557 0.0032021101 0.046120331 0.0033085027 0.046307921 0.99372476 -0.091786847
1419467924.5283 0.99075323 -0.095639527 0.0032330379 0.046485849 0.0033281259 0.046651803 0.9935019 -0.092574328
1429464150.9434 0.99064559 -0.096115381 0.0032854211 0.046910793 0.0033394508 0.047068622 0.99340892 -0.093130678
1439460377.3585 0.99078715 -0.096529886 0.0033481484 0.047359381 0.0034198221 0.047463071 0.99318755 -0.093488172
1449456603.7736 0.99086672 -0.097069338 0.0034656329 0.047749121 0.0035199141 0.047881275 0.99306923 -0.093824565
1459452830.1887 0.99075758 -0.097741008 0.0035913214 0.048147254 0.0036301631 0.048265036 0.99315894 -0.094137937
1469449056.6038 0.99076259 -0.098389596 0.0037292903 0.048468005 0.0037722345 0.048639219 0.99344939 -0.094697595
1479445283.0189 0.99071509 -0.098935127 0.0038879837 0.048780598 0.0038863069 0.048925586 0.99346894 -0.095642649
1489441509.434 0.99060607 -0.099404752 0.0040175971 0.049100786 0.0040130671 0.049266998 0.99336922 -0.096453518
1499437735.8491 0.99053013 -0.099782318 0.0040951446 0.049356706 0.0041642599 0.049515739 0.99330378 -0.097270221
1509433962.2642 0.99049962 -0.10037114 0.004177562 0.049632423 0.004235425 0.049803831 0.99312085 -0.098054491
1519430188.6792 0.99054819 -0.10086125 0.0042675231 0.049879599 0.0042705052 0.050047103 0.99293131 -0.098612219
1529426415.0943 0.99055552 -0.1016219 0.0043359324 0.050146289 0.0043244809 0.050346754 0.99285209 -0.099109471
1539422641.5094 0.99057013 -0.10242157 0.004384737 0.050479528 0.0043966537 0.050649859 0.99294746 -0.099507593
1549418867.9245 0.99041843 -0.10320547 0.004455097 0.050732676 0.0044590598 0.050947566 0.99313086 -0.1001986
1559415094.3396 0.99028158 -0.10381204 0.004476523 0.051027685 0.0044681411 0.051222034 0.99334133 -0.10089123
1569411320.7547 0.99018568 -0.10459727 0.0045389235 0.051291794 0.004495956 0.051517859 0.99327528 -0.10167044
1579407547.1698 0.99012268 -0.10509551 0.0045249024 0.051557686 0.0045156544 0.051810004 0.99289691 -0.10240658
1589403773.5849 0.99008232 -0.10561651 0.004546335 0.05184653 0.0045141187 0.052103553 0.99268746 -0.10312372
1599400000 0.99008954 -0.10606012 0.0045642229 0.052175403 0.00451966 0.052370757 0.99229014 -0.10373411
1609396226.4151 0.98998499 -0.10675608 0.004525858 0.052457519 0.0045554121 0.052712943 0.99215811 -0.1041888
1619392452.8302 0.99002331 -0.10730031 0.0045482572 0.052820787 0.0044985935 0.053072326 0.99205786 -0.10460758
1629388679.2453 0.98975581 -0.10800734 0.0045494195 0.053141747 0.0045201965 0.053413466 0.99228126 -0.10507506
1639384905.6604 0.98952496 -0.10871036 0.0045539783 0.053510793 0.0045188474 0.053795815 0.992504 -0.1059412
1649381132.0755 0.98938429 -0.10931131 0.0045862105 0.053886432 0.0045321323 0.054170582 0.99246609 -0.10683662
1659377358.4906 0.98921549 -0.11007869 0.0045871772 0.054234624 0.0045797583 0.054516032 0.99252367 -0.10773355
1669373584.9057 0.9890849 -0.11065385 0.0046146484 0.054620363 0.0046045701 0.054881915 0.99218971 -0.1083623
1679369811.3208 0.98922175 -0.11130551 0.0046891728 0.055004168 0.0046502696 0.055237968 0.99198103 -0.10896069
1689366037.7358 0.98910654 -0.11191925 0.0047036149 0.055364735 0.0047026761 0.055656608 0.9918294 -0.10925621
1699362264.1509 0.98930734 -0.11248282 0.0047488464 0.055718224 0.0047540944 0.05603293 0.99201536 -0.10966574
1709358490.566 0.98915213 -0.11320928 0.0048701763 0.056110762 0.0048118886 0.056396138 0.9919998 -0.11022955
1719354716.9811 0.98888665 -0.11373198 0.0048749186 0.056440186 0.0048340261 0.056792736 0.99203676 -0.11086366
1729350943.3962 0.98863965 -0.11428109 0.0049470346 0.056863058 0.0049283318 0.057155192 0.99202573 -0.11177397
