!Keysight Technologies,N5222B,MY61253708,A.15.00.15
!Date: Wednesday, June 19, 2024 09:34:17
!Correction: S11(C  2-Port  ) 
!S21(C  2-Port  ) 
!S12(C  2-Port  ) 
!S22(C  2-Port  ) 
!S2P File: Measurements: S11, S21, S12, S22:
# Hz S  RI   R 50
10000000 0.99889576 -0.0023342073 0.00026168287 0.00019709188 -9.5592572e-005 -8.3099061e-005 0.99869448 -0.0012558401
19996226.415094 0.99902052 -0.0022499859 -9.0832182e-006 0.0006147243 6.0279563e-005 0.00068821211 0.99899244 -0.0024258196
29992452.830189 0.99972832 -0.0025048256 -6.9399961e-005 0.0010226179 1.0440883e-005 0.00097038329 0.99952352 -0.0026642084
39988679.245283 1.0000432 -0.003011018 2.6514506e-005 0.0013466163 -3.6825222e-006 0.0013689831 0.99972749 -0.0031471103
49984905.660377 1.0001426 -0.003670752 2.1029671e-005 0.0016488712 1.0990712e-005 0.0016866599 0.99988633 -0.0037199259
59981132.075472 1.0003121 -0.0045797527 -5.5249548e-006 0.0020042793 2.5257585e-005 0.0019949211 0.99987352 -0.0042981803
69977358.490566 1.0002068 -0.0051162411 5.8137415e-005 0.0023398898 4.5954977e-005 0.0023812356 0.99970531 -0.0048162397
79973584.90566 0.99988329 -0.0057517886 2.3641158e-005 0.0026575213 -1.3464596e-006 0.0026624294 0.99943489 -0.0053284168
89969811.320755 0.99992418 -0.0058806241 1.5688245e-005 0.0030288668 2.8862734e-005 0.0030222824 0.99959409 -0.0055825412
99966037.735849 1.0001475 -0.006612733 1.3818964e-005 0.0033264377 3.798859e-005 0.0033621516 0.99965882 -0.006381169
109962264.15094 1.0000969 -0.0075071603 3.4457888e-005 0.0036414575 1.0249263e-005 0.0036852267 0.99967784 -0.0071743131
119958490.56604 1.0001681 -0.0084671676 9.7084558e-006 0.004006526 6.4843334e-006 0.0040356359 0.99970049 -0.0080863237
129954716.98113 1.0001042 -0.0094563663 3.6490499e-005 0.0043509351 3.0828058e-005 0.0043759742 0.99968243 -0.0089590549
139950943.39623 1.0000436 -0.010260565 4.1167747e-005 0.0046618227 4.5575143e-005 0.004688968 0.99961752 -0.0096949209
149947169.81132 0.99990666 -0.010906965 5.226885e-005 0.0049961372 6.9171423e-005 0.0050472026 0.99956107 -0.01033622
159943396.22642 0.99988931 -0.011477292 8.5424166e-005 0.0053415112 6.4684078e-005 0.0053858175 0.99967968 -0.010795414
169939622.64151 0.99989313 -0.011836596 6.6066335e-005 0.0056432653 5.9321465e-005 0.0056996187 0.99970037 -0.011238806
179935849.0566 0.99991554 -0.012123823 6.458431e-005 0.0060151676 7.6667289e-005 0.0060664159 0.9995749 -0.011636317
189932075.4717 1.0000402 -0.012871385 7.1119517e-005 0.0063261148 0.00011170725 0.0063745789 0.99981558 -0.01220566
199928301.88679 1.000001 -0.013755798 6.9836504e-005 0.0066394447 0.00012032175 0.0067244512 0.99968636 -0.013058782
209924528.30189 0.99976349 -0.014320374 7.1719638e-005 0.0070001725 8.1865001e-005 0.0070527419 0.99945903 -0.013783947
219920754.71698 0.99975634 -0.015149117 0.00012295344 0.0073240753 0.00015010429 0.0074122585 0.99933201 -0.014446586
229916981.13208 0.9995684 -0.016054362 0.00013650372 0.0076690326 0.00012640771 0.0077243969 0.99931777 -0.015262187
239913207.54717 0.99948043 -0.01666322 0.00014170029 0.0079883095 0.00012792919 0.0080563957 0.99923873 -0.015979713
249909433.96226 0.99953049 -0.017320544 0.00013282709 0.0083343657 0.00013222103 0.0084069427 0.99935555 -0.016551316
259905660.37736 0.99957037 -0.017903358 0.00017306767 0.0086594578 9.1074035e-005 0.0086909076 0.99951595 -0.017220467
269901886.79245 0.99977463 -0.018642694 0.00014940149 0.0090063494 0.00015316776 0.0090532145 0.99991482 -0.017833009
279898113.20755 0.99985069 -0.019213885 0.0001932364 0.0093069449 0.00014530937 0.0093653072 0.99976587 -0.018635079
289894339.62264 0.9997201 -0.019955248 0.00019963132 0.0096396562 0.00018810853 0.0097439131 0.99962425 -0.019414634
299890566.03774 0.99976265 -0.020523608 0.00019845366 0.0099751903 0.00021714554 0.010107821 0.9994176 -0.019827366
309886792.45283 0.99939728 -0.021061406 0.00019720709 0.010349778 0.00021244364 0.010379497 0.99923402 -0.020247586
319883018.86792 0.99958718 -0.021684557 0.00025083264 0.010663589 0.00027495064 0.010737633 0.99932623 -0.02072686
329879245.28302 0.99954081 -0.02251482 0.00025972445 0.010990003 0.00023545278 0.011078239 0.99937391 -0.021580279
339875471.69811 0.99943197 -0.023233354 0.00025212555 0.011359061 0.00026566826 0.011393624 0.99931085 -0.022314213
349871698.11321 0.99952787 -0.024053574 0.00033190846 0.011624434 0.00028214348 0.011745566 0.99941283 -0.023226261
359867924.5283 0.99940085 -0.024887174 0.00031926949 0.011992574 0.0003175661 0.012128137 0.99938923 -0.024130374
369864150.9434 0.99958116 -0.025621265 0.00028820266 0.012295035 0.0003205929 0.012448303 0.99939549 -0.024862528
379860377.35849 0.99947488 -0.026386082 0.00038624369 0.012668488 0.00032215961 0.012735675 0.99928731 -0.02551569
389856603.77358 0.99939084 -0.026880711 0.00039468752 0.012959138 0.0003219652 0.013108393 0.99933708 -0.025999844
399852830.18868 0.99921799 -0.027538747 0.00039214734 0.013306354 0.00037646061 0.013402566 0.99931526 -0.026464522
409849056.60377 0.99921876 -0.027956514 0.0003822326 0.013634479 0.00035088381 0.013758016 0.99936616 -0.026966788
419845283.01887 0.99911463 -0.028359443 0.00040779915 0.013965586 0.00040895538 0.014117581 0.99942803 -0.027432293
429841509.43396 0.99926823 -0.029080778 0.00043781474 0.014280388 0.00043755071 0.014385613 0.99952573 -0.028269202
439837735.84906 0.99908441 -0.029958755 0.00043613883 0.014637324 0.00044425169 0.014766485 0.99934071 -0.029259816
449833962.26415 0.99902886 -0.030729175 0.0004458013 0.014931625 0.00051602395 0.015060015 0.999062 -0.030021518
459830188.67925 0.9987936 -0.03142038 0.00043235533 0.015283981 0.00045312662 0.01539778 0.99883997 -0.030828595
469826415.09434 0.99881393 -0.032158703 0.0004514344 0.01563574 0.00048130611 0.015787913 0.99857664 -0.03140682
479822641.50943 0.99873656 -0.032780744 0.00049984828 0.015962536 0.00052073109 0.016083129 0.99866885 -0.031808101
489818867.92453 0.99882782 -0.033373892 0.00052835466 0.016306052 0.00055679167 0.016432162 0.99892974 -0.032362044
499815094.33962 0.99892503 -0.034014583 0.00056999968 0.016618174 0.00057424605 0.016767753 0.99925834 -0.033010751
509811320.75472 0.9989475 -0.03431686 0.00059405313 0.016964702 0.00056875782 0.017114684 0.99932176 -0.033862025
519807547.16981 0.9989773 -0.034846723 0.00057325978 0.017261092 0.00057377573 0.01740643 0.99926013 -0.034509987
529803773.58491 0.99895513 -0.035557032 0.00054419879 0.017565731 0.00058131851 0.017752964 0.99909377 -0.035170346
539800000 0.99900484 -0.036136195 0.00061371643 0.017914182 0.00064230058 0.018071933 0.99880475 -0.035856262
549796226.41509 0.99881822 -0.03698796 0.00066416152 0.01829214 0.0006434503 0.018446071 0.99865955 -0.036333323
559792452.83019 0.99859506 -0.037788987 0.00065514166 0.018619675 0.00067613926 0.018759076 0.9986369 -0.03683573
569788679.24528 0.99843991 -0.038428605 0.00069496362 0.018931273 0.00071319845 0.01909237 0.99875468 -0.037653178
579784905.66038 0.99843633 -0.039072461 0.00075882266 0.019314714 0.00074825226 0.01944433 0.99890316 -0.038331345
589781132.07547 0.9985553 -0.039693564 0.00076612085 0.019582026 0.00075236149 0.019770298 0.9989531 -0.039275467
599777358.49057 0.99862939 -0.04033944 0.00080886297 0.019937312 0.00079956464 0.020119954 0.99896055 -0.040042669
609773584.90566 0.99889028 -0.041072119 0.00084976817 0.020278001 0.00084482157 0.020451909 0.99879086 -0.040829785
619769811.32075 0.99897259 -0.041736305 0.0008677789 0.020597624 0.00087568723 0.020758955 0.99881709 -0.041395038
629766037.73585 0.99879956 -0.042384446 0.00087280013 0.020896882 0.00086670835 0.021088561 0.99857366 -0.041950911
639762264.15094 0.99854416 -0.04306908 0.00091008423 0.021185677 0.00091700396 0.021416029 0.99843675 -0.04246217
649758490.56604 0.99844706 -0.04362829 0.00093598291 0.021557027 0.00095198583 0.021725809 0.99845928 -0.042848989
659754716.98113 0.99828494 -0.044159561 0.00094546005 0.021869853 0.00094203185 0.022017889 0.99857306 -0.043471545
669750943.39623 0.99830192 -0.044662923 0.00095100375 0.022263192 0.00094583258 0.022454102 0.99860191 -0.044204295
679747169.81132 0.99833441 -0.045440435 0.0010011271 0.0225747 0.001003119 0.022729613 0.99858373 -0.045143552
689743396.22642 0.99852073 -0.046190321 0.0010615708 0.022903118 0.0010513337 0.023117788 0.99840522 -0.046103925
699739622.64151 0.99860746 -0.047005296 0.0010928214 0.023240477 0.0011037886 0.023455571 0.99838352 -0.046827704
709735849.0566 0.99863237 -0.047878556 0.0011136289 0.023572164 0.0011093657 0.023786865 0.99806118 -0.047505677
719732075.4717 0.99839723 -0.048519045 0.0011882815 0.023859061 0.0011491561 0.024069833 0.99814737 -0.047974169
729728301.88679 0.99840426 -0.049064964 0.0012080669 0.024186697 0.0012109876 0.024396501 0.99815047 -0.048484147
739724528.30189 0.99829435 -0.049776256 0.0012220708 0.024534272 0.0012286222 0.024706358 0.99839598 -0.049151555
749720754.71698 0.99814558 -0.050276503 0.0012634541 0.024848232 0.0012517534 0.025071956 0.99842489 -0.049814507
759716981.13208 0.99827158 -0.050801337 0.0012851963 0.025160257 0.0012774924 0.025385197 0.9984138 -0.050577879
769713207.54717 0.99816376 -0.051555961 0.0012973081 0.0254579 0.0013094535 0.025684053 0.99810225 -0.051326931
779709433.96226 0.99831468 -0.052166328 0.0013441142 0.025821531 0.0013677932 0.026044236 0.99790555 -0.051944107
789705660.37736 0.99810618 -0.053063124 0.0013935873 0.026137037 0.0013788985 0.026373381 0.99765062 -0.05268833
799701886.79245 0.99811184 -0.05390951 0.0014103679 0.026449766 0.001397795 0.02668805 0.99754524 -0.053224057
809698113.20755 0.99804592 -0.054497465 0.0014183416 0.026707131 0.0014207663 0.027021457 0.99752378 -0.053702086
819694339.62264 0.99782401 -0.055111915 0.0014527147 0.027094558 0.0014586179 0.027330399 0.99769372 -0.054345608
829690566.03774 0.99788582 -0.055738866 0.0014754562 0.027407758 0.0015265346 0.027700182 0.99791777 -0.05518651
839686792.45283 0.99793661 -0.056154013 0.0015299073 0.027724627 0.0015295073 0.027974945 0.99804825 -0.056071639
849683018.86792 0.99800336 -0.056735247 0.0015437817 0.028089352 0.0015888531 0.028320815 0.9978953 -0.056767382
859679245.28302 0.99805081 -0.057594478 0.0015746895 0.028382622 0.0015976001 0.028636955 0.99758488 -0.05743742
869675471.69811 0.99800503 -0.058267802 0.0016419888 0.028732322 0.0016127015 0.028978417 0.99726236 -0.057967514
879671698.11321 0.99788719 -0.058960237 0.0016558825 0.029051602 0.0016871846 0.029279074 0.99724871 -0.05836606
889667924.5283 0.99765813 -0.059785515 0.0016918154 0.029320437 0.0017249873 0.029595222 0.9971289 -0.058889896
899664150.9434 0.99762213 -0.06046167 0.0017028935 0.029658251 0.0017288011 0.029947359 0.99714786 -0.05951339
909660377.35849 0.99755973 -0.061108962 0.001772935 0.029979855 0.0017607147 0.030275878 0.99728155 -0.060437411
919656603.77358 0.99759007 -0.061823517 0.0017785355 0.030287843 0.001813414 0.030591227 0.99731058 -0.061299562
929652830.18868 0.99754512 -0.062564224 0.0017985078 0.030616153 0.001815903 0.030908156 0.99710393 -0.062183261
939649056.60377 0.99776268 -0.063205481 0.0018106634 0.030931761 0.0018323669 0.031217782 0.99697578 -0.062867552
949645283.01887 0.99774486 -0.063985944 0.0017949677 0.031293079 0.0018371413 0.031594876 0.99678224 -0.06346973
959641509.43396 0.99761772 -0.064746886 0.0018271217 0.03163093 0.0018779775 0.03193596 0.99672222 -0.063973188
969637735.84906 0.99750686 -0.0654293 0.0019020159 0.031986129 0.0019237576 0.032273412 0.99673724 -0.064318627
979633962.26415 0.99733949 -0.066122249 0.0019584722 0.032257579 0.0019663291 0.032585226 0.99674684 -0.065014668
989630188.67925 0.9974947 -0.066628575 0.0019867178 0.032616027 0.0019981368 0.032920077 0.99691957 -0.065588623
999626415.09434 0.99748302 -0.067304313 0.0020260811 0.032946572 0.0020242948 0.033264711 0.99687588 -0.066405147
1009622641.5094 0.997495 -0.067979127 0.0020439764 0.033268105 0.002084733 0.03361075 0.9967463 -0.067268595
1019618867.9245 0.9976511 -0.068842843 0.0020858557 0.03360692 0.0021626144 0.033928201 0.99648857 -0.06807895
1029615094.3396 0.99758685 -0.069649518 0.0021527773 0.033918399 0.0021986384 0.034218661 0.99608743 -0.068645567
1039611320.7547 0.99757683 -0.070593148 0.0022009118 0.034195691 0.002242065 0.034527741 0.99607837 -0.069292367
1049607547.1698 0.99749964 -0.071392298 0.0022362894 0.034511328 0.0022369237 0.034849636 0.99602807 -0.069947481
1059603773.5849 0.99728775 -0.072152346 0.002218442 0.034822185 0.0022877119 0.035162482 0.9960621 -0.070498526
1069600000 0.99708754 -0.072749346 0.0022127405 0.03511662 0.0022968147 0.035471737 0.9961679 -0.071233839
1079596226.4151 0.99704897 -0.07337705 0.0022605695 0.035442796 0.0023424448 0.035810016 0.99612749 -0.071946532
1089592452.8302 0.9971391 -0.074096888 0.0022846544 0.035794273 0.0023289416 0.036127135 0.99607813 -0.072687387
1099588679.2453 0.99714512 -0.074719012 0.0022994317 0.036165312 0.0023473892 0.036466539 0.99578887 -0.073322952
1109584905.6604 0.99728537 -0.075488508 0.0023567546 0.03645033 0.0024069743 0.036827967 0.99553251 -0.073849499
1119581132.0755 0.99722594 -0.076507196 0.0023442111 0.036825903 0.0023974231 0.037149902 0.99535519 -0.074232146
1129577358.4906 0.99709415 -0.077266216 0.002395777 0.037194457 0.0024675895 0.037520338 0.99525571 -0.074738413
1139573584.9057 0.99685687 -0.078181446 0.0024562106 0.037497427 0.0025190413 0.037896253 0.99539876 -0.075415164
1149569811.3208 0.99671203 -0.079033814 0.0024761814 0.037803579 0.0025757817 0.038188841 0.99549413 -0.076220587
1159566037.7358 0.99646628 -0.079772919 0.0025250465 0.038116857 0.0026099961 0.038484767 0.99554759 -0.077195197
1169562264.1509 0.99633646 -0.080348551 0.0025470518 0.038423188 0.0026069432 0.038786046 0.99535596 -0.077952445
1179558490.566 0.99632257 -0.081152171 0.0025459207 0.038812481 0.0026429829 0.039196748 0.99530035 -0.078667775
1189554716.9811 0.99621022 -0.08183971 0.0025739996 0.039161604 0.0027099 0.039530545 0.99497777 -0.079306006
1199550943.3962 0.99619055 -0.082628936 0.0026327856 0.039508481 0.0027462076 0.039849617 0.99480838 -0.079573244
1209547169.8113 0.9960106 -0.08352983 0.0026539359 0.039841589 0.0027921973 0.040201224 0.99473119 -0.080006644
1219543396.2264 0.99584275 -0.084385872 0.0027381205 0.040183391 0.0028405534 0.040553015 0.99486935 -0.080347061
1229539622.6415 0.99551749 -0.085170388 0.0027750582 0.040522426 0.0029346831 0.040874895 0.99494052 -0.081065625
1239535849.0566 0.99533689 -0.085828811 0.0028472822 0.040873598 0.0029784869 0.041211903 0.99505514 -0.08198449
1249532075.4717 0.99494225 -0.086617246 0.0028947343 0.04117433 0.003059407 0.041500639 0.99489516 -0.082797393
1259528301.8868 0.99479371 -0.087035894 0.0029545985 0.041473474 0.003134435 0.041852944 0.99468333 -0.083702266
1269524528.3019 0.99458075 -0.087776542 0.003004903 0.041813303 0.0031559318 0.042123318 0.99436039 -0.084369451
1279520754.717 0.99424416 -0.088478953 0.0030618266 0.042080007 0.003208722 0.042403094 0.99417299 -0.084882148
1289516981.1321 0.99416304 -0.089253724 0.003083027 0.04239206 0.0032218546 0.042712986 0.99425328 -0.085337281
1299513207.5472 0.99390638 -0.090135813 0.0030846223 0.042696267 0.0032331161 0.043025736 0.99434495 -0.085667104
1309509433.9623 0.99337071 -0.09084934 0.0030966103 0.042989381 0.0032574274 0.043344826 0.99446255 -0.086493239
1319505660.3774 0.99299848 -0.091570511 0.0031132791 0.043322608 0.0032574041 0.043641683 0.99447024 -0.087095812
1329501886.7925 0.99274039 -0.092222124 0.0031334516 0.043673135 0.0032836348 0.043942235 0.99444044 -0.088114351
1339498113.2075 0.99245608 -0.092734009 0.0031691985 0.043986928 0.0033078771 0.044291817 0.99405491 -0.08871609
1349494339.6226 0.99225706 -0.093304671 0.0031509195 0.044328205 0.0032933708 0.044632975 0.99365896 -0.089413978
1359490566.0377 0.99217671 -0.093899339 0.0031623673 0.044659972 0.0032860562 0.044974431 0.99354434 -0.089906812
1369486792.4528 0.99195963 -0.094389468 0.0031740461 0.045060515 0.0033025378 0.045345914 0.99335688 -0.090336472
1379483018.8679 0.99160558 -0.094958246 0.0031810761 0.045422323 0.0033140867 0.045710683 0.99331617 -0.090701021
1389479245.283 0.99135602 -0.095563769 0.0032221172 0.045770898 0.00337114 0.046087809 0.99332154 -0.091417015
1399475471.6981 0.99089646 -0.095938057 0.0032647345 0.046133231 0.0033735 0.046437509 0.99342525 -0.092116356
1409471698.1132 0.99052304 -0.09627042 0.0032927529 0.046548788 0.0033842365 0.046845291 0.99347991 -0.092912138
1419467924.5283 0.99041718 -0.096610665 0.0033229133 0.046901003 0.0034220712 0.047194157 0.99334627 -0.093642294
1429464150.9434 0.99035335 -0.097069263 0.0033688005 0.047275372 0.0034840722 0.047595151 0.99320638 -0.094173044
1439460377.3585 0.99041897 -0.097476572 0.0034142882 0.047749896 0.0035149138 0.048011336 0.99290186 -0.09442769
1449456603.7736 0.99045384 -0.097950846 0.0035396107 0.048127376 0.0036479104 0.048442271 0.99282545 -0.09484902
1459452830.1887 0.99042499 -0.098690897 0.0037159454 0.04856085 0.0037377197 0.048828021 0.99296165 -0.095197737
1469449056.6038 0.99049723 -0.099349976 0.0038451701 0.048868757 0.0038871095 0.049213707 0.99319088 -0.0958592
1479445283.0189 0.99034566 -0.1000403 0.0040014274 0.049153354 0.0040489058 0.049485177 0.99316967 -0.096779019
1489441509.434 0.99020386 -0.1004408 0.0041147489 0.049490683 0.0042015444 0.049776472 0.99311256 -0.097597212
1499437735.8491 0.99003816 -0.10080966 0.0042638686 0.049746424 0.0042868275 0.050070334 0.99304593 -0.098392278
1509433962.2642 0.99015141 -0.10132203 0.0042960616 0.050028514 0.0043280693 0.050359856 0.99281245 -0.099165231
1519430188.6792 0.99017555 -0.10177881 0.0043614563 0.050316315 0.0043812152 0.050629571 0.9927088 -0.099669993
1529426415.0943 0.99016714 -0.10248592 0.0044200066 0.05059211 0.0044683646 0.05091247 0.99258351 -0.10011321
1539422641.5094 0.99018365 -0.10326374 0.0044836048 0.050888315 0.0044848491 0.051235009 0.99272156 -0.1006267
1549418867.9245 0.98997253 -0.10415196 0.0045045214 0.051136389 0.0045825448 0.051494326 0.99287379 -0.10133535
1559415094.3396 0.98991495 -0.10480106 0.0045834519 0.051437639 0.0045826249 0.051819373 0.99306595 -0.10193735
1569411320.7547 0.98980701 -0.10551938 0.0046590371 0.051739156 0.0046080789 0.052079108 0.99295115 -0.1028177
1579407547.1698 0.98973447 -0.10606936 0.0046649259 0.05199473 0.0046443669 0.052383088 0.99266064 -0.10369825
1589403773.5849 0.989663 -0.10664549 0.0046701431 0.052290209 0.0046633445 0.05268978 0.99242485 -0.10440615
1599400000 0.98961401 -0.10710502 0.0046514282 0.052597169 0.0046346616 0.052982002 0.99202061 -0.10483998
1609396226.4151 0.98957562 -0.10769875 0.0046210834 0.052956298 0.0046800137 0.053309493 0.99183595 -0.10527506
1619392452.8302 0.98958397 -0.10835332 0.004650902 0.053301983 0.00464046 0.053669773 0.99182856 -0.10578653
1629388679.2453 0.98929369 -0.10904038 0.0046472419 0.053599805 0.00464659 0.054028891 0.99206132 -0.10624686
1639384905.6604 0.9890613 -0.10963837 0.0046781683 0.05397322 0.0046411231 0.054382902 0.99224323 -0.10707331
1649381132.0755 0.98883021 -0.11042497 0.0047013387 0.054331537 0.0046891645 0.054740772 0.99221605 -0.1079573
1659377358.4906 0.98872489 -0.11117899 0.0047073122 0.054736968 0.0047007874 0.055134922 0.99220973 -0.10890156
1669373584.9057 0.98868126 -0.11157466 0.004748682 0.055067301 0.004762379 0.055519491 0.99182177 -0.10957205
1679369811.3208 0.98875648 -0.11227536 0.0047815582 0.055436078 0.0047920467 0.055887192 0.99172866 -0.11015818
1689366037.7358 0.98875737 -0.11293614 0.0048448425 0.055824466 0.0048575345 0.056272566 0.99144328 -0.11040223
1699362264.1509 0.988985 -0.11347902 0.0049360646 0.056218512 0.0048583401 0.056673322 0.99170369 -0.11091749
1709358490.566 0.98889655 -0.11417601 0.0049031191 0.056585796 0.0049673934 0.05703593 0.99168354 -0.11139397
1719354716.9811 0.98848248 -0.1147182 0.0050237365 0.056948114 0.0050108135 0.0574385 0.99176192 -0.11208436
1729350943.3962 0.98816699 -0.11539224 0.0050633773 0.057328142 0.0050887484 0.057798751 0.99176121 -0.1129337
