!Keysight Technologies,N5222B,MY61253708,A.15.00.15
!Date: Wednesday, June 19, 2024 10:38:49
!Correction: S11(C  2-Port  ) 
!S21(C  2-Port  ) 
!S12(C  2-Port  ) 
!S22(C  2-Port  ) 
!S2P File: Measurements: S11, S21, S12, S22:
# Hz S  RI   R 50
10000000 0.99842662 -0.0031250417 0.00041926041 0.00068444834 6.158957e-005 0.00032287554 0.99777532 -0.002132386
19996226.415094 0.99983269 -0.0023700893 -2.154056e-005 0.0007157441 4.614408e-005 0.00047781604 0.99980992 -0.0023646653
29992452.830189 0.99973941 -0.0025988817 1.4902587e-005 0.00088088808 4.0257524e-005 0.00089862337 0.99930936 -0.0027967393
39988679.245283 1.0001149 -0.0030456781 -1.9589934e-005 0.0012570961 5.043362e-005 0.0013368928 0.99969923 -0.0030995011
49984905.660377 1.0002679 -0.003669709 6.0565071e-007 0.0015882254 1.9657251e-005 0.0016211735 0.99992794 -0.003661871
59981132.075472 1.0005161 -0.0045480132 -3.0484516e-006 0.00196477 5.7014171e-005 0.0019272101 0.99988437 -0.00422135
69977358.490566 1.0002438 -0.0050397422 2.7190938e-005 0.0022634754 4.1684973e-005 0.0022302442 0.99974209 -0.0047861431
79973584.90566 0.99993348 -0.0056211352 2.0653242e-005 0.0025553103 1.1353288e-005 0.0025605536 0.9993329 -0.0052307844
89969811.320755 0.99996626 -0.0056793988 2.7750735e-005 0.0028962444 3.0317809e-005 0.0028960875 0.99958831 -0.0054034591
99966037.735849 1.0002214 -0.0064492375 5.5834127e-005 0.0032186857 2.0895328e-005 0.0032375047 0.99964708 -0.0061209798
109962264.15094 1.0002199 -0.0072853416 4.1257066e-005 0.0035521972 3.3591699e-005 0.0035520846 0.99968773 -0.0069153756
119958490.56604 1.000282 -0.0081961453 2.4155946e-005 0.0038871453 3.835035e-005 0.0039067753 0.99973214 -0.0078135729
129954716.98113 1.0002131 -0.009172827 5.9218495e-005 0.0042008683 3.5414589e-005 0.0042161839 0.99977839 -0.0086906254
139950943.39623 1.0001631 -0.0099948104 4.3721244e-005 0.0045142304 3.5878198e-005 0.0045207851 0.99964267 -0.0094375107
149947169.81132 1.0000079 -0.01063633 5.1586656e-005 0.0048460253 4.3018954e-005 0.0048442907 0.99957108 -0.010031641
159943396.22642 0.99992985 -0.011153221 4.987279e-005 0.0051842146 6.2627485e-005 0.0051600928 0.99966359 -0.010451049
169939622.64151 0.99991536 -0.011473358 7.3152012e-005 0.0054999022 5.6267832e-005 0.0055222968 0.99969751 -0.010849275
179935849.0566 1.0000085 -0.011712015 6.8758847e-005 0.0058124047 6.2270323e-005 0.0058198092 0.99958241 -0.011198789
189932075.4717 1.0001187 -0.012416869 6.7622168e-005 0.0061518154 9.0987189e-005 0.0061504659 0.99983543 -0.011751592
199928301.88679 1.0000776 -0.01324603 9.6636941e-005 0.0064790566 8.0487574e-005 0.0064551723 0.99969828 -0.012552321
209924528.30189 0.99981934 -0.013841227 9.1354363e-005 0.0067791273 8.2965009e-005 0.0067677405 0.99950051 -0.013227671
219920754.71698 0.99994981 -0.014558733 0.00011297013 0.0071117356 8.6387154e-005 0.0070996508 0.99940979 -0.01382941
229916981.13208 0.99967712 -0.015508652 0.00013861759 0.0074461969 9.8555349e-005 0.0074611823 0.9993751 -0.0146887
239913207.54717 0.9995628 -0.016145239 0.0001466899 0.0077581564 0.00013323223 0.0077646333 0.9992736 -0.015359098
249909433.96226 0.9995892 -0.016744196 0.00014564185 0.0080523258 0.0001445557 0.0080773067 0.99938726 -0.01592353
259905660.37736 0.99974465 -0.017332286 0.00016186619 0.0083951456 0.00018200651 0.0083318753 0.99972129 -0.016380072
269901886.79245 0.999892 -0.017856807 0.00022935541 0.0087083094 0.00014621427 0.0087107019 1.0001192 -0.017087042
279898113.20755 1.0000384 -0.018626735 0.00015659025 0.0090211434 0.00015728711 0.0090353824 0.9999432 -0.017940119
289894339.62264 0.99991989 -0.019339323 0.00019874098 0.009374463 0.00016365293 0.0093550524 0.99980617 -0.018724263
299890566.03774 0.99990684 -0.019817472 0.00017318525 0.009670238 0.00016134419 0.0097062876 0.99956852 -0.019105524
309886792.45283 0.99962211 -0.020343095 0.00020715466 0.009970664 0.00019581063 0.010028196 0.99938929 -0.019571327
319883018.86792 0.99972534 -0.020966679 0.00017705699 0.010314626 0.00019720197 0.010346111 0.9994387 -0.019993484
329879245.28302 0.99971986 -0.021753132 0.00023825699 0.010658113 0.00021612924 0.010670744 0.99955285 -0.020731837
339875471.69811 0.9996599 -0.02246239 0.00028995902 0.010972139 0.00023002725 0.010989586 0.99957764 -0.021475159
349871698.11321 0.99982369 -0.023268372 0.00026705023 0.01128611 0.00024649152 0.01133043 0.99956709 -0.022450805
359867924.5283 0.99968719 -0.024144322 0.0002789041 0.011638057 0.00026749214 0.011628207 0.99955845 -0.023416281
369864150.9434 0.99986732 -0.025026351 0.00027305121 0.011928912 0.00028890534 0.011953136 0.99954188 -0.024098784
379860377.35849 0.99974191 -0.025719047 0.00029256311 0.012263348 0.00030584144 0.012248354 0.99936777 -0.024743557
389856603.77358 0.99954867 -0.026249141 0.00030750362 0.012629237 0.00032713264 0.012580581 0.99937046 -0.025196552
399852830.18868 0.99940181 -0.026906133 0.00038068509 0.012884835 0.00033687241 0.0129205 0.99942684 -0.025655448
409849056.60377 0.99929988 -0.02741663 0.00036307989 0.01323004 0.00030982512 0.013238044 0.99940968 -0.02617461
419845283.01887 0.99920934 -0.027778655 0.00036545517 0.013530988 0.00039578276 0.013564788 0.99940908 -0.026752383
429841509.43396 0.99923587 -0.028365999 0.00040040584 0.013876645 0.00041470211 0.013882244 0.9995392 -0.027467519
439837735.84906 0.99895895 -0.02939117 0.00042179797 0.014169896 0.00043326791 0.014215992 0.9992193 -0.028483868
449833962.26415 0.99898088 -0.030096531 0.00045052916 0.014480447 0.00043932721 0.014505448 0.99884456 -0.029238492
459830188.67925 0.99864364 -0.030764133 0.0004278142 0.014793934 0.00043519912 0.014811046 0.99857831 -0.029880583
469826415.09434 0.99856615 -0.031516969 0.00043252204 0.015124301 0.00042615738 0.015167898 0.99835718 -0.030417472
479822641.50943 0.99839216 -0.031944729 0.00048086012 0.015465681 0.00047834765 0.015508313 0.99838114 -0.030826896
489818867.92453 0.99842727 -0.03234899 0.00050049182 0.015799452 0.00047507696 0.015814532 0.99867439 -0.031230301
499815094.33962 0.99857265 -0.032838523 0.000529435 0.016086519 0.00052915327 0.016126981 0.99896097 -0.031818092
509811320.75472 0.99868292 -0.033234157 0.0005792164 0.016391108 0.00056756847 0.016419496 0.99910027 -0.032553408
519807547.16981 0.99854314 -0.033727705 0.00057048351 0.016752832 0.00055130385 0.01676476 0.99910617 -0.033213854
529803773.58491 0.99857092 -0.034279823 0.00054103741 0.017026307 0.00056889746 0.017123897 0.99889362 -0.033776641
539800000 0.99864835 -0.034794867 0.00056691025 0.017418165 0.00057665561 0.017400395 0.99877757 -0.034390017
549796226.41509 0.99857086 -0.035615146 0.00058142003 0.017650438 0.00059891772 0.017702371 0.99855596 -0.034918517
559792452.83019 0.99846709 -0.036248714 0.00061313808 0.018018302 0.00066084415 0.018105827 0.99851632 -0.035333991
569788679.24528 0.99827218 -0.036982477 0.00062601594 0.018389119 0.00067165261 0.018386327 0.998734 -0.036016345
579784905.66038 0.99828684 -0.037469923 0.00068916334 0.018678647 0.00067119743 0.018694958 0.99889237 -0.036725737
589781132.07547 0.99849385 -0.038083792 0.00075046066 0.018972667 0.00068584178 0.019000124 0.99895024 -0.037661105
599777358.49057 0.99869049 -0.038712561 0.00075168815 0.01930338 0.00069601648 0.019343797 0.9990629 -0.038481921
609773584.90566 0.9987877 -0.039477106 0.00076654565 0.019673996 0.00078101957 0.019639432 0.9988718 -0.039233722
619769811.32075 0.9989267 -0.040099323 0.00082319882 0.019959407 0.00081527373 0.01997992 0.99880189 -0.039765477
629766037.73585 0.99874616 -0.040793568 0.00086461101 0.020236364 0.00085251499 0.020303413 0.99863875 -0.040318698
639762264.15094 0.99863839 -0.041371346 0.00082228123 0.020580456 0.00083412207 0.020617217 0.99853277 -0.040775567
649758490.56604 0.99855477 -0.042012662 0.00086079119 0.020870341 0.00083484827 0.020921532 0.99862319 -0.041158661
659754716.98113 0.99839091 -0.042446077 0.00087719504 0.021225374 0.0008323025 0.021244373 0.998689 -0.041678756
669750943.39623 0.99835479 -0.043057024 0.00090042967 0.021533068 0.00087251887 0.021579267 0.9987973 -0.042503834
679747169.81132 0.99842763 -0.043769717 0.00091679802 0.021857582 0.00094170123 0.02193949 0.99872565 -0.043461323
689743396.22642 0.99865538 -0.044558346 0.00092523172 0.022229435 0.0009514112 0.022250589 0.99856192 -0.044372261
699739622.64151 0.99877548 -0.045329064 0.0010062018 0.022517653 0.0010225475 0.022536019 0.99857348 -0.045120358
709735849.0566 0.99874943 -0.046266146 0.0010548801 0.022839915 0.0010380292 0.022868367 0.99822193 -0.045699932
719732075.4717 0.99855757 -0.046928436 0.0010886989 0.023146234 0.0010477616 0.023186378 0.99833256 -0.046267062
729728301.88679 0.9984805 -0.047473162 0.001103512 0.023461919 0.0011295984 0.023524592 0.99842566 -0.046732426
739724528.30189 0.99835145 -0.048092365 0.0011362401 0.023749609 0.0011132737 0.02381216 0.99859214 -0.047401831
749720754.71698 0.9982838 -0.048677295 0.0011781938 0.024062136 0.0011724303 0.02415544 0.99865556 -0.048136398
759716981.13208 0.99835777 -0.049190998 0.0011823364 0.024367161 0.0011933278 0.024433926 0.99858958 -0.048846245
769713207.54717 0.99825436 -0.049921185 0.0012175003 0.024679087 0.0012231609 0.02473776 0.99829221 -0.049572706
779709433.96226 0.99836195 -0.050490081 0.0012658943 0.024997864 0.0012379583 0.025050104 0.99808162 -0.050244108
789705660.37736 0.99825013 -0.051406324 0.0012666238 0.025325228 0.0012569008 0.025375847 0.99774081 -0.050914615
799701886.79245 0.99822837 -0.052274108 0.0013093716 0.025641516 0.0013028616 0.025680508 0.99765092 -0.051453233
809698113.20755 0.99813914 -0.05288288 0.001340573 0.025915582 0.0013327666 0.025964139 0.99769813 -0.051865548
819694339.62264 0.99785811 -0.053524286 0.0013977871 0.026274832 0.0013569477 0.026341012 0.99777699 -0.052497953
829690566.03774 0.99779081 -0.05407536 0.0013986295 0.026530631 0.0013856869 0.026622253 0.99800873 -0.053370208
839686792.45283 0.99789429 -0.054398119 0.0013813805 0.026886504 0.0014148545 0.02694561 0.99814415 -0.054111779
849683018.86792 0.99800026 -0.055100992 0.0014487999 0.027214084 0.0014461591 0.027262585 0.99793023 -0.054830171
859679245.28302 0.99798721 -0.055761456 0.0014750939 0.027497098 0.0014638081 0.027549833 0.9976964 -0.055399626
869675471.69811 0.99788749 -0.056429714 0.0015394874 0.027810771 0.0015081931 0.027870633 0.99730611 -0.055952996
879671698.11321 0.99782604 -0.057070371 0.0015853709 0.028119978 0.0015285769 0.028199343 0.99731123 -0.056361791
889667924.5283 0.99760461 -0.057821214 0.0015851101 0.028411629 0.0015581157 0.028525706 0.99718022 -0.056840658
899664150.9434 0.99742311 -0.05861339 0.0015616836 0.028736841 0.0015950436 0.028789483 0.99722731 -0.057433605
909660377.35849 0.99748158 -0.059140176 0.0016269833 0.029056029 0.0015986986 0.029123209 0.99738336 -0.058264107
919656603.77358 0.99748838 -0.059795052 0.0016254853 0.029368047 0.001644732 0.029450962 0.99739087 -0.059148744
929652830.18868 0.99750614 -0.060483009 0.0016561514 0.029690877 0.001665201 0.029725142 0.99724019 -0.060054511
939649056.60377 0.99784386 -0.061077803 0.0016721711 0.029968912 0.0016690744 0.030072903 0.99713111 -0.060711473
949645283.01887 0.99765265 -0.061883908 0.0016739714 0.030312294 0.0016761852 0.030395165 0.99687207 -0.061218791
959641509.43396 0.99767339 -0.062608182 0.001711648 0.030651787 0.0017063217 0.030722803 0.9968003 -0.061695695
969637735.84906 0.9974854 -0.063203663 0.0017576935 0.03099962 0.0017582877 0.031081401 0.99681306 -0.061998606
979633962.26415 0.99733633 -0.063935302 0.0018051837 0.031324089 0.0018124718 0.031378895 0.99684316 -0.062624723
989630188.67925 0.9974131 -0.064417511 0.001858674 0.031623483 0.0018477058 0.03169376 0.99706793 -0.063212037
999626415.09434 0.99746168 -0.06504035 0.0018651411 0.031901725 0.0018555429 0.032011773 0.99705219 -0.063984871
1009622641.5094 0.9974795 -0.065619648 0.0018921406 0.032251958 0.0019149184 0.032348573 0.99686646 -0.06484057
1019618867.9245 0.99758965 -0.066466287 0.0019340371 0.032578476 0.0019630059 0.032653235 0.9966383 -0.065690726
1029615094.3396 0.99757016 -0.067413658 0.0020069331 0.032888602 0.0020134626 0.032931097 0.99628711 -0.066187143
1039611320.7547 0.99767858 -0.068164825 0.0020319698 0.033181578 0.0020527905 0.033228349 0.99621606 -0.066903025
1049607547.1698 0.99754328 -0.069060087 0.0020226061 0.033433601 0.0020730991 0.03354254 0.99622309 -0.067431554
1059603773.5849 0.99747193 -0.069801867 0.0020884927 0.033726819 0.0020955559 0.033842698 0.99627221 -0.067967296
1069600000 0.99723649 -0.0703578 0.0020574667 0.034046154 0.0021070996 0.034172501 0.99646074 -0.068663031
1079596226.4151 0.99710482 -0.070962891 0.0020647636 0.034367654 0.0021370593 0.034457985 0.9964571 -0.069446877
1089592452.8302 0.99719983 -0.071600199 0.0021143481 0.034696985 0.0021580448 0.034810543 0.99636459 -0.070190817
1099588679.2453 0.99724728 -0.072239816 0.0021028202 0.035024181 0.0021573175 0.035113521 0.99604213 -0.070769161
1109584905.6604 0.99740034 -0.07299307 0.0021473942 0.035327051 0.0021958845 0.035437837 0.9958452 -0.071274206
1119581132.0755 0.99734175 -0.074026123 0.0021656575 0.035670482 0.0021980288 0.035791583 0.9956767 -0.071682751
1129577358.4906 0.99724787 -0.074810296 0.0022069458 0.036024697 0.00223694 0.036126301 0.99557787 -0.072108626
1139573584.9057 0.99701393 -0.075646877 0.0022521699 0.036362879 0.0022909315 0.036430191 0.99569041 -0.072728962
1149569811.3208 0.99692822 -0.076574102 0.0022950575 0.036648232 0.0023444793 0.036761142 0.99585915 -0.073572166
1159566037.7358 0.99663866 -0.077196538 0.0023486959 0.036943093 0.0023607695 0.037061803 0.9959057 -0.074577302
1169562264.1509 0.99664593 -0.077790231 0.0023550801 0.037266366 0.002387736 0.037378848 0.9958266 -0.075303793
1179558490.566 0.99656236 -0.078479633 0.0023299197 0.037628978 0.0024262732 0.037727613 0.99565017 -0.076037467
1189554716.9811 0.99648595 -0.07917881 0.0023763394 0.037958778 0.0024788165 0.038037069 0.99537498 -0.076519698
1199550943.3962 0.99643087 -0.080009639 0.0024174526 0.038278949 0.002528809 0.038376246 0.9952141 -0.07688871
1209547169.8113 0.99631566 -0.080928341 0.0024535181 0.038611408 0.0025383476 0.038690664 0.99510425 -0.077273622
1219543396.2264 0.99612421 -0.081740782 0.0025143572 0.03897246 0.0025886307 0.03904767 0.99519312 -0.077607363
1229539622.6415 0.99590582 -0.082521975 0.0025821514 0.039277483 0.002633756 0.039349176 0.99530911 -0.078326732
1239535849.0566 0.99559939 -0.083182991 0.0026246877 0.039568506 0.002686223 0.039663903 0.99543476 -0.079185486
1249532075.4717 0.99527174 -0.083864808 0.0026724667 0.039899237 0.0027772193 0.039966036 0.99534464 -0.080013476
1259528301.8868 0.99515074 -0.084288538 0.0027217194 0.040220343 0.0028161705 0.040296629 0.99502861 -0.080890357
1269524528.3019 0.99497342 -0.085059941 0.002811092 0.040515672 0.0029053334 0.040575467 0.99487907 -0.081593692
1279520754.717 0.99462533 -0.08574298 0.0028603491 0.040781595 0.0029211738 0.040827863 0.99455422 -0.082069978
1289516981.1321 0.99452984 -0.086572021 0.0028575631 0.041080825 0.0029298142 0.041110151 0.9946292 -0.082494915
1299513207.5472 0.9942503 -0.087385297 0.002865212 0.041367717 0.0029725395 0.041408293 0.99473548 -0.08285892
1309509433.9623 0.99384207 -0.088089839 0.0028820038 0.041688588 0.002962538 0.041735217 0.99488968 -0.083607808
1319505660.3774 0.99349898 -0.088778719 0.0028550373 0.042015113 0.0029685032 0.042046584 0.99493533 -0.084169313
1329501886.7925 0.99317944 -0.089427292 0.0028930847 0.042332143 0.0029712636 0.042341501 0.99494523 -0.085158765
1339498113.2075 0.9929828 -0.089992046 0.0029153218 0.042650249 0.0029894644 0.042622969 0.99452156 -0.085923493
1349494339.6226 0.99278551 -0.090485349 0.0029128976 0.042964075 0.0029830462 0.042975016 0.99423975 -0.0865205
1359490566.0377 0.99263597 -0.091155767 0.0029139277 0.043317057 0.0029953215 0.043337457 0.99400532 -0.087011158
1369486792.4528 0.99248517 -0.091647208 0.0029276209 0.043684736 0.0029895836 0.043669038 0.99385482 -0.08742553
1379483018.8679 0.99221009 -0.092213094 0.0029035977 0.044037748 0.0030061216 0.044009861 0.99385256 -0.087765358
1389479245.283 0.99193823 -0.092725575 0.002960613 0.044403311 0.0030507669 0.044364303 0.99391389 -0.088507682
1399475471.6981 0.9915849 -0.093060642 0.0029785577 0.044726554 0.0030624121 0.044704944 0.99411273 -0.08906725
1409471698.1132 0.99117893 -0.09349373 0.0030061014 0.045091916 0.0030619178 0.045109197 0.99401838 -0.08990524
1419467924.5283 0.9909544 -0.093713194 0.0030150358 0.045434982 0.0030846447 0.045471702 0.99388528 -0.090604722
1429464150.9434 0.99092495 -0.094238549 0.0030791909 0.045861192 0.0031163506 0.045847252 0.99380553 -0.091193974
1439460377.3585 0.9910751 -0.094703898 0.0031419685 0.046296056 0.0031700842 0.046265252 0.99361819 -0.091527522
1449456603.7736 0.99111277 -0.095218316 0.0032610763 0.046713669 0.0032688491 0.046657518 0.99348712 -0.09176366
1459452830.1887 0.99114788 -0.095934242 0.0034171622 0.047113631 0.0033830702 0.047046952 0.99354064 -0.092108518
1469449056.6038 0.99108917 -0.096646786 0.0035547204 0.047428422 0.0035622837 0.047394965 0.99379766 -0.092826426
1479445283.0189 0.99097073 -0.097306482 0.0036727737 0.047656767 0.003661921 0.047671169 0.99395269 -0.093699329
1489441509.434 0.99091303 -0.097702175 0.0038346555 0.047984079 0.0037971586 0.047976907 0.99381804 -0.09456116
1499437735.8491 0.99071991 -0.09805432 0.0038952883 0.048273072 0.0039001238 0.048252676 0.99374205 -0.095368147
1509433962.2642 0.99073815 -0.098545015 0.0039943857 0.048510451 0.0039723828 0.048516545 0.99343294 -0.096117988
1519430188.6792 0.99089015 -0.098941892 0.0040953569 0.048806418 0.0040316693 0.048812389 0.99334902 -0.096611738
1529426415.0943 0.99072957 -0.099649906 0.0040885601 0.049051009 0.0040880553 0.049064089 0.99324894 -0.097021639
1539422641.5094 0.99078327 -0.10048517 0.0041550901 0.049365282 0.0041224323 0.049356032 0.99335927 -0.09748359
1549418867.9245 0.99067807 -0.10132965 0.0042215614 0.049631588 0.0041859178 0.049640987 0.99356335 -0.098210946
1559415094.3396 0.99053866 -0.10198921 0.0042369515 0.049925007 0.0041918736 0.049947668 0.9937464 -0.098909229
1569411320.7547 0.99042976 -0.10278472 0.0042956769 0.050140779 0.00423567 0.050166663 0.99364483 -0.099686682
1579407547.1698 0.99036223 -0.10325418 0.0043498096 0.050407093 0.0042875474 0.050480582 0.99331021 -0.10055508
1589403773.5849 0.99027812 -0.10384819 0.0043102186 0.050720081 0.0042856969 0.050745219 0.99304062 -0.10125139
1599400000 0.9901967 -0.10419697 0.0043114964 0.050962962 0.0042622061 0.051041037 0.99269515 -0.10166293
1609396226.4151 0.99030608 -0.10489559 0.0042865099 0.051311303 0.0042726342 0.051333558 0.99253064 -0.10211067
1619392452.8302 0.99021351 -0.10545513 0.0043322016 0.051669914 0.0042706318 0.051676929 0.99240553 -0.10258994
1629388679.2453 0.98994637 -0.10608044 0.0043585859 0.051938228 0.0042223036 0.052032579 0.99275577 -0.10306951
1639384905.6604 0.98969752 -0.10674026 0.0043371287 0.052342352 0.0042525032 0.052393798 0.99301147 -0.10396163
1649381132.0755 0.98959768 -0.10746923 0.004356904 0.052676961 0.0042708628 0.052758414 0.99289328 -0.10489061
1659377358.4906 0.98941386 -0.10821956 0.0043439772 0.052944824 0.0043123644 0.053064875 0.99292004 -0.10574648
1669373584.9057 0.98928893 -0.10854904 0.004355059 0.053368043 0.0043183188 0.053411201 0.99263859 -0.10619934
1679369811.3208 0.98941529 -0.10928991 0.0043890066 0.053715449 0.0043317843 0.053764746 0.99232793 -0.1068024
1689366037.7358 0.98937947 -0.1098659 0.0044265501 0.05402416 0.0043790415 0.054160215 0.9922204 -0.10713795
1699362264.1509 0.98959196 -0.11045071 0.0044782776 0.054387897 0.004423189 0.054540567 0.99233913 -0.10754046
1709358490.566 0.98945057 -0.11117108 0.0045707272 0.054751012 0.0044857608 0.054893643 0.99243319 -0.10801077
1719354716.9811 0.98917091 -0.11172673 0.0046037845 0.055149786 0.0045545939 0.05523761 0.99248636 -0.10876226
