!Keysight Technologies,N5222B,MY61253708,A.15.00.15
!Date: Wednesday, June 19, 2024 09:04:40
!Correction: S11(C  2-Port  ) 
!S21(C  2-Port  ) 
!S12(C  2-Port  ) 
!S22(C  2-Port  ) 
!S2P File: Measurements: S11, S21, S12, S22:
# Hz S  RI   R 50
10000000 0.99860072 -0.002001673 -0.00025574758 0.0002181485 0.00017566541 0.00041834271 0.99860448 -0.0007699728
19996226.415094 0.99923688 -0.0020685196 6.5593573e-005 0.00076019787 4.3052685e-005 0.00073790271 0.99934214 -0.0021574795
29992452.830189 0.99979347 -0.0024922192 -6.9411763e-006 0.0011175985 3.1468517e-006 0.0010557609 0.99952638 -0.0027110279
39988679.245283 1.0000931 -0.0030875206 -1.8538049e-005 0.0013967329 3.3820019e-005 0.0014165076 0.99962628 -0.0032344311
49984905.660377 1.0001951 -0.003908664 2.052146e-005 0.0017553642 -3.8436672e-005 0.0017707832 0.99982285 -0.0038773417
59981132.075472 1.0003102 -0.004657805 2.5714282e-005 0.0020484126 -2.4749141e-005 0.0021410086 0.99974889 -0.0043403804
69977358.490566 1.0000947 -0.0052253138 -8.5393294e-006 0.0024298625 -2.5579811e-005 0.002484709 0.99958539 -0.0048342943
79973584.90566 0.9998765 -0.0057784319 3.291422e-005 0.0028114843 5.4451986e-005 0.0028280313 0.99934852 -0.0053699911
89969811.320755 0.99981773 -0.0059601963 2.3958622e-005 0.0031237698 5.5105309e-005 0.0031595475 0.99950027 -0.005702734
99966037.735849 1.0000641 -0.0067231655 1.4368154e-005 0.0035130705 2.466148e-005 0.0035188696 0.99955881 -0.0065140277
109962264.15094 1.0001246 -0.0076884031 5.4784701e-005 0.0038621407 2.1312619e-005 0.003872612 0.99957681 -0.0073330104
119958490.56604 1.0001353 -0.0086911023 6.1114086e-005 0.0042104311 3.8480852e-005 0.0042046309 0.9996078 -0.0082944334
129954716.98113 1.0000756 -0.0096912086 5.1172799e-005 0.004577836 5.0775241e-005 0.0045657814 0.99959874 -0.0092152953
139950943.39623 1.0000187 -0.010587204 3.5923993e-005 0.0049086441 4.4439308e-005 0.0049272929 0.99946856 -0.0099843238
149947169.81132 0.99984932 -0.011236459 7.3401025e-005 0.0052433517 5.4213917e-005 0.0052889669 0.99942183 -0.010605305
159943396.22642 0.99980617 -0.011765927 8.2546379e-005 0.0055911122 5.8347825e-005 0.0056316713 0.99951911 -0.011104971
169939622.64151 0.99985754 -0.012146115 7.5898366e-005 0.0059811603 8.042308e-005 0.00599362 0.99960285 -0.011540413
179935849.0566 0.99985653 -0.012423515 0.00010880514 0.0063192779 9.3881506e-005 0.0063518789 0.99952388 -0.011975199
189932075.4717 0.9999851 -0.013194501 8.8408124e-005 0.0066737444 8.6992746e-005 0.0066637718 0.99971986 -0.012582034
199928301.88679 0.99992782 -0.014140189 0.00010326202 0.0070047323 9.949063e-005 0.007064065 0.99960226 -0.0134314
209924528.30189 0.99972969 -0.014828444 0.00013930991 0.0073570283 0.0001349916 0.0074068708 0.99938846 -0.014252469
219920754.71698 0.99971712 -0.015736431 0.0001142954 0.0077096475 0.00011092401 0.0077513522 0.99924022 -0.014912486
229916981.13208 0.99941796 -0.016637474 0.00012867991 0.0080582071 0.00012012501 0.0081063332 0.99913549 -0.015767425
239913207.54717 0.9992947 -0.017276596 0.00014428681 0.0083812848 0.00015004851 0.0084527414 0.99910372 -0.016483862
249909433.96226 0.99938524 -0.017888963 0.00015087379 0.0087392209 0.00018045702 0.0087796487 0.99924207 -0.017113328
259905660.37736 0.99948227 -0.01846692 0.0001506214 0.0090972204 0.00016302662 0.0091486555 0.99948519 -0.017732054
269901886.79245 0.99965465 -0.019160703 0.00016063405 0.0094384216 0.00018795906 0.0094992481 0.99981451 -0.018451124
279898113.20755 0.99975985 -0.019832432 0.00018343306 0.0097187785 0.00021058274 0.009801182 0.99966002 -0.019247279
289894339.62264 0.99972337 -0.020741791 0.00020519225 0.010177344 0.00018761028 0.010180542 0.99948621 -0.020030528
299890566.03774 0.99963278 -0.021286577 0.00020543975 0.010468072 0.00023413682 0.010589729 0.99929023 -0.020472765
309886792.45283 0.99934196 -0.021832772 0.00017467828 0.010834767 0.00026487489 0.010875337 0.99910295 -0.020878755
319883018.86792 0.99933714 -0.022447795 0.0002623084 0.011220678 0.00027476065 0.011278244 0.99926388 -0.021454424
329879245.28302 0.99931186 -0.023188055 0.00028801104 0.01151541 0.00026918063 0.011629021 0.99931788 -0.02218318
339875471.69811 0.99919778 -0.023930483 0.00032700633 0.011937222 0.0002841528 0.011972063 0.99926198 -0.022934169
349871698.11321 0.9994868 -0.024830312 0.00029084552 0.012250341 0.00028073671 0.012356506 0.99927425 -0.023944706
359867924.5283 0.99928439 -0.025624812 0.00030710176 0.012547047 0.0003451393 0.012679512 0.99919325 -0.024954319
369864150.9434 0.99945319 -0.026415378 0.00030927127 0.012916977 0.00037240842 0.013018566 0.99923885 -0.025687456
379860377.35849 0.99932456 -0.027245969 0.0003525205 0.013291739 0.00036018388 0.013360377 0.99915147 -0.02631548
389856603.77358 0.99929994 -0.027862281 0.00036824634 0.013641017 0.00042764423 0.013745291 0.99916124 -0.026732922
399852830.18868 0.99909413 -0.028400421 0.00038646208 0.013978109 0.0003915499 0.014071702 0.9991473 -0.027258545
409849056.60377 0.99906409 -0.028774934 0.00042388981 0.014304575 0.0004308038 0.014408387 0.9992047 -0.02774821
419845283.01887 0.99899256 -0.029303998 0.00044367975 0.014660815 0.00044091325 0.014783703 0.99930948 -0.028326213
429841509.43396 0.99915302 -0.02996856 0.0004845974 0.01501986 0.00047371257 0.015125682 0.99941444 -0.02914843
439837735.84906 0.99898756 -0.030819133 0.00051872537 0.015385493 0.00048776949 0.015471372 0.99914724 -0.030123621
449833962.26415 0.99898535 -0.031773508 0.00051987916 0.01572038 0.0005164179 0.015805796 0.99890661 -0.030967742
459830188.67925 0.99882799 -0.032609105 0.00049937936 0.016070519 0.00048474502 0.01613811 0.99867851 -0.031775236
469826415.09434 0.99880481 -0.033400834 0.00057535619 0.01639878 0.00050913403 0.016539359 0.99845099 -0.032382309
479822641.50943 0.99865854 -0.034037746 0.00054908893 0.016747776 0.00055279885 0.016913597 0.99847299 -0.032867335
489818867.92453 0.99874592 -0.034532428 0.00059587974 0.017118417 0.00062204851 0.017256785 0.99880069 -0.033494025
499815094.33962 0.9988277 -0.035182863 0.0006392668 0.017428547 0.0006190096 0.017537897 0.99916971 -0.034128994
509811320.75472 0.99900877 -0.035618968 0.00063655426 0.017816745 0.00062637421 0.017908597 0.99922425 -0.034937173
519807547.16981 0.99887681 -0.036216557 0.00068543898 0.018179392 0.00068042893 0.018278565 0.99924111 -0.035748094
529803773.58491 0.99879658 -0.036840439 0.00063202064 0.018487981 0.00068233907 0.018603064 0.99885762 -0.036368877
539800000 0.99891591 -0.037608683 0.00072117453 0.018789781 0.00068619545 0.018920707 0.99878246 -0.037085056
549796226.41509 0.99871051 -0.038419366 0.00075507537 0.019206114 0.00073192175 0.019360688 0.99848986 -0.037668973
559792452.83019 0.99849141 -0.039211243 0.00073260628 0.019533155 0.00078278035 0.019651376 0.99845076 -0.038143754
569788679.24528 0.998321 -0.039899796 0.00082914205 0.019878462 0.00075643044 0.020023981 0.99858236 -0.038919419
579784905.66038 0.99825543 -0.04047823 0.00082133536 0.020219207 0.00081029884 0.020387817 0.99869466 -0.0396543
589781132.07547 0.99839306 -0.041191101 0.00085849594 0.020563135 0.00081738178 0.020743579 0.99880719 -0.0406003
599777358.49057 0.99863088 -0.041766733 0.00094559323 0.020976689 0.00087165087 0.021167103 0.99876541 -0.041405588
609773584.90566 0.99871606 -0.042630963 0.00095696154 0.021332202 0.00096771884 0.021456191 0.99870676 -0.042276174
619769811.32075 0.99878168 -0.043324649 0.0010185516 0.021643568 0.00096510397 0.021779263 0.99855304 -0.042838365
629766037.73585 0.99862909 -0.044034064 0.001040481 0.02195761 0.00099959783 0.022092279 0.99835175 -0.043333143
639762264.15094 0.9984287 -0.044695243 0.0010600237 0.022273239 0.001001972 0.022429042 0.99816036 -0.043860838
649758490.56604 0.99828327 -0.045284525 0.0010478692 0.022624398 0.0010153404 0.022787737 0.99823618 -0.044272333
659754716.98113 0.99803889 -0.04583928 0.0010726759 0.02298425 0.0010602241 0.023122406 0.99832296 -0.044783413
669750943.39623 0.99806947 -0.046306193 0.0010593189 0.023311092 0.0010630195 0.023527354 0.998393 -0.045752168
679747169.81132 0.99809843 -0.047090579 0.0010943622 0.023689285 0.0011000842 0.023864968 0.9983834 -0.046688147
689743396.22642 0.99822795 -0.047877342 0.0011507506 0.024049006 0.001197678 0.024187151 0.99816227 -0.047661871
699739622.64151 0.99842048 -0.048754632 0.0011895048 0.024393708 0.0012020664 0.024546489 0.99802923 -0.048341304
709735849.0566 0.99840909 -0.049734697 0.0012515921 0.024735622 0.0012527488 0.024886364 0.99778032 -0.049013913
719732075.4717 0.9982636 -0.05036065 0.0012735426 0.025063913 0.0012717228 0.025259435 0.99789429 -0.049598157
729728301.88679 0.99808717 -0.0510149 0.0013547204 0.025386754 0.0013174871 0.025575083 0.9979223 -0.050063342
739724528.30189 0.99796331 -0.05163233 0.0013576602 0.025717799 0.0013720626 0.025928453 0.99815756 -0.050729737
749720754.71698 0.99786443 -0.052116141 0.0013941997 0.026066337 0.0014148941 0.026262561 0.99818295 -0.051494032
759716981.13208 0.99791348 -0.052628785 0.0014020037 0.026405083 0.0014492748 0.02658535 0.99810493 -0.052215159
769713207.54717 0.9979443 -0.053360909 0.0014443006 0.026727511 0.001496979 0.026949542 0.99784744 -0.052992284
779709433.96226 0.99809182 -0.054062836 0.0015155778 0.027111409 0.0015024053 0.027300319 0.99761534 -0.053634167
789705660.37736 0.99790311 -0.055010885 0.0015396755 0.027420508 0.0015121521 0.027623186 0.99737459 -0.054392457
799701886.79245 0.99787945 -0.055866241 0.0015556477 0.027770093 0.0015432993 0.02796074 0.99726367 -0.055011004
809698113.20755 0.99776232 -0.056525767 0.001596726 0.02807923 0.0016006478 0.028296018 0.99727929 -0.055471197
819694339.62264 0.997657 -0.057173014 0.0016072034 0.028394872 0.0016454682 0.028661411 0.99742818 -0.056141734
829690566.03774 0.9976722 -0.057811648 0.0016815253 0.028765291 0.001666368 0.028993286 0.99769408 -0.057032853
839686792.45283 0.99761921 -0.058254898 0.0016640155 0.029132286 0.0016860794 0.029342297 0.99777514 -0.0578987
849683018.86792 0.99781859 -0.058889277 0.0017063282 0.029480049 0.0017232662 0.029691495 0.99764711 -0.058688112
859679245.28302 0.99781388 -0.059617728 0.0017525265 0.029796239 0.0018052664 0.030014418 0.99725229 -0.059318811
869675471.69811 0.99766493 -0.060379684 0.0018386114 0.030143637 0.001822168 0.030383978 0.99698967 -0.059958965
879671698.11321 0.99756742 -0.06111845 0.0018782744 0.030480124 0.0018435421 0.0306927 0.99697185 -0.060365111
889667924.5283 0.9974494 -0.061982572 0.0018860297 0.030800821 0.0019073021 0.031006794 0.99676108 -0.060880929
899664150.9434 0.99711311 -0.062716812 0.0019214507 0.031162154 0.0019060718 0.031372949 0.9968617 -0.061569691
909660377.35849 0.99717027 -0.063452035 0.0019220295 0.031446125 0.0019396376 0.031713121 0.99699408 -0.062472925
919656603.77358 0.9972564 -0.064070359 0.0019783149 0.031811588 0.0019969298 0.032069519 0.99699587 -0.063340992
929652830.18868 0.99724746 -0.064875573 0.0020238217 0.032144655 0.0020233029 0.032388028 0.99679971 -0.064331561
939649056.60377 0.99740338 -0.065539211 0.0020317985 0.032468379 0.0020227283 0.032720294 0.99669474 -0.065050095
949645283.01887 0.99734926 -0.066324003 0.0020362288 0.032824852 0.0020459436 0.033095635 0.99640161 -0.065599978
959641509.43396 0.99726462 -0.067090124 0.0020327652 0.033214889 0.0020678798 0.033471107 0.99633622 -0.066122234
969637735.84906 0.99716502 -0.067807257 0.0021284688 0.03354273 0.0021461146 0.033844557 0.99636132 -0.066422999
979633962.26415 0.99699986 -0.068497695 0.0021876148 0.033872534 0.0021907638 0.034133054 0.996391 -0.067119509
989630188.67925 0.99699646 -0.069088787 0.0022287648 0.034214851 0.0022300715 0.034517374 0.99658954 -0.067747921
999626415.09434 0.99704319 -0.069713414 0.0022649541 0.03454316 0.0022778045 0.034871463 0.99645591 -0.068618923
1009622641.5094 0.99709201 -0.070288271 0.0022694618 0.034926455 0.0023203427 0.035233829 0.9963302 -0.069548622
1019618867.9245 0.99710244 -0.07125254 0.0023452728 0.035256427 0.0023902031 0.035560444 0.99603289 -0.070383087
1029615094.3396 0.99715114 -0.072253883 0.0024225842 0.035586003 0.0024479255 0.035865769 0.99570626 -0.071031272
1039611320.7547 0.99718416 -0.073231339 0.0024424782 0.035916969 0.0024663052 0.036182709 0.99562228 -0.071679056
1049607547.1698 0.99698418 -0.074042797 0.0024732945 0.036255509 0.0024961452 0.036557745 0.9955861 -0.072285816
1059603773.5849 0.99691117 -0.074739486 0.0025062384 0.036520399 0.0025565298 0.036826294 0.99559844 -0.072867036
1069600000 0.99658871 -0.07537356 0.0025043786 0.036869772 0.0025439877 0.037190486 0.99573767 -0.073564619
1079596226.4151 0.9965803 -0.076045372 0.0025421767 0.037207186 0.0026061428 0.037530571 0.99570543 -0.074391373
1089592452.8302 0.99660057 -0.076681614 0.0025871992 0.037574612 0.002631627 0.037870508 0.99567395 -0.075106651
1099588679.2453 0.99659985 -0.077369988 0.0026009865 0.037910007 0.0026422795 0.038239077 0.99529076 -0.075808764
1109584905.6604 0.99674594 -0.07823506 0.0026348345 0.038279019 0.0026923418 0.038557976 0.99505478 -0.076295495
1119581132.0755 0.99671108 -0.079289161 0.0026385002 0.038613692 0.0026959982 0.038928155 0.99494046 -0.076860793
1129577358.4906 0.99646026 -0.080066085 0.0027018171 0.038991537 0.0027545355 0.039331414 0.99471843 -0.07726112
1139573584.9057 0.99625057 -0.081025064 0.0027633207 0.039354175 0.0028236341 0.039678492 0.99488264 -0.077979147
1149569811.3208 0.99608195 -0.081874721 0.0028057124 0.039681189 0.0029020878 0.040013496 0.99490303 -0.078785263
1159566037.7358 0.99591863 -0.082553506 0.0028374996 0.040020421 0.0029197931 0.04033009 0.99507487 -0.079808801
1169562264.1509 0.9957484 -0.083267152 0.0028768033 0.040336002 0.0029661115 0.040694695 0.99484426 -0.080597788
1179558490.566 0.99570245 -0.083914742 0.0028842101 0.040719073 0.0030019125 0.041055951 0.9947052 -0.081342176
1189554716.9811 0.99564791 -0.084713995 0.0029212134 0.04107552 0.0030448213 0.041406956 0.99447262 -0.081883311
1199550943.3962 0.99565029 -0.085573286 0.0029629953 0.041452594 0.0030724965 0.041742451 0.99422622 -0.082253277
1209547169.8113 0.99542707 -0.086509168 0.0030106045 0.041781243 0.0031295242 0.042093951 0.99409246 -0.082637116
1219543396.2264 0.99517095 -0.087336458 0.0030736011 0.042162802 0.0031856894 0.042464819 0.99421179 -0.083008006
1229539622.6415 0.99492902 -0.088166207 0.0031508952 0.042509936 0.0032636635 0.042830572 0.99438232 -0.083750993
1239535849.0566 0.99458313 -0.088891774 0.0031723715 0.042853709 0.0033090049 0.043167379 0.99444735 -0.084755689
1249532075.4717 0.99431175 -0.089542985 0.0032762475 0.043174598 0.0034258033 0.043487776 0.99421132 -0.085598469
1259528301.8868 0.99409032 -0.090096205 0.0033237748 0.043501463 0.0034597144 0.043824885 0.99399155 -0.086423576
1269524528.3019 0.99399883 -0.090860397 0.0033968482 0.043836709 0.0035482571 0.044152588 0.99374568 -0.087270916
1279520754.717 0.99363172 -0.091613702 0.003475914 0.044159841 0.003580837 0.044416357 0.99350768 -0.087811843
1289516981.1321 0.99343574 -0.092462003 0.003478149 0.044466004 0.0036273412 0.044721231 0.99362093 -0.088172883
1299513207.5472 0.99315792 -0.09338212 0.0034935307 0.044796214 0.0036142953 0.045088217 0.99373555 -0.088566929
1309509433.9623 0.99267107 -0.093951076 0.0035242932 0.045083564 0.0036458578 0.045393705 0.99380428 -0.089303002
1319505660.3774 0.99227118 -0.094798535 0.0035501216 0.045467958 0.003667824 0.045696948 0.99382085 -0.090013072
1329501886.7925 0.99201423 -0.09546262 0.0035530142 0.045823708 0.003683785 0.046061784 0.99381733 -0.090976834
1339498113.2075 0.99170351 -0.095915973 0.0035630846 0.046117768 0.003700735 0.046381041 0.99340034 -0.091665685
1349494339.6226 0.991418 -0.096503161 0.0035644011 0.046504382 0.0036641005 0.046722479 0.99291712 -0.092311658
1359490566.0377 0.99138409 -0.097115308 0.0035954956 0.046869777 0.0037252307 0.047130704 0.99279308 -0.093018264
1369486792.4528 0.99117661 -0.097777426 0.0036071409 0.047248535 0.0037526954 0.047488246 0.99262899 -0.093359739
1379483018.8679 0.99093127 -0.098343149 0.0036663692 0.047631256 0.0037142585 0.047826394 0.99256331 -0.09370587
1389479245.283 0.99049628 -0.098912984 0.0036619399 0.048012115 0.0037549157 0.048258264 0.99250317 -0.094452649
1399475471.6981 0.99015152 -0.099208206 0.0037071239 0.048353568 0.0037711021 0.048603859 0.9927597 -0.095113784
1409471698.1132 0.98982501 -0.099653609 0.0037546242 0.048797242 0.0038270832 0.049013335 0.99265081 -0.095964417
1419467924.5283 0.98956966 -0.099852115 0.0037473999 0.049131192 0.0038373526 0.049415018 0.99250937 -0.096660525
1429464150.9434 0.98944068 -0.10027251 0.0038153119 0.049616139 0.0039099846 0.049831741 0.9923619 -0.097287238
1439460377.3585 0.98963845 -0.1008589 0.0039115679 0.050041787 0.00401795 0.050278421 0.99218714 -0.09763433
1449456603.7736 0.98965055 -0.10140912 0.0040116403 0.050484572 0.0040894272 0.050688419 0.99202442 -0.097982213
1459452830.1887 0.98960489 -0.10215387 0.0041937605 0.050883524 0.0041875448 0.051087767 0.99208975 -0.098355711
1469449056.6038 0.98970056 -0.10287306 0.0043435292 0.051217869 0.004368362 0.051470414 0.99236983 -0.099002481
1479445283.0189 0.98941052 -0.10351625 0.0044392636 0.051544782 0.0045037717 0.051795553 0.99240863 -0.099985212
1489441509.434 0.98936307 -0.1040234 0.0046133362 0.051886246 0.0046320111 0.052131489 0.99227571 -0.10079545
1499437735.8491 0.98920178 -0.10434097 0.0047366358 0.052164897 0.0047529396 0.052394047 0.99214697 -0.10169655
1509433962.2642 0.98914874 -0.10482488 0.0047788061 0.052464217 0.0048474111 0.052701496 0.99193889 -0.102391
1519430188.6792 0.98937702 -0.10547191 0.0049094241 0.052715804 0.0048926342 0.052986756 0.99186718 -0.10298526
1529426415.0943 0.98925388 -0.10608247 0.0049448814 0.053022809 0.0049546771 0.053303815 0.99176681 -0.10336608
1539422641.5094 0.9893477 -0.10696793 0.0050016656 0.053368628 0.0050080256 0.053608377 0.99182022 -0.10395307
1549418867.9245 0.98908359 -0.10768633 0.0050922828 0.053632289 0.0050680572 0.053933181 0.99202919 -0.10468441
1559415094.3396 0.98900819 -0.10849914 0.00514335 0.053952672 0.0051231738 0.054217599 0.99209994 -0.10539779
1569411320.7547 0.98881942 -0.1092017 0.0052065887 0.054195523 0.0051504811 0.054542173 0.99199772 -0.10620017
1579407547.1698 0.98871768 -0.10977402 0.0051938933 0.054515943 0.0051772548 0.054826699 0.99165487 -0.10699077
1589403773.5849 0.98861444 -0.11033282 0.0051998124 0.054824509 0.0052441116 0.055112243 0.99145472 -0.10772941
1599400000 0.98861045 -0.11081904 0.0052064154 0.055157434 0.0051999073 0.055475455 0.99105167 -0.10826045
1609396226.4151 0.98865288 -0.11147277 0.0051961904 0.055503529 0.0051754434 0.055777818 0.99085844 -0.10874932
1619392452.8302 0.9885875 -0.11215523 0.0052552521 0.055844396 0.0051808394 0.056159854 0.9908123 -0.1091499
1629388679.2453 0.98837519 -0.11284238 0.0052702613 0.05620943 0.0052265078 0.056544341 0.9909997 -0.10970685
1639384905.6604 0.98808014 -0.11352053 0.0052044233 0.056587517 0.0052349721 0.056967687 0.99135983 -0.11063588
1649381132.0755 0.9879145 -0.11419374 0.0052867197 0.056991078 0.0053044911 0.057323385 0.99129963 -0.11159587
1659377358.4906 0.98773265 -0.11499602 0.0053407382 0.057335101 0.0053052101 0.057703488 0.99123502 -0.11249608
1669373584.9057 0.98762816 -0.1154499 0.0053504845 0.057780504 0.0053659999 0.058081605 0.99085134 -0.11315275
1679369811.3208 0.98767185 -0.1161337 0.0053707026 0.05814109 0.0053741746 0.058504127 0.99067008 -0.11371386
1689366037.7358 0.98769999 -0.11684144 0.0054481085 0.058508679 0.0054489803 0.058955789 0.99039268 -0.11399817
1699362264.1509 0.98785281 -0.11738539 0.005504827 0.058890197 0.0055090925 0.059304632 0.99066788 -0.11444826
1709358490.566 0.98773551 -0.11806168 0.0056359423 0.059310738 0.0055981791 0.059707563 0.99063617 -0.11505009
1719354716.9811 0.98744321 -0.11874741 0.0056427252 0.059661515 0.0056543015 0.060086906 0.99077934 -0.11577943
1729350943.3962 0.98710805 -0.11939856 0.0057596285 0.060093459 0.0057483707 0.060505085 0.99070841 -0.11668339
