!Keysight Technologies,N5222B,MY61253708,A.15.00.15
!Date: Wednesday, June 19, 2024 09:37:59
!Correction: S11(C  2-Port  ) 
!S21(C  2-Port  ) 
!S12(C  2-Port  ) 
!S22(C  2-Port  ) 
!S2P File: Measurements: S11, S21, S12, S22:
# Hz S  RI   R 50
10000000 0.99868041 -0.0023419261 0.00043612695 0.00048737912 8.2719256e-005 0.00035313575 0.99848819 -0.0013986528
19996226.415094 0.9988842 -0.0025219917 6.0364226e-005 0.00056639558 0.00014123434 0.00054322201 0.99878561 -0.0026489198
29992452.830189 0.99965739 -0.0024681985 -6.4950684e-005 0.00098225009 -3.1167932e-005 0.0010129086 0.99940896 -0.0026786625
39988679.245283 0.99996847 -0.0030230284 -1.4789402e-006 0.0012855163 9.5337018e-006 0.0013356523 0.99967533 -0.0030666441
49984905.660377 1.0001287 -0.0036596358 5.987793e-005 0.001696235 -4.5967579e-005 0.0016820498 0.99977684 -0.0036346912
59981132.075472 1.0003119 -0.0046003759 -6.9033122e-005 0.0020056092 -1.3090263e-005 0.001988421 0.99982429 -0.0042617023
69977358.490566 1.0000874 -0.0051191468 2.5297108e-005 0.0023263642 5.488548e-005 0.0023483976 0.99965984 -0.0047579687
79973584.90566 0.99985695 -0.0057347715 -3.0172872e-005 0.0026514046 4.1369698e-005 0.0026728942 0.99933159 -0.0052475929
89969811.320755 0.99985778 -0.0058769286 -1.5214784e-005 0.0030177324 5.0759409e-006 0.0030067849 0.9995656 -0.0055333078
99966037.735849 1.0000752 -0.0066261292 2.9582181e-005 0.0033192097 2.5047048e-005 0.003372245 0.99964637 -0.0063620359
109962264.15094 1.0001186 -0.0075201243 3.6710524e-005 0.0036711919 4.0360726e-005 0.0036706782 0.99963772 -0.0071483105
119958490.56604 1.0001537 -0.0084387362 3.082701e-005 0.0039778203 5.8567268e-005 0.0039941268 0.999654 -0.0080182254
129954716.98113 1.0000784 -0.0093868673 3.8599828e-005 0.0043202769 4.1971216e-005 0.0043550595 0.99963868 -0.0089281499
139950943.39623 1.0000627 -0.010233803 3.7831313e-005 0.0046499278 5.6111618e-005 0.0046987161 0.99955267 -0.0096712988
149947169.81132 0.99988866 -0.010831356 5.3985044e-005 0.0049918005 6.9818227e-005 0.0050194138 0.99951756 -0.010286897
159943396.22642 0.99989003 -0.011468261 6.61253e-005 0.0053372174 7.0026144e-005 0.005341894 0.99960023 -0.010758817
169939622.64151 0.99987018 -0.011816956 7.4772746e-005 0.0056520198 6.6091248e-005 0.0057085063 0.99964762 -0.011212349
179935849.0566 0.99989361 -0.012087196 9.4998861e-005 0.0059746914 6.7945221e-005 0.0060384893 0.99957049 -0.011576176
189932075.4717 0.99998271 -0.012809426 8.6001819e-005 0.0063327784 0.00011166208 0.0063718362 0.99973524 -0.012139767
199928301.88679 0.99996793 -0.01360476 9.4147981e-005 0.00664458 0.00010948477 0.0066904887 0.99966431 -0.013028771
209924528.30189 0.99970609 -0.014329582 9.5849507e-005 0.0069671241 0.00010754936 0.0070335995 0.99940622 -0.013729692
219920754.71698 0.99981081 -0.015063196 0.00013599242 0.0073297611 0.00014347979 0.007350883 0.99928141 -0.014367968
229916981.13208 0.99952549 -0.015987575 0.00010340777 0.0076400083 9.4485469e-005 0.0076968349 0.99927086 -0.015192747
239913207.54717 0.99940866 -0.016634723 0.0001322475 0.0079631582 0.00014037751 0.0080619249 0.99919498 -0.015913498
249909433.96226 0.99949014 -0.017305493 0.0001434607 0.0082995659 0.00017025252 0.008365266 0.999282 -0.016555727
259905660.37736 0.99967587 -0.017934024 8.0664642e-005 0.0086107645 0.00013333699 0.0087062446 0.99950767 -0.017032862
269901886.79245 0.99967998 -0.018505558 0.00018359313 0.0089725107 0.00013635005 0.0090495385 0.99983466 -0.017834634
279898113.20755 0.99977696 -0.019195721 0.00018732133 0.009291173 0.00018724613 0.0093719484 0.99968845 -0.018592536
289894339.62264 0.99966949 -0.019911647 0.00022230996 0.0096241646 0.00019927602 0.0097028855 0.99966061 -0.019342691
299890566.03774 0.99965131 -0.020408839 0.00020057522 0.009997773 0.00021202536 0.01005483 0.99930841 -0.019709766
309886792.45283 0.99942356 -0.020999283 0.00022373127 0.01030954 0.00016527507 0.010370078 0.9992187 -0.020167343
319883018.86792 0.99952507 -0.021611571 0.00021405332 0.010631305 0.00025374535 0.010733634 0.99934089 -0.020761132
329879245.28302 0.99954951 -0.02228272 0.00020445045 0.010952988 0.00024780212 0.01103173 0.99945593 -0.021456957
339875471.69811 0.99946159 -0.023142256 0.0003167555 0.011313425 0.00029700971 0.011422977 0.99933457 -0.022227384
349871698.11321 0.99953645 -0.023952961 0.00027423957 0.011623182 0.00028523314 0.011714631 0.99929345 -0.023121983
359867924.5283 0.99934709 -0.024774492 0.00026071677 0.011967275 0.00027748104 0.012070398 0.99927855 -0.024066329
369864150.9434 0.99956173 -0.025530845 0.00028435816 0.012272958 0.00033967826 0.012404045 0.99929368 -0.024765134
379860377.35849 0.99947262 -0.026289687 0.00033520372 0.012599366 0.00028811744 0.012718732 0.99922168 -0.025439441
389856603.77358 0.99937904 -0.026821643 0.0003565168 0.012927421 0.00038437778 0.013062863 0.99927866 -0.025865018
399852830.18868 0.99920523 -0.027469188 0.00033710757 0.013221648 0.00034482032 0.013354605 0.99936754 -0.026346684
409849056.60377 0.9991622 -0.027882734 0.00040498882 0.013586298 0.00038766427 0.013721009 0.99935526 -0.026803803
419845283.01887 0.99911487 -0.028338164 0.00040913885 0.013890346 0.00038702786 0.014025219 0.9993329 -0.027399868
429841509.43396 0.99924254 -0.028962195 0.00041445857 0.014282357 0.0004418469 0.014434464 0.99951553 -0.028191119
439837735.84906 0.99904877 -0.029843733 0.00049200095 0.014606083 0.0004373634 0.014735621 0.99928975 -0.029116035
449833962.26415 0.9989379 -0.030634671 0.00045643421 0.014884882 0.00048636273 0.015007513 0.99896652 -0.02991876
459830188.67925 0.99880129 -0.031345457 0.0004669372 0.015230693 0.00043886993 0.015361074 0.99883366 -0.030729502
469826415.09434 0.9987613 -0.032110959 0.0004739468 0.015597241 0.00043474929 0.015705325 0.99855965 -0.031235516
479822641.50943 0.99874276 -0.03273353 0.0005128514 0.01589776 0.00050377753 0.016058045 0.99862832 -0.03177014
489818867.92453 0.9988234 -0.033197492 0.00052357139 0.016238431 0.00052627083 0.016409058 0.99891031 -0.032322407
499815094.33962 0.99888557 -0.033818603 0.00053347694 0.016599189 0.00059692794 0.016713964 0.99921346 -0.032895684
509811320.75472 0.99898356 -0.034255013 0.00058930239 0.016912881 0.00055178575 0.017029071 0.99931705 -0.033772357
519807547.16981 0.99890172 -0.034812868 0.0005375389 0.017211903 0.00058273505 0.017377345 0.99926126 -0.034428537
529803773.58491 0.99886346 -0.035410404 0.00055587385 0.017533725 0.00062113069 0.017711164 0.9989897 -0.035054922
539800000 0.99890083 -0.036108226 0.00062383432 0.017870784 0.00063089188 0.018029939 0.99887639 -0.035737589
549796226.41509 0.99876565 -0.036922961 0.00062304782 0.018195903 0.00062084896 0.018366069 0.99870497 -0.036236763
559792452.83019 0.998546 -0.037626475 0.00068714842 0.018529214 0.00065898616 0.018752482 0.9986167 -0.036778539
569788679.24528 0.9984076 -0.038346976 0.00069011841 0.018888677 0.00064069219 0.019072801 0.9986968 -0.037525058
579784905.66038 0.99839354 -0.038929403 0.00073453307 0.019222509 0.00075576094 0.019391874 0.99876535 -0.038254276
589781132.07547 0.99861753 -0.039464533 0.00076669455 0.019549467 0.00072858389 0.019745082 0.99892676 -0.039099008
599777358.49057 0.99861395 -0.040210932 0.0007727826 0.01987634 0.00078341272 0.020075534 0.99901843 -0.039937347
609773584.90566 0.998824 -0.040886194 0.00081196404 0.020202985 0.00080681726 0.020372456 0.99883026 -0.040710524
619769811.32075 0.99893576 -0.041575611 0.00088867778 0.020573467 0.000882986 0.020712677 0.9987784 -0.041255504
629766037.73585 0.99870807 -0.0422602 0.00088949967 0.020858156 0.00090690516 0.021012018 0.99858087 -0.041885704
639762264.15094 0.99852133 -0.042950898 0.00095646409 0.021167401 0.00089218095 0.021352444 0.99845845 -0.04230316
649758490.56604 0.99852598 -0.043456003 0.00091595901 0.021483531 0.00095079746 0.021670345 0.99848199 -0.042699367
659754716.98113 0.99835223 -0.043964595 0.00090638455 0.021803018 0.00096603297 0.022022855 0.99859059 -0.043329328
669750943.39623 0.99836373 -0.044502467 0.00094882445 0.022193763 0.00094678253 0.022395799 0.99861687 -0.04399547
679747169.81132 0.99826473 -0.045327112 0.00097570044 0.022525709 0.0010140084 0.022736602 0.99856782 -0.045066237
689743396.22642 0.99847066 -0.046079457 0.0010580644 0.022839181 0.0010545747 0.023113072 0.99836576 -0.045933664
699739622.64151 0.99856699 -0.04688248 0.0010800241 0.023152024 0.0010790555 0.023409763 0.99834341 -0.046651453
709735849.0566 0.99857074 -0.047762118 0.0011213181 0.023494629 0.0011468462 0.023713855 0.99803966 -0.047244497
719732075.4717 0.99848711 -0.048453897 0.0011835801 0.023802415 0.0011524763 0.024019759 0.99816406 -0.047869146
729728301.88679 0.9983331 -0.048999131 0.0011634529 0.024118803 0.0011886396 0.024339724 0.99820614 -0.048344165
739724528.30189 0.9982 -0.049564153 0.0012219888 0.024472665 0.0012090467 0.024656337 0.99838895 -0.049011365
749720754.71698 0.9982025 -0.050228253 0.0012686923 0.024729509 0.0012422604 0.025035268 0.99839401 -0.049698308
759716981.13208 0.99826479 -0.050690353 0.0012792367 0.025093075 0.0012951484 0.025324555 0.99838591 -0.050399095
769713207.54717 0.99811494 -0.051369399 0.0012800656 0.025404423 0.0013037641 0.025636595 0.9980756 -0.051073879
779709433.96226 0.99822032 -0.051992618 0.001328331 0.025741018 0.0013207888 0.025965879 0.9978236 -0.051778022
789705660.37736 0.99814582 -0.052981973 0.0013798308 0.026039008 0.0014128778 0.026308212 0.99764806 -0.052550852
799701886.79245 0.99811625 -0.053665727 0.001401552 0.026386227 0.0014321441 0.02659766 0.99749029 -0.053090423
809698113.20755 0.99799591 -0.054393411 0.0014298996 0.026673198 0.0014184716 0.026941741 0.99754232 -0.053571358
819694339.62264 0.99781805 -0.055004716 0.0014477633 0.027017741 0.0014303895 0.027263163 0.99768466 -0.054181069
829690566.03774 0.9978447 -0.055624068 0.0014740387 0.027364844 0.0015031882 0.027610963 0.99795806 -0.055057257
839686792.45283 0.99793196 -0.056018084 0.0015010447 0.027664237 0.0015469161 0.027926974 0.9980036 -0.055901825
849683018.86792 0.99805808 -0.056727722 0.0015531741 0.027978212 0.0015526244 0.028256955 0.99795055 -0.056611784
859679245.28302 0.9980408 -0.05736205 0.0015716339 0.02831744 0.0016012378 0.028568745 0.9976337 -0.057305813
869675471.69811 0.99795794 -0.058082789 0.0016057966 0.028637303 0.0016255938 0.028916407 0.99731421 -0.057795763
879671698.11321 0.99782848 -0.058813337 0.0016390713 0.028956808 0.0016355116 0.029209269 0.99727821 -0.058251835
889667924.5283 0.99760514 -0.059605449 0.00165678 0.029248264 0.0016838582 0.029581988 0.99707401 -0.058762401
899664150.9434 0.99745011 -0.060379744 0.001712691 0.029556392 0.0017255228 0.029865768 0.99716783 -0.059340298
909660377.35849 0.99749178 -0.0609456 0.001728972 0.029876616 0.0017453809 0.030190008 0.99731141 -0.06020315
919656603.77358 0.99761897 -0.061639875 0.0017561363 0.030231141 0.0017741551 0.030522969 0.99726278 -0.061139181
929652830.18868 0.99751377 -0.062341422 0.0017962093 0.030538231 0.0017897403 0.030813254 0.99712658 -0.061978519
939649056.60377 0.99779415 -0.063014001 0.0017623976 0.03084529 0.0018344373 0.031136541 0.99700224 -0.062659711
949645283.01887 0.99771881 -0.063852608 0.0017672557 0.031179903 0.0018276396 0.031493381 0.99674904 -0.063211456
959641509.43396 0.99760664 -0.064465642 0.0018346692 0.0315625 0.0018770499 0.031843595 0.99668497 -0.063737929
969637735.84906 0.99754298 -0.065195411 0.0018879576 0.031876747 0.0019141398 0.032198992 0.99672472 -0.064132869
979633962.26415 0.99739069 -0.066001803 0.001935326 0.032218985 0.0019386217 0.032493383 0.99670833 -0.064769536
989630188.67925 0.99742031 -0.066435426 0.0019557746 0.032518297 0.0019963952 0.032840759 0.99693173 -0.065462023
999626415.09434 0.99745113 -0.06708461 0.0020286106 0.032855965 0.0020496119 0.033163644 0.99686205 -0.066206902
1009622641.5094 0.99748111 -0.067675948 0.0020226138 0.033191051 0.0020818906 0.033518281 0.99671185 -0.067022547
1019618867.9245 0.99756223 -0.068572611 0.0020718384 0.033512712 0.0021445369 0.033831824 0.99649763 -0.0679162
1029615094.3396 0.99752057 -0.069490224 0.0021409318 0.033818189 0.0022166511 0.034129214 0.99609172 -0.068528444
1039611320.7547 0.99755275 -0.070389003 0.0021766098 0.034110542 0.0022087079 0.034453478 0.99602449 -0.069127142
1049607547.1698 0.99743032 -0.071233168 0.0022332934 0.034417976 0.0022076282 0.03476068 0.9959861 -0.069711842
1059603773.5849 0.99736643 -0.071983278 0.002222579 0.034720901 0.0022960631 0.03508646 0.99602008 -0.070310384
1069600000 0.99718422 -0.072584897 0.0022220006 0.035030432 0.0022985954 0.035397187 0.99617779 -0.070964515
1079596226.4151 0.99708134 -0.073209524 0.0022544395 0.035364427 0.0023190971 0.035712298 0.99613208 -0.071736947
1089592452.8302 0.99712026 -0.073892415 0.0022908319 0.035681181 0.0023112716 0.036043849 0.9961437 -0.072474927
1099588679.2453 0.99718094 -0.074569225 0.0022630524 0.036027014 0.0023436863 0.036383003 0.99580669 -0.073097974
1109584905.6604 0.9972502 -0.075337499 0.0023544636 0.036374863 0.0023837397 0.036710471 0.99556363 -0.07365495
1119581132.0755 0.99723363 -0.076442882 0.0023383047 0.036686208 0.0024086288 0.037060965 0.99537784 -0.074115127
1129577358.4906 0.99697798 -0.077039868 0.002358526 0.037060708 0.002463147 0.037435837 0.99529099 -0.074547827
1139573584.9057 0.99674547 -0.078032464 0.0024271412 0.037404649 0.0024989443 0.03774453 0.99531758 -0.075233668
1149569811.3208 0.99669206 -0.078805678 0.0024812452 0.03772445 0.0025496883 0.03810548 0.99546516 -0.07590498
1159566037.7358 0.99643421 -0.079520941 0.0024988856 0.038017817 0.0026027206 0.038386978 0.99560481 -0.077006638
1169562264.1509 0.99633765 -0.080083132 0.0024952963 0.038312055 0.0025792178 0.038720805 0.99538553 -0.077744812
1179558490.566 0.99631292 -0.080926016 0.0025090452 0.038732521 0.0026340284 0.039102815 0.995323 -0.078464702
1189554716.9811 0.99624324 -0.081653088 0.0025746292 0.039029114 0.0026945211 0.039425772 0.99499774 -0.078900695
1199550943.3962 0.99622136 -0.082447857 0.0026153103 0.039366331 0.0027306154 0.039752737 0.99480718 -0.079414129
1209547169.8113 0.9961229 -0.083369911 0.0026535131 0.039754651 0.0027519437 0.0400539 0.9947418 -0.079758465
1219543396.2264 0.99582219 -0.084163517 0.0027010469 0.040113293 0.0028383876 0.040476229 0.99476004 -0.080151528
1229539622.6415 0.9955281 -0.085019857 0.0027772244 0.040441036 0.0028879549 0.040787462 0.99493945 -0.080838412
1239535849.0566 0.99535644 -0.085741222 0.0028401315 0.04072893 0.0029878449 0.041117538 0.99503231 -0.081791997
1249532075.4717 0.99492973 -0.08633405 0.0028717623 0.041039653 0.0030198966 0.041415051 0.99483973 -0.082596242
1259528301.8868 0.99476838 -0.08680141 0.0029118676 0.041400276 0.0030694976 0.041725628 0.99463511 -0.083446175
1269524528.3019 0.99463916 -0.087573022 0.0030185059 0.04170214 0.0031367131 0.042032596 0.9943977 -0.084168941
1279520754.717 0.99422371 -0.088291705 0.003032597 0.041958142 0.0031996998 0.04230316 0.99411923 -0.084687844
1289516981.1321 0.99421376 -0.089116603 0.0030689389 0.042274367 0.0032019373 0.04259133 0.99427575 -0.085086584
1299513207.5472 0.99387658 -0.089915544 0.0030987058 0.042569257 0.0032106489 0.042926647 0.99431634 -0.085516423
1309509433.9623 0.99339271 -0.09064652 0.0030791881 0.042890329 0.0032378528 0.043207154 0.99440312 -0.086203337
1319505660.3774 0.99299562 -0.091399699 0.0030876761 0.043219499 0.0032026665 0.043562856 0.99449688 -0.086836725
1329501886.7925 0.99266911 -0.09206605 0.0031032134 0.043550089 0.0032491088 0.043858446 0.99444038 -0.087857246
1339498113.2075 0.99239832 -0.092562556 0.0031535123 0.043851547 0.0032871226 0.044186257 0.99406356 -0.088540316
1349494339.6226 0.99223626 -0.093094327 0.0031337459 0.044204533 0.0032779407 0.044518374 0.99368703 -0.089166805
1359490566.0377 0.99213892 -0.093696088 0.0031617619 0.044564351 0.0032558832 0.044876672 0.9934988 -0.089670599
1369486792.4528 0.99191749 -0.094179988 0.0031392835 0.044931613 0.0032735225 0.045220483 0.99333775 -0.090141326
1379483018.8679 0.99174237 -0.094797418 0.0031748095 0.045296378 0.0032824792 0.045577358 0.99323678 -0.090454914
1389479245.283 0.99134243 -0.095245123 0.0032154825 0.045675632 0.0033416171 0.045991041 0.99330348 -0.09118402
1399475471.6981 0.99088866 -0.095713347 0.0032394901 0.046044525 0.0033074748 0.046335548 0.99347115 -0.091857761
1409471698.1132 0.99066353 -0.096111491 0.0032808185 0.046402808 0.0033727414 0.046706427 0.99340713 -0.092682242
1419467924.5283 0.99053031 -0.096333861 0.0032776361 0.046781749 0.0033829706 0.047061011 0.99330693 -0.093396544
1429464150.9434 0.99032605 -0.096835762 0.0033394322 0.047178358 0.0034248158 0.047502253 0.99314201 -0.093974233
1439460377.3585 0.9905386 -0.097193003 0.0033976315 0.047649458 0.0034981174 0.047952045 0.99292791 -0.094291732
1449456603.7736 0.99044108 -0.097786978 0.003506327 0.048029881 0.0035812538 0.04829295 0.99280739 -0.094648317
1459452830.1887 0.99045074 -0.098522007 0.0036532134 0.048431605 0.0037375111 0.048667885 0.99294889 -0.094874769
1469449056.6038 0.99050784 -0.099075019 0.0037988042 0.048755597 0.0038509173 0.049078457 0.99317926 -0.09560737
1479445283.0189 0.9903996 -0.099738866 0.0039453935 0.049038488 0.0039976425 0.049354713 0.99326485 -0.096536212
1489441509.434 0.99032354 -0.10022733 0.0040690433 0.049352616 0.0041417796 0.049700588 0.99314833 -0.097357839
1499437735.8491 0.99020898 -0.10060301 0.0042130891 0.049581114 0.004231818 0.049949985 0.99300879 -0.098178178
1509433962.2642 0.99016905 -0.1011366 0.0042750379 0.049866416 0.0043387776 0.050201885 0.99287891 -0.098897509
1519430188.6792 0.99027461 -0.10164645 0.0043728147 0.050175287 0.0043776054 0.050458916 0.99273968 -0.099496603
1529426415.0943 0.99014747 -0.10230523 0.0043985136 0.050404835 0.0044114012 0.050792739 0.99262881 -0.099873781
1539422641.5094 0.99029124 -0.10310344 0.0044274535 0.050745144 0.0045016478 0.051105577 0.99275726 -0.10031176
1549418867.9245 0.99000823 -0.10392675 0.0045032362 0.05103007 0.0045351125 0.051362753 0.99299979 -0.1010796
1559415094.3396 0.98996925 -0.10463101 0.0045533683 0.051333316 0.0045559257 0.051680543 0.99302083 -0.10172808
1569411320.7547 0.98981071 -0.10533684 0.0046148011 0.051588826 0.0045927064 0.051971089 0.99298745 -0.10252303
1579407547.1698 0.98965132 -0.10588482 0.0046377582 0.051841203 0.0046634977 0.052253861 0.99259073 -0.10343614
1589403773.5849 0.98970634 -0.10640624 0.0046510585 0.052183993 0.0046563111 0.052561767 0.99241853 -0.10409188
1599400000 0.98971117 -0.106823 0.0046079885 0.052500367 0.0046337321 0.052826948 0.99195457 -0.10449806
1609396226.4151 0.98962313 -0.10749029 0.0045868647 0.052766714 0.004596184 0.053161137 0.99178082 -0.10504674
1619392452.8302 0.98960257 -0.10811925 0.0046195537 0.053122249 0.0046677664 0.053502269 0.99182367 -0.10549065
1629388679.2453 0.98937404 -0.10882419 0.0045969449 0.053494722 0.0046075247 0.05387526 0.99199474 -0.10598135
1639384905.6604 0.98923153 -0.10946954 0.0046472736 0.053802632 0.0045779757 0.054329362 0.99220979 -0.10685986
1649381132.0755 0.98890758 -0.11013788 0.0046710614 0.054181807 0.0046538804 0.054636389 0.99223948 -0.10786033
1659377358.4906 0.98879957 -0.1108996 0.0046514831 0.054553337 0.0047078654 0.054991469 0.99215972 -0.10867563
1669373584.9057 0.98878318 -0.11132171 0.0046910159 0.054981388 0.0047311317 0.055362284 0.99193913 -0.10930446
1679369811.3208 0.98885989 -0.11207619 0.0047610104 0.055328745 0.0047794413 0.055786695 0.99167252 -0.1098766
1689366037.7358 0.98882592 -0.11261728 0.0047854111 0.055679772 0.0048199035 0.05612817 0.99151117 -0.11013567
1699362264.1509 0.98903692 -0.11318137 0.0048554083 0.056087021 0.0048416154 0.056504525 0.99173427 -0.11060898
1709358490.566 0.98875225 -0.11393192 0.0049323076 0.056443278 0.0049167015 0.056898583 0.99176931 -0.11107245
1719354716.9811 0.98847294 -0.11445132 0.0049595609 0.056796692 0.0049864259 0.057251804 0.99174798 -0.1118159
