!Keysight Technologies,N5222B,MY61253708,A.15.00.15
!Date: Wednesday, June 19, 2024 08:54:47
!Correction: S11(C  2-Port  ) 
!S21(C  2-Port  ) 
!S12(C  2-Port  ) 
!S22(C  2-Port  ) 
!S2P File: Measurements: S11, S21, S12, S22:
# Hz S  RI   R 50
10000000 0.9985708 -0.0021498799 7.6646858e-005 0.00044827879 -0.00019872752 -7.6657707e-005 0.99849415 -0.0010998845
19996226.415094 0.99905437 -0.0021242499 0.00010810062 0.000680356 -3.8063707e-005 0.00080069015 0.99932474 -0.002168864
29992452.830189 0.99973154 -0.0025023222 7.4837008e-006 0.0010693508 -7.3665869e-006 0.0011319523 0.99944586 -0.002779752
39988679.245283 1.0000821 -0.0031316131 -3.5358098e-006 0.0014993395 -4.0299376e-005 0.0014717502 0.99959427 -0.0032213181
49984905.660377 1.0001678 -0.0039189458 3.7418795e-006 0.0017984369 -9.4195129e-006 0.0018756866 0.99974608 -0.0039107502
59981132.075472 1.0002563 -0.0047748685 1.5993137e-006 0.0022152183 1.6296399e-005 0.002159941 0.99975002 -0.0044343472
69977358.490566 1.0000539 -0.005311992 -1.9558804e-005 0.0025040922 -1.0695396e-005 0.0025587748 0.99957955 -0.0049313381
79973584.90566 0.99978215 -0.0059285462 -1.0911026e-005 0.0029080091 1.1366792e-005 0.0028879396 0.99931693 -0.0054956973
89969811.320755 0.99984109 -0.0061653852 1.854368e-005 0.0032473882 3.5530771e-005 0.0032807696 0.99946451 -0.0058758855
99966037.735849 0.99998182 -0.0068800449 9.6913427e-006 0.0036551999 2.2693072e-005 0.0036574535 0.99953675 -0.0066653639
109962264.15094 1.0000341 -0.0079271197 3.3333199e-005 0.0039882818 3.5011093e-005 0.0040290235 0.99953955 -0.0075260848
119958490.56604 1.000092 -0.0089069009 3.4443336e-005 0.0043347538 3.8246857e-005 0.0043952381 0.99958372 -0.0084721148
129954716.98113 1.0000329 -0.0099441111 7.8996993e-005 0.0047178417 2.1473505e-005 0.0047238553 0.99955297 -0.0094512999
139950943.39623 0.99994802 -0.010801336 6.2412757e-005 0.005082442 5.7012483e-005 0.0051196441 0.99947321 -0.010247024
149947169.81132 0.99980772 -0.011533082 6.7214249e-005 0.0054376624 6.203074e-005 0.0054506799 0.99940604 -0.010855943
159943396.22642 0.99978358 -0.012062311 6.2971609e-005 0.0057938253 6.0016057e-005 0.0058343662 0.99946928 -0.011331081
169939622.64151 0.99976981 -0.012459159 8.6163869e-005 0.0061809719 7.4938755e-005 0.0062100007 0.99959439 -0.011779413
179935849.0566 0.99981916 -0.01275453 6.7284796e-005 0.006535226 9.5810043e-005 0.0065738405 0.99954927 -0.012198865
189932075.4717 1.0000145 -0.013535321 0.00011285115 0.0069082407 0.00010183523 0.0069051692 0.99969625 -0.012810618
199928301.88679 0.99990124 -0.014483154 8.3642779e-005 0.0072884737 0.00013375841 0.007284834 0.99955511 -0.013747394
209924528.30189 0.99964231 -0.01517196 0.00012916187 0.007589309 0.00012615859 0.0076631885 0.99932587 -0.014563844
219920754.71698 0.99959904 -0.016119033 0.00014445628 0.007988641 0.00012388709 0.0080160927 0.99921155 -0.015285641
229916981.13208 0.99936897 -0.017021 0.00014008023 0.0083557758 0.00015509385 0.008401908 0.99905777 -0.016098171
239913207.54717 0.99926615 -0.017702905 0.00017817706 0.008698443 0.00016979655 0.0087710172 0.99906063 -0.016818553
249909433.96226 0.99929327 -0.018353164 0.00015467661 0.0090564247 0.00016097655 0.0091224657 0.99916273 -0.017442763
259905660.37736 0.9993875 -0.018922478 0.0001984532 0.0094520431 0.00015653251 0.0094734095 0.99935794 -0.018099278
269901886.79245 0.99949169 -0.019674823 0.00020662718 0.009769246 0.00019915029 0.0098563582 0.99974585 -0.018802628
279898113.20755 0.9997595 -0.020350516 0.00017915783 0.010202896 0.00021581841 0.010205062 0.99969131 -0.019699946
289894339.62264 0.99962103 -0.021119595 0.00025837217 0.010494074 0.00027104747 0.010593345 0.99954486 -0.020388693
299890566.03774 0.99952835 -0.02174592 0.00024406542 0.010895214 0.00022110692 0.010962251 0.99924165 -0.020882607
309886792.45283 0.99926555 -0.022283845 0.00025881396 0.01123845 0.00029155891 0.011296255 0.99910098 -0.021407157
319883018.86792 0.99916977 -0.02296713 0.00028977403 0.011559303 0.00031154137 0.011708677 0.99916065 -0.021968335
329879245.28302 0.99925303 -0.023678213 0.00030744914 0.01200044 0.00029456802 0.011982106 0.99921453 -0.022692025
339875471.69811 0.99907047 -0.02454076 0.0002978635 0.012307234 0.00031650963 0.012417648 0.99919087 -0.023455493
349871698.11321 0.99931914 -0.02533111 0.00033698091 0.012683661 0.00035791332 0.012751727 0.99917722 -0.024445564
359867924.5283 0.99921411 -0.026224703 0.00032374216 0.013046326 0.0003498015 0.013131151 0.9991771 -0.025420547
369864150.9434 0.9993819 -0.027084321 0.0003686042 0.013400592 0.00037079025 0.013498814 0.9991594 -0.026163071
379860377.35849 0.99924022 -0.027788967 0.00039760349 0.013795846 0.00043342635 0.013835206 0.99911803 -0.026884452
389856603.77358 0.99910396 -0.028367132 0.00040049292 0.014144203 0.00040794909 0.014224879 0.99908525 -0.027374923
399852830.18868 0.99897075 -0.02892971 0.0004572589 0.014482314 0.00043454999 0.014574047 0.9991082 -0.027797967
409849056.60377 0.9989202 -0.029424071 0.00042856814 0.014850526 0.00043558079 0.014923614 0.99914968 -0.028260948
419845283.01887 0.99900663 -0.029954344 0.00046902802 0.015179684 0.0004826677 0.015300186 0.99912775 -0.028904319
429841509.43396 0.99898982 -0.030608594 0.00051948149 0.015579648 0.00049521867 0.015679516 0.99931622 -0.029698253
439837735.84906 0.99897355 -0.031468406 0.00056617497 0.01592841 0.00057139411 0.015996039 0.99912804 -0.030753434
449833962.26415 0.99893367 -0.032356203 0.00058914442 0.016277559 0.00054642465 0.016343772 0.99880713 -0.031568378
459830188.67925 0.99875522 -0.033288717 0.00055115111 0.016641004 0.00053212699 0.016714346 0.99869597 -0.032309204
469826415.09434 0.99870151 -0.034107029 0.00058093201 0.01697577 0.00057569053 0.017097561 0.9984479 -0.033004373
479822641.50943 0.99849963 -0.034764253 0.00061225262 0.017383039 0.00059794961 0.017513784 0.99846393 -0.033487059
489818867.92453 0.99866772 -0.035310328 0.00064554997 0.01773119 0.00064719468 0.017818933 0.99880302 -0.034064949
499815094.33962 0.99875456 -0.035933733 0.00066224905 0.018088458 0.0006947862 0.018194657 0.99910259 -0.034717798
509811320.75472 0.99890846 -0.036327615 0.0006770672 0.018479656 0.0006771576 0.018555392 0.99918002 -0.03566853
519807547.16981 0.99881893 -0.036911726 0.00069005601 0.018817021 0.00069836807 0.018919693 0.9991585 -0.036452055
529803773.58491 0.99883521 -0.037584335 0.00072316919 0.019140538 0.00066893362 0.019241042 0.99881744 -0.037080199
539800000 0.99883819 -0.038403571 0.00072231144 0.019520024 0.00075117662 0.019662721 0.99863964 -0.037798643
549796226.41509 0.99866641 -0.039260745 0.00077344477 0.019917235 0.00077795424 0.0200247 0.99839437 -0.038338065
559792452.83019 0.99829227 -0.040148228 0.00084781926 0.020219924 0.00083326362 0.02037432 0.99833453 -0.038942188
569788679.24528 0.99816507 -0.040698826 0.00085081579 0.020615105 0.00081925048 0.020754747 0.99842215 -0.039667487
579784905.66038 0.99814945 -0.041329056 0.00085260603 0.020988686 0.00086561171 0.021117363 0.99865848 -0.040385813
589781132.07547 0.9982456 -0.042064846 0.00095454883 0.021338461 0.00092391483 0.021501221 0.99871719 -0.041333407
599777358.49057 0.99846959 -0.042770237 0.00093185715 0.021704331 0.00095375068 0.021877762 0.9987644 -0.04221499
609773584.90566 0.9986279 -0.043549448 0.0010047198 0.022072909 0.00097959605 0.022250833 0.99860299 -0.043119665
619769811.32075 0.99873543 -0.044313461 0.0010750946 0.022417666 0.0010736752 0.022594122 0.99849719 -0.043621808
629766037.73585 0.99844646 -0.044937313 0.001111934 0.022705957 0.0010920623 0.022872683 0.99822634 -0.044151127
639762264.15094 0.99821216 -0.045659021 0.0010880285 0.023038313 0.0010943387 0.023234783 0.99807107 -0.04467015
649758490.56604 0.99810064 -0.046247035 0.0011000345 0.023440523 0.0011098562 0.023598764 0.9981398 -0.045078978
659754716.98113 0.99784207 -0.046772122 0.0010991804 0.023809435 0.0011639884 0.023942929 0.99821484 -0.045755833
669750943.39623 0.99785268 -0.047185004 0.0011293227 0.024211567 0.0011527361 0.024361681 0.99828017 -0.046583802
679747169.81132 0.99792463 -0.048037048 0.0012233679 0.024608664 0.0011836009 0.024712918 0.99824661 -0.047565158
689743396.22642 0.99813271 -0.048991859 0.0012932541 0.024941459 0.0012545604 0.025108067 0.99806142 -0.04851231
699739622.64151 0.99827695 -0.049834579 0.0012998721 0.025279362 0.0012811469 0.025395155 0.997998 -0.049291283
709735849.0566 0.99830496 -0.050697908 0.0013509581 0.025649667 0.0013398897 0.025795994 0.99769562 -0.050011002
719732075.4717 0.99812949 -0.051480353 0.0013697399 0.025982246 0.0014136173 0.026105141 0.99777091 -0.050558776
729728301.88679 0.99792522 -0.052011639 0.0014113029 0.026306447 0.0014297925 0.026482498 0.99777591 -0.051045001
739724528.30189 0.99783385 -0.052562326 0.0014602677 0.026677666 0.0014455128 0.026826609 0.99806881 -0.051679567
749720754.71698 0.99773449 -0.053139046 0.001493114 0.027012078 0.0015220391 0.027162157 0.99802434 -0.052433133
759716981.13208 0.99772859 -0.053690135 0.0015398879 0.027378771 0.0015307488 0.027548993 0.99801886 -0.053251684
769713207.54717 0.99766183 -0.054499298 0.0015941216 0.027719345 0.0015679607 0.027926391 0.99774396 -0.053975135
779709433.96226 0.99790335 -0.055174656 0.0015894892 0.028079731 0.0016154269 0.028253844 0.99748647 -0.054633219
789705660.37736 0.99775308 -0.056148827 0.0016889749 0.028410448 0.00164109 0.028569205 0.99722308 -0.055413902
799701886.79245 0.99764955 -0.056951672 0.0016942741 0.028766073 0.001683671 0.028932039 0.99714583 -0.056026399
809698113.20755 0.99755883 -0.057662964 0.0016980176 0.029090093 0.0017053378 0.029321544 0.99717581 -0.056507617
819694339.62264 0.99739224 -0.058347896 0.0017486704 0.02945956 0.001720997 0.02968451 0.99731207 -0.057176501
829690566.03774 0.99739891 -0.058981568 0.0017695995 0.02981383 0.0017971434 0.029999789 0.99760938 -0.058110774
839686792.45283 0.99746811 -0.05939135 0.0018182695 0.030182317 0.0018276926 0.030363094 0.99761307 -0.058950394
849683018.86792 0.99765891 -0.060035452 0.0018254197 0.030534253 0.0018436965 0.030765051 0.99747074 -0.059729934
859679245.28302 0.99761128 -0.060840219 0.0018762117 0.030887701 0.0019123321 0.031075114 0.99721479 -0.060402513
869675471.69811 0.99753052 -0.061675459 0.0019703321 0.031218812 0.0019538095 0.031421881 0.99679035 -0.060950518
879671698.11321 0.99737591 -0.062399589 0.0019826486 0.031582441 0.0019963481 0.031814419 0.99674159 -0.061422653
889667924.5283 0.9972384 -0.063271374 0.0020221621 0.031934161 0.0020361766 0.032157198 0.99657106 -0.062036574
899664150.9434 0.99694079 -0.063998401 0.0020575682 0.032272644 0.002057814 0.032501061 0.99671507 -0.062661588
909660377.35849 0.99691373 -0.064716667 0.0020908229 0.032622878 0.0021240423 0.032812838 0.99678153 -0.063556463
919656603.77358 0.99699873 -0.065380201 0.0021427749 0.03295536 0.0021509011 0.033204589 0.99681818 -0.064574927
929652830.18868 0.99702048 -0.066173583 0.0021979576 0.033318412 0.0021607671 0.033521112 0.99660826 -0.065482616
939649056.60377 0.99722552 -0.066800863 0.0021923846 0.033632126 0.0021967292 0.033863373 0.99649113 -0.066256672
949645283.01887 0.99718136 -0.067724824 0.0021802648 0.034016304 0.0021811423 0.03424171 0.9962582 -0.066821843
959641509.43396 0.99705285 -0.06834954 0.0022139698 0.03440097 0.002256332 0.034621798 0.99618083 -0.06733042
969637735.84906 0.99699426 -0.069123775 0.002320718 0.034761786 0.002309652 0.035009757 0.99618399 -0.067713022
979633962.26415 0.99679404 -0.069893211 0.002345084 0.035105407 0.0023660318 0.035342019 0.99622011 -0.068393819
989630188.67925 0.99679905 -0.070454955 0.0023854868 0.03542804 0.0024068626 0.035721146 0.99637693 -0.069028199
999626415.09434 0.99684888 -0.071130395 0.0023937412 0.035813909 0.0024402738 0.036088966 0.99634314 -0.069934189
1009622641.5094 0.99689263 -0.071779728 0.0024620984 0.036181971 0.0024904795 0.036437247 0.99613696 -0.070833281
1019618867.9245 0.99688268 -0.072702765 0.0025235126 0.036552906 0.0026032198 0.036795035 0.99582845 -0.071685731
1029615094.3396 0.9969067 -0.073736787 0.0025955252 0.036873151 0.0026450027 0.037152536 0.99547327 -0.072321653
1039611320.7547 0.99694026 -0.074685961 0.0026418064 0.037201602 0.0026551904 0.037486956 0.99539351 -0.072989732
1049607547.1698 0.99676925 -0.075548217 0.0026985521 0.037516385 0.0026938785 0.037803479 0.99535841 -0.073602393
1059603773.5849 0.99653172 -0.076299071 0.0027385149 0.037850499 0.002743287 0.038161017 0.99532497 -0.074231088
1069600000 0.99639344 -0.076846063 0.0027065072 0.038195018 0.0027674437 0.038501091 0.99554098 -0.07491684
1079596226.4151 0.99628806 -0.077554472 0.0027486198 0.038555391 0.0027933428 0.038822956 0.99547666 -0.075724304
1089592452.8302 0.99634159 -0.078206122 0.0027860459 0.038915381 0.0028182063 0.039212916 0.99539256 -0.076494217
1099588679.2453 0.99635184 -0.078919441 0.0027866717 0.039250731 0.0028838795 0.039573625 0.99504876 -0.07716465
1109584905.6604 0.99647319 -0.079847932 0.0028212508 0.039628748 0.0028934916 0.039947461 0.99482399 -0.077736631
1119581132.0755 0.99647707 -0.080785841 0.002866515 0.040009577 0.0029282612 0.040304311 0.99458212 -0.07821086
1129577358.4906 0.99626327 -0.081647187 0.002880387 0.040402293 0.0029851384 0.04070827 0.99452066 -0.078635693
1139573584.9057 0.99595559 -0.082641184 0.0029646233 0.04078101 0.0030420506 0.041037697 0.99453497 -0.079445332
1149569811.3208 0.99580306 -0.083521746 0.0030375682 0.041094914 0.0030963339 0.041416399 0.99468726 -0.080182359
1159566037.7358 0.99562865 -0.084172547 0.0031006876 0.04145731 0.003188435 0.041732714 0.99479449 -0.081244677
1169562264.1509 0.99542469 -0.084806979 0.0030991603 0.04176515 0.0031919256 0.042079657 0.99463266 -0.08209464
1179558490.566 0.99534613 -0.085624442 0.0031345917 0.042183906 0.0032093686 0.042512629 0.99440897 -0.082832053
1189554716.9811 0.99536753 -0.086288571 0.0031557465 0.042537276 0.003272024 0.042839907 0.99418825 -0.083312601
1199550943.3962 0.99523145 -0.087263793 0.003177518 0.042920753 0.0033291169 0.043194689 0.9939608 -0.083804756
1209547169.8113 0.99504918 -0.088152438 0.0032565016 0.043283496 0.0033874074 0.043524712 0.99387354 -0.084197015
1219543396.2264 0.99490964 -0.088972397 0.003318903 0.043670502 0.0034476505 0.043937147 0.99396223 -0.084553152
1229539622.6415 0.99459791 -0.089909643 0.0034102816 0.044024739 0.0035282634 0.044356816 0.99406731 -0.085291922
1239535849.0566 0.99434769 -0.090551406 0.0034592468 0.044388279 0.003586554 0.044632215 0.99414247 -0.086308539
1249532075.4717 0.99403399 -0.091321483 0.0035198522 0.044731271 0.00367892 0.044984758 0.99394196 -0.087138668
1259528301.8868 0.99374914 -0.091865838 0.003621541 0.045047313 0.0037373435 0.04537819 0.99374616 -0.088127792
1269524528.3019 0.99361408 -0.092621952 0.0036540329 0.045417495 0.0038256273 0.045633134 0.99346316 -0.088768095
1279520754.717 0.99320734 -0.093345284 0.0037393328 0.045701563 0.0038431303 0.045978136 0.99318379 -0.08939033
1289516981.1321 0.99314362 -0.094316602 0.003789397 0.046030037 0.0038951952 0.046282023 0.99330479 -0.089790225
1299513207.5472 0.99279213 -0.095090628 0.0037825815 0.046336923 0.0039064828 0.046643578 0.99337375 -0.090193331
1309509433.9623 0.99225587 -0.095754609 0.0038020527 0.046694573 0.0039392095 0.046974353 0.99346888 -0.090944856
1319505660.3774 0.99187189 -0.096578151 0.0038207881 0.047055896 0.0039373757 0.047285099 0.99342459 -0.091708943
1329501886.7925 0.99156618 -0.097267717 0.0038511921 0.047414463 0.0039542969 0.04765306 0.99340117 -0.092661709
1339498113.2075 0.99127036 -0.097706646 0.003895171 0.047762036 0.0040233042 0.047987796 0.99303102 -0.093454897
1349494339.6226 0.99106747 -0.098437756 0.0038707699 0.04816651 0.003978462 0.048378989 0.99263591 -0.094034828
1359490566.0377 0.99102545 -0.099038541 0.0039003901 0.048547342 0.0040289424 0.048736997 0.99236929 -0.094533682
1369486792.4528 0.99079388 -0.099571109 0.0039170049 0.048923239 0.0040108301 0.049137995 0.99217957 -0.095105499
1379483018.8679 0.99052602 -0.10027478 0.0039212974 0.049316712 0.0040535517 0.049517497 0.99215472 -0.095517486
1389479245.283 0.99003541 -0.10078993 0.0040224809 0.049698625 0.004105797 0.049937814 0.99217564 -0.096165717
1399475471.6981 0.98971945 -0.10118824 0.0040390752 0.0501028 0.0041019563 0.050329078 0.99232781 -0.096865594
1409471698.1132 0.98934996 -0.10152116 0.0040510269 0.05047645 0.0041548531 0.050747026 0.99236131 -0.097792596
1419467924.5283 0.98921257 -0.10188529 0.0041190032 0.050890803 0.0042296853 0.051114656 0.9922362 -0.098446548
1429464150.9434 0.98902774 -0.10220665 0.0041658729 0.051345233 0.0042370036 0.051524092 0.99202234 -0.099002361
1439460377.3585 0.9891569 -0.10271788 0.0042424472 0.05177987 0.0043002237 0.052015968 0.99180543 -0.099411502
1449456603.7736 0.98922163 -0.10335171 0.0043549342 0.05222724 0.004412313 0.052402165 0.99165738 -0.099765927
1459452830.1887 0.98911035 -0.10414255 0.0045116674 0.052660517 0.0045118704 0.05286102 0.991781 -0.1001015
1469449056.6038 0.98912281 -0.10492337 0.0046829544 0.053015076 0.0047273822 0.05323891 0.99202347 -0.10085276
1479445283.0189 0.98898959 -0.10549262 0.0048325262 0.053328268 0.0048640408 0.053572033 0.99198079 -0.10173452
1489441509.434 0.98889101 -0.10599959 0.0049819518 0.053660024 0.0049909297 0.053900227 0.99194229 -0.10269779
1499437735.8491 0.98872197 -0.10635531 0.0051095914 0.053975284 0.0051440373 0.054221783 0.99179703 -0.10354394
1509433962.2642 0.9887864 -0.10685995 0.0052079959 0.054242712 0.0051904088 0.054508243 0.9915607 -0.10422213
1519430188.6792 0.98876309 -0.10744938 0.0052520204 0.054571446 0.0052598864 0.054818906 0.99145257 -0.10486597
1529426415.0943 0.98881763 -0.10803437 0.0053273644 0.054869376 0.0052947998 0.05510598 0.99132681 -0.10527921
1539422641.5094 0.98882252 -0.10902004 0.0054074419 0.055231843 0.005360262 0.055480585 0.99142224 -0.10582856
1549418867.9245 0.98869735 -0.10983428 0.0054775104 0.055528358 0.0054549035 0.055762082 0.99160641 -0.10653406
1559415094.3396 0.9884119 -0.11052755 0.0055318195 0.05585409 0.0055083018 0.056084275 0.9917351 -0.10728478
1569411320.7547 0.98830515 -0.11140707 0.0056032045 0.056114972 0.0055742571 0.05642711 0.99162757 -0.10812365
1579407547.1698 0.98823768 -0.11188235 0.0056299679 0.056397211 0.0055801068 0.056723863 0.99120903 -0.10902323
1589403773.5849 0.98820686 -0.1124751 0.0056372397 0.056773737 0.0055929497 0.057017401 0.99102962 -0.10978228
1599400000 0.98809528 -0.11291215 0.0056055374 0.057088826 0.0056348201 0.057382017 0.99062383 -0.11027107
1609396226.4151 0.98813576 -0.11371499 0.0056111645 0.057447173 0.0056315325 0.057707459 0.99045664 -0.11067376
1619392452.8302 0.98805726 -0.11434251 0.0056970362 0.057782974 0.0056156274 0.058094874 0.99041724 -0.11121082
1629388679.2453 0.98789167 -0.11505538 0.0056600589 0.058179107 0.0056027398 0.058495119 0.99056852 -0.11182457
1639384905.6604 0.98762107 -0.11577588 0.0056702276 0.058563463 0.0056636119 0.058892421 0.99084938 -0.11263249
1649381132.0755 0.98731911 -0.11643428 0.0057301689 0.058948312 0.0057028402 0.059282593 0.99083042 -0.11364615
1659377358.4906 0.98711026 -0.11720851 0.0057451539 0.059336279 0.0057463665 0.05973145 0.99079102 -0.11455265
1669373584.9057 0.9871102 -0.11767451 0.0057851155 0.059738934 0.0057511064 0.060127351 0.99043912 -0.1152277
1679369811.3208 0.98710579 -0.11846398 0.0058425609 0.060191646 0.0058435164 0.060521591 0.99017411 -0.11573946
1689366037.7358 0.98708999 -0.119059 0.0058973152 0.060525909 0.0059032813 0.060928889 0.99002314 -0.11604401
1699362264.1509 0.987275 -0.11972573 0.0060254708 0.060951825 0.0059828414 0.061343979 0.99017203 -0.11656421
1709358490.566 0.98716348 -0.12037696 0.0060548875 0.061345875 0.0060658231 0.06176459 0.99018234 -0.1170698
1719354716.9811 0.98678869 -0.12111703 0.0061466638 0.061741307 0.006122835 0.062145535 0.99019539 -0.11791301
1729350943.3962 0.98645592 -0.12158817 0.0062367469 0.062179424 0.0062326528 0.06254559 0.99013615 -0.11880463
