!Keysight Technologies,N5222B,MY61253708,A.15.00.15
!Date: Wednesday, June 19, 2024 08:55:24
!Correction: S11(C  2-Port  ) 
!S21(C  2-Port  ) 
!S12(C  2-Port  ) 
!S22(C  2-Port  ) 
!S2P File: Measurements: S11, S21, S12, S22:
# Hz S  RI   R 50
10000000 0.99869126 -0.0021057129 0.00032800139 -0.00017861192 0.00016177539 0.00014099495 0.99867463 -0.00069308281
19996226.415094 0.99913311 -0.0021100938 2.031523e-005 0.00078926049 0.00013530196 0.00076428941 0.99931169 -0.0021239817
29992452.830189 0.99979538 -0.0024985671 2.5836023e-005 0.001080537 3.0516414e-005 0.0011129357 0.99955863 -0.0026763678
39988679.245283 1.0000275 -0.0031172037 6.9747184e-005 0.0014280281 2.4924855e-005 0.0014668814 0.99965364 -0.0032840222
49984905.660377 1.0002186 -0.0039268732 1.6892911e-005 0.0018113737 4.0115032e-005 0.001842604 0.99981165 -0.0038461089
59981132.075472 1.0002509 -0.0047305822 -3.5546836e-006 0.0021890942 9.9102035e-006 0.0021595396 0.99975324 -0.0043854713
69977358.490566 1.0000051 -0.0053349584 1.2100441e-005 0.0025067504 2.8163893e-005 0.002533135 0.99959606 -0.0048852675
79973584.90566 0.99977934 -0.0058725774 -6.4789783e-006 0.002886838 2.4453038e-006 0.0029071562 0.9993372 -0.0054940581
89969811.320755 0.9998067 -0.0061745048 -1.1189026e-005 0.0032508182 2.0266394e-005 0.0032616977 0.99951184 -0.0058585405
99966037.735849 0.99994582 -0.0068915784 -4.0816376e-006 0.0036003103 2.3392786e-005 0.0036368924 0.99960893 -0.0066261142
109962264.15094 1.0000672 -0.0078848898 4.1130697e-005 0.0039605666 5.6539546e-005 0.0039761513 0.99958146 -0.0074617118
119958490.56604 1.0001024 -0.008902818 5.056872e-005 0.0043265391 5.3211115e-005 0.0043575247 0.99963129 -0.0084065497
129954716.98113 1.0000163 -0.0099751949 5.3493772e-005 0.0046911193 5.0589791e-005 0.0046994337 0.99961615 -0.0093776882
139950943.39623 0.99995297 -0.010816159 5.8654128e-005 0.0050371792 4.1770661e-005 0.0050578625 0.99954504 -0.010163443
149947169.81132 0.99979615 -0.011493415 8.266978e-005 0.0053909468 6.503961e-005 0.0054184841 0.99945217 -0.010777444
159943396.22642 0.9997803 -0.011999369 7.0723938e-005 0.0057587833 5.0903531e-005 0.0057838536 0.9995535 -0.011247873
169939622.64151 0.99978 -0.012400396 7.932767e-005 0.006112047 8.4727944e-005 0.0061748573 0.9996084 -0.011694655
179935849.0566 0.99985433 -0.012615442 9.0148416e-005 0.0064655412 0.0001142032 0.0065181423 0.9995532 -0.012113899
189932075.4717 0.99996567 -0.013473839 9.6131349e-005 0.0068499427 9.756838e-005 0.0068695624 0.99975091 -0.012785435
199928301.88679 0.99992585 -0.014384538 0.0001336867 0.0072232294 0.00011359993 0.0072237425 0.99966156 -0.013652653
209924528.30189 0.99960154 -0.015160784 0.00012717547 0.0075477865 0.00012765615 0.0075977109 0.99940187 -0.014438957
219920754.71698 0.99965268 -0.016084135 0.00013027294 0.0079104016 0.00014070189 0.0079634227 0.99921799 -0.015191227
229916981.13208 0.99937516 -0.016907215 0.00016367645 0.0082820663 0.00012429012 0.0083324229 0.9991383 -0.015973628
239913207.54717 0.99919456 -0.017582849 0.0001466603 0.0086482503 0.00017380001 0.0086998651 0.99912941 -0.016660428
249909433.96226 0.99932742 -0.018233806 0.00015278882 0.008966689 0.0001797087 0.0090659549 0.99926686 -0.017353624
259905660.37736 0.99944639 -0.018870384 0.00016414421 0.0093377298 0.00019422825 0.0094098933 0.9994185 -0.01799497
269901886.79245 0.99957508 -0.01954034 0.00018927222 0.0097217634 0.00021474296 0.0097638983 0.99979234 -0.018708885
279898113.20755 0.9997462 -0.020268485 0.00026156381 0.010067296 0.00020348001 0.010154291 0.9996227 -0.019436359
289894339.62264 0.99973416 -0.021019846 0.00023885444 0.010418191 0.00017479481 0.010432446 0.99951816 -0.02029559
299890566.03774 0.99963176 -0.021673888 0.00024107168 0.010733472 0.00018857094 0.01088378 0.99930501 -0.020718038
309886792.45283 0.99930531 -0.022257172 0.00031646644 0.011141074 0.00026935036 0.011246347 0.9991895 -0.021276332
319883018.86792 0.99917328 -0.022845417 0.00030996278 0.011504717 0.00031812675 0.011551967 0.99918151 -0.021709204
329879245.28302 0.9991864 -0.023577392 0.00028569857 0.011864552 0.0003045653 0.011950223 0.99924147 -0.022487015
339875471.69811 0.99908417 -0.02435793 0.00031759008 0.012172979 0.00030552072 0.012306721 0.99926752 -0.023350187
349871698.11321 0.999327 -0.025219649 0.00033485796 0.012546956 0.0002958437 0.012613901 0.99920875 -0.024267495
359867924.5283 0.99924195 -0.026081949 0.0003837957 0.012912147 0.0003417274 0.013036342 0.99923384 -0.025267959
369864150.9434 0.9993521 -0.026976019 0.00037843408 0.013327234 0.00038110907 0.013357613 0.99927229 -0.026003271
379860377.35849 0.99931741 -0.027656049 0.00040912139 0.013672246 0.00036720093 0.01368056 0.99907821 -0.026712745
389856603.77358 0.99918145 -0.028279364 0.00045249471 0.013961193 0.00043135229 0.014091153 0.9991411 -0.027192146
399852830.18868 0.99911767 -0.02882576 0.00043093553 0.014351318 0.00043154974 0.014436711 0.9991529 -0.027681619
409849056.60377 0.99901718 -0.029295607 0.00045331268 0.014718506 0.00046069824 0.014798985 0.99916071 -0.028163599
419845283.01887 0.99898213 -0.029746592 0.00047661969 0.015078989 0.00045219949 0.01519028 0.99921405 -0.02878648
429841509.43396 0.99907112 -0.030440301 0.00050808489 0.01543236 0.00049079629 0.01554691 0.9992891 -0.029489189
439837735.84906 0.99899393 -0.03141728 0.00056609837 0.015781268 0.00054561789 0.01588382 0.99918586 -0.030505389
449833962.26415 0.9989146 -0.032240242 0.0005348227 0.01608789 0.0005501993 0.01623388 0.99875313 -0.03142488
459830188.67925 0.9987911 -0.033056885 0.0005369084 0.016494039 0.00052664895 0.016575973 0.99866569 -0.03215757
469826415.09434 0.99870771 -0.033993989 0.00058541307 0.016846159 0.00057497155 0.016953539 0.99841434 -0.032819808
479822641.50943 0.99864644 -0.03461311 0.00059539941 0.01724346 0.00059568486 0.017357994 0.99845856 -0.033288293
489818867.92453 0.99864423 -0.035187691 0.00061803497 0.017574113 0.00061039347 0.017679464 0.99873126 -0.033834726
499815094.33962 0.9988603 -0.035740048 0.00067025842 0.017966438 0.00064446265 0.018037047 0.9990409 -0.034450203
509811320.75472 0.99895322 -0.036200248 0.00061594282 0.018246565 0.00066908752 0.018422708 0.9991563 -0.035341933
519807547.16981 0.99882412 -0.036865234 0.00072256383 0.018670511 0.00069868844 0.018736035 0.99913883 -0.036113173
529803773.58491 0.99874794 -0.037518531 0.00068384036 0.01898016 0.00069683883 0.019104419 0.99885112 -0.036822319
539800000 0.99888569 -0.038227528 0.00070258952 0.019357469 0.00073485635 0.019492203 0.99867398 -0.037559196
549796226.41509 0.99852937 -0.039165854 0.00076528685 0.019711643 0.00078190491 0.019868452 0.99849731 -0.038048834
559792452.83019 0.99838245 -0.039864004 0.00080601219 0.020084504 0.00082451012 0.020212337 0.99841005 -0.038574487
569788679.24528 0.99822259 -0.040688932 0.00078738574 0.020425787 0.00085158506 0.020582344 0.99846208 -0.039307147
579784905.66038 0.99819541 -0.041227236 0.00085550291 0.020819912 0.00085819443 0.020918801 0.99863541 -0.040079832
589781132.07547 0.99834776 -0.041958064 0.00091238506 0.02118797 0.00087982602 0.021362241 0.99873865 -0.041045487
599777358.49057 0.99840617 -0.042501748 0.00096502993 0.021538185 0.00093102455 0.021679359 0.99876285 -0.041872442
609773584.90566 0.99865216 -0.043408506 0.00092573155 0.021859074 0.00099518267 0.022074621 0.99863797 -0.042759396
619769811.32075 0.99862748 -0.044093728 0.0010659117 0.022228308 0.001057798 0.022370113 0.99853504 -0.043350667
629766037.73585 0.99848592 -0.044701934 0.001079604 0.022544738 0.0011291252 0.022721542 0.99833083 -0.043869704
639762264.15094 0.99823308 -0.045380488 0.0010661532 0.02290255 0.001081045 0.023046933 0.99819899 -0.044325069
649758490.56604 0.99814641 -0.046138018 0.0010967627 0.023230726 0.0010592747 0.023393853 0.99823713 -0.044776559
659754716.98113 0.99795991 -0.046536148 0.0010927264 0.023589106 0.0011226153 0.023786327 0.99827719 -0.045382559
669750943.39623 0.99792874 -0.0470604 0.0011594365 0.02400998 0.00111369 0.024136797 0.99836755 -0.046165138
679747169.81132 0.99796116 -0.047846746 0.0011812063 0.024361119 0.0011604009 0.024509775 0.99817634 -0.047206216
689743396.22642 0.99811709 -0.048761785 0.0012051445 0.024760503 0.0012318157 0.024916451 0.99808061 -0.048175305
699739622.64151 0.99827683 -0.049637586 0.0012696292 0.025063062 0.001255692 0.025225099 0.99807084 -0.048944205
709735849.0566 0.99818623 -0.050512031 0.0013186098 0.025423365 0.0012995098 0.025552703 0.99778795 -0.049567454
719732075.4717 0.99809778 -0.051249564 0.0013566744 0.025750276 0.0013819821 0.025916386 0.99789673 -0.050124258
729728301.88679 0.9980368 -0.051793754 0.0014084401 0.026069142 0.0014073579 0.02627565 0.99790168 -0.050631434
739724528.30189 0.9978357 -0.052436784 0.0014069364 0.02645693 0.0014367024 0.026631322 0.99808073 -0.051330522
749720754.71698 0.99773061 -0.052980676 0.0014892551 0.026781397 0.0014687954 0.027000122 0.99805307 -0.052031428
759716981.13208 0.99777925 -0.053434521 0.0015103249 0.027106293 0.0015184591 0.027311269 0.99804902 -0.052859694
769713207.54717 0.99769044 -0.054234713 0.0015579863 0.02748175 0.0015546232 0.027675409 0.99781126 -0.053600013
779709433.96226 0.99790788 -0.054903194 0.0015682576 0.027858989 0.0016030401 0.028023748 0.99753529 -0.054296143
789705660.37736 0.99769127 -0.055984169 0.0016055889 0.02819255 0.0016155019 0.028382143 0.9972598 -0.055010349
799701886.79245 0.99762994 -0.056774527 0.0016764291 0.02854781 0.0016229292 0.028752767 0.99721324 -0.055689007
809698113.20755 0.99766284 -0.057394981 0.0016804067 0.02886023 0.0016624043 0.029095171 0.99718672 -0.056154534
819694339.62264 0.99747926 -0.05803284 0.0016934075 0.029213766 0.0017061979 0.029446192 0.99730414 -0.056780159
829690566.03774 0.9974544 -0.058735341 0.0017585168 0.029584229 0.0017489474 0.02977379 0.9975847 -0.05768761
839686792.45283 0.99752235 -0.059092611 0.0017709201 0.029915623 0.0018124925 0.030128172 0.99772656 -0.058610648
849683018.86792 0.99769884 -0.059860691 0.001832372 0.03029573 0.001821555 0.030495899 0.99752694 -0.059385583
859679245.28302 0.99774563 -0.06060636 0.0018286742 0.030618958 0.0018555084 0.030845005 0.99720675 -0.060022384
869675471.69811 0.99754184 -0.061445713 0.0018846095 0.031011228 0.0018911548 0.031195484 0.99684614 -0.060568571
879671698.11321 0.99747211 -0.062130086 0.001957644 0.031308342 0.0019608461 0.031543918 0.99682766 -0.060970575
889667924.5283 0.99720198 -0.063003272 0.0019761352 0.031625912 0.0019924184 0.031848945 0.99668717 -0.061542511
899664150.9434 0.99701905 -0.063727498 0.0020005563 0.031998873 0.0020215372 0.032218989 0.99677259 -0.062198877
909660377.35849 0.99701875 -0.064453483 0.0020743539 0.032328434 0.0020653829 0.032596249 0.99689186 -0.063190416
919656603.77358 0.99712783 -0.065158129 0.0020750798 0.032697216 0.0020948411 0.032927919 0.99688339 -0.064064279
929652830.18868 0.99707657 -0.065851808 0.002113333 0.03302817 0.0021262625 0.033276692 0.99671632 -0.065045059
939649056.60377 0.99736249 -0.066523403 0.0021313811 0.033357501 0.0021233745 0.033617657 0.99652159 -0.065773427
949645283.01887 0.99722952 -0.067453906 0.0021578113 0.033728089 0.0021761435 0.033975288 0.99633557 -0.066299826
959641509.43396 0.99713588 -0.068120122 0.0021789866 0.034145832 0.0022014938 0.034357511 0.99623656 -0.066877395
969637735.84906 0.99701124 -0.068842232 0.0022516008 0.034481041 0.002262759 0.034720797 0.99626631 -0.067190111
979633962.26415 0.99685758 -0.069614284 0.0023340485 0.034803685 0.0022959779 0.035082243 0.99628174 -0.067882702
989630188.67925 0.99687529 -0.070173711 0.0023455899 0.035182852 0.0023460556 0.035447009 0.99645871 -0.068561405
999626415.09434 0.99692369 -0.070870817 0.0023686178 0.035517536 0.0023978818 0.035780892 0.99642193 -0.069418281
1009622641.5094 0.99695992 -0.071537733 0.0023993691 0.035894614 0.0024560094 0.03616048 0.99622536 -0.070342109
1019618867.9245 0.99710041 -0.072426349 0.0024656071 0.036249291 0.0025478369 0.036522485 0.99592268 -0.071184859
1029615094.3396 0.99698067 -0.073426217 0.0025557894 0.036586612 0.0025981721 0.036847264 0.99554574 -0.071820706
1039611320.7547 0.99704933 -0.074379712 0.0025957851 0.036913104 0.0025982559 0.037169144 0.99544609 -0.07253179
1049607547.1698 0.99679065 -0.07528989 0.0026403842 0.03725278 0.002623958 0.037516296 0.99548942 -0.073049277
1059603773.5849 0.99662346 -0.076019466 0.0026586642 0.037540615 0.0026958641 0.03787652 0.99546689 -0.073706716
1069600000 0.99638987 -0.076621801 0.0026598927 0.037868895 0.0027332306 0.038214684 0.99558866 -0.074451417
1079596226.4151 0.99630225 -0.077304631 0.0026993458 0.038237128 0.0027652779 0.038540926 0.9956004 -0.075253412
1089592452.8302 0.99639988 -0.07796061 0.0027240021 0.038610063 0.0027794614 0.038903821 0.99550796 -0.07598418
1099588679.2453 0.99638307 -0.078682244 0.0027422626 0.038922101 0.0028094538 0.039241057 0.99522549 -0.076613933
1109584905.6604 0.99661595 -0.079521105 0.0027597323 0.03929884 0.0028522797 0.039620452 0.99490142 -0.07722038
1119581132.0755 0.99641192 -0.080531351 0.0027748644 0.039666265 0.0028651026 0.040000699 0.99472964 -0.077704497
1129577358.4906 0.99628562 -0.08137551 0.0028431565 0.040072862 0.0029293764 0.040397272 0.9945606 -0.078163803
1139573584.9057 0.99610734 -0.082380801 0.0028957985 0.040414441 0.0029718354 0.040713392 0.99470484 -0.078838229
1149569811.3208 0.99588054 -0.083204269 0.0029692475 0.040778715 0.0030478865 0.041071691 0.99480909 -0.079649717
1159566037.7358 0.99568546 -0.08393988 0.0030232687 0.041093711 0.003091123 0.041408561 0.99488217 -0.08071956
1169562264.1509 0.99554443 -0.084499896 0.0030006915 0.041431613 0.003142532 0.041774437 0.99471176 -0.081501991
1179558490.566 0.99548858 -0.085293457 0.0029968505 0.041805591 0.0031742223 0.042168118 0.99452972 -0.082221083
1189554716.9811 0.99549603 -0.086052269 0.0030968562 0.042198792 0.0032050321 0.042521581 0.99425679 -0.082766265
1199550943.3962 0.99537301 -0.086867332 0.0031370986 0.042570852 0.0032642316 0.042899705 0.9940635 -0.083126396
1209547169.8113 0.99519581 -0.087778226 0.0031869346 0.04291638 0.0032942239 0.043230452 0.99395943 -0.083566636
1219543396.2264 0.99499989 -0.088639848 0.0032464308 0.043282181 0.0033796215 0.043634485 0.99410462 -0.083947137
1229539622.6415 0.99475747 -0.089616328 0.0033233594 0.043641619 0.0034309607 0.043997183 0.9941479 -0.084745765
1239535849.0566 0.99447203 -0.090347379 0.0034119338 0.043983512 0.0035319794 0.044288848 0.99425381 -0.085719496
1249532075.4717 0.99400711 -0.090930969 0.0034458588 0.044347927 0.0036146995 0.044651888 0.99407423 -0.086567298
1259528301.8868 0.9938888 -0.091524959 0.0035073292 0.044702008 0.003651714 0.045000821 0.99380642 -0.087503195
1269524528.3019 0.99370009 -0.092284024 0.003623208 0.045016542 0.0037607625 0.045334496 0.99354094 -0.088239193
1279520754.717 0.99337775 -0.093002394 0.0036644363 0.045323152 0.0037697104 0.045611344 0.99327701 -0.088713244
1289516981.1321 0.9931944 -0.093895286 0.0036697527 0.045651853 0.0038176319 0.045908984 0.99334556 -0.089200437
1299513207.5472 0.9928292 -0.094751984 0.0036979001 0.046012536 0.0038418807 0.046258669 0.99354327 -0.089553446
1309509433.9623 0.9924227 -0.095515504 0.0037062103 0.046302229 0.0038500465 0.046595056 0.99360585 -0.090355948
1319505660.3774 0.99201107 -0.096198991 0.0037071779 0.046669677 0.0038550589 0.046916768 0.993608 -0.090982661
1329501886.7925 0.99172378 -0.096885949 0.0037561487 0.047010314 0.003939094 0.047292896 0.99361515 -0.092011869
1339498113.2075 0.99142098 -0.097366244 0.0038162293 0.047363639 0.0039377008 0.047629133 0.99313521 -0.092779845
1349494339.6226 0.99121207 -0.098030485 0.003814423 0.047740996 0.0039254525 0.048009038 0.99278754 -0.093437113
1359490566.0377 0.99114728 -0.098652571 0.003835652 0.048175771 0.0039344523 0.048370406 0.99257463 -0.093915194
1369486792.4528 0.99085963 -0.099166721 0.0038121976 0.04852318 0.0039714705 0.048717581 0.99237484 -0.094454736
1379483018.8679 0.99062186 -0.099926278 0.0038313158 0.04889727 0.0039836341 0.04914413 0.99240619 -0.094828479
1389479245.283 0.99030328 -0.10039863 0.0039294027 0.049302012 0.0040354561 0.049521711 0.99232513 -0.09554404
1399475471.6981 0.98979384 -0.1008229 0.0039533917 0.049688578 0.004063949 0.049912009 0.9925133 -0.096236736
1409471698.1132 0.98948854 -0.10110815 0.0040166313 0.050058499 0.0040842779 0.050298162 0.99262887 -0.097064108
1419467924.5283 0.98926216 -0.10149479 0.0040165661 0.050470412 0.0041076019 0.050734252 0.99231595 -0.097827792
1429464150.9434 0.98912191 -0.10188821 0.0040673744 0.050912552 0.0041716006 0.051160477 0.99219131 -0.098367989
1439460377.3585 0.98932731 -0.10240005 0.0041852277 0.051392097 0.0042260066 0.051627923 0.99196994 -0.098737985
1449456603.7736 0.98930335 -0.10299273 0.0042627957 0.051806014 0.0043062838 0.052035049 0.99183041 -0.099092543
1459452830.1887 0.98928356 -0.10378706 0.0044335127 0.052224882 0.0044679809 0.052466918 0.9919706 -0.099480778
1469449056.6038 0.98930752 -0.10446388 0.0046211854 0.052617036 0.0046394225 0.052838687 0.99214351 -0.10017902
1479445283.0189 0.9891333 -0.10517517 0.004715147 0.052905817 0.00474774 0.053114403 0.99219292 -0.10106712
1489441509.434 0.98906827 -0.10571614 0.0048574898 0.053276986 0.0048921723 0.053479854 0.99210477 -0.10196227
1499437735.8491 0.98884356 -0.10604104 0.0050219018 0.053552605 0.0050188098 0.053768348 0.99197668 -0.10286069
1509433962.2642 0.98880899 -0.1065083 0.0050947713 0.053837743 0.0050799204 0.054103222 0.99172133 -0.10365722
1519430188.6792 0.98892283 -0.10707235 0.0051527079 0.054126322 0.0051806383 0.054362331 0.99155289 -0.10419714
1529426415.0943 0.98888195 -0.1076549 0.0052123126 0.054419324 0.0052197576 0.054703824 0.99159867 -0.10460225
1539422641.5094 0.98894292 -0.10856891 0.005257736 0.054763209 0.0053026681 0.055034921 0.991615 -0.10508048
1549418867.9245 0.98875451 -0.10942864 0.0053628609 0.055061232 0.0053762002 0.055318028 0.99179196 -0.10583638
1559415094.3396 0.98864424 -0.11017776 0.0054236893 0.05537064 0.0053994283 0.055672843 0.99197179 -0.10642293
1569411320.7547 0.98841512 -0.11102894 0.0054788943 0.055674594 0.0054087667 0.055985928 0.99184453 -0.10734487
1579407547.1698 0.98835301 -0.11160447 0.0055149747 0.055950642 0.005527013 0.056311335 0.99146396 -0.10828976
1589403773.5849 0.98824823 -0.11216518 0.0054962691 0.056266461 0.0055142865 0.056614392 0.99114931 -0.10900432
1599400000 0.98829836 -0.11260459 0.0055164844 0.056603666 0.0054793786 0.056890182 0.99076259 -0.10947829
1609396226.4151 0.98819971 -0.11326602 0.0055030817 0.056985274 0.0054782806 0.057283066 0.99056178 -0.11003746
1619392452.8302 0.98826683 -0.11386919 0.0055529866 0.057334058 0.0055290926 0.057632528 0.99058783 -0.11045924
1629388679.2453 0.98796749 -0.11457974 0.0055428017 0.057710327 0.0055291243 0.058050342 0.99088115 -0.1110158
1639384905.6604 0.98770839 -0.11534917 0.005579629 0.058099296 0.0055392692 0.058439627 0.99107534 -0.11188848
1649381132.0755 0.98758459 -0.11598358 0.0056042131 0.058491021 0.0055782218 0.05884891 0.99111098 -0.11287254
1659377358.4906 0.9872874 -0.11682472 0.0056071728 0.058842409 0.0056415498 0.059246175 0.99103379 -0.11377689
1669373584.9057 0.98719746 -0.11718243 0.005659637 0.059321094 0.0056630187 0.05965396 0.99070603 -0.11441667
1679369811.3208 0.98727649 -0.11795162 0.005739307 0.059675857 0.0057275649 0.060061958 0.9903962 -0.1150701
1689366037.7358 0.98718989 -0.1186929 0.0058254935 0.060065046 0.0057792943 0.060468569 0.99022639 -0.11535153
1699362264.1509 0.98737186 -0.11928825 0.0058980864 0.060460567 0.0058599636 0.060882226 0.99040043 -0.11575933
1709358490.566 0.98730564 -0.1199729 0.0059719356 0.060881343 0.0059495466 0.061270256 0.99037737 -0.1164068
1719354716.9811 0.98691618 -0.12066695 0.0060522184 0.061268453 0.0060176104 0.0616742 0.99047506 -0.11711076
1729350943.3962 0.98654568 -0.12122875 0.0061331745 0.061660323 0.0061293412 0.062067512 0.99043202 -0.11810943
