!Keysight Technologies,N5222B,MY61253708,A.15.00.15
!Date: Wednesday, June 19, 2024 08:48:00
!Correction: S11(C  2-Port  ) 
!S21(C  2-Port  ) 
!S12(C  2-Port  ) 
!S22(C  2-Port  ) 
!S2P File: Measurements: S11, S21, S12, S22:
# Hz S  RI   R 50
10000000 0.99853289 -0.0025218427 -0.00039582897 0.0004506259 0.00029655371 0.00027492057 0.99853039 -0.0010384619
19996226.415094 0.99896884 -0.0021077096 -0.00012787478 0.00065694767 7.9182966e-005 0.00062583538 0.99941075 -0.0021178424
29992452.830189 0.99976367 -0.0025136769 -1.5326397e-005 0.0011511125 -1.0188203e-005 0.0011447306 0.99949688 -0.0028068423
39988679.245283 1.0000854 -0.0032244623 1.14867e-005 0.0014836073 1.9985629e-005 0.0015323937 0.99966246 -0.0032903254
49984905.660377 1.0001855 -0.004014194 3.5352772e-005 0.0018998513 2.3378758e-005 0.0018985951 0.999816 -0.0039974153
59981132.075472 1.0002775 -0.0048653185 1.8366845e-006 0.0022484667 5.3125084e-005 0.0022785664 0.99972719 -0.004463315
69977358.490566 1.0000211 -0.0054472685 3.6349767e-005 0.0026349702 3.1939293e-005 0.0026444602 0.9996292 -0.0050056763
79973584.90566 0.999762 -0.0059356093 -1.9952888e-005 0.003038395 1.1485652e-005 0.0030209625 0.99936545 -0.0055707097
89969811.320755 0.99980474 -0.0062300265 1.509476e-005 0.0033877168 1.9608298e-005 0.0034105426 0.99946702 -0.0059612989
99966037.735849 0.99993926 -0.0070422292 4.7730166e-005 0.0037554728 7.8140874e-006 0.003755003 0.99956638 -0.0067717582
109962264.15094 1.0000138 -0.008027032 4.0031679e-005 0.0041627851 5.0595147e-005 0.0041386932 0.99957544 -0.0076364428
119958490.56604 1.0000702 -0.0090696514 4.1051069e-005 0.0045059407 5.4676784e-005 0.0045349952 0.99959302 -0.008613348
129954716.98113 1.000029 -0.010147005 5.5593788e-005 0.0048818579 7.0911017e-005 0.0049241367 0.99955189 -0.0095956028
139950943.39623 0.99994487 -0.011016982 6.4410953e-005 0.0052636629 6.4458509e-005 0.0052829348 0.99949229 -0.010363279
149947169.81132 0.99973518 -0.011725485 8.5768988e-005 0.0056295646 6.2907115e-005 0.00567172 0.99942493 -0.010985106
159943396.22642 0.99976277 -0.012262225 8.339202e-005 0.0060117994 7.3586358e-005 0.0060505476 0.9994911 -0.011502296
169939622.64151 0.99977392 -0.012631185 9.2786737e-005 0.0063930876 7.9116202e-005 0.0064330217 0.9996109 -0.011971034
179935849.0566 0.99984235 -0.012970269 0.00010460522 0.0067732097 8.5128006e-005 0.0067940587 0.99955976 -0.012414634
189932075.4717 0.9999603 -0.013754785 9.288569e-005 0.0071385456 0.00012743729 0.0071485019 0.99969608 -0.013005376
199928301.88679 0.99992049 -0.014746159 0.00011458457 0.0074725649 0.00010781712 0.0075683501 0.99961793 -0.013995737
209924528.30189 0.99957186 -0.015459105 0.00015681447 0.0078915413 0.00015151524 0.0079206275 0.99938297 -0.014764458
219920754.71698 0.99961501 -0.016364813 0.00017551496 0.0082448591 0.00016391976 0.0083029401 0.99918628 -0.015573502
229916981.13208 0.99930143 -0.017317235 0.00018586498 0.0086326869 0.000167544 0.0086717531 0.99905086 -0.016363323
239913207.54717 0.9991886 -0.01799359 0.00019137809 0.0089966888 0.00017892546 0.0090578338 0.99905115 -0.017063564
249909433.96226 0.99920142 -0.018636316 0.00018830039 0.0093810856 0.00021075364 0.009422861 0.99917275 -0.017765403
259905660.37736 0.99936366 -0.019290328 0.00024375692 0.009748036 0.00017462252 0.0098441299 0.99932122 -0.018364757
269901886.79245 0.99949551 -0.019888803 0.00025504804 0.01010911 0.000229422 0.010174722 0.99973136 -0.019119844
279898113.20755 0.99955302 -0.020625442 0.00024794787 0.010486979 0.00023371866 0.010586082 0.99959207 -0.019886136
289894339.62264 0.99959224 -0.02154249 0.00028437655 0.010942126 0.00023692055 0.010962582 0.99946845 -0.020750552
299890566.03774 0.99946958 -0.02216813 0.0002736717 0.011279032 0.00024285167 0.011294277 0.99926639 -0.021234661
309886792.45283 0.99915189 -0.022766232 0.00022390496 0.011640449 0.00027452584 0.011683524 0.99907053 -0.021755636
319883018.86792 0.99898452 -0.023408383 0.0002623531 0.011995247 0.00034480635 0.012054137 0.99913585 -0.022250712
329879245.28302 0.99904776 -0.024078369 0.00028010039 0.012388146 0.00028923992 0.012465815 0.99915755 -0.023022205
339875471.69811 0.99899149 -0.024880812 0.00034958939 0.01271269 0.00030442071 0.01284284 0.9992066 -0.023795955
349871698.11321 0.99921787 -0.025692403 0.00035435427 0.013088651 0.00033278158 0.013239574 0.99919832 -0.024868548
359867924.5283 0.99919283 -0.026719958 0.00040552579 0.013492167 0.00037167687 0.013579277 0.99917269 -0.025833011
369864150.9434 0.99940819 -0.027511686 0.00039889547 0.013878839 0.00041793799 0.013931576 0.99917471 -0.026629806
379860377.35849 0.9992578 -0.028201669 0.00044022757 0.014241637 0.00049547874 0.014331016 0.99910802 -0.02736342
389856603.77358 0.99912524 -0.028808594 0.00046161516 0.014659438 0.00044802809 0.014667315 0.99911493 -0.027828068
399852830.18868 0.99887502 -0.029505402 0.00045573339 0.015019674 0.00048093311 0.015105487 0.99909949 -0.028317243
409849056.60377 0.99892581 -0.029964644 0.00049727177 0.015363536 0.00049647916 0.015427735 0.99906266 -0.028801575
419845283.01887 0.99894875 -0.030484229 0.00053950911 0.015702708 0.00056197587 0.015815632 0.99919927 -0.02941525
429841509.43396 0.99886906 -0.03105396 0.00055625523 0.016142441 0.00053767161 0.016232613 0.99928373 -0.030224264
439837735.84906 0.99893552 -0.032069623 0.00060104206 0.016475698 0.0006078945 0.016548315 0.99903822 -0.031292796
449833962.26415 0.99886417 -0.033074498 0.00059440127 0.016801987 0.0005943384 0.016915439 0.99872959 -0.032062113
459830188.67925 0.99862456 -0.033842623 0.0006366251 0.017221753 0.00058038533 0.017246341 0.99853671 -0.032903224
469826415.09434 0.99863499 -0.034632355 0.00064500421 0.017581386 0.00060663931 0.017704062 0.99830908 -0.033570707
479822641.50943 0.9985081 -0.035278887 0.00065778662 0.017987071 0.00066340831 0.018063975 0.99837524 -0.034030445
489818867.92453 0.99859047 -0.035949409 0.00070993695 0.018295674 0.00068082009 0.018446926 0.99866271 -0.034642071
499815094.33962 0.99862105 -0.036529839 0.00069042528 0.018707208 0.00072006136 0.018804332 0.99895853 -0.035254747
509811320.75472 0.99887776 -0.036954194 0.00076979672 0.019058483 0.0006981084 0.019127583 0.99914199 -0.036155812
519807547.16981 0.99883008 -0.037530065 0.00078089116 0.019460445 0.0007937802 0.019562405 0.99903864 -0.037001222
529803773.58491 0.99867439 -0.038274109 0.00077158213 0.019818913 0.00080688018 0.019927531 0.99883455 -0.037672997
539800000 0.99872625 -0.03904441 0.00081521925 0.020199457 0.00085179764 0.020374648 0.99855137 -0.038390234
549796226.41509 0.99844629 -0.040008426 0.000853159 0.020591697 0.00084179966 0.020729769 0.99830306 -0.038895637
559792452.83019 0.99824935 -0.04078874 0.00089398492 0.02097101 0.00087941438 0.021089831 0.99826086 -0.039447427
569788679.24528 0.9980458 -0.041522801 0.00089413673 0.021313783 0.00091842888 0.021430086 0.99838996 -0.040268779
579784905.66038 0.99807453 -0.042155787 0.00092784781 0.021708878 0.00093902717 0.021818342 0.99852049 -0.04098127
589781132.07547 0.99820966 -0.042787433 0.0010182597 0.022041503 0.0009954311 0.022201722 0.99870276 -0.041961968
599777358.49057 0.9984194 -0.043490767 0.0010050274 0.022459397 0.0010031359 0.022575391 0.99867415 -0.042848974
609773584.90566 0.998523 -0.044298116 0.0010758797 0.022792567 0.0010927769 0.022972254 0.99853295 -0.043837998
619769811.32075 0.99855751 -0.04510504 0.0011549797 0.023196407 0.0011693239 0.023351643 0.99834782 -0.04438138
629766037.73585 0.99834251 -0.04578492 0.0011534682 0.023536261 0.0012064092 0.023647996 0.99816132 -0.044846773
639762264.15094 0.99818563 -0.046438083 0.0012249302 0.023843972 0.0011765673 0.024009781 0.99801791 -0.045337245
649758490.56604 0.9979645 -0.047059789 0.0012047514 0.024248093 0.0011824025 0.024360076 0.99810505 -0.045767322
659754716.98113 0.99786049 -0.04759565 0.0012389515 0.02458841 0.0012325896 0.024760187 0.99811971 -0.046438366
669750943.39623 0.99775559 -0.048118144 0.0012672581 0.025030941 0.0012281202 0.025138147 0.99822968 -0.047295779
679747169.81132 0.9978227 -0.048933867 0.001300081 0.025407093 0.00127179 0.02555578 0.99817234 -0.048350349
689743396.22642 0.99801296 -0.049812168 0.0013334919 0.025759861 0.0013219845 0.025926121 0.9979735 -0.0493581
699739622.64151 0.99810088 -0.050736338 0.0013898313 0.026145846 0.0014070366 0.026297662 0.99790919 -0.05007574
709735849.0566 0.99802864 -0.051665373 0.0014328253 0.02649397 0.0014225682 0.02663205 0.99763876 -0.050736718
719732075.4717 0.99797201 -0.052427292 0.001488247 0.026869442 0.0014627129 0.026997436 0.99767548 -0.051303506
729728301.88679 0.99781406 -0.052956015 0.0015254915 0.027203925 0.0015209103 0.027398132 0.99775654 -0.051822424
739724528.30189 0.99761558 -0.053587198 0.0015652245 0.02759398 0.0015731622 0.027731761 0.9980129 -0.052525774
749720754.71698 0.99753904 -0.054075748 0.0016288022 0.027917467 0.0016139378 0.028117148 0.99798155 -0.05325149
759716981.13208 0.99755335 -0.054650962 0.0016353335 0.028282598 0.0016373591 0.028499871 0.9979257 -0.054026306
769713207.54717 0.99752283 -0.055333078 0.0016766815 0.02864695 0.0016601356 0.028821617 0.99758089 -0.054814816
779709433.96226 0.99779695 -0.056093823 0.001712565 0.029044583 0.0017468702 0.029208178 0.99732602 -0.055518676
789705660.37736 0.99747872 -0.057150304 0.0017844681 0.029419236 0.001760927 0.029584667 0.99714541 -0.056273788
799701886.79245 0.99759758 -0.058039218 0.0018284116 0.029705863 0.0018074187 0.029923894 0.99700338 -0.056944907
809698113.20755 0.99741143 -0.05869545 0.0018492662 0.030071082 0.0018229275 0.03027924 0.99704164 -0.057378367
819694339.62264 0.99725533 -0.059409857 0.0018594731 0.030458096 0.0018471028 0.030689813 0.99715441 -0.058079138
829690566.03774 0.9972527 -0.060009211 0.001932743 0.030821148 0.0018902747 0.031027559 0.99744844 -0.059074372
839686792.45283 0.9973973 -0.060499549 0.001937828 0.031190326 0.001943619 0.031423002 0.99753869 -0.059916347
849683018.86792 0.99751085 -0.061171964 0.0019863197 0.031553227 0.0019769664 0.03175611 0.9973703 -0.060729615
859679245.28302 0.99740684 -0.061943889 0.0020338707 0.031959582 0.0020385133 0.032139234 0.99707413 -0.061396986
869675471.69811 0.99735343 -0.062723726 0.0020875223 0.03230371 0.0020842114 0.032495081 0.99664485 -0.061867893
879671698.11321 0.99721062 -0.063411571 0.0021386463 0.032653157 0.0021240388 0.032847881 0.99669707 -0.062368266
889667924.5283 0.997082 -0.064356297 0.002172458 0.032971565 0.0021867845 0.03321512 0.99648464 -0.062982172
899664150.9434 0.99685133 -0.065202475 0.0022193016 0.033359058 0.002215215 0.033580881 0.99651301 -0.063665152
909660377.35849 0.99677968 -0.065837413 0.0022281366 0.033727173 0.0022579092 0.0339358 0.99665862 -0.064602807
919656603.77358 0.99682444 -0.066620171 0.0022670496 0.034102052 0.002297923 0.034323376 0.99664772 -0.065522328
929652830.18868 0.99684227 -0.067361027 0.0023037568 0.034419633 0.0023448654 0.03466107 0.99652249 -0.066459119
939649056.60377 0.99710691 -0.068020612 0.0023305984 0.034763873 0.0023464868 0.035040215 0.99632818 -0.067265004
949645283.01887 0.99702942 -0.068942904 0.0023401238 0.035133757 0.0023728707 0.035392728 0.99606091 -0.067846164
959641509.43396 0.99694687 -0.069669038 0.0023961263 0.035570532 0.0024082931 0.035811443 0.9959451 -0.068341643
969637735.84906 0.99684399 -0.070333987 0.0024473714 0.035943452 0.0024606101 0.03617315 0.99599349 -0.068696976
979633962.26415 0.99662369 -0.071102485 0.0025194951 0.036306597 0.0025026107 0.036553241 0.99605173 -0.06942527
989630188.67925 0.99652982 -0.071633637 0.0025980817 0.036640342 0.00257234 0.036902174 0.99614167 -0.070074409
999626415.09434 0.99661934 -0.072440505 0.0025925301 0.037002891 0.0026369616 0.037265904 0.99610835 -0.071013749
1009622641.5094 0.99664277 -0.07298848 0.0026360238 0.037400603 0.002671726 0.037671082 0.99596047 -0.071876511
1019618867.9245 0.99669236 -0.073969156 0.0027140076 0.037770968 0.0027549146 0.038033109 0.99561703 -0.072759911
1029615094.3396 0.99671161 -0.075032264 0.0027836543 0.038121462 0.002803918 0.038391247 0.99527669 -0.073432863
1039611320.7547 0.99677837 -0.075921625 0.0028525293 0.038493808 0.0028600153 0.038714074 0.99522209 -0.074223071
1049607547.1698 0.99656075 -0.07689435 0.0028702773 0.038819261 0.0028870946 0.039085209 0.99513292 -0.074756928
1059603773.5849 0.99642789 -0.077562153 0.0029111123 0.039159857 0.0029446585 0.039453205 0.99518871 -0.075325996
1069600000 0.99618089 -0.078216344 0.0029414035 0.039511554 0.0029972456 0.039784815 0.99529827 -0.07608211
1079596226.4151 0.99603361 -0.078900039 0.0029568532 0.039855707 0.0030200374 0.040120695 0.99528188 -0.076895855
1089592452.8302 0.99604172 -0.079550236 0.0030132337 0.040225491 0.003054074 0.040514156 0.99521554 -0.077636212
1099588679.2453 0.99610281 -0.080224335 0.0030192472 0.040598281 0.0030854642 0.040874984 0.99483126 -0.078310102
1109584905.6604 0.99622107 -0.081102178 0.0030599162 0.041000076 0.003127126 0.041298907 0.99452436 -0.078921035
1119581132.0755 0.99627084 -0.082198873 0.0031022658 0.041369397 0.0031273742 0.041638598 0.99435425 -0.079394251
1129577358.4906 0.9960258 -0.083066344 0.0031069219 0.041752271 0.003215896 0.042069566 0.99420273 -0.07994321
1139573584.9057 0.99568427 -0.084040701 0.003189696 0.04212781 0.0032780766 0.042437639 0.99432862 -0.080661416
1149569811.3208 0.99555302 -0.084956154 0.0032835137 0.042520419 0.0033427353 0.042785238 0.99448913 -0.08138147
1159566037.7358 0.99526 -0.085633248 0.0033200178 0.042835377 0.0033741966 0.043149769 0.99448299 -0.082470715
1169562264.1509 0.99517137 -0.086274475 0.0033334699 0.043174017 0.0034380369 0.043497093 0.99429691 -0.083342284
1179558490.566 0.99500883 -0.087034151 0.0033490867 0.043593548 0.0034342289 0.043905493 0.99417758 -0.084117226
1189554716.9811 0.99512541 -0.087829739 0.0034073014 0.043961562 0.0035240557 0.044245444 0.99385381 -0.084640503
1199550943.3962 0.9950617 -0.088719577 0.0034406558 0.044369712 0.0036077518 0.044638008 0.9936747 -0.085055798
1209547169.8113 0.99484235 -0.089676246 0.0035239123 0.044723418 0.0036173631 0.045007683 0.99363226 -0.08543694
1219543396.2264 0.99457955 -0.090568282 0.0036002328 0.045114238 0.0036968151 0.045415677 0.99372572 -0.085859373
1229539622.6415 0.99435633 -0.091350585 0.0036673937 0.045463469 0.0037735142 0.045798577 0.99375165 -0.086627454
1239535849.0566 0.9939236 -0.092134267 0.0037542572 0.045861211 0.0038396968 0.046152558 0.99382704 -0.087613136
1249532075.4717 0.99370837 -0.092917569 0.0037838984 0.046176478 0.0039377967 0.046485819 0.9936648 -0.088491574
1259528301.8868 0.99349326 -0.093376756 0.0038477201 0.046568584 0.0040054396 0.046821948 0.99344885 -0.089422107
1269524528.3019 0.99334371 -0.094224244 0.0039140433 0.046925411 0.0040730499 0.047192566 0.99314076 -0.090177119
1279520754.717 0.9929806 -0.094935402 0.0039987089 0.047235087 0.0041600792 0.047471423 0.99289393 -0.090743467
1289516981.1321 0.99278051 -0.095803589 0.0040425863 0.047558866 0.0041869376 0.047787081 0.99290472 -0.091212541
1299513207.5472 0.99248338 -0.096617818 0.0040694959 0.047918409 0.0041873455 0.048185565 0.99307394 -0.091577828
1309509433.9623 0.99204141 -0.097495347 0.0040906444 0.048259415 0.0042534592 0.048531391 0.99318784 -0.092360333
1319505660.3774 0.99158943 -0.098113745 0.0041062739 0.048659738 0.0042545069 0.048858397 0.99315327 -0.09305796
1329501886.7925 0.99125826 -0.098830909 0.0041306894 0.049028814 0.0042807758 0.049236301 0.99311256 -0.093990296
1339498113.2075 0.99101555 -0.099397719 0.0041766204 0.049380861 0.0043459898 0.049599186 0.99276572 -0.094782531
1349494339.6226 0.99079865 -0.10001006 0.0041684057 0.049755748 0.0042857584 0.049950451 0.9923113 -0.095451273
1359490566.0377 0.99078238 -0.10076612 0.0042052772 0.050140634 0.0043221526 0.050366595 0.99210334 -0.096062958
1369486792.4528 0.99039322 -0.10122603 0.0042505991 0.05057456 0.004344698 0.050757755 0.99187249 -0.096611798
1379483018.8679 0.99014729 -0.10191204 0.0042875241 0.050979413 0.004359582 0.051119085 0.99185061 -0.096899219
1389479245.283 0.98976493 -0.10249448 0.0043434799 0.051367864 0.0043962784 0.051565375 0.99184048 -0.097696006
1399475471.6981 0.98929417 -0.10287946 0.0043326207 0.051742345 0.0044446308 0.051953733 0.99202275 -0.098353028
1409471698.1132 0.98892999 -0.10321113 0.0043959552 0.052162822 0.0044864789 0.052367892 0.99200255 -0.09920685
1419467924.5283 0.98887074 -0.10351261 0.0044617392 0.052578695 0.0045174984 0.052785672 0.99183732 -0.099931777
1429464150.9434 0.9886474 -0.10395476 0.0045104157 0.053029612 0.0045671128 0.053187542 0.99163949 -0.10053113
1439460377.3585 0.98876321 -0.10446411 0.0046149017 0.05351533 0.0046695201 0.053694658 0.99140835 -0.10097937
1449456603.7736 0.9888674 -0.10512866 0.0047012866 0.05394556 0.0047730487 0.054103527 0.99127257 -0.10134348
1459452830.1887 0.98876452 -0.10586101 0.0048845988 0.054363303 0.0048932321 0.054566387 0.99147785 -0.10162771
1469449056.6038 0.98875904 -0.10665751 0.0050647166 0.05474212 0.005081635 0.054936711 0.991561 -0.10243163
1479445283.0189 0.98861581 -0.10732064 0.0051567107 0.055085544 0.0051949406 0.055287939 0.99165165 -0.10333294
1489441509.434 0.98846304 -0.10783279 0.0053317249 0.05540207 0.0053580701 0.055636898 0.99152535 -0.10428041
1499437735.8491 0.98829269 -0.10819647 0.0054455325 0.055725344 0.0054772627 0.055957135 0.99130321 -0.10512316
1509433962.2642 0.98830205 -0.10879326 0.0055987379 0.056039333 0.0055777756 0.05629237 0.99113327 -0.10596135
1519430188.6792 0.98840141 -0.10930583 0.0056578834 0.05634138 0.0056417957 0.056562826 0.99093413 -0.10652485
1529426415.0943 0.98838305 -0.11001593 0.0057168603 0.056700252 0.005729463 0.0569098 0.99090427 -0.10693386
1539422641.5094 0.98834383 -0.11080419 0.0057703494 0.056971181 0.0057894778 0.057288442 0.99106693 -0.10749207
1549418867.9245 0.98824298 -0.11176609 0.0058594998 0.057333041 0.0058444785 0.057595737 0.99127895 -0.10815285
1559415094.3396 0.98804712 -0.11241826 0.0059281588 0.05764658 0.0058760066 0.057929106 0.99141872 -0.10889614
1569411320.7547 0.98791218 -0.11333752 0.0060102707 0.057955325 0.005981979 0.058235291 0.99126208 -0.10972011
1579407547.1698 0.98778939 -0.1138064 0.0060365982 0.058282018 0.0060078651 0.058552209 0.99081337 -0.11056218
1589403773.5849 0.98764193 -0.11437151 0.006045958 0.058617704 0.006035734 0.058910385 0.99061871 -0.11132681
1599400000 0.98770326 -0.11492506 0.0060163289 0.058966935 0.0059914272 0.059234798 0.99024844 -0.11188787
1609396226.4151 0.98770857 -0.11563477 0.0060611907 0.05935625 0.0059851231 0.059588294 0.99005485 -0.11241672
1619392452.8302 0.9876101 -0.11627707 0.0060944166 0.059665956 0.0060438477 0.060016338 0.98992717 -0.11285776
1629388679.2453 0.98734748 -0.11700496 0.0060673486 0.060072176 0.0060287975 0.060400922 0.99025226 -0.11355194
1639384905.6604 0.98713779 -0.11770196 0.0061077103 0.060455423 0.0060666376 0.060830761 0.99047869 -0.1143834
1649381132.0755 0.98686659 -0.11838785 0.0061854385 0.060855493 0.0061141625 0.061226752 0.99046934 -0.11542162
1659377358.4906 0.98661339 -0.11928615 0.0062049888 0.06125645 0.0061839037 0.061666019 0.99034512 -0.11632463
1669373584.9057 0.98653024 -0.11970402 0.006237003 0.061724078 0.0062249117 0.062060956 0.99002773 -0.11702251
1679369811.3208 0.98659027 -0.12042846 0.0062794928 0.062124651 0.0062957983 0.062447403 0.98976982 -0.11754505
1689366037.7358 0.98665571 -0.121151 0.0063743815 0.062593512 0.0063628945 0.062899545 0.98949653 -0.11791399
1699362264.1509 0.98672295 -0.12190115 0.0064735468 0.062963687 0.006454695 0.063337319 0.98970294 -0.11837418
1709358490.566 0.98662317 -0.12247266 0.0065462859 0.06338653 0.0065217912 0.063748635 0.98970908 -0.1190547
1719354716.9811 0.98623246 -0.12313297 0.0066360496 0.06379202 0.0066561438 0.064139463 0.98975086 -0.1198082
1729350943.3962 0.98588401 -0.12378708 0.0067854282 0.064169675 0.0067676492 0.064591698 0.98975813 -0.12070599
