!Keysight Technologies,N5222B,MY61253708,A.15.00.15
!Date: Wednesday, June 19, 2024 10:29:26
!Correction: S11(C  2-Port  ) 
!S21(C  2-Port  ) 
!S12(C  2-Port  ) 
!S22(C  2-Port  ) 
!S2P File: Measurements: S11, S21, S12, S22:
# Hz S  RI   R 50
10000000 0.99872965 -0.0033217072 -0.00011608365 0.00067216356 8.2910134e-005 -6.8131394e-006 0.99832135 -0.0021619499
19996226.415094 0.99990821 -0.0023673475 -2.176073e-005 0.00060780451 8.9438923e-005 0.00072884583 0.99996233 -0.0023353994
29992452.830189 0.9997561 -0.0025014877 3.270185e-005 0.00089265325 -5.0109229e-006 0.00099745381 0.99933445 -0.0028156936
39988679.245283 1.0001062 -0.0030075759 -4.8911781e-005 0.0013523491 -1.3588113e-005 0.0013129601 0.99966621 -0.0030993223
49984905.660377 1.000271 -0.0037003756 1.8323131e-005 0.0016261878 3.7111924e-005 0.0016049049 0.99988127 -0.0036357641
59981132.075472 1.0004511 -0.0045027435 -6.1517931e-006 0.0019596054 8.1309699e-006 0.0019395465 0.99993533 -0.0041917861
69977358.490566 1.0002444 -0.0050320569 9.5224459e-006 0.0022651085 1.4623231e-005 0.0022607555 0.99976963 -0.0047613811
79973584.90566 0.99997789 -0.0056503713 3.7536607e-005 0.0025916321 6.4622145e-006 0.0026034296 0.99932969 -0.0052453876
89969811.320755 0.99993157 -0.0056137443 -1.5620142e-005 0.0029022943 1.8094899e-005 0.0029461377 0.99957782 -0.0054076612
99966037.735849 1.0002209 -0.0063474476 3.7398655e-005 0.0032424545 7.076771e-006 0.0032505139 0.99966162 -0.0061811358
109962264.15094 1.0001966 -0.0072934479 2.7979549e-005 0.003559628 4.9589784e-005 0.0035654157 0.99968153 -0.0069327056
119958490.56604 1.0002671 -0.0081526041 1.7593731e-005 0.003881251 2.2483757e-005 0.0038920068 0.99974775 -0.007784456
129954716.98113 1.0002241 -0.009124577 4.2901956e-005 0.0042029461 4.7946e-005 0.0042050113 0.99973536 -0.0087052286
139950943.39623 1.0001608 -0.0099192411 2.3494955e-005 0.0045517525 4.6489091e-005 0.0045483815 0.99962497 -0.0094332788
149947169.81132 1.0000353 -0.010590285 3.267359e-005 0.004849398 4.4615706e-005 0.0048594135 0.99957901 -0.010011226
159943396.22642 0.99999821 -0.011149526 5.619321e-005 0.0051908884 4.9815979e-005 0.0051943986 0.99963599 -0.010471672
169939622.64151 0.9999603 -0.011469565 5.5141922e-005 0.0055044927 7.3110336e-005 0.0055181421 0.99967748 -0.010862641
179935849.0566 1.0000254 -0.011674374 6.4414227e-005 0.0058589987 7.1522547e-005 0.0058357152 0.99955666 -0.011226535
189932075.4717 1.0001247 -0.012428999 9.0934802e-005 0.0061693927 7.1845017e-005 0.0061699259 0.99978417 -0.011774272
199928301.88679 1.0000449 -0.013284266 4.9849157e-005 0.0064796042 7.0402748e-005 0.00648716 0.9996801 -0.012638539
209924528.30189 0.99982852 -0.013828233 9.5206313e-005 0.0068114521 9.0317801e-005 0.0068003437 0.99944139 -0.013308436
219920754.71698 0.99998796 -0.014677376 0.00010061637 0.007142724 0.00011699134 0.0071340734 0.99939007 -0.013865888
229916981.13208 0.99974132 -0.015528262 0.00012924755 0.0074350047 9.638397e-005 0.0074580144 0.99934542 -0.01471594
239913207.54717 0.99957919 -0.016144056 0.00012949876 0.0077590006 0.00011786957 0.0077957758 0.99927276 -0.015420618
249909433.96226 0.99963295 -0.016789377 0.00013888092 0.0080763828 0.0001133061 0.0081021618 0.99936861 -0.01599431
259905660.37736 0.99975038 -0.017217666 0.00014862604 0.0083861817 0.00014196243 0.0084542502 0.99965155 -0.016426861
269901886.79245 0.99995518 -0.017950132 0.00016091065 0.0087537393 9.4117247e-005 0.0087728444 1.0000621 -0.017273411
279898113.20755 1.0000226 -0.018505484 0.00019006804 0.0091036297 0.0001624357 0.0090785334 0.9998588 -0.017975807
289894339.62264 1.0000346 -0.019354284 0.00014244113 0.00935922 0.000163035 0.0094123874 0.99978393 -0.018805265
299890566.03774 0.99991441 -0.019893825 0.00018487405 0.0097196018 0.00019978941 0.0097416406 0.99940532 -0.019183725
309886792.45283 0.9997499 -0.020451233 0.00016837148 0.010014988 0.00019115943 0.010082272 0.99933201 -0.019609332
319883018.86792 0.99975109 -0.021011919 0.00022482453 0.010335485 0.00017522974 0.010365278 0.99944317 -0.02007845
329879245.28302 0.99967545 -0.021722794 0.00023117289 0.010681173 0.00022266433 0.010687811 0.99958837 -0.020826459
339875471.69811 0.9995966 -0.02252014 0.00024227309 0.0109995 0.00023166102 0.011030382 0.99947673 -0.021600038
349871698.11321 0.9998368 -0.023370802 0.00028775446 0.011302627 0.00024273107 0.01136722 0.99953014 -0.022483081
359867924.5283 0.99969077 -0.024271041 0.00024893787 0.011659889 0.0002888809 0.011692596 0.99944806 -0.023467839
369864150.9434 0.99983805 -0.024969965 0.00029261573 0.011939569 0.00027229148 0.011997667 0.99949223 -0.024145722
379860377.35849 0.99982011 -0.02573058 0.00031510321 0.012311322 0.00029754615 0.012317629 0.99937123 -0.024876654
389856603.77358 0.99965483 -0.026329905 0.0002879207 0.012628926 0.00033713318 0.01266118 0.99931669 -0.025224775
399852830.18868 0.99936998 -0.026934624 0.0003433954 0.012924561 0.00034449855 0.012978582 0.99947011 -0.025737166
409849056.60377 0.99928916 -0.027420046 0.00036489239 0.013232087 0.00036944286 0.013291791 0.9994092 -0.026163086
419845283.01887 0.99917704 -0.027794242 0.00037644617 0.01359435 0.00036122138 0.013630461 0.9993791 -0.026744038
429841509.43396 0.99929893 -0.028430939 0.00036948361 0.013895953 0.00040063728 0.01394338 0.99955225 -0.027569324
439837735.84906 0.99910212 -0.02934204 0.00039951585 0.014199658 0.00041255436 0.014275728 0.99926269 -0.028480589
449833962.26415 0.99891001 -0.030189335 0.00042503048 0.014505764 0.00043919124 0.014536254 0.99887496 -0.029191196
459830188.67925 0.99871701 -0.030802637 0.00045628846 0.014795316 0.00043142354 0.014853014 0.9986521 -0.030024469
469826415.09434 0.99865353 -0.031516552 0.00044859434 0.01520951 0.00045190332 0.015210489 0.99834812 -0.030497551
479822641.50943 0.99847347 -0.031927735 0.00048131298 0.015513199 0.00048299343 0.015564646 0.99838746 -0.03083615
489818867.92453 0.99854445 -0.032473534 0.00050192093 0.015861623 0.0004953919 0.01585255 0.99874449 -0.031341225
499815094.33962 0.99864668 -0.032979906 0.00052843709 0.016138673 0.00055536581 0.016157992 0.99894583 -0.031863183
509811320.75472 0.99874091 -0.03326121 0.00053918699 0.016481709 0.00053392304 0.016497152 0.99914509 -0.032670781
519807547.16981 0.99868214 -0.033776015 0.00054376619 0.01677794 0.00051885005 0.016807809 0.99911106 -0.033352107
529803773.58491 0.99873364 -0.034354001 0.00057517178 0.017081715 0.00054935785 0.017146278 0.99884641 -0.033883572
539800000 0.99875885 -0.035018235 0.00059567089 0.017392986 0.00057247723 0.017479856 0.99875748 -0.034579083
549796226.41509 0.99861479 -0.035784572 0.00058489572 0.017740434 0.00062711444 0.017779214 0.99860501 -0.035027683
559792452.83019 0.99847054 -0.036454678 0.00066573918 0.018085932 0.00062965322 0.018128179 0.998474 -0.035595775
569788679.24528 0.9983204 -0.037178248 0.00067061558 0.018396966 0.0006410419 0.018473674 0.99867213 -0.036301076
579784905.66038 0.99834675 -0.037642397 0.00070947176 0.018762324 0.00064869761 0.01878399 0.99888462 -0.036970809
589781132.07547 0.99852788 -0.038279057 0.00075226277 0.019043777 0.00069869496 0.019101501 0.99903446 -0.037790924
599777358.49057 0.99867618 -0.038875252 0.00076888315 0.019362159 0.00074516702 0.019443091 0.99903417 -0.038597822
609773584.90566 0.99879789 -0.039641388 0.0007882443 0.019686889 0.00079856493 0.019750748 0.99884015 -0.03942132
619769811.32075 0.9989267 -0.040378362 0.00083428202 0.020032667 0.00083430065 0.020052454 0.998779 -0.039984047
629766037.73585 0.99876064 -0.040996641 0.00083325338 0.020341031 0.00084831007 0.020341761 0.99862838 -0.040457934
639762264.15094 0.99860668 -0.041567683 0.00087063131 0.020612163 0.0008336599 0.020670818 0.99847603 -0.040938362
649758490.56604 0.99849284 -0.042095467 0.00088072009 0.020941492 0.00087498827 0.020995982 0.9985373 -0.041353032
659754716.98113 0.99841309 -0.042694867 0.00084499829 0.021251258 0.00084446277 0.021337949 0.99864489 -0.041899413
669750943.39623 0.99844605 -0.043115079 0.00088412408 0.021628208 0.00087782787 0.021666229 0.99875182 -0.042620748
679747169.81132 0.99844342 -0.043961242 0.00091676228 0.021955481 0.00093006925 0.022026135 0.9987219 -0.043647863
689743396.22642 0.99862772 -0.044784099 0.00096460152 0.022272494 0.00096351467 0.022314044 0.99852705 -0.044591099
699739622.64151 0.99878836 -0.04552266 0.0010061236 0.022604853 0.0010465952 0.022624925 0.99843669 -0.045242935
709735849.0566 0.99876291 -0.046410568 0.0010455134 0.022886122 0.0010655016 0.022943031 0.99821037 -0.045878924
719732075.4717 0.99863648 -0.047118276 0.0010998589 0.023203401 0.0010901019 0.023252593 0.99832106 -0.046434611
729728301.88679 0.99847555 -0.04763177 0.0011219867 0.023550661 0.0011027539 0.023569409 0.99830365 -0.046846509
739724528.30189 0.99840927 -0.048295274 0.0011488977 0.023819251 0.0011294032 0.023877045 0.9985497 -0.047577903
749720754.71698 0.99835163 -0.048858181 0.001200797 0.024112288 0.0011632387 0.02420296 0.99856681 -0.048253417
759716981.13208 0.99830127 -0.049332708 0.0011939639 0.02444293 0.001197109 0.024528842 0.99849021 -0.049013078
769713207.54717 0.99826694 -0.050039142 0.0012282087 0.024760002 0.0012324322 0.024850091 0.99825507 -0.049749643
779709433.96226 0.99841511 -0.050756909 0.001262748 0.025093637 0.0012656592 0.025150076 0.99797165 -0.050343949
789705660.37736 0.99830216 -0.051531255 0.0012649354 0.025402691 0.0012833122 0.025466198 0.99767911 -0.051060498
799701886.79245 0.99824262 -0.05239749 0.0013344865 0.025692569 0.0013058763 0.025784528 0.99757516 -0.051611006
809698113.20755 0.99810159 -0.052990675 0.0013444619 0.026025349 0.0013412528 0.026095107 0.99767381 -0.052055195
819694339.62264 0.99796766 -0.053631753 0.0013728319 0.0263281 0.0013541658 0.026424658 0.99776864 -0.052651703
829690566.03774 0.9979192 -0.054171354 0.0014133658 0.026651721 0.0014014719 0.026741322 0.99799716 -0.053460479
839686792.45283 0.99794304 -0.054653943 0.0014389115 0.026927358 0.0014244965 0.027029248 0.99803358 -0.054284155
849683018.86792 0.998034 -0.055245124 0.001433186 0.027297791 0.0014346461 0.02735093 0.99791044 -0.055053078
859679245.28302 0.99806881 -0.055913717 0.0015084473 0.027631689 0.0014967499 0.027648974 0.99769104 -0.05565232
869675471.69811 0.99798214 -0.056616575 0.0015369561 0.027930852 0.0015333351 0.02798301 0.99731636 -0.056160778
879671698.11321 0.99786019 -0.057279058 0.0015551345 0.028215796 0.0015491857 0.028301803 0.99730033 -0.056507483
889667924.5283 0.99769199 -0.058055073 0.0016207453 0.028506337 0.001596746 0.028599296 0.99716145 -0.05706054
899664150.9434 0.99749339 -0.058672756 0.0015891679 0.028822765 0.0016176375 0.028912716 0.99720228 -0.05766046
909660377.35849 0.99751592 -0.059453547 0.0016336073 0.029156515 0.0016412353 0.029224968 0.99742264 -0.058515087
919656603.77358 0.99761057 -0.06001772 0.001640988 0.029487336 0.0016669673 0.029552706 0.99735743 -0.059370637
929652830.18868 0.99761075 -0.060732543 0.0016721785 0.029766927 0.0016741026 0.029851725 0.9972288 -0.060224891
939649056.60377 0.99777055 -0.061289161 0.0016780542 0.030047366 0.0016877139 0.030137595 0.99709398 -0.060940027
949645283.01887 0.99769866 -0.062171366 0.0016809525 0.030412024 0.0016962468 0.030502936 0.99682856 -0.061449032
959641509.43396 0.99764234 -0.062758029 0.0017174361 0.030742016 0.0017236657 0.030826176 0.99679279 -0.061915457
969637735.84906 0.99757743 -0.063394248 0.0017454242 0.031086523 0.0017809467 0.031182375 0.99684453 -0.062214375
979633962.26415 0.99739003 -0.064143106 0.0018570295 0.031384476 0.0018277331 0.031484451 0.99687254 -0.062865496
989630188.67925 0.99745065 -0.064713418 0.0018655453 0.031716809 0.0018376131 0.0318138 0.99706811 -0.063469768
999626415.09434 0.99744105 -0.065225929 0.0018687472 0.031999335 0.0018869722 0.03213523 0.99704516 -0.064280748
1009622641.5094 0.9974767 -0.065890729 0.0018832092 0.032324623 0.0019202102 0.032469895 0.99682426 -0.065071523
1019618867.9245 0.99763298 -0.066653609 0.001937509 0.032645043 0.0019952962 0.032776821 0.99658889 -0.065927491
1029615094.3396 0.99759054 -0.067679882 0.0020389613 0.032957233 0.0020341659 0.033025302 0.99622154 -0.066490054
1039611320.7547 0.99765742 -0.068396538 0.0020443127 0.033257093 0.0020502126 0.033343762 0.99624342 -0.067081004
1049607547.1698 0.99753046 -0.06926199 0.002097114 0.033542562 0.0020664365 0.033639006 0.99616969 -0.067712627
1059603773.5849 0.99743265 -0.069999665 0.0021026302 0.033848211 0.0020901244 0.033955161 0.99622655 -0.068226218
1069600000 0.99724567 -0.07062301 0.0020844946 0.034156129 0.0021331925 0.0342682 0.9963975 -0.068938345
1079596226.4151 0.99719465 -0.071255133 0.0021100338 0.034467485 0.0021503726 0.034572534 0.99642891 -0.069642544
1089592452.8302 0.99725753 -0.07183671 0.0021556104 0.034812845 0.0021569226 0.034927391 0.99636722 -0.070420384
1099588679.2453 0.99737036 -0.072513551 0.0021185018 0.035148397 0.0021750107 0.035214309 0.99602193 -0.071036458
1109584905.6604 0.99747765 -0.07324338 0.0021686824 0.03548244 0.0021957122 0.0355503 0.9958474 -0.071560159
1119581132.0755 0.99730295 -0.074283123 0.0021816646 0.035788331 0.0021999278 0.035902545 0.99561137 -0.072015166
1129577358.4906 0.99724102 -0.07502991 0.0022251662 0.036139973 0.0022573899 0.03626911 0.99548417 -0.072394401
1139573584.9057 0.99696887 -0.075967461 0.0022751009 0.036431566 0.0023364592 0.036567755 0.99559528 -0.073061883
1149569811.3208 0.9969033 -0.076776765 0.0023121876 0.036782999 0.0023786291 0.036879465 0.9957332 -0.073789217
1159566037.7358 0.99666798 -0.077407688 0.0023376169 0.037091337 0.0023977868 0.037180938 0.99586481 -0.074820012
1169562264.1509 0.99651146 -0.077991009 0.0023723766 0.037384529 0.0024160966 0.037502963 0.9956826 -0.075526804
1179558490.566 0.9964028 -0.078779221 0.0023672755 0.037731674 0.0024525777 0.037850413 0.99555081 -0.076243527
1189554716.9811 0.9965089 -0.079415232 0.0023950227 0.03808073 0.0024656672 0.038189001 0.99530053 -0.076788694
1199550943.3962 0.99647439 -0.080279738 0.0024303682 0.038370676 0.002519004 0.0385097 0.99508524 -0.077096522
1209547169.8113 0.99632651 -0.081203625 0.0024781534 0.038714502 0.0025625983 0.038822528 0.99505568 -0.077504367
1219543396.2264 0.99608386 -0.081992611 0.0025272332 0.039083146 0.0025993492 0.039183687 0.99513304 -0.077929333
1229539622.6415 0.99582046 -0.082692146 0.0026142895 0.039391708 0.002662871 0.039525982 0.99531066 -0.078608721
1239535849.0566 0.9955191 -0.083411217 0.0026348121 0.039686266 0.0027321931 0.039825931 0.99541211 -0.079506874
1249532075.4717 0.99523616 -0.08410494 0.0026947358 0.040014256 0.0027915458 0.040128514 0.99532747 -0.08033137
1259528301.8868 0.99512935 -0.084562391 0.0027204789 0.040329389 0.0028449707 0.040439785 0.99499738 -0.081119478
1269524528.3019 0.99503928 -0.08529675 0.0028309477 0.040650435 0.0029286928 0.040717855 0.99478227 -0.081826359
1279520754.717 0.99465603 -0.085993841 0.0028541426 0.040919758 0.0029499177 0.040971413 0.99447316 -0.082382239
1289516981.1321 0.9945063 -0.086759686 0.0028826362 0.041212417 0.0029763328 0.041278176 0.99461424 -0.082715005
1299513207.5472 0.99420547 -0.087566018 0.0028753895 0.041517183 0.0029652603 0.041558921 0.99474764 -0.083126009
1309509433.9623 0.99383819 -0.088358164 0.0028983932 0.041795794 0.0029778909 0.041858982 0.99485141 -0.083890647
1319505660.3774 0.99344397 -0.089063287 0.0028921878 0.04215062 0.0029946845 0.04219453 0.99487793 -0.084474444
1329501886.7925 0.99318415 -0.08973974 0.0029221494 0.042432517 0.0030018389 0.042506389 0.99484456 -0.085469455
1339498113.2075 0.99298459 -0.0901393 0.0029390492 0.042798262 0.0030366555 0.042805374 0.99452031 -0.08617276
1349494339.6226 0.9926914 -0.090804145 0.002922514 0.043108873 0.0030190251 0.043129273 0.99417102 -0.086794116
1359490566.0377 0.99266768 -0.091344208 0.0029477533 0.04344536 0.003018856 0.04348392 0.9939391 -0.087309301
1369486792.4528 0.99251133 -0.091910452 0.0029341523 0.043845613 0.0030322773 0.043824341 0.99382043 -0.087756783
1379483018.8679 0.99226213 -0.092400126 0.0029527622 0.044162463 0.0030133361 0.044146497 0.99381596 -0.088059545
1389479245.283 0.99190223 -0.092976242 0.0030110981 0.044533752 0.0030614045 0.04455173 0.9937979 -0.088782609
1399475471.6981 0.99153614 -0.093360752 0.0029958431 0.044843048 0.003077874 0.044880304 0.9940027 -0.089408368
1409471698.1132 0.99121112 -0.093749151 0.0030015395 0.045263443 0.0031040595 0.045245737 0.9940086 -0.090252273
1419467924.5283 0.99097919 -0.09409532 0.0030632755 0.045577906 0.003111301 0.045612622 0.99381351 -0.090896785
1429464150.9434 0.99093211 -0.094481885 0.0030857101 0.045970965 0.0031505115 0.046027504 0.99373507 -0.091486037
1439460377.3585 0.99110156 -0.094892234 0.0031673191 0.046449676 0.0032047713 0.046436071 0.993487 -0.091782808
1449456603.7736 0.99104512 -0.095485181 0.0032641646 0.046822637 0.0033199415 0.046794713 0.99335426 -0.092104122
1459452830.1887 0.99113941 -0.096132696 0.003439378 0.047218636 0.0034268349 0.047222279 0.99351919 -0.092380047
1469449056.6038 0.99112236 -0.096896052 0.0035806764 0.047517538 0.0035594776 0.047586478 0.99377799 -0.093101084
1479445283.0189 0.99100083 -0.097481415 0.0036995409 0.047827974 0.0036851766 0.047866009 0.99382514 -0.093963966
1489441509.434 0.99082005 -0.097996533 0.0038201995 0.048108488 0.0038704854 0.048149873 0.99371088 -0.094838262
1499437735.8491 0.990753 -0.098281085 0.0039172061 0.048409469 0.0039716084 0.048416167 0.99364173 -0.095710665
1509433962.2642 0.99073368 -0.098798826 0.0039978856 0.048670258 0.0039838958 0.048681952 0.99343318 -0.096419141
1519430188.6792 0.99076885 -0.099380225 0.0041138437 0.048909526 0.0040552896 0.048954595 0.99323732 -0.096931696
1529426415.0943 0.99079943 -0.099986285 0.0041209012 0.049219854 0.004101811 0.049235497 0.99316764 -0.097342014
1539422641.5094 0.99084789 -0.10072987 0.0041872519 0.049503803 0.0041853231 0.049510978 0.99337327 -0.097737521
1549418867.9245 0.9906131 -0.10157412 0.0042486824 0.049762979 0.0041936403 0.049792863 0.99355668 -0.098434538
1559415094.3396 0.99055886 -0.10233068 0.0042717773 0.050026499 0.0042435862 0.050080955 0.9936161 -0.099115819
1569411320.7547 0.99044073 -0.10300918 0.0043504313 0.050293971 0.0042408705 0.050368007 0.9935745 -0.099990845
1579407547.1698 0.99035108 -0.10356848 0.0043467516 0.05056769 0.0043212851 0.050662991 0.99321568 -0.10083228
1589403773.5849 0.99029326 -0.10404599 0.0043505896 0.050861359 0.0043280311 0.050907075 0.99299884 -0.10150552
1599400000 0.99028802 -0.10448182 0.0043814061 0.0511593 0.0043075243 0.051196605 0.99255991 -0.10200706
1609396226.4151 0.99026424 -0.10514624 0.0043407921 0.051492415 0.0042868732 0.051524952 0.99242467 -0.10242912
1619392452.8302 0.99026477 -0.10578114 0.0043384358 0.051799811 0.0042238496 0.051851746 0.99241769 -0.10285765
1629388679.2453 0.98994577 -0.10645545 0.0043488741 0.052149858 0.0043008141 0.052243665 0.99265552 -0.10339671
1639384905.6604 0.98984176 -0.10703164 0.0043784664 0.052497551 0.0042824885 0.052599881 0.99295044 -0.10422679
1649381132.0755 0.98956889 -0.10778594 0.0043776687 0.052820504 0.0043154601 0.05291038 0.99281132 -0.10517594
1659377358.4906 0.98937553 -0.10851088 0.0043599233 0.053180888 0.0043122303 0.053305075 0.99277753 -0.10602161
1669373584.9057 0.98934555 -0.10891049 0.0044286642 0.053595994 0.0043699741 0.053648043 0.99249637 -0.10659911
1679369811.3208 0.98942757 -0.1096364 0.0044345167 0.053927615 0.0043989131 0.05404181 0.99228001 -0.10719565
1689366037.7358 0.98932409 -0.11027905 0.0045162048 0.054286551 0.0044322629 0.054408517 0.99211544 -0.10747269
1699362264.1509 0.98957866 -0.11083023 0.0045272382 0.054626837 0.0045192363 0.054768443 0.99232489 -0.10790564
1709358490.566 0.98952764 -0.11141515 0.0045778258 0.054975733 0.0045306878 0.055134505 0.99236953 -0.10843803
1719354716.9811 0.98922098 -0.11208585 0.0046197828 0.055366635 0.0045556389 0.055515505 0.99244326 -0.10908723
1729350943.3962 0.9888888 -0.11262882 0.0047000162 0.055764817 0.0046533011 0.055898186 0.99240482 -0.10994428
