!Keysight Technologies,N5222B,MY61253708,A.15.00.15
!Date: Wednesday, June 19, 2024 08:52:56
!Correction: S11(C  2-Port  ) 
!S21(C  2-Port  ) 
!S12(C  2-Port  ) 
!S22(C  2-Port  ) 
!S2P File: Measurements: S11, S21, S12, S22:
# Hz S  RI   R 50
10000000 0.99853575 -0.0022468567 -7.8015306e-005 0.00020549173 4.4338274e-005 0.00065690919 0.99878567 -0.0009790957
19996226.415094 0.99918604 -0.0020020008 0.00010446963 0.00082737044 1.3456796e-005 0.00078815618 0.99930286 -0.0022489429
29992452.830189 0.99974632 -0.0024980009 4.6744797e-005 0.0010643549 6.144846e-005 0.001096564 0.99956167 -0.0027326941
39988679.245283 1.0000042 -0.0031196922 4.2748288e-006 0.0015265946 1.3738783e-005 0.0015360134 0.99966669 -0.0033232123
49984905.660377 1.000137 -0.003932029 -1.4726014e-005 0.0018158979 2.7668604e-005 0.0018518975 0.99977875 -0.0038230121
59981132.075472 1.0003363 -0.0047524869 3.1358213e-005 0.00220297 -3.0770898e-006 0.0022210998 0.99981809 -0.0044026077
69977358.490566 1.0000395 -0.0053657014 8.0518439e-006 0.0025151328 3.4606004e-005 0.0025662286 0.99961603 -0.0049503483
79973584.90566 0.99984092 -0.0059306324 7.4119307e-006 0.0029071376 2.110959e-005 0.0029270733 0.99938345 -0.0054807067
89969811.320755 0.99983931 -0.0061551034 5.1991083e-007 0.003266573 1.5854603e-005 0.0033166583 0.9995445 -0.005859971
99966037.735849 1.0000211 -0.0069460124 8.010189e-006 0.0036169193 8.829229e-006 0.0036559461 0.99959469 -0.0066556484
109962264.15094 1.0000372 -0.0078831762 3.5717443e-005 0.0039790468 3.1745818e-005 0.0040601548 0.99958891 -0.0075036436
119958490.56604 1.0000864 -0.0089124739 4.8626214e-005 0.004377766 4.1375868e-005 0.0043846625 0.99961931 -0.0084818304
129954716.98113 0.999991 -0.010024697 4.6773348e-005 0.004733541 4.87176e-005 0.0047688736 0.99959743 -0.0094596446
139950943.39623 0.9999271 -0.01089469 5.3926313e-005 0.0051093353 4.3672058e-005 0.0051367702 0.99950027 -0.010202246
149947169.81132 0.99982595 -0.011541367 5.6266086e-005 0.0054656272 5.9936428e-005 0.0054944446 0.99944675 -0.01084289
159943396.22642 0.99975288 -0.012075782 8.115964e-005 0.0058205673 7.8561949e-005 0.0058402275 0.99956352 -0.01132229
169939622.64151 0.99977982 -0.012520164 7.2727853e-005 0.0061773751 9.836239e-005 0.0062319883 0.99964625 -0.011760235
179935849.0566 0.99985385 -0.012779564 6.711483e-005 0.0065545938 9.1626076e-005 0.0065979674 0.99960732 -0.012175143
189932075.4717 0.99995816 -0.013524294 0.00010113767 0.0069179125 9.4556017e-005 0.006963029 0.99971545 -0.012814939
199928301.88679 0.9998889 -0.01448974 0.00013436447 0.0072914166 0.00012592203 0.0073364312 0.99961185 -0.013745457
209924528.30189 0.99963552 -0.01523827 0.00012132339 0.0076620723 0.00011524151 0.007682615 0.99940747 -0.014513806
219920754.71698 0.99961627 -0.016160697 0.00014929706 0.0080199027 0.00014274777 0.0080657499 0.99923056 -0.015323937
229916981.13208 0.99929529 -0.017066449 0.00016371324 0.0083621247 0.00014819717 0.0083996914 0.99908304 -0.016114324
239913207.54717 0.99918574 -0.01763851 0.00015991024 0.0087256739 0.00016101862 0.0087759783 0.99907541 -0.016791368
249909433.96226 0.99931288 -0.018364787 0.00017764 0.0090892566 0.00019361684 0.009145177 0.99925649 -0.017452031
259905660.37736 0.99945104 -0.019035041 0.00017168606 0.0094591184 0.0001958604 0.0094988588 0.9994666 -0.018070877
269901886.79245 0.99952912 -0.019711182 0.00020500366 0.0098144449 0.00023387582 0.0098690875 0.99980509 -0.01886487
279898113.20755 0.99971676 -0.020416006 0.00020786189 0.010191307 0.00021356624 0.010289589 0.99961179 -0.019566134
289894339.62264 0.99977207 -0.021237105 0.00023036404 0.010547394 0.00022892701 0.010651764 0.99954987 -0.020428747
299890566.03774 0.99953032 -0.021794677 0.00024547474 0.010894586 0.00027874415 0.010929405 0.99934465 -0.020839244
309886792.45283 0.99921721 -0.022480384 0.00025165011 0.011277678 0.00026617991 0.011292838 0.99913806 -0.021305747
319883018.86792 0.99923331 -0.023003906 0.00031192787 0.011603102 0.00027969014 0.011691536 0.9991312 -0.02185899
329879245.28302 0.99911869 -0.023686111 0.00029493822 0.012020733 0.00033333059 0.012081262 0.99920797 -0.022651643
339875471.69811 0.99900031 -0.024431407 0.00036266644 0.012377139 0.00032161421 0.012438945 0.99915326 -0.023512192
349871698.11321 0.99926525 -0.025391251 0.00031711487 0.012708913 0.00035405112 0.012834841 0.99926025 -0.024442226
359867924.5283 0.99914759 -0.026276559 0.0003511142 0.013117224 0.00037192553 0.013177117 0.99924076 -0.02533856
369864150.9434 0.99933964 -0.027083963 0.00036302675 0.013437408 0.00036032335 0.013576179 0.99925852 -0.026165098
379860377.35849 0.99929428 -0.027837962 0.00038742553 0.013801875 0.00042604888 0.013877113 0.99916118 -0.026910812
389856603.77358 0.99917042 -0.02836886 0.00041968748 0.014176941 0.00042380625 0.014241628 0.99905169 -0.027385384
399852830.18868 0.99904078 -0.029084623 0.00042815832 0.014531802 0.00045793224 0.014642968 0.99922276 -0.027840137
409849056.60377 0.99891514 -0.029491205 0.00048711098 0.014891144 0.00043988778 0.014952151 0.99915612 -0.028323162
419845283.01887 0.99889785 -0.029932112 0.00045364397 0.015253583 0.00050787907 0.015358836 0.99923986 -0.028924257
429841509.43396 0.99905145 -0.030683726 0.00055676978 0.015615442 0.00050771283 0.015699647 0.99938309 -0.029732794
439837735.84906 0.99889934 -0.03165175 0.0005644029 0.015935328 0.00058383308 0.016053023 0.99907321 -0.030750766
449833962.26415 0.99890292 -0.032504529 0.00056934124 0.016300794 0.00055695651 0.016376372 0.99875951 -0.031583816
459830188.67925 0.99881518 -0.033324808 0.00055888295 0.016668908 0.00057167001 0.016748192 0.99861604 -0.032442451
469826415.09434 0.99874532 -0.034209549 0.00058091339 0.017050603 0.00056525925 0.017169252 0.99838328 -0.032971084
479822641.50943 0.99861646 -0.034828573 0.00061352341 0.01740174 0.00058107125 0.017550396 0.99843246 -0.033513926
489818867.92453 0.99869871 -0.035379887 0.00062249787 0.017779939 0.00064587407 0.017903883 0.99877745 -0.034043044
499815094.33962 0.998698 -0.035859793 0.00066418992 0.018132536 0.00066356454 0.018260151 0.99901611 -0.034675896
509811320.75472 0.99897873 -0.036357507 0.00070242333 0.018503308 0.00069835741 0.018597407 0.99912822 -0.035582207
519807547.16981 0.99883568 -0.03704989 0.00073181605 0.018830281 0.00070153316 0.018965987 0.99914432 -0.036341101
529803773.58491 0.9988119 -0.037757814 0.00075167883 0.019204177 0.00071982387 0.019358333 0.99889553 -0.036963165
539800000 0.99893117 -0.038593173 0.00078985468 0.019600373 0.00078300899 0.019703006 0.99863893 -0.037785038
549796226.41509 0.99855351 -0.039350092 0.00076978607 0.019941228 0.00077799801 0.020080307 0.998438 -0.038260251
559792452.83019 0.99840462 -0.040175617 0.0008291807 0.020316627 0.00084368233 0.020426782 0.99831307 -0.038776487
569788679.24528 0.99815255 -0.040884316 0.00084327813 0.020662099 0.00083083147 0.020829875 0.99844098 -0.039581716
579784905.66038 0.99822819 -0.041445807 0.00088632666 0.02105749 0.00089619332 0.021184824 0.99863869 -0.040371805
589781132.07547 0.99828905 -0.042158991 0.00092311576 0.021409098 0.00086894445 0.021541521 0.99880028 -0.041277379
599777358.49057 0.99848109 -0.042794704 0.0009787837 0.021757329 0.00093565416 0.021907764 0.99876714 -0.042115927
609773584.90566 0.99860269 -0.043647576 0.00096115482 0.022123763 0.00096999906 0.022240298 0.998523 -0.043008156
619769811.32075 0.998631 -0.044475049 0.0010393225 0.022499759 0.0010734648 0.022609716 0.99847722 -0.043549776
629766037.73585 0.99842548 -0.045037091 0.0011162702 0.022774896 0.0010825908 0.022946028 0.99835408 -0.044059366
639762264.15094 0.99826169 -0.045718029 0.0011326321 0.023143398 0.0011101309 0.02329802 0.99818361 -0.044601381
649758490.56604 0.99801576 -0.046311885 0.0011221343 0.023480004 0.0011255825 0.0236404 0.99826837 -0.045072436
659754716.98113 0.99794686 -0.046875507 0.0011399724 0.023855276 0.0011198046 0.023999885 0.99820173 -0.045649081
669750943.39623 0.99790329 -0.04741171 0.0011425624 0.024237104 0.0011648512 0.024415409 0.99833947 -0.046471328
679747169.81132 0.99787939 -0.048240483 0.0012013925 0.02464404 0.0012021469 0.024792043 0.99826008 -0.04752668
689743396.22642 0.99804848 -0.049065918 0.0012764586 0.024961852 0.0012548706 0.025126534 0.99808902 -0.048488617
699739622.64151 0.99823773 -0.049922317 0.0013060207 0.025368124 0.0013043964 0.025506688 0.99801797 -0.049209237
709735849.0566 0.99818605 -0.050797127 0.0013905063 0.025686553 0.0013608232 0.025845798 0.99779671 -0.049911663
719732075.4717 0.99808908 -0.051576346 0.0014045881 0.026043657 0.0013958933 0.02622056 0.99788451 -0.050464302
729728301.88679 0.99796689 -0.052165687 0.0014227144 0.026394218 0.0014166599 0.026534382 0.9978596 -0.050903231
739724528.30189 0.99784648 -0.052750364 0.0014828281 0.026766436 0.0014676605 0.026897462 0.99810147 -0.051655695
749720754.71698 0.99767429 -0.053296223 0.0014874008 0.027103063 0.0014948929 0.027291097 0.9980346 -0.052376822
759716981.13208 0.99778342 -0.053860307 0.0015300745 0.027462771 0.0015406506 0.027643908 0.99799812 -0.053229779
769713207.54717 0.99766469 -0.054623753 0.0015831375 0.027801497 0.0016069794 0.027986985 0.99774504 -0.053926736
779709433.96226 0.99787349 -0.055278376 0.0016220579 0.028158141 0.0016150089 0.028370872 0.99758136 -0.054626215
789705660.37736 0.99766004 -0.056283176 0.0016835164 0.028487222 0.0016805511 0.028689303 0.99726951 -0.055369794
799701886.79245 0.99766123 -0.057158977 0.0017071068 0.028828844 0.0017116712 0.029044732 0.99709189 -0.05599016
809698113.20755 0.9975825 -0.057753846 0.0016848794 0.029204285 0.001724394 0.029378969 0.99713087 -0.056507468
819694339.62264 0.99735808 -0.058445454 0.0017389548 0.029517356 0.0017630672 0.029744634 0.99734575 -0.05713439
829690566.03774 0.99742013 -0.059018165 0.0017677145 0.029916793 0.0018158965 0.030081157 0.99755698 -0.058071822
839686792.45283 0.99738443 -0.059564024 0.0017901491 0.03023616 0.0018216604 0.030427637 0.9976294 -0.058929175
849683018.86792 0.99763805 -0.060216703 0.0018838067 0.030613376 0.0018891741 0.030847445 0.99748749 -0.059773326
859679245.28302 0.99757373 -0.060924649 0.001899736 0.030969495 0.0019100634 0.031196132 0.99722481 -0.060323864
869675471.69811 0.99755371 -0.061797142 0.0019712457 0.031311397 0.0019814698 0.031511951 0.99683976 -0.06093061
879671698.11321 0.99740565 -0.062478919 0.0019860803 0.031644441 0.0019915374 0.031881522 0.9967978 -0.061353564
889667924.5283 0.99714917 -0.063343793 0.0020398181 0.031999137 0.0020385412 0.032207914 0.99659842 -0.06191951
899664150.9434 0.99695623 -0.064107329 0.0020796638 0.032360893 0.0020889137 0.032559231 0.99671686 -0.062596321
909660377.35849 0.99697322 -0.064898103 0.0020929701 0.032703094 0.0021353695 0.032928299 0.99683547 -0.063563004
919656603.77358 0.99700367 -0.065576151 0.0021312539 0.033057455 0.0021619904 0.033319898 0.99682665 -0.064509436
929652830.18868 0.99702567 -0.06633985 0.0021616621 0.033377796 0.0021651275 0.033638753 0.99671537 -0.065428257
939649056.60377 0.99717343 -0.066975206 0.0022147391 0.033739276 0.0021897163 0.033982947 0.99652207 -0.066156149
949645283.01887 0.99714196 -0.067836568 0.0021813712 0.034097843 0.0022208411 0.034338191 0.99625492 -0.066707
959641509.43396 0.99712598 -0.06853202 0.0022241669 0.034476534 0.0022425558 0.034716628 0.99618131 -0.067220151
969637735.84906 0.9969697 -0.069310695 0.0023248326 0.034880564 0.0023247777 0.035110049 0.99621153 -0.067587286
979633962.26415 0.99679565 -0.070057221 0.0023772798 0.035200976 0.0023748113 0.035449535 0.99620873 -0.068275772
989630188.67925 0.99680173 -0.070585012 0.0023929616 0.03555847 0.0023958357 0.035817172 0.99640739 -0.068921477
999626415.09434 0.99679416 -0.071330875 0.0024388544 0.035896782 0.0024430212 0.036223076 0.99626452 -0.069868773
1009622641.5094 0.99683243 -0.071914196 0.002476288 0.036285378 0.0024940688 0.036585804 0.99611753 -0.070751101
1019618867.9245 0.99687952 -0.072820157 0.0025242167 0.036666594 0.00257341 0.036950413 0.99582458 -0.071659878
1029615094.3396 0.99692678 -0.073893696 0.0025904253 0.036982097 0.0026273094 0.037259635 0.99548674 -0.072258621
1039611320.7547 0.99691069 -0.074798971 0.0026927032 0.037313543 0.0026773382 0.037607517 0.99542236 -0.072949171
1049607547.1698 0.99674946 -0.075793602 0.0026966061 0.037649039 0.0027011316 0.03793595 0.99536991 -0.073568135
1059603773.5849 0.99653882 -0.076469243 0.0027662907 0.037934054 0.002757147 0.038255595 0.99545121 -0.074126452
1069600000 0.99637228 -0.077089101 0.0027342439 0.038309991 0.0027944334 0.038608033 0.99551117 -0.07484895
1079596226.4151 0.99629748 -0.077763729 0.0027726907 0.038662173 0.0028321641 0.03895317 0.99548322 -0.075719088
1089592452.8302 0.99629593 -0.078405797 0.0028127544 0.039014682 0.0028604874 0.039316215 0.99544257 -0.076411337
1099588679.2453 0.99631524 -0.079104751 0.0028380193 0.039349392 0.0028960276 0.039675377 0.99509919 -0.077038318
1109584905.6604 0.99649185 -0.079997107 0.0028593782 0.039750423 0.0029015271 0.04003584 0.99484748 -0.07765612
1119581132.0755 0.99636734 -0.081069283 0.0029141805 0.040132105 0.0029157195 0.040449269 0.9946304 -0.07808245
1129577358.4906 0.99624348 -0.081866682 0.0029165689 0.040540714 0.0029678456 0.040818501 0.99456358 -0.078632444
1139573584.9057 0.99595213 -0.08282277 0.002959813 0.040878221 0.0030538384 0.041180581 0.99459922 -0.079311937
1149569811.3208 0.99580061 -0.083678797 0.0030406141 0.041222941 0.0031290157 0.041532278 0.99471778 -0.080103211
1159566037.7358 0.99560386 -0.084381312 0.0031056255 0.041574009 0.0031690542 0.041874744 0.99477327 -0.081179827
1169562264.1509 0.99542511 -0.085022718 0.0030784346 0.041882928 0.0031887125 0.042246331 0.99466658 -0.081961781
1179558490.566 0.99543947 -0.085831575 0.0031254936 0.042279683 0.0032594579 0.042607233 0.99442822 -0.082721204
1189554716.9811 0.99538481 -0.086487591 0.0031779967 0.042663813 0.0033105621 0.042959657 0.99414641 -0.08328566
1199550943.3962 0.99529588 -0.087419301 0.0032310374 0.043033123 0.0033548679 0.043333746 0.99395132 -0.083684802
1209547169.8113 0.99516946 -0.088356972 0.0033112876 0.043413658 0.0033986289 0.043666169 0.99386042 -0.084054649
1219543396.2264 0.99494278 -0.089165829 0.0033483319 0.043769918 0.0034521609 0.044123024 0.99396455 -0.084454283
1229539622.6415 0.99456799 -0.090074599 0.0034014471 0.044136144 0.0035346113 0.044477195 0.9941259 -0.085184127
1239535849.0566 0.99430931 -0.090771884 0.0034680776 0.044465229 0.0035829917 0.044792917 0.99414444 -0.086241841
1249532075.4717 0.9940418 -0.091529772 0.0035503046 0.044834785 0.0036791419 0.045144781 0.99397391 -0.087024033
1259528301.8868 0.99378443 -0.092066288 0.0035941731 0.045174215 0.0037552696 0.045451295 0.9937011 -0.088009894
1269524528.3019 0.9936713 -0.092816949 0.0037006754 0.045529302 0.0038422123 0.045784656 0.99347895 -0.088678986
1279520754.717 0.99325335 -0.093637571 0.0037501762 0.04584422 0.0039070654 0.046090413 0.99315417 -0.089269012
1289516981.1321 0.99315482 -0.094404519 0.0037766844 0.046165843 0.0038948944 0.046421822 0.99320436 -0.089752704
1299513207.5472 0.99277151 -0.095298707 0.0037573762 0.046491612 0.0038916823 0.046753604 0.99339205 -0.090117455
1309509433.9623 0.99224007 -0.096023113 0.0038057687 0.046837099 0.0039447639 0.047082532 0.99344569 -0.0908764
1319505660.3774 0.99188232 -0.09682022 0.0038386285 0.047193907 0.0039686579 0.047449503 0.99348134 -0.091560572
1329501886.7925 0.99152792 -0.097389072 0.0038592648 0.047576003 0.0040306989 0.047803152 0.99346703 -0.092473537
1339498113.2075 0.99121046 -0.097923547 0.0038902694 0.047911108 0.0040612109 0.04814085 0.99301946 -0.093328983
1349494339.6226 0.99112898 -0.098537572 0.0038748379 0.048309777 0.0040199324 0.048537288 0.99262977 -0.093928933
1359490566.0377 0.99093258 -0.099260688 0.0038801208 0.048627812 0.0040500797 0.048918359 0.99243635 -0.094478875
1369486792.4528 0.9907881 -0.099789828 0.0039466247 0.049057353 0.0040527303 0.049257565 0.99227643 -0.095012516
1379483018.8679 0.99045753 -0.10044622 0.0039653876 0.049472056 0.0040594437 0.049669467 0.9922713 -0.095367514
1389479245.283 0.99014181 -0.10106385 0.0040408392 0.049845822 0.0041267332 0.050044008 0.99218994 -0.096073598
1399475471.6981 0.98966962 -0.10139102 0.004035715 0.050223351 0.0041588936 0.050439879 0.99236745 -0.096797645
1409471698.1132 0.98937869 -0.10171432 0.0040770127 0.050616365 0.0042257216 0.050870497 0.99237883 -0.097739324
1419467924.5283 0.98916888 -0.10206702 0.004147755 0.051017527 0.0042159334 0.051236421 0.99213696 -0.098388433
1429464150.9434 0.98897552 -0.10249034 0.0041566752 0.051459786 0.004304219 0.051695004 0.99207151 -0.098971546
1439460377.3585 0.98917085 -0.10300037 0.0042748554 0.051942363 0.0043435693 0.052153375 0.99179178 -0.099335939
1449456603.7736 0.98923951 -0.10362491 0.0043742983 0.052362792 0.0044581881 0.052558355 0.99166125 -0.099679291
1459452830.1887 0.98919868 -0.10430217 0.004527824 0.052805692 0.0045931563 0.053024065 0.99174881 -0.10002136
1469449056.6038 0.98913091 -0.10510999 0.0047419779 0.053187795 0.0047250576 0.053366274 0.99195915 -0.10070553
1479445283.0189 0.98899692 -0.10571249 0.0048365705 0.053502694 0.0048855138 0.053713597 0.99195713 -0.10168786
1489441509.434 0.98892367 -0.10623321 0.0049649943 0.053818837 0.0050266348 0.054045029 0.99191785 -0.10264087
1499437735.8491 0.98873043 -0.10664773 0.0050873831 0.054134261 0.0051389951 0.054350991 0.99174023 -0.10343605
1509433962.2642 0.98873001 -0.10713251 0.005219325 0.05440541 0.0052526384 0.054700721 0.99159068 -0.10422842
1519430188.6792 0.988855 -0.10773277 0.0052927937 0.054719776 0.0052878223 0.054985128 0.99136555 -0.10477373
1529426415.0943 0.98879564 -0.10844105 0.0053688325 0.055057988 0.0053235702 0.055277981 0.99131727 -0.10522929
1539422641.5094 0.98880875 -0.10920296 0.0053844461 0.055333745 0.0054162829 0.055628598 0.99147767 -0.10567328
1549418867.9245 0.98865914 -0.1101177 0.0054870676 0.055659749 0.0054758508 0.055939168 0.99167448 -0.10643984
1559415094.3396 0.98853993 -0.11084861 0.0055424422 0.055949949 0.0055030808 0.056252688 0.99180996 -0.10714331
1569411320.7547 0.98831481 -0.11155343 0.00558885 0.056274138 0.0055694114 0.056567527 0.99176496 -0.10799862
1579407547.1698 0.98813933 -0.11213507 0.005613572 0.056591298 0.0056415992 0.05687061 0.99130583 -0.10887191
1589403773.5849 0.98804915 -0.11265084 0.0056572054 0.056881465 0.0056588985 0.057198957 0.99102378 -0.10964927
1599400000 0.98816401 -0.11325741 0.0056459662 0.057221714 0.0056108832 0.057532087 0.99059904 -0.11018699
1609396226.4151 0.98809111 -0.11389584 0.0056639621 0.05757159 0.0056244419 0.057896644 0.9904294 -0.11067443
1619392452.8302 0.98817813 -0.11453271 0.0056638289 0.057957042 0.0055819806 0.058274969 0.99048698 -0.111072
1629388679.2453 0.98786569 -0.11532333 0.0057112128 0.05836438 0.0056484714 0.058687981 0.99069476 -0.1117388
1639384905.6604 0.98749715 -0.11596684 0.005712335 0.058739427 0.0057000737 0.05907971 0.9908939 -0.11256747
1649381132.0755 0.9872793 -0.11673373 0.0057257675 0.059112497 0.005705975 0.059448026 0.99079674 -0.11350322
1659377358.4906 0.987149 -0.11746186 0.0057806578 0.05952277 0.0057803486 0.059837133 0.99076068 -0.11443558
1669373584.9057 0.98715478 -0.11796697 0.0058253193 0.059917875 0.0057804547 0.060275875 0.9904238 -0.1151315
1679369811.3208 0.9871797 -0.11868015 0.0059027039 0.060330965 0.0058899447 0.060721267 0.99027026 -0.11567169
1689366037.7358 0.98703068 -0.11931926 0.0059403144 0.060719408 0.0059104338 0.061152503 0.99002075 -0.11596891
1699362264.1509 0.98721522 -0.12000522 0.0060160067 0.061119851 0.0059844572 0.061509449 0.99020159 -0.11643289
1709358490.566 0.98709249 -0.12072319 0.0061158687 0.061509989 0.0060787397 0.061945334 0.99016005 -0.11706015
1719354716.9811 0.98679972 -0.12132397 0.0061978176 0.061953921 0.006195534 0.062337659 0.9902935 -0.11789975
1729350943.3962 0.98646951 -0.12194002 0.0062860772 0.06234397 0.0062586255 0.06268847 0.99025053 -0.11872897
