!Keysight Technologies,N5222B,MY61253708,A.15.00.15
!Date: Wednesday, June 19, 2024 10:10:38
!Correction: S11(C  2-Port  ) 
!S21(C  2-Port  ) 
!S12(C  2-Port  ) 
!S22(C  2-Port  ) 
!S2P File: Measurements: S11, S21, S12, S22:
# Hz S  RI   R 50
10000000 0.99883157 -0.0028883219 9.6741795e-005 0.00023894648 -6.6546927e-005 0.00037889436 0.99848205 -0.0016202927
19996226.415094 1.0002939 -0.0026445389 0.00010074012 0.00066235178 9.6614793e-005 0.00069970288 1.0001632 -0.0024413466
29992452.830189 0.99974442 -0.0024618506 -3.2799784e-005 0.0011418152 1.0012096e-005 0.00096707651 0.99950278 -0.002735585
39988679.245283 1.0000564 -0.0029488355 1.2606324e-007 0.001297592 -1.1435259e-005 0.0013793077 0.99966818 -0.0030841827
49984905.660377 1.0002549 -0.0036374629 7.6116412e-006 0.0016464052 -4.8673246e-006 0.0016505842 0.99982893 -0.0036120117
59981132.075472 1.0003835 -0.0044481456 3.8729282e-005 0.0018921606 3.8523576e-005 0.0019816544 0.99986404 -0.0041848123
69977358.490566 1.0002737 -0.0050146785 3.0176474e-005 0.0022855685 2.3458822e-005 0.002304083 0.99970436 -0.0047734827
79973584.90566 1.0000175 -0.0056838989 -2.4970039e-005 0.0026270191 4.2186002e-005 0.0025907867 0.99938613 -0.0052453578
89969811.320755 0.99996972 -0.0057283342 3.88833e-005 0.0029506944 1.967873e-005 0.0029527801 0.9995904 -0.0054290593
99966037.735849 1.0002612 -0.0064587742 3.2264099e-005 0.0032722782 9.3293493e-006 0.0032596032 0.99965394 -0.0062302053
109962264.15094 1.000272 -0.007364139 2.2397668e-005 0.0035782233 2.9991555e-005 0.0036196001 0.99965852 -0.0070122182
119958490.56604 1.0002934 -0.0082679987 3.5057426e-005 0.003920509 3.6985846e-005 0.0039405487 0.99967408 -0.0078622699
129954716.98113 1.0002553 -0.0091741979 4.7000474e-005 0.0042595454 4.8510381e-005 0.0042636064 0.99971062 -0.0087251067
139950943.39623 1.0001916 -0.0099412985 2.7576389e-005 0.0045763575 4.8862246e-005 0.0045901551 0.99962956 -0.009456886
149947169.81132 1.0000333 -0.010623276 5.1035546e-005 0.0049055726 3.775931e-005 0.0049170768 0.99957794 -0.010090202
159943396.22642 0.99996603 -0.011191845 5.9858663e-005 0.0052151131 6.1046099e-005 0.0052584261 0.99964046 -0.010552287
169939622.64151 0.999946 -0.011573844 7.0447742e-005 0.0055578537 5.1360228e-005 0.005589237 0.99967939 -0.011015065
179935849.0566 0.99998879 -0.011796534 6.4662425e-005 0.0058820881 6.7135319e-005 0.0059234397 0.99956751 -0.01138106
189932075.4717 1.0001817 -0.012578815 5.8437465e-005 0.0061957454 7.4317679e-005 0.0062288679 0.99976885 -0.011917651
199928301.88679 1.0001273 -0.013352036 9.8231598e-005 0.0065298891 8.0380123e-005 0.0065431627 0.99962962 -0.012757003
209924528.30189 0.9998284 -0.013974771 8.0473372e-005 0.0068720146 8.0616097e-005 0.0068800622 0.99946433 -0.013396084
219920754.71698 1.0000193 -0.014746279 9.7901328e-005 0.0071736379 0.0001144046 0.0072138915 0.99936473 -0.014013827
229916981.13208 0.99980426 -0.015641183 0.00010467879 0.0075297072 0.00010547112 0.0075480361 0.9993906 -0.014853239
239913207.54717 0.99970073 -0.016257653 0.0001332156 0.0078233862 0.00014106389 0.0078692753 0.9993059 -0.015561806
249909433.96226 0.99966514 -0.016878128 0.00013096514 0.0081612384 0.00014067814 0.0081896838 0.99939919 -0.016143918
259905660.37736 0.9997251 -0.017501354 0.00012937421 0.0085219638 0.00015748711 0.0085155861 0.99954081 -0.01671195
269901886.79245 0.99977124 -0.018234849 0.00014945876 0.008776675 0.00013352395 0.0088600395 0.99994802 -0.017424032
279898113.20755 0.99989092 -0.018836409 0.00018823822 0.009130422 0.00017095194 0.0091754589 0.99976999 -0.01814343
289894339.62264 0.99984229 -0.019501656 0.00017783744 0.0095022693 0.00018951204 0.0095055513 0.99968994 -0.018942088
299890566.03774 0.99976945 -0.019975632 0.00018054177 0.0098156407 0.00020511169 0.0098555712 0.99943221 -0.019371808
309886792.45283 0.99961281 -0.02054929 0.00020460674 0.010120188 0.00019901304 0.010168695 0.99935246 -0.019739985
319883018.86792 0.99983191 -0.021171123 0.00020964583 0.010430458 0.00019441312 0.010534558 0.99951565 -0.020261973
329879245.28302 0.99980938 -0.02188617 0.00024440279 0.010769601 0.0002456964 0.010818104 0.9994818 -0.021071762
339875471.69811 0.99972457 -0.022735246 0.00024808501 0.011147618 0.0002197912 0.011140367 0.99943757 -0.021863677
349871698.11321 0.99982274 -0.023580045 0.0002884157 0.011446683 0.00026989891 0.011468454 0.99948871 -0.022711337
359867924.5283 0.99964571 -0.024328947 0.00027358299 0.011762349 0.00027046679 0.011790233 0.99944782 -0.023612052
369864150.9434 0.99977362 -0.025096208 0.00027238671 0.012102942 0.0002888944 0.012179032 0.99945158 -0.024256885
379860377.35849 0.99963832 -0.025822893 0.00029407232 0.012369001 0.0002716044 0.012427373 0.99931043 -0.024927109
389856603.77358 0.99966991 -0.026368201 0.0003347462 0.012755758 0.00035320455 0.012751097 0.99936187 -0.02543214
399852830.18868 0.9994083 -0.027102232 0.00036476273 0.013021037 0.00035218801 0.013102625 0.99941075 -0.025920659
409849056.60377 0.99942881 -0.027454229 0.00038840732 0.013386266 0.00034590988 0.013423386 0.99940908 -0.026430305
419845283.01887 0.99930698 -0.027999818 0.00036431011 0.013695922 0.00038967514 0.013739866 0.99934 -0.026945353
429841509.43396 0.99935901 -0.028526902 0.00039463211 0.014022468 0.00040511973 0.014117141 0.99954289 -0.027746975
439837735.84906 0.99924088 -0.029501736 0.00040906039 0.014327674 0.00047141174 0.014430037 0.99929434 -0.028662667
449833962.26415 0.99900579 -0.030262351 0.00042436039 0.014654575 0.00042496994 0.014717447 0.99903607 -0.029427618
459830188.67925 0.99887598 -0.030886948 0.00040243147 0.014979187 0.00042001763 0.015068751 0.99872518 -0.030134171
469826415.09434 0.99878383 -0.031594664 0.00047480641 0.015324296 0.00047091069 0.015401292 0.99853408 -0.030725121
479822641.50943 0.99871904 -0.032157227 0.00047088484 0.015665764 0.00048746075 0.015727369 0.99851292 -0.031084754
489818867.92453 0.99880183 -0.03265509 0.00052222284 0.015998406 0.00051894365 0.01605376 0.99879432 -0.031656235
499815094.33962 0.99887145 -0.033254772 0.00051876344 0.016282311 0.00055000745 0.016364368 0.99903685 -0.032262921
509811320.75472 0.99895805 -0.033617236 0.00055919215 0.016603213 0.00055208598 0.01667949 0.99915773 -0.033007719
519807547.16981 0.99889743 -0.03410241 0.00056680292 0.016933735 0.00057000667 0.017010214 0.99918473 -0.033757329
529803773.58491 0.99890018 -0.034627736 0.00058883522 0.017284282 0.00056129787 0.017377838 0.99893606 -0.034302801
539800000 0.99902493 -0.035358533 0.00060546817 0.017626457 0.00061516394 0.017650384 0.9989022 -0.034930527
549796226.41509 0.99885046 -0.03608188 0.00060429657 0.017940886 0.00061163958 0.018016405 0.99866223 -0.035397798
559792452.83019 0.99865639 -0.036856383 0.00064290967 0.018244836 0.00065180566 0.018334121 0.9986397 -0.03589955
569788679.24528 0.99858189 -0.037546545 0.0006759949 0.01857054 0.00065647997 0.018678689 0.99872935 -0.036628485
579784905.66038 0.99856365 -0.037986659 0.00071702187 0.018907292 0.00071581278 0.018953407 0.99880916 -0.037399091
589781132.07547 0.99864185 -0.038646281 0.00075676292 0.01923747 0.00075547397 0.019310841 0.99896824 -0.038241923
599777358.49057 0.99880558 -0.039327681 0.0007655425 0.019518908 0.00076257996 0.019649316 0.99893934 -0.038966447
609773584.90566 0.99890935 -0.039988823 0.00079625333 0.019903846 0.00078464218 0.019979332 0.99886775 -0.039827302
619769811.32075 0.99898392 -0.040715128 0.00079640048 0.020249467 0.00080516515 0.02029725 0.99885547 -0.0403907
629766037.73585 0.99891829 -0.041309983 0.00086189155 0.020521764 0.00081415288 0.020614084 0.99864376 -0.040893734
639762264.15094 0.99875432 -0.041984499 0.00086459052 0.020800428 0.00085866405 0.020897314 0.9984827 -0.041405037
649758490.56604 0.9986769 -0.042505205 0.0008815527 0.021143736 0.0008895332 0.021235077 0.99861753 -0.041797519
659754716.98113 0.99854064 -0.043073207 0.00087573566 0.021446262 0.00087616313 0.021602411 0.99862081 -0.042361081
669750943.39623 0.99856317 -0.043583035 0.000889841 0.021833086 0.00088227727 0.021932129 0.99868333 -0.043120533
679747169.81132 0.99855882 -0.044305652 0.00096302235 0.022148108 0.00096333853 0.022271942 0.99866384 -0.044086419
689743396.22642 0.99874151 -0.045162201 0.00099875778 0.022468489 0.0010053869 0.022599485 0.99850965 -0.044977844
699739622.64151 0.99881506 -0.045842081 0.0010222588 0.022799447 0.001056727 0.022896152 0.99846673 -0.045660794
709735849.0566 0.99874735 -0.046788178 0.0010790717 0.023117118 0.0010819506 0.023210902 0.99819779 -0.046268597
719732075.4717 0.99867076 -0.047516435 0.0011023479 0.023413403 0.0010918821 0.023538437 0.99823368 -0.046859473
729728301.88679 0.998577 -0.048029453 0.0011353092 0.023725577 0.0011660196 0.023849117 0.99832308 -0.047328234
739724528.30189 0.99848241 -0.048713788 0.0011497494 0.024078241 0.0011650743 0.024181757 0.99846947 -0.04805015
749720754.71698 0.99837822 -0.049200922 0.0011775699 0.024346678 0.0012000734 0.024510747 0.99852037 -0.048699483
759716981.13208 0.998487 -0.049805135 0.0012167478 0.024697319 0.0012127087 0.024805747 0.99850202 -0.049413979
769713207.54717 0.99839514 -0.050489664 0.0012427634 0.02500486 0.0012410292 0.025098227 0.99818927 -0.050159514
779709433.96226 0.99855876 -0.051030811 0.0012626721 0.025316689 0.0012546682 0.025445295 0.99801886 -0.050775502
789705660.37736 0.99833935 -0.051905334 0.0012974543 0.025652498 0.0013032062 0.025776535 0.99776226 -0.051467657
799701886.79245 0.99832577 -0.05268234 0.0013468461 0.025946073 0.0013314011 0.026078345 0.99762976 -0.052046001
809698113.20755 0.99824619 -0.053312227 0.0013573635 0.026252542 0.0013475777 0.026401451 0.99764872 -0.052495196
819694339.62264 0.99798077 -0.053975999 0.001366233 0.026583545 0.0013707527 0.026728451 0.99772012 -0.053135425
829690566.03774 0.99801117 -0.054605663 0.0014074864 0.026919689 0.0014372971 0.027055357 0.99801707 -0.053939551
839686792.45283 0.99802828 -0.055028409 0.0014618784 0.027223494 0.001457734 0.027361803 0.99802017 -0.054805309
849683018.86792 0.9981696 -0.055675417 0.0014719719 0.027549084 0.0014835289 0.027648449 0.99790865 -0.055508457
859679245.28302 0.99817646 -0.056394339 0.0014864523 0.027870895 0.0015228027 0.028013973 0.99763095 -0.056168109
869675471.69811 0.99811208 -0.057059884 0.0015916433 0.028208843 0.0015715118 0.028333006 0.9973309 -0.056690067
879671698.11321 0.99809599 -0.057738371 0.0015836122 0.028495567 0.0015891565 0.028629614 0.99731171 -0.057070814
889667924.5283 0.99783027 -0.058458418 0.0015966762 0.028779756 0.0016106209 0.028943278 0.99714792 -0.057571471
899664150.9434 0.99772161 -0.059195131 0.0016193893 0.029093064 0.0016555488 0.029245632 0.99722362 -0.058153778
909660377.35849 0.99765849 -0.05985108 0.0016538505 0.029427234 0.0016688923 0.029559722 0.99731177 -0.059034243
919656603.77358 0.99771285 -0.060474396 0.0016937861 0.029744519 0.0016744696 0.02989587 0.99742055 -0.059848815
929652830.18868 0.99769723 -0.061161339 0.0017255759 0.030037019 0.0017001517 0.030210465 0.99725235 -0.060764402
939649056.60377 0.997868 -0.061819106 0.0017229617 0.030351903 0.0017378964 0.030511675 0.99706787 -0.06141308
949645283.01887 0.9978897 -0.062619716 0.0017222723 0.030702554 0.0017251914 0.03084344 0.99688238 -0.061960854
959641509.43396 0.99783051 -0.063304812 0.0017660446 0.031058833 0.0017928444 0.031250421 0.99682933 -0.062477738
969637735.84906 0.99775445 -0.064021707 0.0018281722 0.031415198 0.0018065162 0.031579204 0.99681902 -0.06282559
979633962.26415 0.99759936 -0.064737543 0.0018628335 0.031691976 0.0018699067 0.031867653 0.9968788 -0.063502558
989630188.67925 0.99760813 -0.065191776 0.0018922323 0.032023992 0.001871801 0.032192174 0.99704552 -0.064050466
999626415.09434 0.99770308 -0.065837026 0.0019185198 0.032298535 0.0019341363 0.032510359 0.9970147 -0.064901441
1009622641.5094 0.99767751 -0.066388458 0.0019395999 0.03265699 0.0019767042 0.032856174 0.99683285 -0.065685585
1019618867.9245 0.99776077 -0.067246974 0.0020055752 0.032979496 0.0020241765 0.03316753 0.99659181 -0.0664974
1029615094.3396 0.99775189 -0.068179667 0.002066656 0.033264458 0.00207364 0.033471853 0.99624234 -0.067057669
1039611320.7547 0.99780941 -0.068946511 0.0020789709 0.033594161 0.0020873826 0.033747856 0.99620414 -0.067745864
1049607547.1698 0.99767625 -0.06984625 0.0020901482 0.033868179 0.00211639 0.034059517 0.99621934 -0.068323761
1059603773.5849 0.99758017 -0.070545346 0.0021160049 0.03416907 0.0021508895 0.034337714 0.99615836 -0.068868101
1069600000 0.99732894 -0.071190625 0.0021194071 0.034461878 0.0021791663 0.034679286 0.996373 -0.069571495
1079596226.4151 0.99736255 -0.07189782 0.0021286178 0.034798689 0.0022035674 0.034998272 0.996378 -0.070366636
1089592452.8302 0.99738908 -0.072509736 0.0021889657 0.035131514 0.0022043856 0.035318509 0.99628955 -0.07105571
1099588679.2453 0.99750721 -0.07318303 0.0021685231 0.035445862 0.0022274647 0.035637259 0.99603331 -0.071672022
1109584905.6604 0.99756485 -0.073960319 0.0022072727 0.035779215 0.0022662627 0.035992604 0.99578857 -0.072233096
1119581132.0755 0.99755692 -0.074877501 0.0022228151 0.036123641 0.002252738 0.036310315 0.99557889 -0.072662637
1129577358.4906 0.99735224 -0.075601995 0.0022595041 0.036481835 0.0023222938 0.036674112 0.99549061 -0.07310608
1139573584.9057 0.99711329 -0.076543391 0.0023003509 0.036790762 0.0023788465 0.037006449 0.99564713 -0.073768705
1149569811.3208 0.99700207 -0.077348255 0.002352912 0.037147295 0.0024451832 0.037351694 0.99571788 -0.074376039
1159566037.7358 0.99681866 -0.078037649 0.0023824153 0.037432715 0.0024592848 0.037624281 0.99580961 -0.075415403
1169562264.1509 0.99664962 -0.078628719 0.0023999251 0.037717596 0.0024649967 0.037947886 0.99563432 -0.076238334
1179558490.566 0.99664372 -0.079399824 0.0024031796 0.038110834 0.0024805092 0.038316011 0.99556369 -0.076924689
1189554716.9811 0.99662596 -0.080209881 0.0024415525 0.038424015 0.0025652479 0.038648188 0.99521959 -0.077483535
1199550943.3962 0.99659777 -0.081060201 0.0024611689 0.03878158 0.0025926568 0.038984999 0.99504912 -0.077919394
1209547169.8113 0.99644297 -0.08185716 0.0025298735 0.039101347 0.002616439 0.039264008 0.99493855 -0.078249633
1219543396.2264 0.99615437 -0.082645118 0.0025743181 0.03947052 0.0026702802 0.039651293 0.99501979 -0.078596354
1229539622.6415 0.99593461 -0.083390683 0.0026326068 0.039786093 0.0027101319 0.039966602 0.99521971 -0.079259098
1239535849.0566 0.9957639 -0.084113151 0.0026844926 0.040087748 0.0028139567 0.040271956 0.99528337 -0.080156207
1249532075.4717 0.99538052 -0.084748253 0.0027487939 0.040422358 0.0028574085 0.040580723 0.99515522 -0.080935612
1259528301.8868 0.99524099 -0.085237771 0.0027999301 0.040729016 0.002915388 0.040909156 0.99494714 -0.081884772
1269524528.3019 0.99499375 -0.085982114 0.0028545242 0.041024793 0.0030072099 0.041215755 0.99475408 -0.082495123
1279520754.717 0.99474156 -0.086687885 0.0029157409 0.04133467 0.0030511918 0.041449577 0.99448568 -0.083053142
1289516981.1321 0.99456692 -0.087428212 0.0029090969 0.041603487 0.003028593 0.041779317 0.99457908 -0.083487988
1299513207.5472 0.99426687 -0.088369101 0.0029383097 0.041901022 0.003055457 0.042085424 0.99462849 -0.083856553
1309509433.9623 0.99383712 -0.089035347 0.0029633548 0.042232752 0.0030625947 0.04234758 0.9947719 -0.084653422
1319505660.3774 0.99351227 -0.089760974 0.0029606456 0.04254682 0.0030731177 0.042673133 0.99476653 -0.085258886
1329501886.7925 0.9932065 -0.090426683 0.0029916074 0.042889558 0.0030974448 0.042985253 0.99474865 -0.086166203
1339498113.2075 0.99295431 -0.090925664 0.0029983539 0.043170206 0.0031054374 0.043306708 0.99442863 -0.086885244
1349494339.6226 0.99282187 -0.091520756 0.0029718447 0.043498762 0.0030898256 0.043637909 0.99403226 -0.087450311
1359490566.0377 0.99267459 -0.091951609 0.0030035265 0.04387556 0.0031039827 0.044008717 0.99389672 -0.088011473
1369486792.4528 0.99245775 -0.092553765 0.0029933844 0.044241004 0.0031313635 0.044327255 0.99370408 -0.088460386
1379483018.8679 0.9921903 -0.093076214 0.0030397989 0.044574998 0.0031030609 0.044693202 0.99370462 -0.088729933
1389479245.283 0.99189091 -0.093650728 0.0030437578 0.04499235 0.0031623058 0.04508207 0.99370044 -0.089463413
1399475471.6981 0.99148929 -0.094042957 0.0030901134 0.045298219 0.0031396709 0.045427129 0.99384654 -0.090122163
1409471698.1132 0.99119949 -0.094415218 0.0031189162 0.04567926 0.0032014537 0.045796603 0.9938665 -0.090910718
1419467924.5283 0.99098629 -0.094747663 0.0031334097 0.046040237 0.0032230439 0.046156049 0.99375594 -0.091638803
1429464150.9434 0.99086076 -0.095190287 0.0032108296 0.046460085 0.0032160524 0.046570219 0.99360222 -0.092187583
1439460377.3585 0.99104917 -0.09569712 0.0032806592 0.046900999 0.0033266013 0.046962682 0.99336624 -0.092586637
1449456603.7736 0.99100918 -0.096223831 0.0034002177 0.047266725 0.0034238454 0.047370683 0.99325538 -0.092965886
1459452830.1887 0.9910866 -0.096756607 0.0035036933 0.047678053 0.003533328 0.04776378 0.99338686 -0.093239099
1469449056.6038 0.9910627 -0.097466916 0.0036537964 0.048006784 0.0036724741 0.04810226 0.99358046 -0.093821198
1479445283.0189 0.99097049 -0.098072797 0.0037761733 0.048277177 0.0038019884 0.04840726 0.99359423 -0.094737694
1489441509.434 0.99089491 -0.098537147 0.0039099883 0.048614144 0.0039255936 0.048689887 0.99359763 -0.095558763
1499437735.8491 0.99075627 -0.098928243 0.0039937235 0.048882872 0.0040283985 0.048974857 0.99352014 -0.09637934
1509433962.2642 0.9906767 -0.099362865 0.0040947013 0.049128536 0.0041109174 0.049237043 0.99325144 -0.09710142
1519430188.6792 0.99080861 -0.099954575 0.0041791704 0.049358506 0.004173236 0.049514621 0.99315166 -0.097697705
1529426415.0943 0.99076927 -0.10064468 0.0042277146 0.049690634 0.0041934717 0.049776737 0.99302351 -0.098094195
1539422641.5094 0.99086261 -0.10145172 0.0042671491 0.049955588 0.0042916317 0.050081436 0.99313098 -0.098575443
1549418867.9245 0.99062407 -0.10222873 0.0043246653 0.050250374 0.0043498687 0.050356962 0.9933067 -0.099279627
1559415094.3396 0.99054956 -0.10292554 0.0043770932 0.050528184 0.0043519586 0.050628949 0.99345136 -0.099967003
1569411320.7547 0.99041736 -0.10359266 0.0044190614 0.050788749 0.0043827584 0.050944068 0.99342877 -0.1007207
1579407547.1698 0.99036074 -0.10410175 0.0044356543 0.051082533 0.0043879324 0.051184881 0.99309361 -0.10154852
1589403773.5849 0.99028277 -0.10464945 0.004450053 0.051344804 0.0044030994 0.051519632 0.99295199 -0.10231525
1599400000 0.99027288 -0.10504675 0.0044382773 0.051641624 0.0044005802 0.051792782 0.99251717 -0.1026696
1609396226.4151 0.99026054 -0.10570139 0.0044273641 0.051930577 0.0043706605 0.052131236 0.99229699 -0.10321975
1619392452.8302 0.99017549 -0.10640883 0.004424233 0.052315079 0.0044008661 0.052489907 0.99222487 -0.1036444
1629388679.2453 0.98998898 -0.10713032 0.0044543352 0.05266064 0.0043875687 0.052822586 0.99248147 -0.10418332
1639384905.6604 0.98983115 -0.10778289 0.0044344501 0.052994695 0.0043950654 0.053201366 0.99274111 -0.1050503
1649381132.0755 0.98964012 -0.10839584 0.0044491515 0.053356986 0.0044460651 0.053545654 0.99268126 -0.10591748
1659377358.4906 0.98941779 -0.10916165 0.004466299 0.053694896 0.0044668838 0.053931259 0.99265277 -0.10672435
1669373584.9057 0.98934084 -0.10954192 0.0045332308 0.054081373 0.0044774483 0.054256856 0.99237686 -0.10738562
1679369811.3208 0.98943311 -0.11023301 0.0045331456 0.054421071 0.0044841319 0.054663874 0.99218696 -0.1079587
1689366037.7358 0.98945802 -0.11093411 0.0045601167 0.054825537 0.004540287 0.055012811 0.99192882 -0.10829228
1699362264.1509 0.98961437 -0.11146919 0.0046534073 0.055165738 0.0045891535 0.055394299 0.99222255 -0.10866252
1709358490.566 0.98953038 -0.11213288 0.0046957778 0.05554774 0.0046455814 0.055754084 0.99220508 -0.1092518
1719354716.9811 0.9891206 -0.11266869 0.0047230497 0.05588001 0.0047325008 0.056151461 0.99220276 -0.10990077
