!Keysight Technologies,N5222B,MY61253708,A.15.00.15
!Date: Wednesday, June 19, 2024 08:49:51
!Correction: S11(C  2-Port  ) 
!S21(C  2-Port  ) 
!S12(C  2-Port  ) 
!S22(C  2-Port  ) 
!S2P File: Measurements: S11, S21, S12, S22:
# Hz S  RI   R 50
10000000 0.99884391 -0.0023459792 -9.8229269e-005 0.0003239935 -3.851892e-007 0.00066600618 0.99839509 -0.00027936697
19996226.415094 0.99918425 -0.0020117164 4.856236e-006 0.00080818485 0.00015604062 0.00072003913 0.99934351 -0.0022246242
29992452.830189 0.99980259 -0.0024897456 5.8162637e-005 0.0011396598 4.0172512e-005 0.0010834435 0.99947399 -0.0027662516
39988679.245283 1.0000536 -0.0032344609 2.2683234e-006 0.0015394228 1.6501945e-005 0.0015432956 0.9996618 -0.0032619387
49984905.660377 1.0001346 -0.0039861798 1.9624247e-005 0.0018802383 1.485541e-005 0.0018604116 0.99981868 -0.0039258897
59981132.075472 1.0002686 -0.0048729777 4.788232e-005 0.0022265739 5.8732694e-006 0.0022743642 0.99970907 -0.0044863522
69977358.490566 1.0000049 -0.0053959712 4.4319939e-005 0.0025737737 1.445278e-005 0.0026202532 0.99956465 -0.0049936753
79973584.90566 0.99979305 -0.0059934258 -1.5627127e-005 0.0029845566 3.3771968e-005 0.0029639653 0.99934822 -0.0055920482
89969811.320755 0.99978828 -0.00623703 3.6552781e-005 0.0033345702 1.6467297e-005 0.0034186551 0.99949718 -0.0059703887
99966037.735849 0.99998319 -0.0070004463 1.6584061e-005 0.0037507589 1.6899779e-005 0.0037794872 0.99951577 -0.0067383498
109962264.15094 1.0000148 -0.0080252439 3.4176046e-005 0.0041110618 6.4719468e-005 0.0041301176 0.99952686 -0.0076342672
119958490.56604 1.000046 -0.0090387464 4.5436667e-005 0.0044770576 5.2468851e-005 0.0044986079 0.99957383 -0.0085895956
129954716.98113 1.0000175 -0.010118276 3.7044403e-005 0.0048599551 4.8317364e-005 0.0048769219 0.99958134 -0.0095688701
139950943.39623 0.99991328 -0.011024123 7.7695062e-005 0.0052151512 6.302337e-005 0.0052670669 0.99947798 -0.010355925
149947169.81132 0.99976039 -0.011701256 8.3534745e-005 0.0056062373 7.7119097e-005 0.0056247888 0.99941438 -0.011006445
159943396.22642 0.99974 -0.012225568 6.8172114e-005 0.005985993 7.9058344e-005 0.0059898943 0.99950695 -0.011477709
169939622.64151 0.99974889 -0.012621507 8.9715759e-005 0.0063523753 8.2210405e-005 0.006383888 0.99958134 -0.011949196
179935849.0566 0.99985915 -0.012863398 9.8321354e-005 0.0067314585 9.3579525e-005 0.0067644464 0.99955076 -0.012402266
189932075.4717 0.99998569 -0.013736516 0.00011175079 0.0071012708 9.8660123e-005 0.0071552671 0.99971795 -0.013058215
199928301.88679 0.99992049 -0.014633358 0.00014557852 0.0074757035 0.00011637527 0.0075435601 0.99961627 -0.01391986
209924528.30189 0.99961394 -0.01543726 0.00013380265 0.0078207031 0.00012677279 0.0078981528 0.99936461 -0.014735788
219920754.71698 0.99957186 -0.016372442 0.00017650588 0.008232506 0.00015523448 0.0082507394 0.99914873 -0.015489161
229916981.13208 0.99933833 -0.017304003 0.00015885057 0.0085745901 0.00014282065 0.0086310664 0.99905425 -0.016338795
239913207.54717 0.99915564 -0.017950635 0.0001737702 0.0089585967 0.00018298985 0.0090163918 0.99905479 -0.017010316
249909433.96226 0.99925715 -0.018575191 0.00017551589 0.0093189115 0.00018683448 0.0093745869 0.99920285 -0.017735958
259905660.37736 0.99931282 -0.019250453 0.00015549455 0.0096999751 0.00017477805 0.0098332521 0.99941999 -0.018372595
269901886.79245 0.99958885 -0.019942343 0.00025199912 0.010155771 0.00020885747 0.010122805 0.99967492 -0.019136891
279898113.20755 0.99972302 -0.020638928 0.00022862852 0.01047294 0.00020598341 0.010465026 0.99952531 -0.019916639
289894339.62264 0.99965668 -0.02140066 0.00024865847 0.010804131 0.0002809111 0.010890903 0.99952412 -0.020653039
299890566.03774 0.99954838 -0.022025913 0.00024419487 0.011177322 0.00027958886 0.01125325 0.99924469 -0.021234214
309886792.45283 0.99931055 -0.022717245 0.00026705407 0.01155585 0.00028816343 0.011632728 0.99904245 -0.021745093
319883018.86792 0.99918884 -0.023336649 0.00032961229 0.01195156 0.00030046841 0.012032448 0.9990927 -0.022244662
329879245.28302 0.99907428 -0.024112612 0.00033779535 0.012306058 0.00033372641 0.012393869 0.99922472 -0.023016542
339875471.69811 0.99908549 -0.024865575 0.00029622647 0.012670319 0.0003446826 0.012780612 0.99913484 -0.023755528
349871698.11321 0.99925125 -0.02576071 0.00039268984 0.013049606 0.00035568234 0.013115156 0.99919266 -0.024767548
359867924.5283 0.99914277 -0.026544392 0.00038468977 0.013376683 0.00038042432 0.013539193 0.99913514 -0.025766879
369864150.9434 0.99934721 -0.027399987 0.00041731098 0.013791828 0.00040307408 0.013869151 0.99915248 -0.026539385
379860377.35849 0.99918908 -0.028102368 0.00045105466 0.01419547 0.00042578648 0.014233632 0.9990561 -0.027262419
389856603.77358 0.99913049 -0.028830707 0.00042352872 0.014552121 0.0004533832 0.014599903 0.99907494 -0.027688444
399852830.18868 0.99901009 -0.029449761 0.00046597049 0.014884196 0.00049556373 0.014964769 0.99911821 -0.028253794
409849056.60377 0.99891943 -0.02979782 0.00048316052 0.015269193 0.00051208807 0.015333519 0.9991315 -0.0286739
419845283.01887 0.99884576 -0.03037557 0.00052046636 0.015645551 0.00049573788 0.015737258 0.99916345 -0.029318005
429841509.43396 0.99895298 -0.031123906 0.00052530039 0.016029604 0.00054149469 0.016142823 0.99930078 -0.030148655
439837735.84906 0.99890798 -0.031899586 0.00058165612 0.016434351 0.00059097912 0.016440468 0.99908984 -0.031173438
449833962.26415 0.99888194 -0.032921553 0.00057929382 0.016746841 0.00058877096 0.016778985 0.99883187 -0.032087386
459830188.67925 0.99874586 -0.033769071 0.00058103818 0.017099302 0.00056915637 0.01715159 0.99864209 -0.032857567
469826415.09434 0.99860513 -0.034558743 0.0006254469 0.017484253 0.00059136143 0.017580211 0.9983362 -0.03351593
479822641.50943 0.99851549 -0.035330534 0.00066421484 0.017876785 0.00064755487 0.017974278 0.99841398 -0.033994891
489818867.92453 0.99861944 -0.035764992 0.00066516921 0.018275555 0.00070190523 0.018323813 0.99876153 -0.034560561
499815094.33962 0.99882364 -0.036490053 0.00071455166 0.018644746 0.00070745358 0.018693766 0.99899483 -0.035227865
509811320.75472 0.99881172 -0.036800515 0.00069638039 0.018993625 0.00072168693 0.019116661 0.9991129 -0.036150627
519807547.16981 0.9988004 -0.037556589 0.00076442678 0.019352198 0.00076483423 0.019494712 0.99910939 -0.036982059
529803773.58491 0.99871832 -0.038163871 0.00080026593 0.019728977 0.0007563699 0.019815033 0.99885571 -0.037668794
539800000 0.99875116 -0.038904116 0.00083191879 0.020073565 0.00080306223 0.020223074 0.99862468 -0.038376957
549796226.41509 0.9985016 -0.039939761 0.0008052662 0.020484334 0.00080751907 0.020609299 0.99833566 -0.038865834
559792452.83019 0.99818999 -0.040721565 0.000833028 0.020827696 0.00089172181 0.020920767 0.99824303 -0.039423615
569788679.24528 0.99807376 -0.041440457 0.00089631742 0.021218749 0.00086758099 0.021343576 0.99833548 -0.04025954
579784905.66038 0.99805075 -0.042008832 0.00093723973 0.021597458 0.00091948151 0.0217559 0.99856037 -0.040993474
589781132.07547 0.99822533 -0.042692602 0.00096304622 0.0220196 0.00093306694 0.022053886 0.99870533 -0.041949689
599777358.49057 0.99835533 -0.043382674 0.0009843586 0.022337895 0.00098428596 0.022486942 0.99867916 -0.042846799
609773584.90566 0.99847949 -0.044246733 0.0010852695 0.022711925 0.0010851244 0.022850607 0.99856138 -0.043697983
619769811.32075 0.99848306 -0.044988424 0.0011416329 0.023100074 0.0011442676 0.023197073 0.99838877 -0.044248223
629766037.73585 0.99832571 -0.045544147 0.001187779 0.02343227 0.0011431128 0.023555111 0.99827445 -0.044783384
639762264.15094 0.99814743 -0.046332404 0.0011936624 0.023721704 0.001185958 0.023854462 0.99805796 -0.045299187
649758490.56604 0.99798834 -0.046886474 0.0011570104 0.024127044 0.0011613467 0.024227081 0.9981184 -0.045750365
659754716.98113 0.99775386 -0.047442824 0.0012051212 0.024496617 0.0011981269 0.024639904 0.99819833 -0.046366036
669750943.39623 0.99783438 -0.04797253 0.0012576347 0.024945162 0.001209626 0.024986099 0.99815798 -0.047215968
679747169.81132 0.99780685 -0.048872661 0.0012766483 0.025277456 0.0012780195 0.02543216 0.99812561 -0.048304923
689743396.22642 0.99803209 -0.049768746 0.001345573 0.025603734 0.0013058558 0.025801357 0.9980371 -0.049221486
699739622.64151 0.99815673 -0.050533384 0.0013413196 0.026026877 0.0013562879 0.026147038 0.99786711 -0.049946427
709735849.0566 0.99805641 -0.051552728 0.0014083374 0.026364857 0.0014450534 0.026500525 0.99764806 -0.050647356
719732075.4717 0.99787462 -0.052230716 0.0014353059 0.026767623 0.0014909394 0.026889401 0.99773133 -0.051285207
729728301.88679 0.99781382 -0.052810103 0.0015059747 0.027075369 0.0015139189 0.027217196 0.99777287 -0.051721871
739724528.30189 0.99767822 -0.053408399 0.0015329705 0.027441112 0.0015306971 0.027611654 0.99805391 -0.052407935
749720754.71698 0.9975974 -0.0539805 0.0016008359 0.02782505 0.0015678699 0.027956698 0.99797857 -0.053165361
759716981.13208 0.99762845 -0.054500282 0.001635531 0.028213393 0.0016380688 0.028314024 0.99793434 -0.053997546
769713207.54717 0.99756837 -0.055270851 0.0016703028 0.02852226 0.0017011864 0.028713677 0.99766386 -0.054737329
779709433.96226 0.99774474 -0.056056209 0.0017061944 0.02891005 0.0017113389 0.029047007 0.99739587 -0.055379461
789705660.37736 0.9976418 -0.056978226 0.0017438717 0.029277567 0.0017598551 0.029410889 0.99712253 -0.056196779
799701886.79245 0.99753571 -0.057852447 0.0017654924 0.029617526 0.00176768 0.029750032 0.99697161 -0.056851029
809698113.20755 0.99743533 -0.058524087 0.0018227333 0.02993455 0.0018087868 0.030131767 0.9970926 -0.057287559
819694339.62264 0.9972949 -0.059192017 0.0018632719 0.030320458 0.001846482 0.030484427 0.99719512 -0.058014184
829690566.03774 0.99733555 -0.059879899 0.0019110078 0.030682046 0.0018827496 0.030829484 0.99744433 -0.058947831
839686792.45283 0.99731332 -0.060316831 0.0019224174 0.031056114 0.0019358899 0.031194748 0.9974978 -0.059804052
849683018.86792 0.9974764 -0.060986504 0.0019868847 0.031433221 0.001948731 0.03159019 0.99739254 -0.060601242
859679245.28302 0.99746394 -0.061728746 0.0020504603 0.031812802 0.0019802339 0.031981666 0.99711287 -0.061255395
869675471.69811 0.99736786 -0.0625633 0.0020496156 0.032124743 0.002061978 0.032308385 0.99677604 -0.061843455
879671698.11321 0.9972325 -0.063266084 0.0021128175 0.032527458 0.0021068431 0.032682404 0.99667424 -0.062286723
889667924.5283 0.99697566 -0.064206094 0.0021634335 0.032840796 0.0021354342 0.033043403 0.99650741 -0.062884361
899664150.9434 0.99677968 -0.065000683 0.0021779435 0.033230443 0.0022039572 0.033416979 0.99661809 -0.06354636
909660377.35849 0.99676967 -0.065663695 0.0022421414 0.033565689 0.0022207424 0.033751164 0.99674726 -0.064538702
919656603.77358 0.99691409 -0.066424176 0.0022725691 0.033907466 0.0022697621 0.034123532 0.9966836 -0.065427735
929652830.18868 0.99682796 -0.06717208 0.0023285393 0.034266874 0.0022962764 0.03445971 0.99657261 -0.066381216
939649056.60377 0.99703461 -0.067834556 0.0023304028 0.034637295 0.0022999085 0.034829609 0.99641198 -0.06709072
949645283.01887 0.99706042 -0.068719305 0.0023057722 0.034996446 0.0023169268 0.035219174 0.99613619 -0.067726791
959641509.43396 0.99692619 -0.069443256 0.0023776898 0.035373341 0.0024056332 0.035603061 0.99604988 -0.068220437
969637735.84906 0.99680215 -0.070177436 0.0024313573 0.035775557 0.002426466 0.035990968 0.99603939 -0.068612605
979633962.26415 0.99666846 -0.070980467 0.0025029541 0.036104377 0.0024740666 0.03633723 0.99609625 -0.06931708
989630188.67925 0.99658781 -0.071555465 0.0025226502 0.036490459 0.0025411258 0.036721036 0.99625528 -0.070006907
999626415.09434 0.99657613 -0.072087198 0.0025553033 0.036829963 0.002574699 0.037084922 0.99611878 -0.070881546
1009622641.5094 0.99670577 -0.072897568 0.002599461 0.037244622 0.0026423838 0.037503548 0.995996 -0.071772829
1019618867.9245 0.99670863 -0.073842824 0.0026729149 0.037608013 0.0026944466 0.03786014 0.99567324 -0.072650135
1029615094.3396 0.99673378 -0.074869752 0.0027542785 0.037950229 0.0027884655 0.038164895 0.99535561 -0.073340684
1039611320.7547 0.99681091 -0.075775802 0.0028097183 0.038279917 0.0028267903 0.038538571 0.99524564 -0.074097067
1049607547.1698 0.99655795 -0.076732107 0.0028211577 0.038650397 0.0028670328 0.038873486 0.99522561 -0.074714236
1059603773.5849 0.99642128 -0.077437043 0.0028873719 0.038964551 0.0029079681 0.039223041 0.99526119 -0.075265706
1069600000 0.99614143 -0.078061372 0.0028834622 0.039324589 0.0029415432 0.03959322 0.99544919 -0.07600674
1079596226.4151 0.99602836 -0.078671254 0.0029194634 0.039649654 0.0029861717 0.039945286 0.99534982 -0.076806329
1089592452.8302 0.99606526 -0.079369754 0.0029399917 0.040051091 0.0030084411 0.040279765 0.99527383 -0.077514142
1099588679.2453 0.99613535 -0.080112696 0.0030079354 0.040388331 0.0030293502 0.04065581 0.99489033 -0.078245491
1109584905.6604 0.99618852 -0.08092986 0.0030374313 0.040803224 0.0030856011 0.041044388 0.99465114 -0.078842789
1119581132.0755 0.99614578 -0.082075685 0.0030399207 0.041207436 0.0031136163 0.04143323 0.99449778 -0.079265028
1129577358.4906 0.99601346 -0.082896411 0.0030731056 0.041551091 0.0031754449 0.041864514 0.99433291 -0.079764724
1139573584.9057 0.99571496 -0.083884627 0.0031870725 0.041935898 0.0032333368 0.042195454 0.99443036 -0.080515534
1149569811.3208 0.9956063 -0.084758028 0.0032162853 0.042302705 0.003288426 0.042550217 0.99451989 -0.081303254
1159566037.7358 0.995381 -0.085466444 0.0033175424 0.042663522 0.0033588596 0.04290298 0.99461168 -0.082375824
1169562264.1509 0.99515975 -0.086107433 0.0032852385 0.042982228 0.0033896714 0.04325356 0.99439478 -0.083200097
1179558490.566 0.99513173 -0.086868785 0.0033260381 0.043360256 0.0033930899 0.043681066 0.99430341 -0.08391007
1189554716.9811 0.99513185 -0.08753553 0.0033781454 0.043764085 0.0034876661 0.044006493 0.99397105 -0.084466338
1199550943.3962 0.99503267 -0.088476181 0.0034066476 0.044162702 0.0035257321 0.044379897 0.99379873 -0.084909379
1209547169.8113 0.99490333 -0.089457601 0.0034704218 0.044522732 0.0035774382 0.044752564 0.99370778 -0.085248947
1219543396.2264 0.99457783 -0.090330049 0.003552434 0.044938777 0.0036451248 0.045166738 0.99374688 -0.085733011
1229539622.6415 0.9942317 -0.091271162 0.003601104 0.045262311 0.0037599821 0.045539442 0.99382782 -0.086513907
1239535849.0566 0.993958 -0.091915667 0.0036799908 0.045633476 0.003842283 0.045904171 0.99392021 -0.087425917
1249532075.4717 0.99372518 -0.092722408 0.0037298461 0.046018746 0.0038713536 0.046260841 0.99376953 -0.088343553
1259528301.8868 0.99348545 -0.093133599 0.003817305 0.046357866 0.0039797556 0.046594635 0.99344152 -0.089283973
1269524528.3019 0.99332666 -0.093979448 0.0039065443 0.046696186 0.0040472616 0.04696219 0.99327058 -0.090002418
1279520754.717 0.99294531 -0.094684154 0.0039507234 0.047013417 0.0041129151 0.047238547 0.9929511 -0.090646572
1289516981.1321 0.9928686 -0.095610142 0.003966867 0.04736777 0.0041158497 0.047555037 0.9929958 -0.09105137
1299513207.5472 0.99244821 -0.096450835 0.0040107127 0.047694288 0.0041461494 0.047908135 0.99312675 -0.091455162
1309509433.9623 0.99196941 -0.097185642 0.0040354906 0.048054218 0.0041685849 0.04824594 0.99326396 -0.092200711
1319505660.3774 0.99160308 -0.097902179 0.0040608477 0.048412405 0.0041820658 0.048632279 0.99327886 -0.092876881
1329501886.7925 0.99126863 -0.098662794 0.0040941667 0.048772234 0.0042276587 0.04899295 0.99321771 -0.093934506
1339498113.2075 0.99099845 -0.099110931 0.0041290224 0.049130421 0.0042584473 0.049349833 0.99283731 -0.094635904
1349494339.6226 0.99076563 -0.099750929 0.0041302834 0.049531478 0.0042548375 0.049683586 0.99238372 -0.095311932
1359490566.0377 0.99071383 -0.10051337 0.0041487291 0.049916826 0.0042719152 0.050126083 0.99220765 -0.09590131
1369486792.4528 0.99044687 -0.10095996 0.0041924752 0.050305706 0.0042895973 0.050497625 0.99196696 -0.096382827
1379483018.8679 0.99014193 -0.10162362 0.0042169355 0.050697837 0.0043020882 0.050866026 0.99199814 -0.096821308
1389479245.283 0.98977315 -0.10225651 0.0042850897 0.051155813 0.004368417 0.051300377 0.99195427 -0.09754476
1399475471.6981 0.98936379 -0.1025829 0.0043064263 0.051501408 0.0044072364 0.051666524 0.99214244 -0.098216951
1409471698.1132 0.98897398 -0.10300352 0.0043429928 0.051947322 0.0044501657 0.052109551 0.99220729 -0.099078536
1419467924.5283 0.98883885 -0.10320312 0.0043581482 0.052338742 0.0044835219 0.052516997 0.99195969 -0.099791169
1429464150.9434 0.98870218 -0.1038 0.0044546295 0.052779816 0.0045606457 0.052927203 0.99182391 -0.10039005
1439460377.3585 0.9887616 -0.10426292 0.0045569548 0.053261474 0.004577281 0.053402763 0.99160814 -0.10075051
1449456603.7736 0.98873854 -0.10494715 0.0046669105 0.05369024 0.0046930294 0.053868104 0.99141657 -0.1011481
1459452830.1887 0.98876834 -0.10561299 0.0048523508 0.054115761 0.0048483163 0.054285385 0.99157101 -0.10143796
1469449056.6038 0.98886067 -0.10639179 0.005004989 0.054529931 0.0050226357 0.054676078 0.99176562 -0.10222489
1479445283.0189 0.98866153 -0.10717591 0.0051339911 0.054841395 0.00511557 0.055019278 0.991781 -0.10314721
1489441509.434 0.98855996 -0.10758901 0.005290119 0.055175204 0.0053118002 0.05536399 0.99161965 -0.10417101
1499437735.8491 0.9883464 -0.10795131 0.0054060649 0.055501342 0.0054082051 0.055652831 0.99148816 -0.1050052
1509433962.2642 0.98828983 -0.10847334 0.0054774843 0.055807728 0.0055155093 0.055980247 0.99123764 -0.10576329
1519430188.6792 0.98842913 -0.10904038 0.0055634733 0.056110144 0.0056057759 0.056245383 0.99114883 -0.10628083
1529426415.0943 0.98834252 -0.10980478 0.0056231506 0.056439664 0.0056246612 0.056612313 0.99100059 -0.10674456
1539422641.5094 0.98844355 -0.11056602 0.0057461937 0.056749605 0.0056986716 0.056942567 0.99114382 -0.10722478
1549418867.9245 0.98826522 -0.11149283 0.0057853516 0.057084713 0.0057944553 0.057288617 0.99133533 -0.10804313
1559415094.3396 0.98812079 -0.11215311 0.0058550816 0.057420831 0.0058212969 0.057634942 0.99150681 -0.10869369
1569411320.7547 0.98782569 -0.11301509 0.0059067383 0.057691611 0.0058657909 0.057957504 0.99139678 -0.10960434
1579407547.1698 0.98777533 -0.11355568 0.0059456192 0.058017712 0.0059038913 0.058283232 0.9908939 -0.11048807
1589403773.5849 0.98774552 -0.11416543 0.0059609637 0.058373775 0.0059717987 0.058594987 0.99065769 -0.11126968
1599400000 0.98771107 -0.11471608 0.0059754588 0.058686011 0.0059221145 0.058941495 0.99024355 -0.11173576
1609396226.4151 0.98770189 -0.1152814 0.0059836684 0.059058562 0.0059486134 0.059308831 0.99013537 -0.11229357
1619392452.8302 0.98761344 -0.11599329 0.0060287919 0.059477322 0.005959399 0.059690244 0.99009538 -0.11275649
1629388679.2453 0.98735833 -0.11671332 0.0060116891 0.059792046 0.0059272349 0.060108751 0.99044162 -0.11328244
1639384905.6604 0.98721224 -0.11746407 0.006046854 0.060214799 0.0059817205 0.060528833 0.99059659 -0.11425886
1649381132.0755 0.9868983 -0.11817291 0.0061084516 0.060605519 0.0060556512 0.060932018 0.99056244 -0.11522669
1659377358.4906 0.98673272 -0.11890709 0.0060904939 0.061006077 0.0060677659 0.061342444 0.99045503 -0.11611545
1669373584.9057 0.98659092 -0.11942321 0.0061399513 0.061472952 0.0061620069 0.061725024 0.99002129 -0.11686788
1679369811.3208 0.98667926 -0.12018397 0.0062738117 0.061854791 0.0062498637 0.062161643 0.98980075 -0.11736099
1689366037.7358 0.9866212 -0.12078115 0.0063192919 0.0622788 0.0062603522 0.062602177 0.98963845 -0.11763883
1699362264.1509 0.98676586 -0.12156273 0.0063838027 0.062668473 0.0063587092 0.063022204 0.98987341 -0.1181583
1709358490.566 0.98666483 -0.12221137 0.0064652115 0.063094586 0.0064069852 0.063419275 0.9897716 -0.11881317
1719354716.9811 0.98624861 -0.12288713 0.0065749679 0.06346707 0.0065208469 0.06381721 0.98979008 -0.11951166
1729350943.3962 0.98590416 -0.12348872 0.0066691991 0.063894413 0.0066464357 0.064257219 0.98982638 -0.12049338
