!Keysight Technologies,N5222B,MY61253708,A.15.00.15
!Date: Wednesday, June 19, 2024 09:04:03
!Correction: S11(C  2-Port  ) 
!S21(C  2-Port  ) 
!S12(C  2-Port  ) 
!S22(C  2-Port  ) 
!S2P File: Measurements: S11, S21, S12, S22:
# Hz S  RI   R 50
10000000 0.99877107 -0.0023127198 0.00013326481 0.00057225168 -6.5171596e-005 0.0006028699 0.99846864 -0.00091841817
19996226.415094 0.99905938 -0.002078414 0.00011227155 0.00068745587 7.9716046e-005 0.00055053522 0.99926996 -0.0021855533
29992452.830189 0.99984241 -0.0024318993 -1.791917e-005 0.00095424714 3.2793672e-005 0.0010356857 0.99950767 -0.002787441
39988679.245283 1.0000994 -0.003129065 -4.1319581e-005 0.0014217121 4.7758964e-005 0.001429142 0.99971992 -0.003201738
49984905.660377 1.0001806 -0.0038531721 -1.9041705e-005 0.0018247237 2.8733572e-005 0.0017770772 0.99982178 -0.0037562251
59981132.075472 1.0003005 -0.0046922266 6.3967134e-005 0.0021502278 1.7238897e-005 0.0021204483 0.99971873 -0.0043018758
69977358.490566 1.0000743 -0.0053243618 2.7020869e-006 0.0024241884 -5.9839622e-006 0.0024573884 0.99968201 -0.0048485212
79973584.90566 0.99983734 -0.0058237612 5.2299583e-006 0.0028185968 8.1427861e-006 0.0027977822 0.9993673 -0.005322367
89969811.320755 0.99984014 -0.0060088933 8.3149644e-006 0.0031359508 2.8152135e-005 0.003169212 0.99952495 -0.0057086051
99966037.735849 1.000082 -0.0067912489 2.9781775e-005 0.0034962527 2.5684305e-005 0.0035074677 0.99958038 -0.006463334
109962264.15094 1.0000788 -0.0077005029 2.1767861e-005 0.0038245325 3.6571524e-005 0.0038658953 0.99959224 -0.0073100626
119958490.56604 1.0001235 -0.0087048113 4.6811299e-005 0.0041968455 3.2817014e-005 0.0042241388 0.99966502 -0.008248359
129954716.98113 1.0000621 -0.0097337067 2.2723689e-005 0.0045452924 3.3295248e-005 0.0045832023 0.9996236 -0.0091743767
139950943.39623 0.99997848 -0.010595946 4.0651474e-005 0.0048999721 6.1484679e-005 0.0049404013 0.99953622 -0.0099527258
149947169.81132 0.99982405 -0.011329502 5.1031122e-005 0.0052342257 5.8397651e-005 0.0052760402 0.99946487 -0.010564983
159943396.22642 0.99981874 -0.011818111 7.0138136e-005 0.0055851988 7.3767034e-005 0.0056250202 0.99955302 -0.011023462
169939622.64151 0.99978209 -0.01217331 7.1584596e-005 0.0059313057 7.71099e-005 0.0059819771 0.99963319 -0.011456549
179935849.0566 0.9998607 -0.012429208 8.5507287e-005 0.006288751 8.8107656e-005 0.0063200812 0.99956363 -0.011896729
189932075.4717 0.99998808 -0.013305366 0.00010224222 0.00662148 0.00010338007 0.0066874428 0.99978137 -0.012482077
199928301.88679 0.99991512 -0.014120907 6.3814223e-005 0.0069907182 0.00010285806 0.0070233885 0.99966031 -0.013389796
209924528.30189 0.99969387 -0.014835864 0.0001213057 0.0073491544 9.1900118e-005 0.0073728128 0.99942571 -0.01417698
219920754.71698 0.99963403 -0.015784651 0.00013990444 0.0076739527 0.00016123452 0.0077097313 0.99925929 -0.01485762
229916981.13208 0.99940348 -0.016691238 0.00013556285 0.0080445688 0.00015180954 0.0080696177 0.99914837 -0.015611887
239913207.54717 0.99927855 -0.017285042 0.00014523236 0.0083695306 0.00012759891 0.0084427083 0.99913359 -0.016356114
249909433.96226 0.9993338 -0.017991453 0.00018835696 0.0087144943 0.00016092905 0.0088019427 0.99925512 -0.01701048
259905660.37736 0.99940372 -0.018603057 0.00020822836 0.0090341754 0.00013162289 0.0091521628 0.99947512 -0.017621934
269901886.79245 0.99960846 -0.019320354 0.00020825281 0.0094298776 0.00019930955 0.0095138969 0.99974746 -0.018308178
279898113.20755 0.9996773 -0.019955441 0.00022248877 0.0097992942 0.00016540079 0.0098538958 0.9996382 -0.019037187
289894339.62264 0.999704 -0.020713449 0.00020944467 0.010128652 0.00024551759 0.010197205 0.99950898 -0.019853204
299890566.03774 0.99954969 -0.021253794 0.00029915548 0.010463774 0.000226059 0.010519466 0.99929518 -0.020356059
309886792.45283 0.99932486 -0.021846153 0.00025609136 0.010841431 0.00029763032 0.010870392 0.99920297 -0.020864822
319883018.86792 0.99928361 -0.022548795 0.00031125592 0.01113118 0.00024252757 0.01125857 0.99925375 -0.021299005
329879245.28302 0.99920517 -0.023207009 0.00031402055 0.011543091 0.00029795943 0.011550888 0.99925804 -0.022080392
339875471.69811 0.99914885 -0.023968235 0.00028545689 0.011848524 0.00028514373 0.01188396 0.99922615 -0.022918142
349871698.11321 0.99940467 -0.024834871 0.00031088805 0.01222784 0.00031355792 0.012298883 0.99932361 -0.023885012
359867924.5283 0.999277 -0.025621414 0.00034344848 0.012535471 0.00031322101 0.012626542 0.99926877 -0.024791062
369864150.9434 0.99944919 -0.026472241 0.00034033298 0.012909597 0.00030201394 0.012979325 0.99931598 -0.025488883
379860377.35849 0.99926853 -0.027218655 0.00038181455 0.013247355 0.00037397468 0.013368431 0.99920166 -0.026251301
389856603.77358 0.99928153 -0.027812749 0.00037282472 0.013567464 0.00036619138 0.013705136 0.99918008 -0.0266608
399852830.18868 0.99904615 -0.02845636 0.00043214019 0.013935229 0.00039840676 0.014030302 0.99918169 -0.027178079
409849056.60377 0.99897075 -0.028804351 0.00044695294 0.014284984 0.00040001422 0.014385928 0.99927032 -0.027696421
419845283.01887 0.99905527 -0.029277831 0.00045413896 0.014611819 0.00045131659 0.014722623 0.99916917 -0.028226942
429841509.43396 0.999125 -0.029976666 0.00046273554 0.014975427 0.00048471475 0.01510442 0.99937272 -0.02904126
439837735.84906 0.99902558 -0.030830443 0.00049895514 0.015349953 0.00050902402 0.015432308 0.99914783 -0.029991522
449833962.26415 0.99902898 -0.031823009 0.00053917477 0.015681211 0.00050038472 0.015737161 0.99881852 -0.030813664
459830188.67925 0.99888116 -0.032584518 0.00048317527 0.01598753 0.00049761403 0.01612258 0.99869859 -0.031587422
469826415.09434 0.99879062 -0.033358216 0.00050824834 0.016373046 0.00054570101 0.016483728 0.99840403 -0.032235503
479822641.50943 0.99871343 -0.034027033 0.00056904275 0.016706703 0.00053110789 0.016861476 0.99853802 -0.03262268
489818867.92453 0.99880195 -0.03457886 0.00060620066 0.017094634 0.00060507189 0.01716616 0.99878943 -0.033247203
499815094.33962 0.99884695 -0.035183698 0.00059071323 0.017405653 0.00061428733 0.017536201 0.99905312 -0.03389442
509811320.75472 0.99893373 -0.0356877 0.00061308767 0.017730089 0.00059893884 0.017850757 0.99918133 -0.034742687
519807547.16981 0.99899107 -0.036194056 0.00073236227 0.018085541 0.00067486847 0.018220562 0.99916279 -0.035582483
529803773.58491 0.9989655 -0.036875546 0.00066857785 0.018445127 0.0007276386 0.018571522 0.99888194 -0.036143661
539800000 0.99889624 -0.037667736 0.00064264261 0.01877586 0.00070461282 0.018931901 0.99869007 -0.036843672
549796226.41509 0.99876052 -0.038495064 0.00074732304 0.019178767 0.00075691799 0.019251766 0.99851894 -0.037297964
559792452.83019 0.99846447 -0.039302588 0.00072337966 0.019485533 0.00074468739 0.019631688 0.99843729 -0.03785938
569788679.24528 0.99830425 -0.039949775 0.00076494226 0.019855695 0.0007388927 0.01996623 0.99856991 -0.038585752
579784905.66038 0.99825424 -0.040580012 0.00078450469 0.020189395 0.00080403127 0.020344133 0.99869394 -0.039317749
589781132.07547 0.99837261 -0.041250795 0.00087973755 0.020551693 0.00083368365 0.020718893 0.99879694 -0.040334076
599777358.49057 0.99854583 -0.041902542 0.00087714475 0.020876426 0.00088276714 0.021040175 0.99881208 -0.041108459
609773584.90566 0.99865013 -0.042685501 0.00094124343 0.021256316 0.00095766172 0.021414584 0.99872571 -0.041980848
619769811.32075 0.99870884 -0.043403804 0.00098383753 0.021588307 0.00096256658 0.021729048 0.99863297 -0.042521298
629766037.73585 0.99850291 -0.044034511 0.0010335185 0.021898644 0.0010432657 0.022063877 0.99840188 -0.043054998
639762264.15094 0.99841076 -0.04480134 0.0010142014 0.022211922 0.0009982558 0.022409746 0.99822444 -0.043498114
649758490.56604 0.99823397 -0.04522711 0.0010171658 0.0225184 0.0010442287 0.022726923 0.99832094 -0.044020221
659754716.98113 0.99807656 -0.04578352 0.0010593822 0.022927474 0.0010052063 0.023081152 0.99841458 -0.044601232
669750943.39623 0.99806309 -0.046301991 0.0010766936 0.023270274 0.001033315 0.023463968 0.99840564 -0.045322448
679747169.81132 0.99810278 -0.047113396 0.0011061818 0.023670778 0.0011068562 0.023826441 0.99835426 -0.046377443
689743396.22642 0.99825317 -0.047984868 0.0011639399 0.023956083 0.001188782 0.024151068 0.9982242 -0.047327191
699739622.64151 0.99837273 -0.048814684 0.0012002047 0.02434974 0.0012123249 0.024479482 0.99810028 -0.048045009
709735849.0566 0.99836516 -0.049691543 0.0011872269 0.024681007 0.0012415258 0.024828125 0.99791515 -0.048694775
719732075.4717 0.99819112 -0.050505787 0.0012650476 0.025006806 0.0012787236 0.025173295 0.99795771 -0.049298674
729728301.88679 0.99802041 -0.050967723 0.0012995629 0.025355864 0.0013077194 0.025532097 0.99803269 -0.049744487
739724528.30189 0.99799234 -0.051645026 0.0013413089 0.025682135 0.0013737935 0.025869468 0.9981572 -0.050417647
749720754.71698 0.99783063 -0.052159563 0.0013883375 0.025970729 0.0013920004 0.026209997 0.99822021 -0.051202223
759716981.13208 0.99789023 -0.052693158 0.0014186837 0.026340939 0.0014591049 0.026529757 0.99812943 -0.051957011
769713207.54717 0.99788576 -0.053363383 0.0014336901 0.026689172 0.0014605392 0.026904752 0.99793428 -0.05269593
779709433.96226 0.99798298 -0.054116651 0.0014640291 0.027010228 0.0014758656 0.027240904 0.99766684 -0.053315304
789705660.37736 0.99784982 -0.054997474 0.0015215632 0.027336914 0.0015441859 0.027550312 0.99733573 -0.054142028
799701886.79245 0.99786091 -0.055854172 0.0015633274 0.02768027 0.0015618857 0.027884118 0.99716538 -0.054651469
809698113.20755 0.99773258 -0.056522146 0.0016015247 0.028016746 0.0015790979 0.028233143 0.99737448 -0.055200875
819694339.62264 0.99761367 -0.057168156 0.001621421 0.028340451 0.001603161 0.028580833 0.9974668 -0.055780828
829690566.03774 0.99766052 -0.057792962 0.0016440675 0.028706491 0.0016800035 0.02894734 0.9976809 -0.056736261
839686792.45283 0.99772412 -0.058253407 0.0016889321 0.02904436 0.0016897516 0.029280171 0.99771374 -0.057591408
849683018.86792 0.99775946 -0.058898151 0.0017257109 0.02939029 0.0017188571 0.029628709 0.99765944 -0.058378205
859679245.28302 0.997769 -0.059634596 0.0017373227 0.029703712 0.001748004 0.029956089 0.99731851 -0.058951527
869675471.69811 0.99767798 -0.060413361 0.0018046889 0.030059118 0.0018119253 0.030315651 0.99692607 -0.059492201
879671698.11321 0.99759787 -0.061117917 0.0018472103 0.030371197 0.0018593168 0.030664984 0.99698406 -0.059970904
889667924.5283 0.99740028 -0.061970443 0.0018660482 0.030722918 0.0018618703 0.030960785 0.99682188 -0.060540885
899664150.9434 0.99717391 -0.062742382 0.0018916223 0.031077264 0.0019118031 0.031306386 0.99686682 -0.061105043
909660377.35849 0.99717331 -0.063396111 0.0019226265 0.031387053 0.0019469019 0.031653233 0.99698412 -0.06207794
919656603.77358 0.99726725 -0.064048767 0.0019765706 0.031752836 0.001962909 0.031977903 0.99700832 -0.063006163
929652830.18868 0.99724829 -0.064866304 0.0020135511 0.032069463 0.0020015305 0.032304473 0.99688733 -0.063897938
939649056.60377 0.99749416 -0.065514773 0.0020066947 0.032387223 0.0020315563 0.032613397 0.99670082 -0.064619124
949645283.01887 0.99739802 -0.066338822 0.0020104749 0.032758072 0.0020313333 0.033000261 0.99644512 -0.065165237
959641509.43396 0.99738514 -0.067034304 0.0020500105 0.033098221 0.0020613782 0.03336475 0.996342 -0.065656871
969637735.84906 0.9972223 -0.067776144 0.0020792726 0.033488765 0.0021221256 0.033723064 0.99644303 -0.066051483
979633962.26415 0.99707299 -0.068586677 0.0021784324 0.033813801 0.0021925084 0.034061875 0.99639559 -0.066747136
989630188.67925 0.99694312 -0.069084376 0.0021888241 0.034139723 0.0022311006 0.034431547 0.99657506 -0.067387074
999626415.09434 0.99710822 -0.069711655 0.0022058953 0.034463093 0.0022392534 0.034800462 0.99652725 -0.068188369
1009622641.5094 0.99710155 -0.070458949 0.0022573974 0.034864482 0.0022947732 0.035138059 0.99637967 -0.069114849
1019618867.9245 0.99724537 -0.071293339 0.002324631 0.035154875 0.0023714304 0.035472989 0.99611545 -0.070051923
1029615094.3396 0.9971379 -0.072272688 0.0023888983 0.035514936 0.0024551153 0.035776168 0.99565113 -0.070563197
1039611320.7547 0.99722522 -0.073259354 0.0024225274 0.035805546 0.0024740743 0.036140591 0.99565649 -0.071257859
1049607547.1698 0.99705166 -0.074128047 0.0024538452 0.036151096 0.0025043064 0.036452062 0.99563569 -0.071850806
1059603773.5849 0.9968484 -0.074849218 0.0024930127 0.036435537 0.0025381166 0.03677278 0.99568647 -0.072405189
1069600000 0.99669421 -0.075389624 0.0024834201 0.036779501 0.0025511086 0.037126664 0.99580562 -0.073120415
1079596226.4151 0.99662691 -0.0761085 0.0025454108 0.037137173 0.0025791777 0.037413727 0.99580818 -0.07396093
1089592452.8302 0.99665207 -0.07670638 0.0025724107 0.037475489 0.0026086038 0.03778692 0.9956764 -0.07465592
1099588679.2453 0.99666345 -0.077363849 0.0025933664 0.037806198 0.0026167035 0.038104236 0.99536598 -0.075301796
1109584905.6604 0.99669456 -0.078249231 0.0026153373 0.03818481 0.0026676077 0.03848622 0.99507278 -0.075891018
1119581132.0755 0.99678308 -0.079269461 0.0026287343 0.038519923 0.0027045915 0.038865592 0.99490505 -0.076295622
1129577358.4906 0.9965806 -0.080096662 0.0026600175 0.038891111 0.0027162898 0.039235272 0.99477875 -0.076825142
1139573584.9057 0.99631763 -0.08102861 0.0027061366 0.03924869 0.0027846722 0.039579794 0.99489319 -0.077501506
1149569811.3208 0.99614769 -0.081942551 0.0028093483 0.039603438 0.002862589 0.039914794 0.99505812 -0.078341886
1159566037.7358 0.9959054 -0.082582414 0.0028057545 0.03990522 0.0028923824 0.040233046 0.99513274 -0.079307169
1169562264.1509 0.99580246 -0.083205193 0.0028576907 0.040230453 0.0029042102 0.040560514 0.9948656 -0.080149382
1179558490.566 0.9957118 -0.08393985 0.0028636823 0.040606968 0.0029453121 0.040952418 0.99480975 -0.080805607
1189554716.9811 0.9957459 -0.084738195 0.0029097376 0.040969342 0.0030120807 0.041271206 0.99442643 -0.081405163
1199550943.3962 0.99567032 -0.085607469 0.0029305685 0.04135336 0.0030642245 0.041636609 0.99426472 -0.081817299
1209547169.8113 0.99551171 -0.086493373 0.0029836409 0.041679274 0.0030692872 0.042006951 0.99419379 -0.082126275
1219543396.2264 0.99518758 -0.087347686 0.0030283532 0.042063981 0.0031320513 0.042382788 0.99426359 -0.082482681
1229539622.6415 0.99488091 -0.088230759 0.0031264257 0.042408876 0.0032606442 0.042727098 0.99441242 -0.083319813
1239535849.0566 0.99459976 -0.088919461 0.0031808028 0.042698521 0.0033103656 0.043075375 0.99448502 -0.084260583
1249532075.4717 0.99436015 -0.089581542 0.0032146336 0.043058362 0.00341542 0.043371201 0.99435234 -0.085148357
1259528301.8868 0.99418759 -0.090100497 0.0033203773 0.043410227 0.0034336578 0.043714922 0.99409062 -0.086008549
1269524528.3019 0.99401039 -0.090866566 0.0033725742 0.043727826 0.0035109427 0.044014826 0.99380541 -0.086696208
1279520754.717 0.99363983 -0.091622517 0.0034249828 0.044029359 0.0035684854 0.044327565 0.99350154 -0.08723975
1289516981.1321 0.99353611 -0.09250322 0.0034536058 0.044350393 0.0035946164 0.044616554 0.99362952 -0.087680638
1299513207.5472 0.9932332 -0.093347043 0.0034739375 0.044705089 0.0036196802 0.044946134 0.99372619 -0.088058203
1309509433.9623 0.99272925 -0.094049618 0.0034731729 0.044990074 0.0036235321 0.0452682 0.99375629 -0.088768631
1319505660.3774 0.99240428 -0.09477374 0.0035171099 0.045351367 0.0036376975 0.045619212 0.99389768 -0.089445278
1329501886.7925 0.99195778 -0.095434546 0.0035271291 0.045710471 0.0036516823 0.045944523 0.99381971 -0.09043476
1339498113.2075 0.9917028 -0.095990002 0.0035436638 0.046026103 0.0036946349 0.046297528 0.9933902 -0.091200978
1349494339.6226 0.99154055 -0.096538126 0.0035388358 0.04636516 0.00366168 0.046626996 0.99301451 -0.091828674
1359490566.0377 0.99142921 -0.097204238 0.0035474636 0.04677134 0.0036760923 0.046996765 0.99282038 -0.092290431
1369486792.4528 0.99130434 -0.09776482 0.0035487022 0.04717667 0.0036953166 0.047345698 0.99262655 -0.092851788
1379483018.8679 0.99091393 -0.09834864 0.0035730659 0.047541056 0.0037300617 0.047733158 0.99270868 -0.09315291
1389479245.283 0.99060744 -0.098891675 0.0036620703 0.047927737 0.0037664492 0.048138585 0.99257731 -0.093892962
1399475471.6981 0.99011558 -0.099261314 0.0036305282 0.048247069 0.0037661735 0.048477564 0.99280524 -0.094615161
1409471698.1132 0.98987007 -0.099642336 0.0037247429 0.048660327 0.0038163166 0.048911709 0.99283385 -0.095407158
1419467924.5283 0.9896642 -0.099849045 0.0037284316 0.049039152 0.0038283812 0.049274005 0.99254537 -0.096152008
1429464150.9434 0.98953044 -0.10038462 0.0038054567 0.049495436 0.0038848054 0.049714625 0.99247921 -0.096719325
1439460377.3585 0.98969269 -0.10077463 0.0038938187 0.049974114 0.0039213011 0.050150603 0.99230844 -0.097075939
1449456603.7736 0.98965883 -0.10139437 0.004028976 0.05034839 0.0040295999 0.05060092 0.99211979 -0.097480431
1459452830.1887 0.98970425 -0.10220718 0.004157152 0.050796427 0.0041557867 0.051001281 0.99219936 -0.097787768
1469449056.6038 0.9897058 -0.10292619 0.0043161139 0.051109433 0.0043408005 0.051322058 0.99243677 -0.098478734
1479445283.0189 0.98955524 -0.10354127 0.004451829 0.051412929 0.0044798837 0.051678628 0.99244595 -0.09938325
1489441509.434 0.98936045 -0.10404357 0.0045753252 0.051729076 0.0046121739 0.051978335 0.99237496 -0.10025582
1499437735.8491 0.98922491 -0.10436624 0.0046896935 0.052005511 0.0046916679 0.052232161 0.99228799 -0.1011343
1509433962.2642 0.9891941 -0.10482995 0.0048088953 0.052308034 0.0047855582 0.05258498 0.9920457 -0.10194072
1519430188.6792 0.98936462 -0.10549256 0.0048726276 0.052601069 0.0048618559 0.052871712 0.99195468 -0.10238874
1529426415.0943 0.98933065 -0.10609788 0.0048882682 0.052925128 0.0049126931 0.053144932 0.99188924 -0.10287726
1539422641.5094 0.9893052 -0.10693315 0.0049601872 0.053219974 0.0049760374 0.053451058 0.99190289 -0.10331778
1549418867.9245 0.98918021 -0.1078157 0.0050290413 0.053518392 0.0050247191 0.053805597 0.992172 -0.10403655
1559415094.3396 0.98909158 -0.10840636 0.0050886031 0.053813115 0.0050425213 0.054104485 0.99230945 -0.10479173
1569411320.7547 0.98886395 -0.10922946 0.005145126 0.054080971 0.0051372685 0.054405294 0.99212646 -0.10559727
1579407547.1698 0.98879671 -0.10981597 0.0051916977 0.054377433 0.0051384568 0.054709822 0.9917354 -0.10643232
1589403773.5849 0.98869538 -0.11046225 0.0051749926 0.054686774 0.0052051451 0.054982498 0.99155557 -0.10720277
1599400000 0.98871702 -0.11084795 0.0051774438 0.054997668 0.0051495153 0.055343285 0.99118555 -0.10763896
1609396226.4151 0.98866695 -0.11154141 0.0051804534 0.055360824 0.0051556583 0.055660561 0.9909724 -0.10820916
1619392452.8302 0.98869348 -0.1121496 0.0051723942 0.05571967 0.0051989164 0.056015607 0.9910624 -0.10867625
1629388679.2453 0.98841715 -0.11286351 0.0052191783 0.056045748 0.0051986948 0.056403849 0.99125028 -0.10919487
1639384905.6604 0.98817706 -0.11349946 0.0052227383 0.056426462 0.0051760618 0.056783848 0.99150729 -0.11002012
1649381132.0755 0.98787719 -0.11429802 0.0052502751 0.056852911 0.0052234214 0.057225779 0.99148846 -0.11097702
1659377358.4906 0.98779893 -0.11500108 0.0052899048 0.057245955 0.0052704439 0.057579149 0.9913699 -0.11187628
1669373584.9057 0.98768485 -0.11544386 0.0053465022 0.057618245 0.0053187883 0.05796922 0.9910301 -0.11261359
1679369811.3208 0.98777837 -0.1160132 0.0053419024 0.058023419 0.0053414404 0.058337327 0.99086148 -0.11303931
1689366037.7358 0.98774487 -0.11686504 0.0054300465 0.058377858 0.005430568 0.058759369 0.99062598 -0.1134674
1699362264.1509 0.98788667 -0.11744252 0.0054925252 0.058748096 0.0054863868 0.059174951 0.9908064 -0.11383434
1709358490.566 0.98770899 -0.11813128 0.0055446737 0.059144791 0.0055596633 0.059560865 0.99083346 -0.11436914
1719354716.9811 0.98742002 -0.1188004 0.0056277793 0.059525043 0.0055933837 0.059968702 0.99089396 -0.11512646
1729350943.3962 0.98707902 -0.11937034 0.0057508331 0.0599152 0.0056820624 0.060313813 0.99091721 -0.11608875
