!Keysight Technologies,N5222B,MY61253708,A.15.00.15
!Date: Wednesday, June 19, 2024 09:57:54
!Correction: S11(C  2-Port  ) 
!S21(C  2-Port  ) 
!S12(C  2-Port  ) 
!S22(C  2-Port  ) 
!S2P File: Measurements: S11, S21, S12, S22:
# Hz S  RI   R 50
10000000 0.99854827 -0.0027146339 -5.1381779e-005 0.00063306384 -0.00014778113 0.00030367984 0.99849844 -0.0013739765
19996226.415094 1.0001297 -0.00331375 8.3651306e-005 0.00061871501 -8.5015781e-006 0.00066423486 1.0004117 -0.00300318
29992452.830189 0.99961603 -0.0025114715 2.7976057e-005 0.0010214983 4.3778942e-005 0.0010097661 0.99949837 -0.0026582181
39988679.245283 1.0000107 -0.0030244142 -5.0348171e-006 0.001365626 2.5450267e-005 0.0013164968 0.99972117 -0.0030677915
49984905.660377 1.0001372 -0.0036781132 3.1052274e-005 0.0016889697 6.4033666e-006 0.0016606424 0.99982989 -0.0035501719
59981132.075472 1.0003428 -0.0045787394 2.9857038e-005 0.0019651016 -9.7983284e-006 0.001986966 0.99985766 -0.0042317808
69977358.490566 1.0001614 -0.0051782839 1.7973834e-006 0.0023378853 4.6541882e-005 0.0023523653 0.99975419 -0.0047106612
79973584.90566 0.99995518 -0.0057867765 2.2816705e-005 0.0026124313 7.1425457e-006 0.0026418022 0.99935377 -0.005171001
89969811.320755 0.99998403 -0.0058246851 1.2359116e-005 0.0029459021 2.2908207e-006 0.0029767328 0.9996804 -0.0054105818
99966037.735849 1.0002068 -0.006629318 2.7556031e-005 0.0032889093 1.8959632e-005 0.0033334859 0.99974048 -0.0062333047
109962264.15094 1.000173 -0.0074659288 3.8086029e-005 0.0035993608 2.3562869e-005 0.0036552493 0.99971229 -0.0070151389
119958490.56604 1.0002275 -0.0083845556 2.3926375e-005 0.0039398735 2.5386689e-005 0.0039763721 0.99974442 -0.0078428686
129954716.98113 1.0001281 -0.0092978477 4.0720217e-005 0.0042830245 4.387123e-005 0.0043128761 0.99973625 -0.0087388158
139950943.39623 1.0000988 -0.010113368 5.3178577e-005 0.0046114558 4.1374908e-005 0.0046398556 0.99969292 -0.0094495062
149947169.81132 0.9999674 -0.010788918 3.5462203e-005 0.0049298843 5.388679e-005 0.0049533751 0.99961847 -0.010057479
159943396.22642 0.99991292 -0.011355311 5.1695155e-005 0.0052748146 6.4247055e-005 0.0052936189 0.99969244 -0.010528356
169939622.64151 0.99986619 -0.011749126 6.0824503e-005 0.0056051468 4.8725924e-005 0.0056322743 0.9997595 -0.010966837
179935849.0566 0.99996156 -0.012053579 9.2144706e-005 0.0059211999 6.8464433e-005 0.0059802565 0.99964511 -0.011312842
189932075.4717 1.0000515 -0.012802273 0.00010320568 0.0062502222 9.3168579e-005 0.0063050729 0.99987811 -0.011889756
199928301.88679 0.99998629 -0.013570189 0.00011074822 0.0065836068 8.8295201e-005 0.0066168951 0.99976456 -0.012765229
209924528.30189 0.99967909 -0.014127463 0.00012047321 0.0069451695 0.00011802884 0.0069524869 0.99955827 -0.013362929
219920754.71698 0.99994862 -0.014903098 0.00011356501 0.0072451262 0.00011846214 0.0072729378 0.99938905 -0.014027357
229916981.13208 0.99968833 -0.01580739 0.00011493522 0.0075798468 0.00013015256 0.0076020863 0.99942112 -0.014823258
239913207.54717 0.99954712 -0.016494684 0.00013175594 0.0079128481 0.0001118215 0.0079621356 0.99935979 -0.015579388
249909433.96226 0.99956334 -0.017144054 0.00012071873 0.0082349516 0.00014758063 0.0082659656 0.99948746 -0.01616168
259905660.37736 0.99969745 -0.017788917 0.00018276228 0.0085636145 0.00016429368 0.008562116 0.99966741 -0.016745061
269901886.79245 0.99969065 -0.018421933 0.00018379628 0.008937085 0.00016113266 0.0089334659 0.99998128 -0.017465517
279898113.20755 0.99986255 -0.019144803 0.00014577853 0.0092212455 0.00014697574 0.0092795342 0.99982405 -0.01817283
289894339.62264 0.99988884 -0.019713819 0.000218865 0.009544339 0.00015462562 0.0096474402 0.99974716 -0.018874317
299890566.03774 0.99971735 -0.020246387 0.00018279999 0.0098521281 0.00018734275 0.0099432031 0.99954098 -0.019257635
309886792.45283 0.99962044 -0.02094125 0.00020409038 0.010201412 0.0001968405 0.010212766 0.99941665 -0.019803621
319883018.86792 0.99962485 -0.02148661 0.00020328071 0.010546643 0.00023137406 0.010597914 0.99960417 -0.020290464
329879245.28302 0.99958742 -0.02222833 0.00022116397 0.010861446 0.0002250853 0.010944585 0.99963105 -0.021032184
339875471.69811 0.99943787 -0.022975549 0.000223818 0.011167903 0.00025010097 0.011253936 0.99955362 -0.0218115
349871698.11321 0.99961334 -0.023798436 0.00026911101 0.011492386 0.00027632318 0.011585969 0.99963492 -0.022716254
359867924.5283 0.99946582 -0.024553448 0.00029686 0.011819574 0.00030131126 0.011937406 0.99954772 -0.023613602
369864150.9434 0.99956566 -0.025340617 0.00030960282 0.012164249 0.00028359843 0.012232935 0.99951893 -0.024312764
379860377.35849 0.99950278 -0.026036397 0.0003207007 0.012495123 0.00033922005 0.012576326 0.99948674 -0.025029466
389856603.77358 0.99941432 -0.026582479 0.00031360658 0.012851708 0.00032176124 0.012881543 0.99947977 -0.025520891
399852830.18868 0.99930942 -0.02727598 0.0003167023 0.01314599 0.00035892613 0.013202228 0.99949992 -0.026026398
409849056.60377 0.99929035 -0.02771917 0.00038944875 0.013471347 0.00035700217 0.013545603 0.999412 -0.026510842
419845283.01887 0.99929595 -0.028098345 0.00042380486 0.013781341 0.00039038993 0.013894772 0.9994095 -0.027064472
429841509.43396 0.99928033 -0.028816521 0.00039676297 0.014122562 0.00044362061 0.014214361 0.99950051 -0.027798474
439837735.84906 0.99918896 -0.029691711 0.00045295339 0.014454454 0.00043929683 0.014543492 0.99930727 -0.028779373
449833962.26415 0.99909431 -0.030481547 0.00045103533 0.014783621 0.00045544608 0.014833966 0.99884212 -0.029564649
459830188.67925 0.9990139 -0.031134248 0.00043367362 0.015097447 0.00044387486 0.015173275 0.9986456 -0.0302369
469826415.09434 0.99889302 -0.031877875 0.00047039799 0.01544675 0.00045282952 0.015545749 0.99837071 -0.030725539
479822641.50943 0.99880898 -0.032420479 0.00048062042 0.015775304 0.00048233941 0.01587275 0.99836606 -0.031123661
489818867.92453 0.99886131 -0.033069879 0.00052490551 0.016098648 0.00051732967 0.016186886 0.99871087 -0.031662107
499815094.33962 0.99903202 -0.033584803 0.00055867201 0.016421638 0.00054534432 0.016511044 0.99898887 -0.032217503
509811320.75472 0.99909866 -0.034065381 0.00055030605 0.016749142 0.00056367432 0.016845476 0.99906957 -0.032918099
519807547.16981 0.99894935 -0.034577906 0.00056348322 0.017032178 0.00057799369 0.017153284 0.99904162 -0.033685148
529803773.58491 0.99896365 -0.035235673 0.00059380755 0.017361417 0.00061104074 0.017456789 0.99876237 -0.034226984
539800000 0.99905038 -0.035914123 0.00063608284 0.017749041 0.0006196585 0.01783051 0.9987002 -0.034813896
549796226.41509 0.99901569 -0.036675155 0.00063279597 0.018053563 0.00062407833 0.018184289 0.99864393 -0.035310566
559792452.83019 0.99872267 -0.037389606 0.00064133015 0.018396433 0.00066228211 0.018465536 0.99855852 -0.035802811
569788679.24528 0.99857205 -0.038094461 0.00066729076 0.018748252 0.00063911267 0.01881811 0.99874938 -0.036552221
579784905.66038 0.99855691 -0.038682021 0.00068586285 0.019077498 0.00070323364 0.019179298 0.99885315 -0.03723409
589781132.07547 0.99868333 -0.039294004 0.00072127767 0.019430593 0.00071809255 0.01952781 0.99894911 -0.03812024
599777358.49057 0.9987306 -0.039958119 0.00073354319 0.019726764 0.00077450555 0.019797802 0.99898636 -0.038883209
609773584.90566 0.99893868 -0.040700331 0.00081557699 0.020046091 0.00082298415 0.020159036 0.99879801 -0.039754543
619769811.32075 0.99899989 -0.041355222 0.00084425043 0.020358948 0.00082263723 0.020462524 0.99880695 -0.040242761
629766037.73585 0.99886727 -0.041977674 0.00082605425 0.020635221 0.00086851325 0.020788558 0.99867976 -0.040743649
639762264.15094 0.99864495 -0.042613044 0.00085875764 0.020944595 0.00087429467 0.021099474 0.99853003 -0.041245908
649758490.56604 0.99865413 -0.043219164 0.00087724393 0.021303877 0.00088006584 0.021413352 0.99860168 -0.041710943
659754716.98113 0.99839407 -0.043702304 0.00089530833 0.021620061 0.00087908469 0.021747531 0.99875158 -0.04229939
669750943.39623 0.99845856 -0.044282258 0.00094180042 0.021998668 0.00087652402 0.022102162 0.99881697 -0.043029636
679747169.81132 0.99847263 -0.044921786 0.00097459718 0.022304161 0.00092016079 0.022464266 0.99869674 -0.043949299
689743396.22642 0.99859607 -0.045817763 0.0010085078 0.022648508 0.0010178378 0.02277486 0.99859494 -0.044914633
699739622.64151 0.9987098 -0.046589643 0.0010456694 0.022944987 0.0010291962 0.023088837 0.99848968 -0.045596629
709735849.0566 0.99868041 -0.047390953 0.0011154392 0.023277141 0.0010906314 0.023436941 0.99824297 -0.046276361
719732075.4717 0.99854875 -0.048140138 0.0011203717 0.023610329 0.0010958831 0.023686439 0.99833477 -0.046838284
729728301.88679 0.99846429 -0.048713565 0.0011478215 0.023910969 0.0011672368 0.024045493 0.99838829 -0.047301263
739724528.30189 0.9983418 -0.04933092 0.0011705365 0.024235193 0.0011967663 0.024378389 0.99851656 -0.047982976
749720754.71698 0.99826539 -0.049874663 0.0012312653 0.024545383 0.0012207702 0.024709644 0.99853313 -0.048672274
759716981.13208 0.99832118 -0.050377935 0.0012077419 0.02487636 0.0012871092 0.025028408 0.99847639 -0.049476355
769713207.54717 0.99823558 -0.051051974 0.0012712451 0.025169929 0.0012608571 0.025340483 0.99821448 -0.050131291
779709433.96226 0.9984507 -0.051687047 0.0012851077 0.025539365 0.001299278 0.025665898 0.99802423 -0.050802082
789705660.37736 0.99826247 -0.052561283 0.0013464522 0.025859358 0.0013398733 0.025960397 0.99774915 -0.05146721
799701886.79245 0.99819183 -0.053402096 0.0013453951 0.026149979 0.0013680076 0.026297256 0.99766028 -0.052078784
809698113.20755 0.99816573 -0.053945452 0.0014062689 0.026445564 0.0013932323 0.02663427 0.99768257 -0.052498728
819694339.62264 0.99795854 -0.054634929 0.0014041471 0.026776556 0.0014026519 0.026960861 0.99772787 -0.053126961
829690566.03774 0.99798888 -0.055179238 0.0014491491 0.027116627 0.0014303504 0.027286597 0.99794853 -0.0539698
839686792.45283 0.99794984 -0.055654019 0.0014631082 0.027414465 0.0015045903 0.027605742 0.99796218 -0.054825246
849683018.86792 0.99807596 -0.056287579 0.0015144753 0.02776425 0.0015265583 0.027932756 0.99787158 -0.055513665
859679245.28302 0.99807024 -0.057044208 0.0015445733 0.028096572 0.0015428541 0.028234866 0.99760127 -0.05611822
869675471.69811 0.99802727 -0.057831734 0.0016144607 0.028422877 0.0015734918 0.028573081 0.99727774 -0.056696594
879671698.11321 0.99800366 -0.058378957 0.0016041138 0.028682966 0.0016010567 0.028863626 0.99725813 -0.05703802
889667924.5283 0.99775791 -0.05924207 0.0016392292 0.02901344 0.0016515134 0.029181203 0.99709374 -0.057562739
899664150.9434 0.99772763 -0.059850186 0.0016767662 0.029323898 0.0016670106 0.02949724 0.99717426 -0.058119833
909660377.35849 0.99770159 -0.060499951 0.0016935715 0.029640924 0.0016806889 0.029830132 0.99728608 -0.059009925
919656603.77358 0.99774116 -0.061248973 0.0017154608 0.029959552 0.0017040675 0.030173203 0.99731374 -0.059868917
929652830.18868 0.99771941 -0.06199792 0.0017518168 0.030282289 0.001746255 0.030488882 0.99712938 -0.060741693
939649056.60377 0.99784911 -0.062580109 0.0017686365 0.030588171 0.001741983 0.03077933 0.99706942 -0.061342359
949645283.01887 0.99782854 -0.063406482 0.001747053 0.030922553 0.0017837242 0.031108955 0.99684203 -0.061976489
959641509.43396 0.99778503 -0.064089239 0.0017726012 0.031295031 0.0018158825 0.031471007 0.99673116 -0.062478215
969637735.84906 0.99764729 -0.064799428 0.0018244311 0.031633545 0.0018501207 0.031819008 0.99675536 -0.062791526
979633962.26415 0.99753034 -0.065500736 0.0018949921 0.031922773 0.001903926 0.03212525 0.99675405 -0.06347321
989630188.67925 0.99761415 -0.065976262 0.0019301185 0.032256443 0.0019332953 0.032459512 0.9969843 -0.064049542
999626415.09434 0.9976368 -0.066663921 0.0019499566 0.032529317 0.0019635726 0.032806214 0.99694645 -0.064821482
1009622641.5094 0.9976902 -0.067363024 0.0019951677 0.032884244 0.0020497898 0.033110637 0.99681503 -0.065668061
1019618867.9245 0.99772072 -0.068091288 0.0020126714 0.033221915 0.0020643319 0.033438798 0.99656069 -0.066448808
1029615094.3396 0.99771774 -0.069028199 0.0020638434 0.033534981 0.0021374766 0.03373795 0.99616265 -0.067057103
1039611320.7547 0.99768114 -0.069848269 0.0021137651 0.033834029 0.0021385429 0.034043577 0.99616057 -0.067679256
1049607547.1698 0.99765289 -0.070698768 0.0021578893 0.03412611 0.0021651606 0.034350805 0.99617088 -0.068298899
1059603773.5849 0.99750549 -0.071385205 0.0021695131 0.03442765 0.0022016885 0.03465559 0.99619508 -0.06884101
1069600000 0.99729747 -0.072142929 0.0021716962 0.034733158 0.0022095935 0.034956865 0.99631143 -0.069548965
1079596226.4151 0.99728388 -0.072794951 0.0021865973 0.035075478 0.0022354033 0.035281602 0.9963221 -0.070326462
1089592452.8302 0.99730897 -0.073431283 0.0022104317 0.035397992 0.0022687344 0.035622623 0.99626118 -0.07101512
1099588679.2453 0.99736929 -0.074047476 0.0022359788 0.035751075 0.0022821985 0.035950206 0.99595529 -0.071630448
1109584905.6604 0.99746299 -0.074895754 0.0022606635 0.036035601 0.0022661295 0.036293656 0.99575323 -0.0721789
1119581132.0755 0.99740386 -0.075759202 0.0022740634 0.036372568 0.0023094234 0.036675468 0.99549079 -0.072568744
1129577358.4906 0.9972806 -0.076576352 0.0022942387 0.03673806 0.0023437291 0.036996908 0.99545324 -0.073047668
1139573584.9057 0.99703556 -0.077441126 0.0023351712 0.037059478 0.0024532573 0.037301365 0.99552131 -0.073705256
1149569811.3208 0.99689025 -0.078243084 0.0024132249 0.037400313 0.0024606537 0.03766368 0.99567175 -0.07441137
1159566037.7358 0.99668813 -0.078975707 0.0024597039 0.037699461 0.0024781488 0.037961844 0.99570954 -0.075428247
1169562264.1509 0.99655414 -0.079591721 0.0024479944 0.038008504 0.0025209468 0.03827282 0.99561381 -0.076271594
1179558490.566 0.99653363 -0.080403723 0.0024612176 0.038383968 0.0025366927 0.038632706 0.99547201 -0.076927543
1189554716.9811 0.99649394 -0.081154674 0.0024889838 0.038710888 0.0026163561 0.038958143 0.99520248 -0.077466041
1199550943.3962 0.99644017 -0.081906825 0.0025548581 0.039064571 0.0026282482 0.03927603 0.99507034 -0.077877134
1209547169.8113 0.99627292 -0.082797796 0.0025618616 0.039370116 0.0026490605 0.039625879 0.99491465 -0.078269556
1219543396.2264 0.99608725 -0.083571985 0.0026195319 0.039758153 0.0027229404 0.039980318 0.99498242 -0.078626022
1229539622.6415 0.99580133 -0.084418297 0.0027191397 0.040077522 0.0028063804 0.040318023 0.99511462 -0.0793356
1239535849.0566 0.99562728 -0.084998399 0.0027472023 0.040408421 0.002867423 0.040629223 0.99519372 -0.080190957
1249532075.4717 0.99529564 -0.085637376 0.0028332155 0.04070688 0.0029220975 0.040928036 0.99510056 -0.080932908
1259528301.8868 0.99508393 -0.086204916 0.0028421506 0.04103256 0.0029807407 0.041216787 0.99487966 -0.081792206
1269524528.3019 0.99494207 -0.08690688 0.0029362664 0.041356791 0.0030531101 0.041562244 0.99464607 -0.082519203
1279520754.717 0.99455351 -0.087591663 0.0029842602 0.041637864 0.0030849627 0.041808326 0.99438834 -0.083039299
1289516981.1321 0.99441034 -0.08848533 0.0029758513 0.041902412 0.0031237239 0.042117018 0.99442369 -0.08351317
1299513207.5472 0.994156 -0.089314789 0.0030269455 0.042229969 0.0030970071 0.042425871 0.99457669 -0.083906293
1309509433.9623 0.99377936 -0.090082422 0.0030088918 0.042499591 0.0031340532 0.042719293 0.99459863 -0.084623918
1319505660.3774 0.993379 -0.090789154 0.002999492 0.042896166 0.0031551616 0.043030594 0.99469024 -0.085209012
1329501886.7925 0.99315912 -0.091449559 0.0030370858 0.04316885 0.0031612962 0.043374501 0.99462622 -0.086193025
1339498113.2075 0.99286306 -0.091957003 0.0030640084 0.043511312 0.0031633712 0.043676123 0.99435925 -0.086898327
1349494339.6226 0.99261326 -0.092470475 0.0030239644 0.043823279 0.0031668874 0.044031724 0.99403125 -0.087462984
1359490566.0377 0.99250829 -0.093099266 0.003075175 0.044204168 0.003146166 0.044393279 0.99378097 -0.088014126
1369486792.4528 0.99227434 -0.093597233 0.0030665789 0.044548694 0.0031855609 0.044725969 0.99370253 -0.088412017
1379483018.8679 0.99207598 -0.09411706 0.003066953 0.044945855 0.0031892401 0.045062054 0.99364418 -0.088782161
1389479245.283 0.99166644 -0.094638258 0.0031315479 0.045288991 0.0032427013 0.045458023 0.99361992 -0.089452922
1399475471.6981 0.99131644 -0.095062762 0.0031337738 0.045644861 0.0032278672 0.045760658 0.9938271 -0.090199679
1409471698.1132 0.99102294 -0.09550757 0.0032020959 0.046005614 0.0032440021 0.046150323 0.9937821 -0.091005944
1419467924.5283 0.99086004 -0.095765561 0.0031953547 0.046364758 0.00327894 0.046536639 0.9935739 -0.091664135
1429464150.9434 0.99073112 -0.096324742 0.0032661855 0.046781756 0.0032942612 0.046933003 0.99351269 -0.09232074
1439460377.3585 0.99091399 -0.096744761 0.003325562 0.047205485 0.0034217946 0.047363691 0.99334598 -0.09249714
1449456603.7736 0.99092692 -0.097272247 0.0034531448 0.04761111 0.0034933081 0.047774918 0.9931041 -0.092908069
1459452830.1887 0.99087834 -0.097923011 0.0036121048 0.04802563 0.0035748519 0.048161335 0.99326837 -0.093218952
1469449056.6038 0.99093944 -0.098580241 0.0037301835 0.048375074 0.003762031 0.048503008 0.99355078 -0.09391892
1479445283.0189 0.99080461 -0.099136934 0.0038481473 0.04864452 0.0038728344 0.048799306 0.99354649 -0.09472619
1489441509.434 0.99073362 -0.09964937 0.0039928593 0.048940744 0.0039928313 0.049100965 0.99348283 -0.095560402
1499437735.8491 0.99054664 -0.10000131 0.0040973928 0.049220752 0.0041174404 0.049371637 0.99342108 -0.096377283
1509433962.2642 0.99062824 -0.10052375 0.004163418 0.049484082 0.0041787862 0.049644303 0.99320251 -0.0970897
1519430188.6792 0.9905988 -0.10105163 0.0042196456 0.049749665 0.0042671096 0.049911544 0.99304581 -0.097619742
1529426415.0943 0.99060965 -0.10179672 0.0042686667 0.050042052 0.0042660087 0.050184682 0.99300826 -0.098096907
1539422641.5094 0.99065828 -0.10256985 0.0043428275 0.050338585 0.0043570539 0.050528038 0.99304187 -0.098609105
1549418867.9245 0.99042612 -0.10336602 0.0044208085 0.050574061 0.0044095498 0.05078043 0.99327892 -0.099353611
1559415094.3396 0.99038517 -0.10403559 0.0044559166 0.050905757 0.0044501871 0.05107677 0.99338448 -0.099978328
1569411320.7547 0.99027371 -0.10476309 0.0044607166 0.051185507 0.004463546 0.051350232 0.99338919 -0.10085076
1579407547.1698 0.99015653 -0.10535185 0.0045089144 0.051415998 0.0045070807 0.051624227 0.99306756 -0.10163085
1589403773.5849 0.99010503 -0.10579851 0.0044912603 0.051758129 0.0044963434 0.051944133 0.99286193 -0.10226798
1599400000 0.99009895 -0.10623041 0.0045107119 0.052049473 0.0044854768 0.052241515 0.99242747 -0.10277829
1609396226.4151 0.9900257 -0.10694465 0.0045241425 0.052355736 0.0044438182 0.052559365 0.99228281 -0.10329622
1619392452.8302 0.98998654 -0.10751331 0.0045077149 0.052681126 0.0044840276 0.052922688 0.99228269 -0.10367772
1629388679.2453 0.98983049 -0.10820338 0.004542267 0.052977551 0.0044643711 0.053264551 0.99247259 -0.10419208
1639384905.6604 0.98953331 -0.10891121 0.0045450395 0.053386632 0.0044690385 0.053613678 0.99275529 -0.1050719
1649381132.0755 0.98946142 -0.10950547 0.0045472216 0.053748604 0.0045465771 0.054003604 0.99272287 -0.10598186
1659377358.4906 0.98920476 -0.11035931 0.0045378301 0.054115273 0.0045192316 0.054374728 0.99268878 -0.10684377
1669373584.9057 0.98917234 -0.1108089 0.0046287132 0.054470826 0.0045732898 0.05476376 0.99245024 -0.10746939
1679369811.3208 0.98916239 -0.11139324 0.0046123518 0.054854106 0.004612376 0.055169873 0.99215746 -0.10807583
1689366037.7358 0.98914504 -0.11205801 0.0046782661 0.055220269 0.0046752598 0.055461332 0.99200308 -0.10831931
1699362264.1509 0.98930109 -0.11261472 0.004749245 0.055582646 0.0047083218 0.055875812 0.99215388 -0.10880166
1709358490.566 0.98908156 -0.11323166 0.0047861375 0.05594714 0.0047524469 0.056230091 0.99224669 -0.1093294
1719354716.9811 0.98891771 -0.11386025 0.0048197843 0.056306012 0.0047983918 0.056609541 0.99223745 -0.10998869
1729350943.3962 0.98862833 -0.11439547 0.0049321391 0.056726858 0.0049090441 0.057004888 0.99228436 -0.11090544
