!Keysight Technologies,N5222B,MY61253708,A.15.00.15
!Date: Wednesday, June 19, 2024 09:02:49
!Correction: S11(C  2-Port  ) 
!S21(C  2-Port  ) 
!S12(C  2-Port  ) 
!S22(C  2-Port  ) 
!S2P File: Measurements: S11, S21, S12, S22:
# Hz S  RI   R 50
10000000 0.99871469 -0.0024720728 -6.4244305e-005 0.00037820992 -0.00031220185 0.00028749317 0.9984467 -0.00067812204
19996226.415094 0.99905527 -0.0019585788 7.5588643e-005 0.00080088066 -2.9594346e-005 0.00074786192 0.99919868 -0.0022217035
29992452.830189 0.99977869 -0.0025377274 9.9416357e-006 0.0010936861 -2.8713694e-005 0.0010794601 0.99960244 -0.0027912259
39988679.245283 1.000159 -0.003092587 -4.4103042e-005 0.0014418782 -3.089667e-005 0.0014284258 0.99963742 -0.0031315237
49984905.660377 1.0002484 -0.0038636923 -3.8757571e-006 0.001772013 3.2433192e-005 0.0017769858 0.99978375 -0.0037872195
59981132.075472 1.0003147 -0.0046997964 4.2001484e-006 0.0021213226 -1.4798483e-005 0.002113485 0.9997161 -0.0043727756
69977358.490566 1.0001076 -0.005285887 1.6025831e-005 0.0024655592 3.0764386e-006 0.0024785083 0.99957156 -0.004841717
79973584.90566 0.99984753 -0.0058518648 1.1862838e-005 0.0027881544 4.7081965e-005 0.0028189188 0.99938011 -0.0053967535
89969811.320755 0.99983811 -0.0060152411 1.4812686e-005 0.0032043681 4.1188207e-005 0.0031616916 0.99952829 -0.0057162642
99966037.735849 1.0000356 -0.0067715794 -4.4784974e-007 0.0035058062 1.7709681e-005 0.0035289051 0.99958169 -0.0064798445
109962264.15094 1.0001227 -0.007751435 2.3405533e-005 0.0038555805 1.2851844e-005 0.0038961675 0.9995867 -0.0073511153
119958490.56604 1.0001752 -0.0087644756 3.656582e-005 0.0041910731 4.6275556e-005 0.0042396081 0.99963772 -0.00827986
129954716.98113 1.0000937 -0.0098269284 3.7194928e-005 0.0045722462 4.6063215e-005 0.0046030465 0.9995991 -0.0091935396
139950943.39623 1.0000001 -0.010696633 4.9164795e-005 0.0049083834 3.2743847e-005 0.0049470533 0.99951154 -0.0099820234
149947169.81132 0.99981576 -0.011343539 5.9116632e-005 0.0052628201 5.4400181e-005 0.0052840887 0.9994607 -0.010595471
159943396.22642 0.99983299 -0.011846393 6.3813757e-005 0.0055943746 7.2106486e-005 0.0056446036 0.99955332 -0.011073381
169939622.64151 0.99980456 -0.012247182 7.1838091e-005 0.0059553087 7.7822595e-005 0.0059974096 0.99962801 -0.011517964
179935849.0566 0.99988425 -0.012487829 7.5720251e-005 0.0063291104 8.5319392e-005 0.0063248761 0.99957347 -0.011918485
189932075.4717 1.0000185 -0.013342321 0.00011545978 0.0066527794 9.6754404e-005 0.0067155072 0.99977684 -0.012559384
199928301.88679 1.0000402 -0.014204711 8.9928275e-005 0.0070006642 0.00010128529 0.0070527522 0.99962872 -0.013384104
209924528.30189 0.99973261 -0.014876023 0.00013497425 0.0073823347 0.00010284607 0.0074142278 0.99936068 -0.014199749
219920754.71698 0.99974042 -0.015764683 0.00015440863 0.0076879733 0.00011377642 0.0077576842 0.99930704 -0.01488471
229916981.13208 0.99946392 -0.016683936 0.00014050794 0.008072421 0.00012718723 0.008086903 0.99916065 -0.015699655
239913207.54717 0.99930006 -0.017315827 0.00015817172 0.0084069008 0.00015156617 0.008476519 0.99911386 -0.01638592
249909433.96226 0.99935627 -0.017998546 0.00014808704 0.0087586995 0.0001845106 0.008824273 0.9992516 -0.017099559
259905660.37736 0.99939489 -0.01854521 0.00021545915 0.0091208452 0.00016045524 0.0091478378 0.99936533 -0.017602056
269901886.79245 0.99964762 -0.01921998 0.00018353923 0.009425668 0.00014532031 0.009504633 0.99976879 -0.018375814
279898113.20755 0.9997164 -0.019957304 0.00022384501 0.009801575 0.00016220892 0.009872755 0.99963897 -0.019091725
289894339.62264 0.99967754 -0.020775199 0.0001569232 0.010144733 0.00019763596 0.010206596 0.99950057 -0.019906849
299890566.03774 0.99955529 -0.021387249 0.00018892041 0.010498025 0.00023352588 0.010535504 0.99928123 -0.020320237
309886792.45283 0.99928594 -0.021955952 0.00029954384 0.010837102 0.0001968107 0.010945516 0.99911654 -0.020918168
319883018.86792 0.9992044 -0.022552073 0.00027762167 0.011200444 0.00025023753 0.011276981 0.99925441 -0.02137816
329879245.28302 0.99927944 -0.023307472 0.00026594894 0.01153235 0.00029374892 0.011638165 0.9993062 -0.022175938
339875471.69811 0.99915326 -0.02406726 0.00025722221 0.011944825 0.00029046484 0.011994038 0.9992153 -0.022974022
349871698.11321 0.99931741 -0.024932057 0.00033205515 0.012224232 0.00029217359 0.012341316 0.99926943 -0.023943067
359867924.5283 0.99922806 -0.025723904 0.00032333797 0.012631511 0.00032895757 0.012687309 0.99919868 -0.024875134
369864150.9434 0.99940938 -0.026615709 0.0003368964 0.012977552 0.00037053763 0.013066798 0.99924207 -0.025567353
379860377.35849 0.99935764 -0.027319029 0.00036771293 0.013315267 0.00040001748 0.013386818 0.99921519 -0.026405081
389856603.77358 0.99925083 -0.027819395 0.00038286345 0.013635438 0.00041968236 0.013747381 0.99913323 -0.026759446
399852830.18868 0.9990685 -0.028402925 0.00041726464 0.013974031 0.00039909221 0.014062676 0.99918669 -0.027256519
409849056.60377 0.99903524 -0.028915502 0.00043814859 0.014291157 0.00042136878 0.014420411 0.99922091 -0.027717382
419845283.01887 0.9990924 -0.029359102 0.00043313392 0.014699837 0.00042793341 0.014793443 0.9991942 -0.028303117
429841509.43396 0.99908268 -0.030074537 0.00047728512 0.015062479 0.0004672478 0.015151983 0.99936205 -0.029082477
439837735.84906 0.99911773 -0.03095445 0.00054157514 0.015390489 0.00050344924 0.015490468 0.99916989 -0.030166045
449833962.26415 0.99904758 -0.031831622 0.00052399468 0.015690777 0.00052733067 0.015815822 0.99882466 -0.030900002
459830188.67925 0.99893939 -0.032758087 0.00055166427 0.016030941 0.00050790049 0.016169127 0.99862474 -0.031757206
469826415.09434 0.99878693 -0.033556342 0.00053763809 0.016429696 0.00052220793 0.016534366 0.99840319 -0.032259613
479822641.50943 0.99870348 -0.034073643 0.00053157751 0.016739648 0.00055464124 0.016871911 0.99843717 -0.032767139
489818867.92453 0.99879897 -0.034772813 0.00059761992 0.017103642 0.00061241211 0.017222773 0.99880624 -0.03327924
499815094.33962 0.998923 -0.035268396 0.00061983662 0.017479582 0.00061477209 0.017574413 0.99904394 -0.034027576
509811320.75472 0.99895108 -0.035708878 0.0006591283 0.017787736 0.00063312979 0.017932605 0.99917287 -0.034820408
519807547.16981 0.99898124 -0.036354393 0.00062790373 0.018167915 0.00069179526 0.018302595 0.99912924 -0.035647452
529803773.58491 0.99891651 -0.037005216 0.00068063848 0.018496204 0.00067925919 0.018667884 0.99888897 -0.036269635
539800000 0.99890488 -0.037709549 0.00072865537 0.018829346 0.00069179502 0.01899799 0.99873173 -0.036952868
549796226.41509 0.99868482 -0.038632482 0.00072705979 0.019257 0.00074009597 0.019379092 0.99852943 -0.037400037
559792452.83019 0.99840641 -0.039302707 0.0007598782 0.019538285 0.00072950311 0.019675251 0.99838865 -0.037915766
569788679.24528 0.99824482 -0.040126771 0.00076420326 0.019897057 0.00074980594 0.020026447 0.9985438 -0.03871724
579784905.66038 0.99826801 -0.040673673 0.0008143814 0.02027496 0.00081440038 0.020382442 0.9986552 -0.039461032
589781132.07547 0.99841368 -0.041279703 0.00087643508 0.020629395 0.00084769167 0.02081373 0.99876165 -0.040353447
599777358.49057 0.99859571 -0.041950047 0.00084731448 0.020973938 0.00091382023 0.02111442 0.99882996 -0.041249454
609773584.90566 0.9986949 -0.042818278 0.00092291995 0.021342177 0.00092980539 0.021457864 0.99866152 -0.042062856
619769811.32075 0.99874496 -0.043547183 0.00098628039 0.021694116 0.0010323478 0.021804664 0.99856472 -0.042680085
629766037.73585 0.99855006 -0.044178128 0.0010063164 0.021975663 0.0010328367 0.022106189 0.99835515 -0.043200791
639762264.15094 0.99837649 -0.044822812 0.0010357858 0.022293169 0.0010286642 0.022452325 0.99823165 -0.043657124
649758490.56604 0.9982245 -0.045418307 0.0010253266 0.022651048 0.0010323212 0.022770902 0.99827665 -0.044082478
659754716.98113 0.9980588 -0.045952022 0.0010519903 0.023012135 0.0010444643 0.023161922 0.99832553 -0.044644415
669750943.39623 0.99812531 -0.046473622 0.0010492741 0.023373155 0.0010580667 0.023540001 0.99841857 -0.045492977
679747169.81132 0.99808449 -0.047223985 0.0011222952 0.023745088 0.0011254803 0.023897788 0.99840426 -0.046474211
689743396.22642 0.99816221 -0.048038155 0.0011391072 0.024087569 0.0011699572 0.02425418 0.99818861 -0.04745841
699739622.64151 0.99835861 -0.048967332 0.0012123082 0.024446484 0.0012060236 0.024610193 0.99807036 -0.048199773
709735849.0566 0.99829066 -0.049896158 0.0012747071 0.024713136 0.001246626 0.024929002 0.99785703 -0.048804566
719732075.4717 0.9980914 -0.050545514 0.001267348 0.025097135 0.0012984313 0.025291579 0.99793243 -0.049432695
729728301.88679 0.99802721 -0.051040918 0.0013132608 0.025398932 0.001323279 0.025618739 0.9979859 -0.049819559
739724528.30189 0.99789619 -0.051758453 0.0013542422 0.025787776 0.0013641277 0.025957746 0.99816751 -0.050541148
749720754.71698 0.99784523 -0.052300036 0.0014182464 0.026089896 0.0013981019 0.026317729 0.99816102 -0.051259413
759716981.13208 0.99788988 -0.052789509 0.0014459025 0.026451565 0.0014063157 0.026667137 0.9981401 -0.05210337
769713207.54717 0.99784511 -0.053523332 0.0014335541 0.026772507 0.0014747139 0.026965946 0.99791944 -0.052829623
779709433.96226 0.99809563 -0.054150388 0.0015044395 0.027119584 0.0015089925 0.027306639 0.99755681 -0.053449817
789705660.37736 0.99790972 -0.055115461 0.0015677251 0.027444424 0.0015436383 0.027675997 0.99737155 -0.054189235
799701886.79245 0.99789017 -0.056012005 0.0015741801 0.027795665 0.0015735338 0.027938765 0.997181 -0.054866284
809698113.20755 0.99773186 -0.056672186 0.0016030865 0.028120687 0.0015529366 0.02833198 0.99732584 -0.055304796
819694339.62264 0.99755788 -0.057351142 0.0016320217 0.028481035 0.0016036336 0.028669551 0.99741489 -0.055944532
829690566.03774 0.997527 -0.057959348 0.0016821753 0.028787389 0.0016751699 0.02900265 0.99766946 -0.056869864
839686792.45283 0.99761295 -0.058359623 0.0016764663 0.02918214 0.0017026681 0.029342109 0.99773359 -0.057669342
849683018.86792 0.99774796 -0.059040338 0.0017379799 0.029489025 0.0017138289 0.02973046 0.99758559 -0.058473416
859679245.28302 0.99777603 -0.059772253 0.0017618928 0.029817956 0.0017545456 0.030066924 0.99731016 -0.059150636
869675471.69811 0.99774325 -0.060618818 0.0018089497 0.030201903 0.0017952332 0.030434214 0.99693298 -0.059650332
879671698.11321 0.99761266 -0.061317969 0.0018828034 0.030498793 0.0018779704 0.030751131 0.9969613 -0.060096294
889667924.5283 0.99739647 -0.06211254 0.0018916801 0.030874675 0.0018914519 0.03106875 0.9967705 -0.060635805
899664150.9434 0.9971621 -0.062888652 0.0019348357 0.031192604 0.001922451 0.031417321 0.99681896 -0.061274737
909660377.35849 0.9971925 -0.063633278 0.0019418611 0.031519033 0.0019380865 0.031755351 0.99696589 -0.062208235
919656603.77358 0.99723077 -0.064240903 0.0019920547 0.031839605 0.0019857483 0.032082014 0.99698907 -0.063158542
929652830.18868 0.99727404 -0.06500563 0.0020129317 0.032149613 0.0020025317 0.032427445 0.99677455 -0.064038008
939649056.60377 0.99746203 -0.065688759 0.0020044027 0.032481033 0.0020394437 0.032773588 0.99666762 -0.064695537
949645283.01887 0.99735808 -0.066518188 0.0020127581 0.032861643 0.0020271013 0.03313566 0.99647319 -0.065356657
959641509.43396 0.99729747 -0.067270428 0.002062073 0.033237785 0.0020989254 0.033516135 0.99632561 -0.065798193
969637735.84906 0.99723339 -0.068001419 0.0021151993 0.033586737 0.0021356419 0.033837039 0.99632895 -0.066298217
979633962.26415 0.9970358 -0.068709515 0.0021788746 0.033909798 0.0021992463 0.034208018 0.99635595 -0.066888176
989630188.67925 0.99701595 -0.069310665 0.0022241687 0.03429307 0.0022407137 0.034542963 0.99651361 -0.067528516
999626415.09434 0.99703789 -0.069900244 0.0022529997 0.034609444 0.0022536293 0.03489475 0.99650061 -0.068386972
1009622641.5094 0.99700916 -0.07058844 0.0023109829 0.034953952 0.0023202868 0.03525481 0.9963063 -0.069274545
1019618867.9245 0.99713963 -0.071386933 0.0023761541 0.035319325 0.0023880326 0.035601363 0.99602419 -0.070150077
1029615094.3396 0.99708772 -0.072483242 0.0024131071 0.035635117 0.0024448577 0.035944521 0.99563932 -0.070740014
1039611320.7547 0.99721378 -0.073372126 0.0024801409 0.035961043 0.0024853284 0.036232907 0.9956103 -0.071387231
1049607547.1698 0.99692672 -0.074322231 0.0024859514 0.036275167 0.0025100778 0.036585372 0.99560034 -0.072038926
1059603773.5849 0.99687755 -0.07508862 0.00249987 0.036583677 0.0025277678 0.036885832 0.995592 -0.072573781
1069600000 0.99658108 -0.075694114 0.0025182217 0.036912575 0.0025742017 0.037229035 0.99570614 -0.073311657
1079596226.4151 0.99657869 -0.076249518 0.0025514821 0.037265353 0.0025897794 0.037587639 0.9957245 -0.074116699
1089592452.8302 0.99657977 -0.076925755 0.0025789645 0.037607115 0.0026414525 0.037893083 0.99564379 -0.074853569
1099588679.2453 0.99665904 -0.077579111 0.0025840178 0.037976589 0.0026413519 0.038256478 0.99529111 -0.075442165
1109584905.6604 0.99678254 -0.078483447 0.0026133694 0.038307365 0.0026848679 0.038634229 0.99504161 -0.076072618
1119581132.0755 0.9967432 -0.07950253 0.002665156 0.0386777 0.0026978762 0.038998973 0.99484783 -0.076539345
1129577358.4906 0.99649 -0.080312759 0.0026952717 0.039012522 0.0027927086 0.039383188 0.99471289 -0.076993883
1139573584.9057 0.99626976 -0.08125487 0.0027602706 0.039376915 0.0027774414 0.039694957 0.99476194 -0.077697963
1149569811.3208 0.99611336 -0.08210925 0.0028083913 0.039740402 0.0028573715 0.040070947 0.99496698 -0.078491241
1159566037.7358 0.99589252 -0.082780778 0.0028325096 0.040034685 0.0029689856 0.040364955 0.99502301 -0.079451114
1169562264.1509 0.99582183 -0.083385438 0.0028553605 0.040391862 0.0029248185 0.040722795 0.99493408 -0.080356598
1179558490.566 0.99570459 -0.084161445 0.0028596912 0.040784281 0.0029872514 0.041106693 0.99478114 -0.081073478
1189554716.9811 0.99570841 -0.084953815 0.0029254016 0.041138783 0.003033516 0.041454528 0.99440855 -0.081616253
1199550943.3962 0.99561846 -0.085815907 0.0029547494 0.041480415 0.0030883551 0.04179192 0.99432886 -0.08196494
1209547169.8113 0.99548316 -0.086694896 0.0030151978 0.041823309 0.0031407587 0.04214026 0.99418628 -0.082288459
1219543396.2264 0.99522424 -0.087555692 0.0030703722 0.042243391 0.0031945244 0.042532641 0.99418968 -0.082679406
1229539622.6415 0.99487543 -0.088334262 0.003110256 0.042552657 0.0032611154 0.042850312 0.99442577 -0.083541185
1239535849.0566 0.99462014 -0.089136302 0.0032289233 0.042879172 0.0033492101 0.043221228 0.99444729 -0.084453762
1249532075.4717 0.99437666 -0.089786686 0.0032420468 0.043216057 0.0034059456 0.043527864 0.99427778 -0.085212305
1259528301.8868 0.99413925 -0.090235621 0.0033395179 0.043589879 0.0034173504 0.043861978 0.99405789 -0.086105824
1269524528.3019 0.99400294 -0.091025054 0.0034059212 0.043867741 0.00356986 0.044188105 0.99381548 -0.086915046
1279520754.717 0.99367875 -0.09178333 0.0034304275 0.044189204 0.0035775104 0.044465095 0.99350113 -0.087433234
1289516981.1321 0.99345452 -0.092641056 0.0034816563 0.044489738 0.0035810666 0.044789512 0.99360788 -0.087849677
1299513207.5472 0.99314731 -0.093527734 0.003499357 0.044853993 0.0036401115 0.045099948 0.99363577 -0.088332772
1309509433.9623 0.99263108 -0.094260424 0.0035081822 0.045133021 0.0036545051 0.045441337 0.99382102 -0.088968813
1319505660.3774 0.9922452 -0.095015779 0.0035088975 0.045498073 0.0036521181 0.045770314 0.99382687 -0.089715734
1329501886.7925 0.99195015 -0.095706016 0.0035456251 0.04585116 0.0036865305 0.046093442 0.99382269 -0.09068197
1339498113.2075 0.99163228 -0.096165836 0.0035788426 0.046190795 0.0036880504 0.046459794 0.99333018 -0.09142983
1349494339.6226 0.99148059 -0.096782804 0.0035731038 0.046541322 0.0036863117 0.046828981 0.99308074 -0.092012443
1359490566.0377 0.99149579 -0.097377211 0.0035567842 0.046903409 0.003715083 0.047147337 0.99280202 -0.092622131
1369486792.4528 0.9911828 -0.097937554 0.0035955794 0.047342896 0.0037503913 0.04752478 0.99255782 -0.093102723
1379483018.8679 0.99089175 -0.098518632 0.003643746 0.047665257 0.0037579087 0.047887295 0.99258822 -0.093382105
1389479245.283 0.99055189 -0.099101096 0.0036932658 0.048073657 0.0037747305 0.048298925 0.99247557 -0.094144106
1399475471.6981 0.99012649 -0.099470943 0.0036896393 0.048431378 0.0038000345 0.048694067 0.99275464 -0.09484446
1409471698.1132 0.98971307 -0.099880628 0.0037473654 0.048830684 0.0038620057 0.049046949 0.99275464 -0.095715769
1419467924.5283 0.98963171 -0.10007358 0.0037662378 0.049202107 0.003847654 0.049454935 0.9925645 -0.096378773
1429464150.9434 0.98946369 -0.10054898 0.0038284864 0.049647603 0.0038750656 0.049888581 0.99243808 -0.09701702
1439460377.3585 0.98965108 -0.10101725 0.0038972795 0.05009605 0.0039833188 0.05033765 0.99220276 -0.097269088
1449456603.7736 0.98966765 -0.10167731 0.0040527722 0.050535884 0.004050619 0.050730679 0.99205709 -0.097626492
1459452830.1887 0.98960221 -0.10242113 0.0041733216 0.050943002 0.0042080227 0.051179614 0.99220741 -0.098005533
1469449056.6038 0.9896872 -0.10312444 0.0043567475 0.05129198 0.0043776911 0.051528156 0.99236202 -0.09867236
1479445283.0189 0.98940426 -0.10373844 0.0044647306 0.051593237 0.0044796495 0.051833395 0.99243551 -0.099624678
1489441509.434 0.98939246 -0.10427737 0.0046437755 0.051916722 0.00468795 0.052166805 0.99231273 -0.10049281
1499437735.8491 0.98915035 -0.10465324 0.004696358 0.052202694 0.0047868174 0.052448448 0.99227381 -0.10130093
1509433962.2642 0.98919475 -0.10509331 0.0048091947 0.052507296 0.0048254086 0.052772343 0.99202365 -0.10200867
1519430188.6792 0.98930049 -0.10570934 0.0049047079 0.052797891 0.0049105268 0.053030685 0.99193203 -0.10265818
1529426415.0943 0.98923528 -0.1063711 0.0049306341 0.053032074 0.0049351864 0.053366959 0.9918102 -0.1030924
1539422641.5094 0.98924184 -0.10720146 0.0050116181 0.053373862 0.0050173146 0.05366176 0.99188232 -0.10350932
1549418867.9245 0.98902076 -0.1080585 0.0050683292 0.053702641 0.0050911857 0.053950023 0.99217951 -0.10424809
1559415094.3396 0.98896801 -0.10880694 0.005137464 0.054008301 0.0051423684 0.054286733 0.99224281 -0.10498786
1569411320.7547 0.98879695 -0.10951962 0.0051967707 0.054262869 0.0051431265 0.054588221 0.99212205 -0.10587318
1579407547.1698 0.98871833 -0.11006667 0.0052040499 0.054530933 0.0051911762 0.054891739 0.99186462 -0.1066546
1589403773.5849 0.98863053 -0.1105752 0.0051976349 0.054888852 0.0052107759 0.055184022 0.99160683 -0.10732958
1599400000 0.98865962 -0.11109224 0.0051911399 0.055233281 0.0051941518 0.05554311 0.99110597 -0.10788208
1609396226.4151 0.98857731 -0.11174143 0.0052282223 0.055555623 0.0052177664 0.055855706 0.9909156 -0.10842833
1619392452.8302 0.9885506 -0.11237076 0.0052045342 0.055888288 0.0051841512 0.056216918 0.99084777 -0.10889217
1629388679.2453 0.98843324 -0.11311725 0.0052220151 0.056282721 0.0052089635 0.056637071 0.9912048 -0.1093758
1639384905.6604 0.98814166 -0.11384153 0.0053085727 0.056657363 0.0052419314 0.056968696 0.99141693 -0.1103622
1649381132.0755 0.98794103 -0.11451897 0.00525387 0.056998704 0.0052543189 0.057359807 0.99140894 -0.11123973
1659377358.4906 0.98769987 -0.11524966 0.0053170919 0.057418074 0.0053148195 0.05777704 0.99135947 -0.1121783
1669373584.9057 0.98759806 -0.11562195 0.005313037 0.05781085 0.0053461767 0.05814765 0.99094611 -0.11274996
1679369811.3208 0.98770249 -0.1164861 0.0054180399 0.05819859 0.0053924285 0.05855988 0.9907437 -0.11340907
1689366037.7358 0.98767233 -0.11710411 0.0054449216 0.058613323 0.0054377727 0.058964353 0.99053997 -0.11361253
1699362264.1509 0.98782146 -0.11769116 0.0055334298 0.05894557 0.0055018049 0.059365869 0.99078256 -0.11411498
1709358490.566 0.98768055 -0.11835295 0.0055859769 0.059330855 0.0055723647 0.059755702 0.99072808 -0.11469376
1719354716.9811 0.98736542 -0.11907375 0.0056775529 0.059790552 0.0056305118 0.060154326 0.99074751 -0.11539078
1729350943.3962 0.98702228 -0.11971593 0.0057577137 0.060186479 0.0057732835 0.060558394 0.99085528 -0.11631787
