!Keysight Technologies,N5222B,MY61253708,A.15.00.15
!Date: Wednesday, June 19, 2024 09:39:13
!Correction: S11(C  2-Port  ) 
!S21(C  2-Port  ) 
!S12(C  2-Port  ) 
!S22(C  2-Port  ) 
!S2P File: Measurements: S11, S21, S12, S22:
# Hz S  RI   R 50
10000000 0.99856102 -0.0026836991 3.2512253e-005 0.00029921421 7.3908202e-005 0.00067710213 0.99831915 -0.00088095665
19996226.415094 0.99884975 -0.0024335682 9.8930264e-005 0.00073563802 6.2967156e-005 0.00056077878 0.99895948 -0.0028140545
29992452.830189 0.99973518 -0.0025385022 7.6185388e-006 0.00093942438 -1.5830505e-005 0.001072239 0.99949843 -0.0026094615
39988679.245283 1.0000453 -0.0031027049 1.4950056e-005 0.0013241866 -2.2585285e-005 0.0012774811 0.99971443 -0.0031328052
49984905.660377 1.0000908 -0.0036889315 -2.2441905e-005 0.0016884739 2.7129427e-006 0.001690952 0.99986076 -0.0036745071
59981132.075472 1.000356 -0.0046288371 1.3244571e-006 0.001982267 1.6207574e-005 0.0019822321 0.99985218 -0.0042809844
69977358.490566 1.0001436 -0.0050913412 -9.9287099e-006 0.0022938394 -4.0989216e-006 0.0023842966 0.99967659 -0.0048142225
79973584.90566 0.99992061 -0.0057327449 -5.9100566e-006 0.0026386078 -8.8699162e-006 0.0026293721 0.99936545 -0.0053033531
89969811.320755 0.99988836 -0.0058798194 3.4765573e-005 0.0029842546 8.1644394e-006 0.0029889999 0.99960482 -0.0055704117
99966037.735849 1.0001471 -0.0066303462 7.7305012e-006 0.0033158138 4.9307069e-005 0.0033730171 0.99966156 -0.0063693523
109962264.15094 1.0000689 -0.0075409114 -1.4292309e-006 0.0036445323 3.9187609e-005 0.0036880707 0.99963576 -0.0071825832
119958490.56604 1.0001519 -0.0084457695 4.1790307e-005 0.0039805518 3.5386649e-005 0.004026514 0.99967796 -0.0080397427
129954716.98113 1.0000927 -0.0094082952 4.8810733e-005 0.0043133623 4.3682521e-005 0.0043442044 0.99967933 -0.0089442432
139950943.39623 1.0000355 -0.01019036 6.5362845e-005 0.0046369592 4.1626539e-005 0.0046944786 0.99960196 -0.0097090639
149947169.81132 0.99993289 -0.01086539 4.1342806e-005 0.0049742083 5.9425132e-005 0.0050194836 0.99953806 -0.010285944
159943396.22642 0.99990857 -0.01139009 5.2022282e-005 0.0053262198 6.3499901e-005 0.0053500403 0.99960268 -0.010782182
169939622.64151 0.9998877 -0.011802033 7.6561118e-005 0.0056390013 5.7917146e-005 0.0056893663 0.99968201 -0.0112352
179935849.0566 0.99995971 -0.012052268 6.69281e-005 0.0059515908 9.589945e-005 0.0060184547 0.9996016 -0.011608005
189932075.4717 1.0000467 -0.012831986 8.1935432e-005 0.0063149137 7.8312121e-005 0.0063649071 0.99977845 -0.012160182
199928301.88679 0.99999815 -0.013639241 9.1823982e-005 0.0066438769 8.6080981e-005 0.0066978303 0.99966311 -0.013020873
209924528.30189 0.99972653 -0.014300063 8.9419889e-005 0.0069598979 8.2998187e-005 0.0070461794 0.99945879 -0.013704255
219920754.71698 0.9997806 -0.01505512 0.00013474817 0.007300274 9.8694349e-005 0.0073561156 0.99934602 -0.01437071
229916981.13208 0.99957168 -0.015964091 0.0001236666 0.0076039243 0.00012579421 0.0077099162 0.99928308 -0.015184999
239913207.54717 0.9994778 -0.016642265 0.00014292196 0.0079778368 0.00014215359 0.0080234529 0.99925202 -0.015919134
249909433.96226 0.99952132 -0.017292887 0.00012215716 0.0083010755 0.00015495764 0.0083626751 0.99932396 -0.01651606
259905660.37736 0.99958968 -0.017842382 0.00012779422 0.0086253202 0.00014510145 0.0086840028 0.99960935 -0.017163098
269901886.79245 0.99976468 -0.018561274 0.00012345053 0.0090072593 0.00016665366 0.0090238303 0.99986362 -0.017825127
279898113.20755 0.99978822 -0.019242346 0.00016174838 0.0092545897 0.000168283 0.0093592508 0.99974793 -0.018585682
289894339.62264 0.99969268 -0.019881457 0.0001813937 0.0096036997 0.00023729168 0.0097197425 0.99958777 -0.01941511
299890566.03774 0.99973577 -0.020419985 0.00017323159 0.0099226041 0.00020011025 0.010063253 0.99944228 -0.019742489
309886792.45283 0.99960321 -0.021027245 0.00017453474 0.010308916 0.00019849325 0.010332871 0.99929875 -0.020227879
319883018.86792 0.99956918 -0.021614343 0.00021843472 0.010616028 0.00021395879 0.01068756 0.99932289 -0.020724237
329879245.28302 0.99954617 -0.022390693 0.0002648253 0.010969454 0.00028851582 0.011036982 0.99942911 -0.021470457
339875471.69811 0.99947405 -0.023110844 0.00025882944 0.011268723 0.00022814004 0.011377458 0.99937338 -0.022278436
349871698.11321 0.99959111 -0.024011344 0.00033041649 0.011600438 0.00027723843 0.011698394 0.99942952 -0.023098916
359867924.5283 0.99943411 -0.024744421 0.00031109527 0.011924608 0.00028775632 0.012065098 0.99935842 -0.024054557
369864150.9434 0.99967563 -0.025569469 0.00031963782 0.012260724 0.00028370554 0.01236636 0.99940455 -0.024830073
379860377.35849 0.99963337 -0.026238009 0.00035518152 0.012621691 0.00035885 0.012734823 0.9992829 -0.025463954
389856603.77358 0.99938202 -0.026780963 0.00036359858 0.012935153 0.00035195751 0.013056891 0.99924862 -0.025859267
399852830.18868 0.99922186 -0.027522892 0.00036475342 0.013223592 0.00035319664 0.013357836 0.99940175 -0.026410967
409849056.60377 0.99911636 -0.027880546 0.00040957579 0.013585936 0.00038363595 0.013671927 0.9993661 -0.026845854
419845283.01887 0.99909258 -0.028337628 0.00040129339 0.013911529 0.00039165979 0.014033608 0.99937212 -0.027406663
429841509.43396 0.99918753 -0.029012561 0.00038345577 0.014266046 0.00041032396 0.014366546 0.99957561 -0.028092206
439837735.84906 0.99905419 -0.029908091 0.00047361874 0.01459165 0.00043276488 0.014740182 0.99934208 -0.029137596
449833962.26415 0.99906647 -0.030671656 0.00044493563 0.014856007 0.00045469543 0.015049157 0.9990133 -0.029887199
459830188.67925 0.99881309 -0.031354785 0.00045788381 0.015214911 0.00042739185 0.015362158 0.99889457 -0.030694008
469826415.09434 0.99877536 -0.032109618 0.00048231939 0.015554258 0.00047864486 0.015699979 0.99863809 -0.031243861
479822641.50943 0.99872619 -0.03274788 0.00050701341 0.015885171 0.00053245667 0.016059907 0.99865514 -0.031728342
489818867.92453 0.99884278 -0.033300608 0.0005418635 0.016239805 0.00054963026 0.016389875 0.99887443 -0.032283813
499815094.33962 0.9988609 -0.033889949 0.00056075724 0.016562393 0.00056454958 0.016692607 0.99927026 -0.032933563
509811320.75472 0.99895597 -0.034210023 0.00055688166 0.016906237 0.00056801044 0.016973453 0.99939817 -0.033692133
519807547.16981 0.99896443 -0.034808636 0.00061620027 0.017206717 0.00060594548 0.017366055 0.99923402 -0.034481645
529803773.58491 0.99893618 -0.035397798 0.00061676744 0.017585678 0.0006151963 0.017632483 0.99899644 -0.035080254
539800000 0.99889576 -0.036071897 0.00059515308 0.017873054 0.00059673842 0.018022025 0.99881333 -0.035756648
549796226.41509 0.99880105 -0.03695789 0.0006982768 0.018249443 0.00063298829 0.018395549 0.99875003 -0.036252499
559792452.83019 0.9986062 -0.0375835 0.00068577006 0.018559009 0.00064523332 0.018675711 0.99864429 -0.036684841
569788679.24528 0.9984951 -0.038307637 0.00067515951 0.018860389 0.00069351075 0.019034889 0.99877918 -0.037511796
579784905.66038 0.99850684 -0.038898833 0.00069580588 0.019211141 0.00069569773 0.019396499 0.99888504 -0.038170397
589781132.07547 0.99855494 -0.039476603 0.00074348319 0.01952895 0.00075799506 0.019712221 0.99896437 -0.039071828
599777358.49057 0.99866271 -0.040209174 0.00078523625 0.019871777 0.00081072096 0.020080958 0.99900627 -0.03989464
609773584.90566 0.99887353 -0.04091822 0.00080670434 0.020211842 0.0008155934 0.020332614 0.99888259 -0.040855013
619769811.32075 0.99895346 -0.041533142 0.0008814442 0.020549329 0.00086224778 0.020696698 0.99880558 -0.041244566
629766037.73585 0.99878895 -0.042202622 0.00087102689 0.020822214 0.00090059359 0.021010678 0.99860215 -0.041740417
639762264.15094 0.99856895 -0.042896271 0.00089865993 0.021150978 0.00093199033 0.021314893 0.99850374 -0.042292207
649758490.56604 0.99847704 -0.043470711 0.00090998132 0.021496991 0.00091256481 0.021659154 0.99850011 -0.042702124
659754716.98113 0.99831307 -0.044048637 0.00093840342 0.021782875 0.00094457716 0.022010315 0.99856001 -0.043240458
669750943.39623 0.99837041 -0.044438869 0.00096476031 0.022175567 0.00093390653 0.022353403 0.99870938 -0.044090301
679747169.81132 0.9984082 -0.045263037 0.0010095836 0.022501303 0.00097498915 0.022707839 0.99863499 -0.044956416
689743396.22642 0.99844301 -0.046071887 0.0010317713 0.022816483 0.0010590125 0.023060562 0.99837267 -0.045951307
699739622.64151 0.99863088 -0.046808302 0.0010833023 0.023133703 0.0010847608 0.023349142 0.9983263 -0.046635985
709735849.0566 0.99860024 -0.047728069 0.0011448846 0.023514992 0.0011188816 0.023685135 0.99805528 -0.04721801
719732075.4717 0.99846655 -0.048439026 0.0011153072 0.023800403 0.0011431598 0.024009494 0.99820203 -0.047846943
729728301.88679 0.99837804 -0.04891327 0.0011788281 0.024110079 0.0011857115 0.024347993 0.99822253 -0.048279464
739724528.30189 0.99827254 -0.049612701 0.0011885585 0.02443826 0.001214195 0.024632683 0.9983834 -0.048935443
749720754.71698 0.99822456 -0.050167799 0.0012204433 0.024722835 0.0012675566 0.024998982 0.99836612 -0.049651876
759716981.13208 0.99824703 -0.050689965 0.0012533655 0.025052391 0.001263367 0.025295541 0.99842787 -0.050426155
769713207.54717 0.99813676 -0.051311731 0.0012860103 0.025356572 0.0013187472 0.025645837 0.99811471 -0.051148176
779709433.96226 0.99837595 -0.051960148 0.0013453059 0.025719967 0.0013465451 0.02595574 0.99789941 -0.051771708
789705660.37736 0.9982605 -0.052915722 0.0013350593 0.026043057 0.0013866313 0.026268259 0.99770153 -0.052458376
799701886.79245 0.99816871 -0.053698182 0.0014209226 0.02637684 0.0013918411 0.026579222 0.99750483 -0.053102285
809698113.20755 0.99807024 -0.054295301 0.0013802906 0.026661221 0.0014268633 0.026948646 0.99760711 -0.053480595
819694339.62264 0.99793893 -0.054968745 0.0014172392 0.027018726 0.0014575357 0.027218476 0.9977181 -0.054169148
829690566.03774 0.99792933 -0.055523247 0.0014638016 0.027331181 0.0014737723 0.027582426 0.99797064 -0.0550026
839686792.45283 0.99797761 -0.056057483 0.0015052175 0.027657358 0.0015208041 0.02789255 0.99796277 -0.055861592
849683018.86792 0.99795908 -0.056744598 0.001549192 0.027989769 0.0015560007 0.028237099 0.99791223 -0.056607343
859679245.28302 0.9980737 -0.057424188 0.0015610578 0.028313275 0.0015935292 0.028577171 0.99760014 -0.057280988
869675471.69811 0.99792224 -0.058091164 0.0016276864 0.028603941 0.0016351193 0.028901642 0.99730635 -0.05775255
879671698.11321 0.99790335 -0.058736242 0.0016189176 0.028939048 0.0016447201 0.029219707 0.99728805 -0.058144402
889667924.5283 0.99769562 -0.059550732 0.0016846927 0.029233079 0.0017027892 0.029511068 0.99711454 -0.058721691
899664150.9434 0.99744666 -0.060255885 0.0016833935 0.029548381 0.0017249677 0.029843561 0.99716377 -0.05935213
909660377.35849 0.99763614 -0.060888559 0.0017492315 0.029871589 0.0017280215 0.030141456 0.99732751 -0.060238332
919656603.77358 0.99762642 -0.061558545 0.0017693061 0.03019169 0.0017660758 0.030489463 0.99725598 -0.061084986
929652830.18868 0.99756777 -0.062345505 0.0017807987 0.030529797 0.0018137591 0.03081508 0.99721932 -0.061960846
939649056.60377 0.99776995 -0.062934309 0.0017878423 0.030828835 0.0018151095 0.031116094 0.99696529 -0.062708557
949645283.01887 0.99765062 -0.063829072 0.0017831731 0.031170055 0.0018324782 0.031455085 0.99677128 -0.063231781
959641509.43396 0.99766982 -0.064490318 0.0018078024 0.031543881 0.0018466963 0.03183423 0.99673784 -0.063742965
969637735.84906 0.99751985 -0.065121531 0.0018838197 0.031875804 0.0019048853 0.03216001 0.99670959 -0.064124018
979633962.26415 0.99740833 -0.065910935 0.0019433578 0.032184236 0.001973358 0.032483973 0.99678475 -0.064762399
989630188.67925 0.99746114 -0.066409379 0.001945151 0.032516081 0.0019935425 0.03282582 0.9969238 -0.065367967
999626415.09434 0.9974755 -0.067066878 0.0020000609 0.032825291 0.0020420374 0.033168703 0.99684882 -0.066238433
1009622641.5094 0.99751902 -0.06767796 0.0020214347 0.033150494 0.0020546205 0.033487603 0.99669361 -0.067002475
1019618867.9245 0.99765891 -0.068571001 0.0020782575 0.033508331 0.0021513631 0.033809334 0.99643993 -0.067828506
1029615094.3396 0.99757153 -0.06946975 0.0021284614 0.033784766 0.0021841545 0.034128122 0.99616694 -0.06840539
1039611320.7547 0.99767041 -0.07028538 0.0021840809 0.034101248 0.0021821819 0.034435209 0.99605978 -0.069094896
1049607547.1698 0.99747586 -0.071178026 0.0021966002 0.034381613 0.0022316817 0.034723531 0.9960252 -0.069693603
1059603773.5849 0.99738371 -0.071954906 0.0022295434 0.034684062 0.0022455994 0.035051778 0.9960196 -0.070246011
1069600000 0.99718308 -0.072559357 0.0021906523 0.035001922 0.0023022685 0.035383135 0.99627268 -0.071003199
1079596226.4151 0.9971509 -0.07321275 0.0022447831 0.035352919 0.0022944524 0.035722375 0.99621689 -0.07171464
1089592452.8302 0.99715489 -0.073888808 0.0022573723 0.0356852 0.002342931 0.036034103 0.99612129 -0.072411329
1099588679.2453 0.99714422 -0.074513763 0.0022854507 0.036019724 0.0023680367 0.03635066 0.99582124 -0.073054582
1109584905.6604 0.99734521 -0.075283051 0.0023054639 0.036336023 0.0023923879 0.036689557 0.99557197 -0.073601454
1119581132.0755 0.99721181 -0.076307684 0.002308398 0.036670964 0.0024053236 0.037040286 0.99537545 -0.07402201
1129577358.4906 0.99705625 -0.077014804 0.0023527164 0.037019677 0.0024480261 0.037416793 0.99535096 -0.07450369
1139573584.9057 0.99684012 -0.077923298 0.0024051853 0.037371103 0.0024740621 0.037759237 0.99536014 -0.075191349
1149569811.3208 0.99674982 -0.078771561 0.0024838592 0.037706573 0.0025504318 0.038063362 0.99546355 -0.075890407
1159566037.7358 0.99655241 -0.079410911 0.0025029248 0.038008913 0.0026003839 0.038361199 0.99554461 -0.076954275
1169562264.1509 0.99639517 -0.080114841 0.0024974737 0.038305279 0.0026275683 0.038674977 0.99547458 -0.077651292
1179558490.566 0.99631298 -0.080931567 0.0025411807 0.038678497 0.002628631 0.039056882 0.9952538 -0.078452975
1189554716.9811 0.99631524 -0.081580281 0.002553856 0.039025515 0.0026770197 0.039375164 0.99504447 -0.07889533
1199550943.3962 0.99623799 -0.082403868 0.0025894325 0.039375655 0.0027165301 0.03973487 0.99489081 -0.079424053
1209547169.8113 0.99611568 -0.083305523 0.0026674615 0.039715894 0.0027736044 0.04007452 0.99476355 -0.079702035
1219543396.2264 0.99583137 -0.084182337 0.0026722359 0.040065266 0.0028204592 0.040428333 0.99489141 -0.080017135
1229539622.6415 0.99558985 -0.08496201 0.0027943272 0.040390983 0.0029010493 0.040762216 0.99501479 -0.080781251
1239535849.0566 0.99528682 -0.08551383 0.0028080661 0.040682517 0.0029491121 0.041082259 0.99507666 -0.081670851
1249532075.4717 0.99508333 -0.086208761 0.0028525183 0.041052293 0.0030297835 0.041377679 0.99496406 -0.082476296
1259528301.8868 0.9948743 -0.08673808 0.002912987 0.041337755 0.0030584857 0.041737229 0.99471402 -0.083348274
1269524528.3019 0.9946909 -0.087543041 0.0030031353 0.041640818 0.003140023 0.041995708 0.99449003 -0.0840289
1279520754.717 0.99435931 -0.088204786 0.0030432276 0.041937184 0.0031846592 0.042301405 0.99420214 -0.084653169
1289516981.1321 0.99424314 -0.089109927 0.0030649239 0.04224379 0.0031620581 0.042572733 0.99430519 -0.08505109
1299513207.5472 0.99389088 -0.089890689 0.0030775499 0.042556457 0.00320323 0.042886555 0.99439728 -0.085546762
1309509433.9623 0.9934628 -0.090641156 0.0030599684 0.042882569 0.0032046065 0.043178901 0.99445438 -0.086156234
1319505660.3774 0.99311846 -0.091370478 0.0030530347 0.043191742 0.0032249587 0.043506533 0.99444842 -0.086864874
1329501886.7925 0.99282867 -0.091991276 0.0031115599 0.04352048 0.0032110102 0.04384312 0.99445939 -0.087811738
1339498113.2075 0.99254835 -0.092477858 0.0031230776 0.043839194 0.0032707723 0.04417371 0.99407578 -0.088468552
1349494339.6226 0.99235231 -0.093029939 0.0031295279 0.044167683 0.0032764394 0.044479057 0.9937579 -0.089042887
1359490566.0377 0.99221563 -0.09355399 0.0031269491 0.044549763 0.0032731276 0.044860631 0.99353808 -0.089612275
1369486792.4528 0.99208283 -0.094195366 0.0031425878 0.044910077 0.0033025574 0.045179751 0.99330473 -0.090120465
1379483018.8679 0.99172258 -0.094725318 0.0031605079 0.045252547 0.003291687 0.04556942 0.99340725 -0.090407297
1389479245.283 0.99134755 -0.095181525 0.0032043215 0.045633972 0.0033139605 0.045931809 0.99331558 -0.091163665
1399475471.6981 0.99099058 -0.095631599 0.0032128226 0.04597785 0.0033544302 0.046280645 0.9935292 -0.091823399
1409471698.1132 0.99064136 -0.09605813 0.0032760191 0.046383683 0.0033821533 0.046676029 0.99352503 -0.092601173
1419467924.5283 0.99056023 -0.096263498 0.00329939 0.04674232 0.0033995602 0.047053486 0.99344367 -0.093275338
1429464150.9434 0.990376 -0.096696556 0.0033306517 0.047146998 0.0034066103 0.047436908 0.99328256 -0.093844205
1439460377.3585 0.99051911 -0.097243667 0.0033890037 0.047596835 0.0035143895 0.047889218 0.99303442 -0.094209686
1449456603.7736 0.99052316 -0.097805575 0.0035528289 0.04800361 0.0036002053 0.048294142 0.9928441 -0.094558656
1459452830.1887 0.99052715 -0.098350614 0.003666807 0.048384853 0.0037236959 0.048702743 0.99303496 -0.094956249
1469449056.6038 0.99050456 -0.099116594 0.0038056159 0.048716236 0.0038681533 0.049053952 0.99325186 -0.095563918
1479445283.0189 0.99041629 -0.099740177 0.0039130505 0.049005006 0.0039897207 0.049311381 0.99328291 -0.096385986
1489441509.434 0.99041599 -0.10020691 0.0040644463 0.049308993 0.0041158907 0.04962698 0.99314952 -0.097387373
1499437735.8491 0.99017227 -0.10049787 0.0041809026 0.049608655 0.0042381305 0.049919389 0.9931497 -0.098152518
1509433962.2642 0.99015915 -0.10097144 0.0042599733 0.049876224 0.0042825523 0.050199259 0.99281412 -0.098827831
1519430188.6792 0.9903329 -0.10156548 0.0043295845 0.050146721 0.0043789316 0.050450262 0.99276048 -0.099373996
1529426415.0943 0.99029446 -0.10232422 0.0043954086 0.050419874 0.0044304375 0.050729487 0.99260473 -0.099849075
1539422641.5094 0.99026358 -0.10306962 0.004425976 0.050705478 0.0044864868 0.051065464 0.99271917 -0.10028096
1549418867.9245 0.99009252 -0.10383908 0.0045336597 0.050987575 0.0045173271 0.051346928 0.99300033 -0.10104558
1559415094.3396 0.99002862 -0.10459676 0.0045669321 0.051284879 0.0045232475 0.051635567 0.99307215 -0.10171297
1569411320.7547 0.98988885 -0.10527161 0.0045819115 0.051539131 0.0046075825 0.051945657 0.99306202 -0.10251802
1579407547.1698 0.98984289 -0.10581845 0.0046296655 0.051856473 0.0046267002 0.052197676 0.99260968 -0.10335389
1589403773.5849 0.9898051 -0.10640097 0.0046215933 0.052123703 0.0046093594 0.052523065 0.99248099 -0.10404074
1599400000 0.98974031 -0.10676304 0.0046059443 0.052430797 0.0046297647 0.052805025 0.99201691 -0.10443816
1609396226.4151 0.98968005 -0.10745898 0.0046050521 0.052733272 0.0046066288 0.053142387 0.99189848 -0.10501587
1619392452.8302 0.9896307 -0.10803634 0.0046149865 0.053096574 0.0045946632 0.053491086 0.99186128 -0.10546628
1629388679.2453 0.98941427 -0.10881358 0.0046478957 0.053407941 0.0046325736 0.053866554 0.99206865 -0.10596195
1639384905.6604 0.98923653 -0.10942906 0.0046369629 0.053763628 0.0046535288 0.054235775 0.99228644 -0.10686197
1649381132.0755 0.98906672 -0.10996574 0.004604429 0.054138012 0.0046482533 0.054598138 0.99227071 -0.10777509
1659377358.4906 0.9888823 -0.11087608 0.0046763215 0.054526001 0.0046635922 0.054914318 0.99226213 -0.10860199
1669373584.9057 0.9888165 -0.11123613 0.0047077187 0.054903638 0.0047256751 0.055366155 0.99195552 -0.10923763
1679369811.3208 0.98886681 -0.11193001 0.0047610113 0.05530126 0.0047828164 0.055709578 0.99169922 -0.10977739
1689366037.7358 0.9888941 -0.11267793 0.004785601 0.055632845 0.0047954172 0.056119844 0.99148452 -0.11010098
1699362264.1509 0.98905843 -0.11319682 0.0048459703 0.056029622 0.0048474446 0.056430105 0.99180907 -0.11048311
1709358490.566 0.98884159 -0.11390203 0.0048884936 0.056370679 0.004934052 0.05689875 0.99180424 -0.11115165
1719354716.9811 0.98861694 -0.11445451 0.0049293693 0.056792531 0.0049086418 0.057198286 0.99181259 -0.11177585
