!Keysight Technologies,N5222B,MY61253708,A.15.00.15
!Date: Wednesday, June 19, 2024 09:13:18
!Correction: S11(C  2-Port  ) 
!S21(C  2-Port  ) 
!S12(C  2-Port  ) 
!S22(C  2-Port  ) 
!S2P File: Measurements: S11, S21, S12, S22:
# Hz S  RI   R 50
10000000 0.99878651 -0.0022784173 0.00025075028 0.00047577271 3.9669241e-005 0.00022399027 0.9984234 -0.00086474419
19996226.415094 0.99915314 -0.0021276474 7.4605603e-005 0.00078011455 -1.651526e-006 0.00076824799 0.99903768 -0.002191484
29992452.830189 0.99988657 -0.002453059 1.1885539e-005 0.0010160101 -4.1511375e-006 0.00096962368 0.99946576 -0.0026778579
39988679.245283 1.0000647 -0.0030601472 -2.8624869e-005 0.0013507905 -1.6522346e-005 0.0013850124 0.99963301 -0.0031459332
49984905.660377 1.0001276 -0.003790766 5.7585712e-005 0.00173622 1.8412771e-005 0.0017477926 0.99974906 -0.0037674308
59981132.075472 1.0003451 -0.0047085285 -7.4776472e-006 0.0020972267 1.065532e-005 0.0020339284 0.99977225 -0.0044240952
69977358.490566 1.0001937 -0.0053420514 -2.6336729e-005 0.0024166354 3.257117e-005 0.0024160731 0.99958605 -0.00491268
79973584.90566 0.99989337 -0.0058452487 2.8554467e-005 0.0027547777 3.6239275e-005 0.0027733408 0.99929261 -0.0054243505
89969811.320755 0.99993181 -0.0060626864 6.3669053e-005 0.0031175162 3.4433324e-005 0.0031018364 0.99947858 -0.0057216585
99966037.735849 1.0001203 -0.0067939609 3.9271254e-005 0.0034237781 2.9540737e-005 0.0034660581 0.99961483 -0.0065142661
109962264.15094 1.0001503 -0.0077674687 4.7713984e-006 0.0037586128 6.2656763e-005 0.003781961 0.99961746 -0.0073420852
119958490.56604 1.0001512 -0.0087325275 3.0516414e-005 0.0041136434 3.9894367e-005 0.0041578985 0.99962842 -0.0082890391
129954716.98113 1.0001338 -0.0097364187 4.6067638e-005 0.0044544106 4.6025263e-005 0.0044961665 0.99960726 -0.0091719329
139950943.39623 1.0000608 -0.010570783 6.5529573e-005 0.0048075141 4.8869086e-005 0.0048433822 0.99953854 -0.0099723674
149947169.81132 0.99988127 -0.011251003 4.826393e-005 0.0051352209 4.9039721e-005 0.0051848758 0.99944854 -0.010592401
159943396.22642 0.99982226 -0.011782885 6.8995869e-005 0.0054817079 8.6180866e-005 0.0055216313 0.99952948 -0.011036903
169939622.64151 0.99985278 -0.012153707 6.5208063e-005 0.0058425777 6.0657621e-005 0.0058772108 0.99957973 -0.011499628
179935849.0566 0.99988478 -0.012522221 7.1958755e-005 0.0061556245 5.7068537e-005 0.0062257238 0.99949682 -0.011898965
189932075.4717 1.0000699 -0.013223976 8.8510569e-005 0.0065031284 0.00012163143 0.006583747 0.99970734 -0.012481928
199928301.88679 0.99997103 -0.014108062 9.6188509e-005 0.0068776095 0.00010337506 0.0069118985 0.99963647 -0.013432682
209924528.30189 0.99973363 -0.01476334 0.0001033236 0.0072035892 0.00010271824 0.0072615868 0.99939328 -0.014157712
219920754.71698 0.99974012 -0.015713662 0.00010457751 0.007543386 0.00013554189 0.0076076332 0.99921322 -0.014868557
229916981.13208 0.99948454 -0.016535223 0.00014144508 0.0078782095 0.00013849186 0.007939633 0.99912089 -0.015664399
239913207.54717 0.99933064 -0.017193493 0.00014627811 0.008211758 0.0001365677 0.0083083501 0.99912089 -0.016370475
249909433.96226 0.99941868 -0.017831028 0.00015516859 0.0085757039 0.00014655385 0.0086323954 0.99920011 -0.016974062
259905660.37736 0.99948949 -0.018368632 0.00021560909 0.00889704 0.00020350004 0.0089237271 0.99935555 -0.017544568
269901886.79245 0.99969435 -0.019235566 0.00018043909 0.0092644664 0.00016948581 0.0093226871 0.99976581 -0.018337533
279898113.20755 0.99983585 -0.019772425 0.00021433807 0.0096402504 0.00019713235 0.0096542258 0.99957323 -0.019062892
289894339.62264 0.9997642 -0.020603299 0.00026409747 0.0099275056 0.0001950101 0.0099902339 0.99952471 -0.019856155
299890566.03774 0.99964088 -0.021046758 0.00024006004 0.010258238 0.00020999764 0.010339165 0.99920255 -0.020287275
309886792.45283 0.99933904 -0.021684758 0.00019088492 0.010648164 0.00024005817 0.010685906 0.99904919 -0.020786323
319883018.86792 0.99935937 -0.022214532 0.00026713125 0.010933879 0.00028978195 0.011048107 0.99916297 -0.021239161
329879245.28302 0.99937856 -0.023124605 0.00027550431 0.01130513 0.00028823223 0.011392375 0.9993062 -0.021970153
339875471.69811 0.99926937 -0.023878485 0.00028465525 0.011620369 0.00027623714 0.011736825 0.99922031 -0.022767536
349871698.11321 0.9994514 -0.024659753 0.00029409863 0.011954466 0.00029515498 0.012098114 0.99928045 -0.023795933
359867924.5283 0.99924636 -0.025496155 0.00033438858 0.012303203 0.00032393355 0.012419876 0.99921703 -0.024707347
369864150.9434 0.99949795 -0.026229382 0.00039535342 0.012661649 0.000348703 0.012764061 0.99915367 -0.025443554
379860377.35849 0.9994393 -0.026954725 0.00036265492 0.013013645 0.00036464888 0.013098788 0.99917376 -0.026098371
389856603.77358 0.99924016 -0.027582437 0.00037193438 0.013347957 0.00037068082 0.013431301 0.99916756 -0.02656582
399852830.18868 0.99918228 -0.028210551 0.00041793799 0.013681725 0.00036510872 0.013762344 0.99914718 -0.027000397
409849056.60377 0.99905097 -0.028631445 0.00039551384 0.013995344 0.00043486088 0.014153915 0.99916059 -0.02747531
419845283.01887 0.99903405 -0.029146194 0.0004178416 0.014365389 0.00041919574 0.014502042 0.99923342 -0.028041691
429841509.43396 0.99915075 -0.029717654 0.00043581054 0.014690958 0.00043478096 0.014829163 0.9994089 -0.028813124
439837735.84906 0.9990145 -0.030721366 0.0004616197 0.015019674 0.00047451525 0.015180891 0.99918681 -0.029827759
449833962.26415 0.99897093 -0.031509131 0.0004956359 0.015358657 0.00049655093 0.0154751 0.99889976 -0.030779123
459830188.67925 0.99889135 -0.032320887 0.00054100202 0.015701361 0.00048598927 0.015817447 0.99870259 -0.031493515
469826415.09434 0.99881685 -0.033136576 0.00050658593 0.016063375 0.00053830631 0.016195945 0.99838483 -0.032092631
479822641.50943 0.99872124 -0.033699363 0.00055357628 0.016394088 0.00051582698 0.016564436 0.99853361 -0.032514833
489818867.92453 0.99877048 -0.03414923 0.00060248887 0.016773149 0.00057137944 0.016902668 0.99883854 -0.03308627
499815094.33962 0.99881029 -0.034781098 0.00057323743 0.01707254 0.00060702441 0.017249968 0.9991132 -0.033755869
509811320.75472 0.99897861 -0.035295576 0.00067772134 0.017421775 0.00062930235 0.017582722 0.99930215 -0.034654096
519807547.16981 0.99884784 -0.035794944 0.00066126836 0.017738847 0.00065907463 0.0179065 0.99916238 -0.035408735
529803773.58491 0.99886948 -0.036481172 0.00064887106 0.018106675 0.00065395236 0.01826293 0.99899405 -0.03607437
539800000 0.99887729 -0.037233755 0.00067311618 0.018433558 0.00067726127 0.01857152 0.9987812 -0.036790833
549796226.41509 0.99880385 -0.038126439 0.00069856923 0.018759726 0.00072484743 0.018958248 0.99848956 -0.037154555
559792452.83019 0.99850762 -0.038783431 0.00071353745 0.019106284 0.00072471052 0.019288242 0.99841917 -0.037757158
569788679.24528 0.99831653 -0.039534479 0.00076171616 0.019460231 0.00072659692 0.019632313 0.99858379 -0.038574249
579784905.66038 0.99833161 -0.040134057 0.0007963368 0.019838661 0.00074770371 0.019966129 0.99878609 -0.039227441
589781132.07547 0.99851811 -0.040789425 0.00079814624 0.020170981 0.00081989728 0.020349303 0.99882257 -0.040183723
599777358.49057 0.99860847 -0.041425645 0.00087574497 0.020457041 0.00082142372 0.020675417 0.99878621 -0.04106912
609773584.90566 0.99879146 -0.042186804 0.00090587797 0.020844562 0.00089106063 0.021033501 0.99866641 -0.041902855
619769811.32075 0.99884731 -0.042860121 0.00096037239 0.021239104 0.00096605113 0.021373231 0.99861121 -0.042447865
629766037.73585 0.9986465 -0.04356885 0.00101816 0.021501612 0.00097611919 0.021660518 0.99838805 -0.042970955
639762264.15094 0.99851573 -0.04415904 0.00098355277 0.02182376 0.00098627876 0.022016585 0.99827242 -0.043381438
649758490.56604 0.99827892 -0.044872269 0.00098113716 0.022131208 0.0009911689 0.022353789 0.99827421 -0.043848142
659754716.98113 0.9980911 -0.045270115 0.00099143293 0.022489466 0.0010249764 0.022711759 0.99841487 -0.0444704
669750943.39623 0.99809617 -0.045760334 0.0009808368 0.022871459 0.0010500224 0.023052838 0.99843025 -0.045212388
679747169.81132 0.99816382 -0.046604753 0.0010985576 0.023211475 0.0010791969 0.023430979 0.99840868 -0.04617548
689743396.22642 0.99835521 -0.047422379 0.0010955399 0.023582026 0.0011491869 0.023765655 0.99822325 -0.047189176
699739622.64151 0.99844801 -0.048298836 0.0011940161 0.023892619 0.0011898028 0.024069831 0.9981032 -0.04787153
709735849.0566 0.99832636 -0.049183778 0.0012153893 0.024188178 0.001224841 0.024399865 0.9977873 -0.048562996
719732075.4717 0.99824172 -0.049858332 0.0012510344 0.024545999 0.0012600282 0.024780326 0.99790782 -0.049127609
729728301.88679 0.99814832 -0.050452143 0.0013079848 0.024878722 0.0012410069 0.02506648 0.99801838 -0.049570054
739724528.30189 0.99811602 -0.051059529 0.0013167108 0.025207451 0.0013265978 0.025383662 0.99819237 -0.050251916
749720754.71698 0.99786395 -0.051627904 0.0013127378 0.025520114 0.0013620486 0.025704876 0.99823594 -0.050905049
759716981.13208 0.99800861 -0.052132875 0.0013972046 0.025852725 0.0013675997 0.026090741 0.99818099 -0.051713228
769713207.54717 0.9979254 -0.052763939 0.0014214972 0.02621153 0.0014080377 0.026398387 0.99785334 -0.052497417
779709433.96226 0.99807721 -0.053480618 0.0014261882 0.026535222 0.0014700812 0.026758658 0.99772382 -0.053150378
789705660.37736 0.99792969 -0.054432034 0.0015284736 0.026855741 0.0014814027 0.027088018 0.99737442 -0.053848743
799701886.79245 0.99790794 -0.055256218 0.0015338538 0.027204204 0.0015162304 0.02743423 0.99727535 -0.05436942
809698113.20755 0.99784803 -0.055902019 0.0015341097 0.027495675 0.001562343 0.027800495 0.99731153 -0.054878876
819694339.62264 0.99773455 -0.05652523 0.0015471615 0.027822413 0.0015797652 0.028108248 0.99745733 -0.055527538
829690566.03774 0.99769801 -0.057141274 0.0016147047 0.028181612 0.0016077748 0.028440554 0.99774718 -0.056494415
839686792.45283 0.99774677 -0.057686448 0.0016114898 0.028524665 0.0016432554 0.028745132 0.99778306 -0.057297736
849683018.86792 0.99786061 -0.058195934 0.0016874725 0.028858421 0.001659089 0.029094769 0.99763298 -0.05809582
859679245.28302 0.99790668 -0.059045911 0.001712203 0.029228503 0.0017151674 0.029415555 0.99737847 -0.058675498
869675471.69811 0.9978143 -0.059733003 0.0017786678 0.02950703 0.0017739953 0.029757868 0.99703002 -0.059312761
879671698.11321 0.99770391 -0.060445674 0.0017917734 0.029864728 0.0017731881 0.030123089 0.99703127 -0.05970671
889667924.5283 0.99751633 -0.061252773 0.0018226318 0.030159531 0.0018281201 0.030439496 0.99685168 -0.060232192
899664150.9434 0.99736643 -0.061940521 0.0018322766 0.030504515 0.001865848 0.030733623 0.99694538 -0.060885757
909660377.35849 0.9973141 -0.062694058 0.0018853061 0.030825162 0.0018911101 0.031105358 0.99703288 -0.061772346
919656603.77358 0.99737424 -0.063445866 0.0018844265 0.031185178 0.0018910556 0.031440973 0.99705184 -0.062715754
929652830.18868 0.99736333 -0.064143777 0.0019355053 0.031481016 0.0019451538 0.03175164 0.99691141 -0.063678235
939649056.60377 0.99756873 -0.064764917 0.0019574156 0.031769585 0.0019538552 0.032069642 0.99676919 -0.064385831
949645283.01887 0.99755043 -0.065630391 0.0019489009 0.032138266 0.0019884978 0.032442916 0.99647421 -0.064906947
959641509.43396 0.99744356 -0.066278219 0.0019461932 0.032524824 0.0019969791 0.032822207 0.99642611 -0.065381467
969637735.84906 0.99739635 -0.067052811 0.0020577479 0.032856226 0.0020626998 0.033186242 0.99650216 -0.065761685
979633962.26415 0.99719387 -0.067831174 0.0020985177 0.033191338 0.0021010078 0.033479594 0.99649024 -0.066477843
989630188.67925 0.99716532 -0.068289727 0.0021274537 0.03350696 0.002150367 0.033817351 0.99661726 -0.067059219
999626415.09434 0.9973104 -0.068921685 0.0021575987 0.033846125 0.00217635 0.034169957 0.99662238 -0.06791842
1009622641.5094 0.99721092 -0.06967628 0.0021844413 0.034184866 0.0022484493 0.034530524 0.99641544 -0.068844453
1019618867.9245 0.99740165 -0.070529759 0.0022634845 0.034558218 0.0023086932 0.034870889 0.99615353 -0.06967935
1029615094.3396 0.99734926 -0.071467906 0.0023287311 0.034876905 0.0023577735 0.035169322 0.99572277 -0.070259959
1039611320.7547 0.99736077 -0.072317362 0.0023253644 0.035184059 0.0024088202 0.035468735 0.9957273 -0.0709185
1049607547.1698 0.9972142 -0.073238954 0.002397845 0.035482179 0.0024072025 0.03579795 0.99567598 -0.071545929
1059603773.5849 0.99702513 -0.07392177 0.0024042781 0.035804227 0.0024434393 0.036130823 0.99572533 -0.072047949
1069600000 0.99687815 -0.074571162 0.0024102293 0.036104303 0.0024837758 0.036449939 0.99589264 -0.072807759
1079596226.4151 0.99677336 -0.075239241 0.0024240208 0.036463507 0.0024929503 0.036791623 0.99588245 -0.073587731
1089592452.8302 0.99683481 -0.075814933 0.0024742242 0.036816694 0.0025249068 0.037133146 0.99577147 -0.07442081
1099588679.2453 0.99686956 -0.076550692 0.0024670195 0.037133321 0.0025331918 0.037484277 0.99543875 -0.07501328
1109584905.6604 0.9968996 -0.077430293 0.0025088945 0.03748228 0.0025658384 0.037826128 0.99518901 -0.075544178
1119581132.0755 0.99698049 -0.078443736 0.0025300365 0.037806034 0.0025794078 0.038169719 0.99496365 -0.075948223
1129577358.4906 0.99667287 -0.079271913 0.0025574304 0.038194101 0.0026584398 0.038539451 0.99489605 -0.076541513
1139573584.9057 0.99652439 -0.080076426 0.0025885357 0.038550716 0.0027093375 0.038899843 0.99498326 -0.077133089
1149569811.3208 0.99641705 -0.081004076 0.0026600545 0.038872421 0.0027499588 0.03922309 0.99514198 -0.077876881
1159566037.7358 0.99613285 -0.08164528 0.002727638 0.039173357 0.0028299745 0.039527655 0.99518645 -0.078926504
1169562264.1509 0.9959358 -0.082242161 0.002724031 0.039481875 0.0028189197 0.039884318 0.99503344 -0.079718709
1179558490.566 0.9958908 -0.083072819 0.0027364115 0.039879788 0.0028431604 0.040235445 0.99487501 -0.080489323
1189554716.9811 0.99580562 -0.083847344 0.0027821846 0.040206671 0.0028838636 0.040617865 0.99462163 -0.081011653
1199550943.3962 0.99590147 -0.084671974 0.0028355978 0.040594283 0.0029796958 0.040944714 0.99440122 -0.081383675
1209547169.8113 0.9956646 -0.085517183 0.0028672311 0.040940549 0.0029884027 0.041275501 0.99427259 -0.08175014
1219543396.2264 0.99547189 -0.086416826 0.0029344824 0.041306593 0.0030583036 0.041669287 0.99438357 -0.082119852
1229539622.6415 0.99519986 -0.087265402 0.0029944461 0.041642733 0.0031077974 0.042022921 0.99450839 -0.0828906
1239535849.0566 0.99484348 -0.087958157 0.0030495608 0.041972633 0.003197901 0.042340215 0.99463236 -0.083851308
1249532075.4717 0.99460995 -0.088602617 0.0031260862 0.042288557 0.0032619576 0.042622145 0.99439669 -0.084689796
1259528301.8868 0.99439067 -0.089149535 0.0031754095 0.042610973 0.0033453908 0.042960819 0.99421084 -0.085606694
1269524528.3019 0.99424702 -0.089906931 0.0032625496 0.042980526 0.0033909753 0.043251231 0.9939639 -0.086300731
1279520754.717 0.99388915 -0.090685852 0.0033175312 0.043258596 0.0034218058 0.043564502 0.99363381 -0.086824685
1289516981.1321 0.99371815 -0.091527224 0.0033556204 0.04355561 0.0034627821 0.043855812 0.99373269 -0.087258041
1299513207.5472 0.99337423 -0.092269093 0.0033521838 0.043873109 0.0034585707 0.044195414 0.99389517 -0.087627679
1309509433.9623 0.99292672 -0.092988133 0.0033388315 0.044180155 0.0034678038 0.044506386 0.99399388 -0.088394135
1319505660.3774 0.99255937 -0.093762428 0.0033279369 0.044549525 0.0035104463 0.044848911 0.99394125 -0.089043051
1329501886.7925 0.99221921 -0.094449461 0.0033909697 0.044884697 0.0035281759 0.045176227 0.99394977 -0.090059727
1339498113.2075 0.99200606 -0.094870061 0.0033765621 0.045196835 0.0035494938 0.045491695 0.99357843 -0.090733558
1349494339.6226 0.99171859 -0.095488131 0.0034065149 0.045554053 0.0035428265 0.045847952 0.99319476 -0.091405518
1359490566.0377 0.99167728 -0.096101284 0.0034300536 0.045928121 0.0035764612 0.046213791 0.99293852 -0.092001647
1369486792.4528 0.99150938 -0.096728325 0.0034228656 0.046318844 0.0035535544 0.046561185 0.9926998 -0.092408687
1379483018.8679 0.99115962 -0.097216561 0.003461384 0.046654064 0.0035705511 0.046927828 0.99278527 -0.092759952
1389479245.283 0.99080145 -0.097782493 0.0035082083 0.047023583 0.003611682 0.047335714 0.99278176 -0.093433946
1399475471.6981 0.99036312 -0.09818548 0.0035312809 0.047406018 0.0036700442 0.047659654 0.99298298 -0.094103009
1409471698.1132 0.99008518 -0.098545723 0.0035707641 0.047783278 0.003677736 0.048072774 0.99295074 -0.094939187
1419467924.5283 0.98985887 -0.098827749 0.0035435762 0.048166566 0.0036906386 0.048446909 0.99270535 -0.09566766
1429464150.9434 0.98970914 -0.09923476 0.0036473908 0.048573397 0.0037532076 0.048873954 0.99268317 -0.096325606
1439460377.3585 0.9898355 -0.099756986 0.003751507 0.049068198 0.0038193846 0.049282983 0.99237663 -0.096607283
1449456603.7736 0.98988837 -0.10033837 0.0038692132 0.049500585 0.0039121686 0.049704846 0.99228603 -0.096986726
1459452830.1887 0.98998678 -0.10111955 0.0039646197 0.049882919 0.0040239077 0.050123982 0.99234056 -0.097286999
1469449056.6038 0.98990345 -0.10174504 0.0041457843 0.050233945 0.0041640336 0.050531089 0.99260974 -0.097963005
1479445283.0189 0.98978347 -0.10231654 0.0042382358 0.050500873 0.0043290453 0.050794996 0.9927271 -0.098947093
1489441509.434 0.98965824 -0.10286734 0.0043940656 0.050800677 0.0044833999 0.051138517 0.99255359 -0.09980619
1499437735.8491 0.98945653 -0.10320827 0.0044847894 0.051115818 0.004588943 0.051419079 0.99243957 -0.10061646
1509433962.2642 0.98944461 -0.10373494 0.0046417718 0.051379323 0.0046470566 0.051676337 0.99217409 -0.10132486
1519430188.6792 0.98951197 -0.10426751 0.00466685 0.051686984 0.0047184285 0.051954348 0.99207962 -0.10191378
1529426415.0943 0.98955524 -0.10495865 0.0047063418 0.051949229 0.0047537014 0.052249428 0.99204361 -0.10231054
1539422641.5094 0.98959678 -0.10583122 0.0047905161 0.052259237 0.0047987159 0.052567843 0.99212652 -0.10276136
1549418867.9245 0.98941153 -0.10663858 0.0048835073 0.052576154 0.0049182093 0.052860439 0.99222821 -0.10357191
1559415094.3396 0.98927742 -0.10728526 0.0049422421 0.052843515 0.0049134754 0.053161152 0.99247748 -0.10423264
1569411320.7547 0.98911297 -0.10805762 0.0049604308 0.053116646 0.0049713217 0.053464942 0.9922992 -0.1050653
1579407547.1698 0.98904872 -0.10850424 0.0049833907 0.053411044 0.0049889185 0.053778872 0.99203789 -0.10588472
1589403773.5849 0.98891497 -0.1091944 0.0050050132 0.053689495 0.0049882941 0.054095998 0.99172318 -0.1065852
1599400000 0.98898643 -0.1095641 0.0049767364 0.05403284 0.005035907 0.05438463 0.99124765 -0.10713103
1609396226.4151 0.988895 -0.11023431 0.004988947 0.054355573 0.0049577719 0.054754283 0.99128753 -0.10763587
1619392452.8302 0.98886853 -0.11083212 0.0050332453 0.054727517 0.0050180554 0.055093493 0.99110126 -0.10804227
1629388679.2453 0.98873138 -0.11159149 0.0050193835 0.055098403 0.0050001424 0.055458792 0.99132848 -0.10857484
1639384905.6604 0.98846292 -0.11226409 0.005020807 0.055430252 0.0050083422 0.055815239 0.99156809 -0.10951595
1649381132.0755 0.98825324 -0.11292112 0.0050279833 0.055808179 0.0050444994 0.056215648 0.99156481 -0.11037067
1659377358.4906 0.98815042 -0.11373165 0.0050882027 0.056216165 0.0050618611 0.056595124 0.99148607 -0.11126712
1669373584.9057 0.98803991 -0.11415769 0.0051199296 0.056579918 0.0051516187 0.056988776 0.99122077 -0.11195157
1679369811.3208 0.98808414 -0.11486259 0.0051514767 0.056980602 0.0051709153 0.057386469 0.99096906 -0.11250624
1689366037.7358 0.98801106 -0.11551934 0.0052242149 0.057336405 0.005223332 0.057794224 0.99069679 -0.11269072
1699362264.1509 0.98816162 -0.11610962 0.0053029656 0.057714224 0.0052736169 0.058197327 0.99091667 -0.11321823
1709358490.566 0.98806059 -0.11685126 0.0053463504 0.058108184 0.0053240471 0.058551647 0.99104619 -0.11375844
1719354716.9811 0.98782384 -0.11741325 0.0054087397 0.058450378 0.0053988304 0.058980182 0.99111438 -0.11454561
1729350943.3962 0.98744977 -0.11794254 0.0054337941 0.058897145 0.0054958705 0.059365705 0.99109918 -0.11558414
