!Keysight Technologies,N5222B,MY61253708,A.15.00.15
!Date: Wednesday, June 19, 2024 09:38:36
!Correction: S11(C  2-Port  ) 
!S21(C  2-Port  ) 
!S12(C  2-Port  ) 
!S22(C  2-Port  ) 
!S2P File: Measurements: S11, S21, S12, S22:
# Hz S  RI   R 50
10000000 0.9986304 -0.0024342239 0.00019044669 0.00041865083 0.00017140586 0.00031037981 0.99845284 -0.0011259615
19996226.415094 0.99860668 -0.0026228428 -9.1983879e-005 0.00071764796 0.00024762846 0.00075936096 0.99899507 -0.0028521419
29992452.830189 0.99974692 -0.0025447011 -5.05934e-005 0.00103039 5.3210009e-005 0.0010622747 0.99957955 -0.0026420057
39988679.245283 1.0000156 -0.0030028075 -5.5817291e-005 0.0013370969 1.5080863e-005 0.0013279044 0.9997381 -0.0030357093
49984905.660377 1.0001436 -0.0036812425 -2.8239272e-005 0.0017058747 -8.5750944e-006 0.0017285878 0.99984485 -0.0036168694
59981132.075472 1.0002981 -0.0046279132 -5.1344978e-007 0.0019906252 -9.9208555e-006 0.0020188231 0.99981284 -0.0041826963
69977358.490566 1.0001738 -0.0051841345 1.3825287e-005 0.0023167212 5.1027822e-005 0.0023523592 0.99971879 -0.0047622751
79973584.90566 0.99986953 -0.0057556033 -3.581983e-006 0.0026436406 -1.0121847e-005 0.0026475023 0.99944949 -0.0052296519
89969811.320755 0.99989063 -0.0058979392 2.7338741e-005 0.0029942328 3.4733559e-005 0.0029815934 0.99964821 -0.0054628551
99966037.735849 1.0000931 -0.0066744089 1.7440063e-005 0.0033333751 1.5835394e-005 0.0033405724 0.99968618 -0.0062448829
109962264.15094 1.0000787 -0.0075335205 2.5612826e-005 0.0036303774 1.9136176e-005 0.0036780215 0.99968988 -0.0070580393
119958490.56604 1.0001111 -0.0084737241 2.6994734e-005 0.0039713876 2.2877241e-005 0.0039940043 0.99970043 -0.0079485476
129954716.98113 1.0000746 -0.009442389 4.8806542e-005 0.0043239198 5.1958836e-005 0.0043462645 0.99971497 -0.0088471472
139950943.39623 1.0000187 -0.010254504 5.3533309e-005 0.0046367589 2.4064313e-005 0.0046856762 0.99965054 -0.0095739793
149947169.81132 0.99987823 -0.010920107 4.3189619e-005 0.0049757808 5.0030416e-005 0.0050111157 0.99959964 -0.0101991
159943396.22642 0.99982369 -0.011485487 6.534229e-005 0.0053071817 4.6532368e-005 0.0053548636 0.99967206 -0.010634214
169939622.64151 0.99982351 -0.011814691 6.7864836e-005 0.0056453627 6.0805876e-005 0.0056882035 0.99973786 -0.011066258
179935849.0566 0.99990028 -0.012104154 6.4426917e-005 0.0059707132 5.1744049e-005 0.0060233753 0.99965233 -0.011477679
189932075.4717 0.99998283 -0.012887269 5.6364108e-005 0.006280113 9.1177179e-005 0.0063739242 0.99985719 -0.012010247
199928301.88679 0.99988502 -0.013716012 0.00010880444 0.0065931799 7.3767151e-005 0.0067042131 0.99969691 -0.012874246
209924528.30189 0.99971038 -0.014303803 9.9175028e-005 0.0069403183 0.00013441767 0.0070374347 0.99952996 -0.013605729
219920754.71698 0.9997803 -0.015143126 8.7313354e-005 0.0072740763 0.00010647788 0.0073462734 0.99933362 -0.014273554
229916981.13208 0.99949872 -0.015989482 0.00010685157 0.0076298662 9.7235432e-005 0.0076991152 0.9993192 -0.015016735
239913207.54717 0.99943501 -0.016652482 0.00014440571 0.0079313265 0.00013824101 0.0080272825 0.99928063 -0.015712868
249909433.96226 0.99945503 -0.017348289 0.00013744039 0.0082958248 0.00015760958 0.008378759 0.9993732 -0.016361833
259905660.37736 0.99952519 -0.017870694 0.00017125718 0.0086169885 0.00012190407 0.0087168142 0.99960363 -0.016954899
269901886.79245 0.99970621 -0.018615097 0.00017733884 0.0089478856 0.0001283274 0.0090121143 0.99993223 -0.01762028
279898113.20755 0.99982208 -0.019319147 0.0002039785 0.0092193941 0.00014826981 0.0093650687 0.99977762 -0.018403381
289894339.62264 0.9996978 -0.01994881 0.0001829979 0.0096138641 0.00017412845 0.0096770935 0.99972987 -0.019070119
299890566.03774 0.99968362 -0.020427883 0.00018465403 0.0099342586 0.00020001852 0.010007882 0.99943858 -0.019585401
309886792.45283 0.99949586 -0.021037303 0.00023514626 0.010281591 0.00017534778 0.010361975 0.99937719 -0.020005018
319883018.86792 0.99955428 -0.021648645 0.00020763185 0.010590762 0.00027089659 0.010706977 0.9994213 -0.020445228
329879245.28302 0.9995029 -0.022403181 0.00021920353 0.010934805 0.00024421746 0.011083381 0.99952602 -0.021273732
339875471.69811 0.99925077 -0.02317246 0.00028303533 0.011259802 0.00030333514 0.011321319 0.99950522 -0.021969497
349871698.11321 0.99947804 -0.024009109 0.00029770331 0.011617277 0.0002458971 0.011719703 0.99951804 -0.022921294
359867924.5283 0.99931633 -0.024733961 0.00029516499 0.011912504 0.00028814655 0.012021007 0.99947691 -0.023854524
369864150.9434 0.99957073 -0.025574297 0.00029252237 0.012241826 0.0002976309 0.01239815 0.9994778 -0.024574786
379860377.35849 0.99943542 -0.026161239 0.00033240439 0.012602225 0.0003458471 0.012705252 0.99931467 -0.025316611
389856603.77358 0.99942529 -0.026765078 0.00034242868 0.012934154 0.00034361286 0.01304525 0.99933261 -0.025809705
399852830.18868 0.99919248 -0.027439833 0.00035455683 0.013226575 0.00034821127 0.013378824 0.9993915 -0.026267409
409849056.60377 0.99917281 -0.027800273 0.00036764576 0.013583578 0.00036676828 0.013678226 0.99933773 -0.026729245
419845283.01887 0.99920064 -0.028355211 0.00040556537 0.013891039 0.00037933933 0.014032112 0.99938619 -0.02727747
429841509.43396 0.99918854 -0.028954089 0.00039944565 0.014242151 0.00044562854 0.014337517 0.9995631 -0.028011113
439837735.84906 0.99911773 -0.02991125 0.00042257982 0.01455918 0.00045481324 0.014680898 0.99929965 -0.029049963
449833962.26415 0.99897033 -0.03069514 0.00044279965 0.01485513 0.00044465763 0.015026748 0.99886733 -0.029779702
459830188.67925 0.99891186 -0.031419069 0.00045882259 0.015190307 0.00047721015 0.015318554 0.99865246 -0.030507535
469826415.09434 0.99890447 -0.032125741 0.00045935065 0.01556272 0.00047691725 0.015674733 0.99843514 -0.031001925
479822641.50943 0.99870759 -0.032758161 0.00047751144 0.015862036 0.00050916499 0.01605379 0.99849886 -0.031436786
489818867.92453 0.99886096 -0.033352435 0.00052631041 0.016190972 0.00052880123 0.016382191 0.99872977 -0.031998903
499815094.33962 0.99898869 -0.033928275 0.00054334383 0.016548086 0.00053933915 0.016690427 0.99904358 -0.032574236
509811320.75472 0.99905211 -0.034429833 0.00057278306 0.016872115 0.00059666496 0.017011719 0.9991743 -0.033384409
519807547.16981 0.99897403 -0.03503716 0.00055181328 0.0172035 0.00059616612 0.017317783 0.99922389 -0.03409183
529803773.58491 0.99890101 -0.035514712 0.00061768293 0.017482832 0.00055859145 0.017673234 0.99888396 -0.034677207
539800000 0.99900043 -0.03622289 0.00060896296 0.017863384 0.00062786206 0.018023057 0.99872988 -0.035273746
549796226.41509 0.99879712 -0.037038863 0.00059587648 0.018215099 0.00065786811 0.018350463 0.99860132 -0.035824984
559792452.83019 0.99865675 -0.03777492 0.00060332566 0.018507188 0.00064337626 0.018672418 0.99851727 -0.03625536
569788679.24528 0.99842167 -0.038504332 0.00068398332 0.018842062 0.00069804303 0.019027125 0.99876469 -0.037017852
579784905.66038 0.99846858 -0.039062887 0.00072315917 0.019189185 0.00075194356 0.019341994 0.99883342 -0.037757434
589781132.07547 0.99856877 -0.039734244 0.00075236522 0.019514507 0.00075020362 0.019700881 0.99888957 -0.038634747
599777358.49057 0.9986856 -0.040407866 0.00078030396 0.019910187 0.0007943986 0.020024076 0.99898487 -0.03940174
609773584.90566 0.99876261 -0.041052386 0.00081445341 0.020183334 0.00084035203 0.020360488 0.99882853 -0.040302373
619769811.32075 0.99884927 -0.041657299 0.0007926845 0.020543978 0.00085199252 0.020658011 0.99877346 -0.04081884
629766037.73585 0.99872625 -0.042415768 0.0008630529 0.020801105 0.00089614559 0.020972092 0.99861252 -0.04121092
639762264.15094 0.99857223 -0.043017015 0.00089166756 0.021123743 0.00093433983 0.021320565 0.99844456 -0.041765451
649758490.56604 0.9985196 -0.043694302 0.00089815073 0.021433288 0.00087028975 0.021659881 0.99852377 -0.04215546
659754716.98113 0.99834275 -0.044184119 0.0008865986 0.021801118 0.00092295557 0.021975134 0.9986487 -0.042780906
669750943.39623 0.99833852 -0.044543773 0.0009414833 0.022157237 0.00096298335 0.022312611 0.99862802 -0.043600529
679747169.81132 0.99832171 -0.045410566 0.00096951448 0.022486081 0.00097841315 0.022681942 0.99863571 -0.044506818
689743396.22642 0.99844491 -0.046160191 0.0010452112 0.022785265 0.0010258229 0.023012847 0.99848723 -0.04543519
699739622.64151 0.99864721 -0.047026724 0.0010968866 0.023121331 0.0010637837 0.023355903 0.99843949 -0.046137214
709735849.0566 0.99855816 -0.047954284 0.0011328256 0.023460647 0.0011283422 0.023664199 0.99818277 -0.046792991
719732075.4717 0.99839938 -0.048584282 0.0011243508 0.023782168 0.0011256468 0.02396672 0.99825537 -0.047375172
729728301.88679 0.99829793 -0.04917109 0.0011436064 0.024079859 0.0011762502 0.024298951 0.99825037 -0.047813922
739724528.30189 0.99825317 -0.04970336 0.0012342753 0.024379808 0.0012196349 0.024644259 0.99843282 -0.048548788
749720754.71698 0.99812829 -0.050273776 0.0012612827 0.0247084 0.0012611537 0.0249654 0.99850398 -0.049199983
759716981.13208 0.99813509 -0.050750405 0.001251569 0.025035579 0.0012520887 0.025292609 0.99837482 -0.049993426
769713207.54717 0.99814665 -0.05153966 0.0013071643 0.025375502 0.0012853146 0.025602924 0.99820441 -0.050642163
779709433.96226 0.99827486 -0.052156966 0.0012889821 0.025698794 0.0013328794 0.02598027 0.99799049 -0.051300719
789705660.37736 0.99812269 -0.052983642 0.0013689818 0.026015732 0.0013363296 0.02625717 0.99768329 -0.052076966
799701886.79245 0.99808741 -0.053812683 0.0013941498 0.02635223 0.0013688253 0.026579961 0.99755949 -0.052592307
809698113.20755 0.9980886 -0.054470032 0.0014090529 0.026663462 0.00140123 0.026911376 0.99765021 -0.053088471
819694339.62264 0.99786413 -0.055116028 0.0014247028 0.02695113 0.001420266 0.02726208 0.99777263 -0.053664505
829690566.03774 0.99784833 -0.055796474 0.0014847796 0.027295206 0.0014870856 0.027548162 0.99800938 -0.05460906
839686792.45283 0.99791455 -0.056211919 0.0015052105 0.027597712 0.0015113074 0.027881479 0.99803489 -0.055363715
849683018.86792 0.99810457 -0.056708381 0.0015433687 0.027956799 0.0015323008 0.028206328 0.99789768 -0.056090169
859679245.28302 0.99807507 -0.057535857 0.0015691193 0.028288785 0.0015723351 0.028538441 0.99755991 -0.056730866
869675471.69811 0.99795914 -0.058241755 0.0016243365 0.028602559 0.0016252063 0.028885044 0.9972837 -0.057201535
879671698.11321 0.99788398 -0.058919217 0.0016518247 0.02889798 0.0016714036 0.029175889 0.9972713 -0.057647642
889667924.5283 0.99772507 -0.059767216 0.0016534999 0.029213915 0.0017104996 0.029500594 0.99711871 -0.058196217
899664150.9434 0.99751675 -0.06048426 0.0016882895 0.029524472 0.0017395485 0.029786749 0.99710238 -0.058814496
909660377.35849 0.99757999 -0.061090499 0.0017140075 0.029847786 0.0017481046 0.030114973 0.99730301 -0.05966109
919656603.77358 0.99757636 -0.061792538 0.0017420151 0.030160712 0.0017429632 0.030474054 0.99727553 -0.06049709
929652830.18868 0.99752593 -0.062515438 0.0017503034 0.03046963 0.0017907955 0.030762391 0.99711484 -0.061371744
939649056.60377 0.99776185 -0.063116044 0.0017860644 0.030782171 0.0018077623 0.031109288 0.99698454 -0.062081337
949645283.01887 0.99773973 -0.063956141 0.0017604368 0.031156709 0.0018194139 0.031440668 0.99673492 -0.062653482
959641509.43396 0.99764454 -0.064614624 0.0018175188 0.031494621 0.0018633176 0.031788439 0.99670398 -0.063154578
969637735.84906 0.99763876 -0.065389991 0.0018664496 0.031840086 0.0018841531 0.032135934 0.99669689 -0.063466549
979633962.26415 0.99740177 -0.066090748 0.0019346199 0.032154806 0.0019610859 0.032432944 0.99670666 -0.064124495
989630188.67925 0.99740219 -0.066589534 0.0019429522 0.032476161 0.0019800523 0.032786064 0.99692142 -0.064797074
999626415.09434 0.99749482 -0.067194164 0.0019895788 0.032793529 0.0020187376 0.033118099 0.99682391 -0.06554693
1009622641.5094 0.99751788 -0.0678574 0.0020274557 0.033121787 0.0020604935 0.033490311 0.99668378 -0.066424236
1019618867.9245 0.99758625 -0.068663061 0.0020545828 0.033456475 0.0020988951 0.033795565 0.99650258 -0.067205355
1029615094.3396 0.99763238 -0.069657236 0.0021475432 0.033765521 0.0021640947 0.034065511 0.99612355 -0.067806423
1039611320.7547 0.99760759 -0.07045719 0.0021661324 0.034086403 0.0021867799 0.034392416 0.99607897 -0.068469524
1049607547.1698 0.99750745 -0.071488321 0.0021578437 0.034393091 0.0022086366 0.034714814 0.996041 -0.069043577
1059603773.5849 0.99733299 -0.072100252 0.0022174874 0.034660675 0.0022708531 0.035017706 0.99612576 -0.069609374
1069600000 0.99716949 -0.072804898 0.002199701 0.03497652 0.0022999635 0.035331953 0.99625182 -0.070286185
1079596226.4151 0.99717337 -0.073421888 0.0022148918 0.035282649 0.0022712904 0.035663825 0.99620152 -0.071113482
1089592452.8302 0.99713731 -0.074065983 0.0022471081 0.035645887 0.0022919681 0.035980344 0.99621749 -0.071799278
1099588679.2453 0.99720013 -0.074739456 0.0022765882 0.03597673 0.0023354795 0.036297288 0.99578464 -0.072428733
1109584905.6604 0.99736494 -0.075538561 0.0022707703 0.036348946 0.002348721 0.036691193 0.99567294 -0.072978213
1119581132.0755 0.99722743 -0.076515615 0.0023012771 0.036646463 0.00235993 0.037014462 0.99548602 -0.073322743
1129577358.4906 0.99704051 -0.077287644 0.002350254 0.037026487 0.0024404638 0.037379846 0.99531019 -0.073827714
1139573584.9057 0.99690336 -0.078114927 0.0023901751 0.037339855 0.0025218865 0.037716746 0.99534476 -0.074516624
1149569811.3208 0.99673283 -0.07892818 0.0024332881 0.037651438 0.0025398287 0.038043767 0.99551409 -0.075260475
1159566037.7358 0.996539 -0.079664856 0.0025067674 0.037972245 0.0025676377 0.038346853 0.99559522 -0.076302528
1169562264.1509 0.99633229 -0.080327481 0.0024805851 0.038286455 0.0025896076 0.03863167 0.99545801 -0.077054381
1179558490.566 0.99635446 -0.081172623 0.0025147556 0.038642429 0.0025937397 0.039033659 0.99538344 -0.077758521
1189554716.9811 0.99637806 -0.081847429 0.0025678789 0.0389846 0.0026496174 0.039379444 0.99503237 -0.078260094
1199550943.3962 0.99624813 -0.082646877 0.0025895666 0.039350331 0.0027055629 0.039714016 0.99480486 -0.078696877
1209547169.8113 0.99610913 -0.083517343 0.0026473617 0.039679129 0.0027650567 0.040017106 0.99480259 -0.079050317
1219543396.2264 0.99590689 -0.084351495 0.0026767678 0.040005066 0.002784797 0.040390942 0.99485356 -0.079411089
1229539622.6415 0.99562728 -0.085169256 0.0027085636 0.040316641 0.0028660707 0.040748723 0.99502915 -0.08011359
1239535849.0566 0.99545264 -0.085816056 0.0027944306 0.040663697 0.0029729614 0.041019611 0.99509835 -0.081068039
1249532075.4717 0.99502289 -0.086543351 0.0028806177 0.040984798 0.003037425 0.04134297 0.99493122 -0.081820056
1259528301.8868 0.99483693 -0.086969584 0.0029100236 0.041322473 0.0030483063 0.041662268 0.99471676 -0.082726061
1269524528.3019 0.99469 -0.08775562 0.0029828269 0.041604951 0.0030990634 0.041945342 0.99449468 -0.083361
1279520754.717 0.99433893 -0.088439144 0.0030511196 0.04190927 0.0031762684 0.042220227 0.99417585 -0.083892092
1289516981.1321 0.99418676 -0.089311659 0.0030352641 0.042227529 0.0032014167 0.042546064 0.9942984 -0.084376037
1299513207.5472 0.99385339 -0.090130299 0.0030571856 0.042489335 0.0031905882 0.042849831 0.99438614 -0.08479169
1309509433.9623 0.99352092 -0.090819076 0.0030955262 0.042834684 0.0032032281 0.043155812 0.99452573 -0.085449055
1319505660.3774 0.9930917 -0.091523364 0.0030537136 0.043150067 0.003205019 0.043477826 0.99447709 -0.086154103
1329501886.7925 0.99283409 -0.092176706 0.003123682 0.043473728 0.003257744 0.043802388 0.99456775 -0.08701548
1339498113.2075 0.99252659 -0.092749536 0.0030971663 0.043813646 0.003271562 0.044097878 0.99418736 -0.087724
1349494339.6226 0.99241096 -0.093301252 0.0031253393 0.044159565 0.003272024 0.044467438 0.99379057 -0.088407986
1359490566.0377 0.99219602 -0.093885779 0.0031055845 0.044489071 0.0032549147 0.044808365 0.99358469 -0.088882864
1369486792.4528 0.9921242 -0.094451249 0.0031222543 0.044865176 0.0032579154 0.04517033 0.99338967 -0.089364946
1379483018.8679 0.99170625 -0.094895072 0.003130537 0.045240615 0.0032432063 0.045510802 0.9933874 -0.08968965
1389479245.283 0.99139774 -0.095450997 0.0032345224 0.045603178 0.0032930262 0.045901082 0.99332994 -0.09039405
1399475471.6981 0.99099255 -0.095849425 0.0032193419 0.045952789 0.0033162497 0.046248876 0.99369866 -0.091014534
1409471698.1132 0.990646 -0.096243568 0.0032763863 0.046301205 0.003364604 0.046633858 0.99358356 -0.091879025
1419467924.5283 0.9905448 -0.096580029 0.0032618633 0.046717837 0.0033785161 0.047007591 0.99342668 -0.092664659
1429464150.9434 0.99035072 -0.09694767 0.0033213124 0.047100309 0.0034009628 0.04741434 0.99332082 -0.093144238
1439460377.3585 0.99050844 -0.097466469 0.0033876756 0.047517464 0.0034650918 0.047845718 0.99298382 -0.09352544
1449456603.7736 0.99057734 -0.097959414 0.0035071941 0.047935128 0.0035870895 0.0482102 0.992935 -0.093836784
1459452830.1887 0.99051404 -0.098641694 0.0036483724 0.048380904 0.0037002191 0.048662096 0.9930197 -0.094159782
1469449056.6038 0.99052089 -0.099337906 0.0037842263 0.048679084 0.0038282759 0.048971128 0.99332726 -0.09471944
1479445283.0189 0.99045318 -0.099994935 0.0039402619 0.048955016 0.0039675306 0.049309831 0.99341494 -0.095630832
1489441509.434 0.99033475 -0.10045379 0.0040593352 0.04930865 0.0041438825 0.04957946 0.99321556 -0.09646374
1499437735.8491 0.99015522 -0.10072121 0.004148243 0.049550187 0.0042251535 0.049866382 0.9930675 -0.097424388
1509433962.2642 0.99015385 -0.10137211 0.0042596534 0.049812872 0.0042873803 0.050160427 0.99295419 -0.098061822
1519430188.6792 0.99026966 -0.1018649 0.0043077134 0.050094754 0.0043469053 0.050401524 0.99282748 -0.098557562
1529426415.0943 0.99015164 -0.10254255 0.0043854956 0.050409392 0.0043914784 0.050750755 0.99274898 -0.099047452
1539422641.5094 0.99024987 -0.10337381 0.004418748 0.050634477 0.0044398755 0.051011246 0.99277717 -0.099472471
1549418867.9245 0.99011481 -0.10410029 0.00448565 0.050950486 0.0044945432 0.051336795 0.99309134 -0.10020193
1559415094.3396 0.98998284 -0.10476783 0.0045446139 0.05120853 0.004553061 0.051646128 0.9931525 -0.10083443
1569411320.7547 0.98989409 -0.10557427 0.0045810658 0.051516481 0.0045472747 0.051856194 0.99306029 -0.10171524
1579407547.1698 0.98967826 -0.10609069 0.0045963689 0.051782884 0.0046127546 0.052185625 0.99273711 -0.10252488
1589403773.5849 0.98965776 -0.10659096 0.0045647826 0.05205296 0.0046247337 0.052490696 0.99259901 -0.10324648
1599400000 0.98968172 -0.10704786 0.0045855613 0.052388165 0.0046236264 0.052776694 0.99211258 -0.10370246
1609396226.4151 0.98969519 -0.10773127 0.0045940313 0.052680723 0.004573537 0.053067315 0.99205571 -0.10413013
1619392452.8302 0.98962694 -0.10829696 0.0046428815 0.053076059 0.0045990516 0.053441949 0.99189723 -0.10464004
1629388679.2453 0.98930502 -0.10899869 0.0046056602 0.053362258 0.0045882631 0.053773165 0.99221665 -0.10514009
1639384905.6604 0.98922795 -0.10965185 0.0046069017 0.053750779 0.0045982036 0.05416844 0.99247384 -0.10599679
1649381132.0755 0.98897851 -0.11026001 0.0046138167 0.054053433 0.0046443045 0.054549798 0.99242234 -0.1069403
1659377358.4906 0.98883277 -0.11105663 0.0046516061 0.05445417 0.0046832003 0.054920159 0.99235451 -0.10782513
1669373584.9057 0.98872238 -0.11164016 0.0046903091 0.054845534 0.0047102701 0.055249654 0.9920609 -0.1084713
1679369811.3208 0.98882544 -0.11221153 0.0047436291 0.055200431 0.0047419136 0.055646341 0.99189585 -0.10902837
1689366037.7358 0.98880196 -0.11282438 0.0047853794 0.055559829 0.0047492646 0.056051966 0.99174607 -0.10925296
1699362264.1509 0.98897654 -0.11342061 0.0048719309 0.055970013 0.0048173396 0.056414127 0.99185729 -0.10968514
1709358490.566 0.98885357 -0.11410715 0.0048941346 0.056343131 0.0048642643 0.056833006 0.99194705 -0.11033835
1719354716.9811 0.98854494 -0.1146253 0.0049309637 0.056706682 0.0049344487 0.057212155 0.99200517 -0.11087528
1729350943.3962 0.98836875 -0.11523768 0.0049997251 0.057108156 0.0050115902 0.057571415 0.99199599 -0.11179087
