!Keysight Technologies,N5222B,MY61253708,A.15.00.15
!Date: Wednesday, June 19, 2024 09:24:24
!Correction: S11(C  2-Port  ) 
!S21(C  2-Port  ) 
!S12(C  2-Port  ) 
!S22(C  2-Port  ) 
!S2P File: Measurements: S11, S21, S12, S22:
# Hz S  RI   R 50
10000000 0.99879062 -0.0022591949 9.9920697e-005 0.00066055049 0.00011477334 0.00061349332 0.99885547 -0.0011252165
19996226.415094 0.99902511 -0.0021562278 0.00017210116 0.00063784549 -0.00011394761 0.00061933324 0.99902964 -0.0022535622
29992452.830189 0.99974149 -0.0023648441 -2.0795182e-005 0.0010475101 1.6006408e-005 0.0010270666 0.99948323 -0.0026038885
39988679.245283 1.0000916 -0.0030491203 2.0076375e-005 0.0013396319 -2.4050343e-005 0.0013269666 0.99966985 -0.0031197071
49984905.660377 1.0002264 -0.0037514865 -1.1709984e-005 0.0016686457 4.5266002e-005 0.001675766 0.99983168 -0.003739953
59981132.075472 1.00038 -0.0046769381 -1.116778e-005 0.0020147485 -1.0745076e-005 0.0020298674 0.9997198 -0.004358083
69977358.490566 1.0001645 -0.0052406248 1.1464617e-005 0.0023349863 2.0480486e-005 0.0023729459 0.99963838 -0.0048272144
79973584.90566 0.99990469 -0.0057850182 -1.5858095e-006 0.002665516 3.0951691e-005 0.0027273418 0.99935424 -0.0053708851
89969811.320755 0.99989009 -0.0059538782 -2.2852561e-005 0.0030049169 1.9711442e-005 0.0030542496 0.99951553 -0.0056114197
99966037.735849 1.0000961 -0.0067346841 1.6561477e-005 0.0033697602 6.9817761e-006 0.0034055989 0.99957478 -0.0064311773
109962264.15094 1.0000499 -0.0076947361 1.7361599e-006 0.0036915375 3.5714882e-005 0.0037423624 0.99958587 -0.0072426051
119958490.56604 1.0001223 -0.0086075664 3.8929284e-005 0.0040322752 3.4768134e-005 0.0040670121 0.99962306 -0.0081575811
129954716.98113 1.0000761 -0.0095681846 6.0385326e-005 0.0043883873 3.654242e-005 0.0044143833 0.99962455 -0.0090897083
139950943.39623 1.0000072 -0.01036364 4.6677218e-005 0.0047121421 4.8934118e-005 0.0047371974 0.9995513 -0.0098159015
149947169.81132 0.99985021 -0.011081636 6.4586056e-005 0.0050325203 4.2647822e-005 0.0050808317 0.99948412 -0.010450274
159943396.22642 0.99983418 -0.011619329 4.8885355e-005 0.0053749494 6.8389811e-005 0.0054208934 0.99955237 -0.010936528
169939622.64151 0.99985367 -0.011996672 8.1125298e-005 0.005729774 6.6547596e-005 0.0057713143 0.9996137 -0.011315189
179935849.0566 0.99991691 -0.01221016 9.7908662e-005 0.0060646441 7.7366014e-005 0.0061221002 0.99956125 -0.011764944
189932075.4717 0.99997759 -0.013000399 7.7649718e-005 0.0064492282 8.8977627e-005 0.0064405678 0.99972272 -0.012347966
199928301.88679 0.99996483 -0.013869554 7.2617433e-005 0.0067357505 0.00010137365 0.0068319249 0.99963957 -0.013227403
209924528.30189 0.9996562 -0.014470696 0.00012021873 0.0070967767 0.00011933572 0.0071549914 0.9994089 -0.013943151
219920754.71698 0.99972868 -0.015450031 0.00013226783 0.0074137789 0.00010538427 0.0074681113 0.9992888 -0.01458174
229916981.13208 0.99946856 -0.016266137 0.00012415368 0.0077311466 0.0001506866 0.0077902088 0.99917525 -0.015421987
239913207.54717 0.99936175 -0.016887309 0.00010951534 0.0080651343 0.00014190693 0.0081523638 0.99917901 -0.016163521
249909433.96226 0.99938142 -0.01752764 0.00012312969 0.0084242756 0.0001547141 0.0084757432 0.99928159 -0.016738206
259905660.37736 0.9995147 -0.018125534 0.00013696216 0.0087810922 0.00019242615 0.0088395439 0.99939334 -0.017343611
269901886.79245 0.99954802 -0.018744871 0.00016120344 0.009081997 0.00015583122 0.0091360174 0.99973834 -0.01812844
279898113.20755 0.99977076 -0.019425675 0.00016791141 0.0094123464 0.00020499201 0.0095234485 0.99963945 -0.018802598
289894339.62264 0.9997052 -0.020251364 0.00014629634 0.0097758742 0.00017212564 0.0098382011 0.99954635 -0.019603699
299890566.03774 0.99960428 -0.020705789 0.00018428825 0.010086644 0.00023490493 0.010178505 0.99931896 -0.020056278
309886792.45283 0.99945772 -0.021261662 0.00025163108 0.010431476 0.00022240356 0.010516626 0.99917358 -0.020533279
319883018.86792 0.99940187 -0.021953017 0.00024052616 0.010722172 0.00024931319 0.010862721 0.99925292 -0.020987362
329879245.28302 0.99945766 -0.02269426 0.00024904916 0.011067275 0.00026007183 0.011155233 0.99938411 -0.021731675
339875471.69811 0.99935466 -0.023457266 0.00026852195 0.011428295 0.00024272781 0.011522796 0.99927521 -0.022530735
349871698.11321 0.99933451 -0.024257034 0.0003285585 0.011810889 0.00031377911 0.011872544 0.99940634 -0.023479551
359867924.5283 0.99932694 -0.025035173 0.00032897945 0.012100489 0.00031387527 0.012198769 0.99926591 -0.024394333
369864150.9434 0.9994722 -0.02582708 0.00034704152 0.012466913 0.0002840294 0.012562074 0.99920011 -0.025117218
379860377.35849 0.99940509 -0.026576504 0.00034001144 0.012796196 0.0003571019 0.01286031 0.99922127 -0.025733709
389856603.77358 0.99929178 -0.027195662 0.00035694474 0.013101581 0.00032498967 0.013227607 0.99923497 -0.026193798
399852830.18868 0.99908876 -0.027698487 0.00032968353 0.013446107 0.00038963649 0.013515363 0.99928868 -0.026682109
409849056.60377 0.99910456 -0.028132312 0.00039547766 0.013795184 0.00036770073 0.013907471 0.99929714 -0.027160201
419845283.01887 0.99912769 -0.028612286 0.0004154942 0.014084663 0.00039294781 0.014217202 0.9993003 -0.027667522
429841509.43396 0.99911308 -0.02927354 0.00039632153 0.014430683 0.00040180748 0.014600318 0.99940014 -0.028455347
439837735.84906 0.99907714 -0.030170962 0.00049431575 0.014779606 0.00041697058 0.014885997 0.99928981 -0.029476225
449833962.26415 0.99895698 -0.031062871 0.00048401766 0.015100396 0.00047971774 0.015222774 0.99892151 -0.030344665
459830188.67925 0.99884713 -0.031748295 0.00045912806 0.015462581 0.00046111969 0.015570743 0.99875104 -0.031137496
469826415.09434 0.9987765 -0.032659918 0.00046266709 0.015777186 0.00049442053 0.015901111 0.99855655 -0.031734824
479822641.50943 0.99858528 -0.033091523 0.00052842707 0.016152324 0.00052104122 0.016271431 0.99857831 -0.032113358
489818867.92453 0.9987458 -0.03366676 0.00053904532 0.016480196 0.00056621619 0.016591994 0.99882811 -0.032712609
499815094.33962 0.99890357 -0.034352183 0.00055601913 0.016804766 0.00057965517 0.016926097 0.99911016 -0.033344299
509811320.75472 0.99902612 -0.034642562 0.00058934139 0.017093383 0.000616504 0.01728595 0.99930114 -0.034159146
519807547.16981 0.9988746 -0.035309911 0.00059338659 0.01746534 0.00061727781 0.01760355 0.99928701 -0.035019964
529803773.58491 0.99886286 -0.035868376 0.00066345464 0.017835597 0.00059416331 0.017945349 0.99900985 -0.035581738
539800000 0.99886024 -0.036587551 0.00065843132 0.018144181 0.00061808759 0.018227909 0.99874824 -0.036303923
549796226.41509 0.99882001 -0.03745994 0.0006809039 0.01844324 0.00068166945 0.01865017 0.99861991 -0.036747456
559792452.83019 0.99850905 -0.038202733 0.00067696068 0.018813275 0.00065227319 0.018937688 0.99854469 -0.037222385
569788679.24528 0.99829 -0.038870752 0.00072540622 0.019120928 0.00075205276 0.019331673 0.99863166 -0.038014442
579784905.66038 0.99838209 -0.039423451 0.00074599206 0.019459676 0.00077035686 0.019631099 0.99879771 -0.038743548
589781132.07547 0.99852312 -0.040125132 0.00079506356 0.019801719 0.00072601996 0.019991223 0.99888659 -0.039682865
599777358.49057 0.99861073 -0.040701181 0.00083635282 0.020164162 0.00080623385 0.020308573 0.99888772 -0.040410668
609773584.90566 0.99880821 -0.041503415 0.00086067745 0.020465173 0.00088541687 0.02068284 0.9987455 -0.04130353
619769811.32075 0.9988746 -0.042177707 0.00089855026 0.020817216 0.00089288969 0.021003056 0.99869561 -0.041896582
629766037.73585 0.99866855 -0.042839617 0.00090023596 0.02112323 0.00095833186 0.021300483 0.99844766 -0.042380482
639762264.15094 0.99849445 -0.043470606 0.00095687923 0.021480124 0.00094844773 0.021610186 0.99829394 -0.042838231
649758490.56604 0.99833369 -0.044200227 0.00095320446 0.021784805 0.00096805627 0.021960881 0.99838382 -0.043282092
659754716.98113 0.99829018 -0.044593155 0.00093343761 0.022110935 0.00095332414 0.022314817 0.99845624 -0.043815672
669750943.39623 0.99825734 -0.045099199 0.00098913768 0.022476779 0.0009913547 0.022697985 0.99843782 -0.044614881
679747169.81132 0.99826407 -0.045881674 0.0010144082 0.022830823 0.0010359272 0.022988506 0.99844193 -0.045614511
689743396.22642 0.99838579 -0.046727359 0.0010695942 0.023189876 0.0010840837 0.023346342 0.9982807 -0.046575248
699739622.64151 0.99850416 -0.047466546 0.0011375006 0.023505319 0.0011259457 0.023676919 0.99820983 -0.047300726
709735849.0566 0.99843651 -0.0483426 0.0011492092 0.023783984 0.001154857 0.024001788 0.99790347 -0.047921568
719732075.4717 0.99836612 -0.049120903 0.001155552 0.024126094 0.0011793524 0.024341382 0.9979915 -0.048476309
729728301.88679 0.99825221 -0.049611121 0.001235499 0.02447645 0.0012191711 0.024673268 0.99808908 -0.048876762
739724528.30189 0.99810922 -0.050301313 0.0012334865 0.024742039 0.0012726416 0.02499317 0.99829274 -0.049530849
749720754.71698 0.99804115 -0.050840333 0.0012988299 0.025070177 0.0013021799 0.025314776 0.99825579 -0.050257295
759716981.13208 0.99809611 -0.051347315 0.0013106102 0.025416624 0.0013082316 0.025651958 0.99823308 -0.051107556
769713207.54717 0.99797356 -0.0520944 0.0013557151 0.025737584 0.0013807761 0.026003553 0.99799883 -0.051791698
779709433.96226 0.99813813 -0.052712299 0.0013890071 0.02609472 0.0013835765 0.026304001 0.99776602 -0.05242946
789705660.37736 0.99800873 -0.053583354 0.0014356729 0.026403252 0.0014285808 0.026677128 0.99752605 -0.053135008
799701886.79245 0.99802244 -0.05448699 0.0014167484 0.026701298 0.0014410075 0.026955862 0.9973979 -0.053744376
809698113.20755 0.99787551 -0.055023849 0.0014763512 0.027064769 0.0014650736 0.027264472 0.99743986 -0.054150298
819694339.62264 0.99773669 -0.055738062 0.001494308 0.027377276 0.0014968519 0.027610648 0.99753672 -0.054785371
829690566.03774 0.99773413 -0.056280524 0.0014951872 0.0277068 0.0015397891 0.027957257 0.99788606 -0.055726111
839686792.45283 0.99782932 -0.05681023 0.0015737936 0.028002417 0.0015787641 0.028285662 0.99790925 -0.056569129
849683018.86792 0.99794078 -0.057372265 0.0015843478 0.028377034 0.00162974 0.028609354 0.99773574 -0.05731488
859679245.28302 0.99787861 -0.05809319 0.0016207322 0.028720418 0.0016310355 0.028938903 0.99748147 -0.057945192
869675471.69811 0.99786377 -0.058958501 0.00168416 0.029013364 0.0016640816 0.029280916 0.99707365 -0.058526576
879671698.11321 0.99767888 -0.059562992 0.0017251621 0.029317634 0.0017256292 0.029615786 0.99712139 -0.058950692
889667924.5283 0.99756521 -0.060401708 0.0017454661 0.02963002 0.0017556902 0.029918138 0.99694127 -0.059431195
899664150.9434 0.99730849 -0.061135113 0.0017434293 0.029956359 0.0018187603 0.030267484 0.99700803 -0.06007719
909660377.35849 0.99737036 -0.061738551 0.0018174392 0.030295251 0.0017859284 0.030561984 0.9971559 -0.060975239
919656603.77358 0.99746054 -0.062455446 0.0018407311 0.030623917 0.0018349034 0.030889284 0.99716026 -0.06188108
929652830.18868 0.99747419 -0.063253015 0.0018507391 0.03095793 0.0018765489 0.031221088 0.99704027 -0.062831432
939649056.60377 0.99767959 -0.063769281 0.0018338133 0.031252839 0.0018606279 0.03153557 0.99681973 -0.06352818
949645283.01887 0.99755919 -0.064622328 0.0018405013 0.031593755 0.0019054689 0.031876672 0.99659336 -0.064012371
959641509.43396 0.99749291 -0.065284401 0.0019005891 0.031952187 0.0019299313 0.03224986 0.99654204 -0.064568698
969637735.84906 0.99742085 -0.066032827 0.0019626021 0.032315951 0.0019907411 0.032617204 0.99660879 -0.064897001
979633962.26415 0.99723369 -0.066861168 0.0020046222 0.032625221 0.0020148708 0.032939538 0.9966104 -0.065603986
989630188.67925 0.99721622 -0.067322254 0.0020386139 0.032949597 0.002041691 0.033273399 0.99674964 -0.06622377
999626415.09434 0.9972465 -0.067848206 0.0020644674 0.033261996 0.0021295995 0.033606213 0.9966917 -0.067015529
1009622641.5094 0.99741185 -0.068626165 0.0020953873 0.033621442 0.00215487 0.033959992 0.99656117 -0.067907989
1019618867.9245 0.99737126 -0.069469422 0.0021689027 0.033965439 0.0022123856 0.034303673 0.9963392 -0.068780407
1029615094.3396 0.99732268 -0.070407867 0.002214646 0.034253635 0.0022488125 0.034583062 0.9959687 -0.069297522
1039611320.7547 0.99747127 -0.071301699 0.0022658771 0.034562323 0.0022916347 0.034898307 0.9958322 -0.070021451
1049607547.1698 0.99733591 -0.072168633 0.0022872372 0.034858551 0.0023090355 0.035214268 0.99587584 -0.070589244
1059603773.5849 0.99713343 -0.072812021 0.0023164004 0.035156421 0.0023362888 0.035533249 0.99585801 -0.071179003
1069600000 0.99697733 -0.073456287 0.0023070276 0.03548573 0.0023658648 0.035867065 0.99599671 -0.071867615
1079596226.4151 0.99686676 -0.074202225 0.0023196759 0.035831939 0.002412294 0.036156874 0.99600881 -0.072701573
1089592452.8302 0.99693996 -0.074768394 0.0023629637 0.036154099 0.0024141893 0.036529798 0.99589741 -0.073358506
1099588679.2453 0.99694639 -0.075442255 0.0023581237 0.036494419 0.0024378877 0.036849111 0.99558526 -0.073996753
1109584905.6604 0.99710345 -0.076223284 0.0023944741 0.036855768 0.0024589971 0.037199248 0.99531084 -0.074597895
1119581132.0755 0.99706686 -0.077424988 0.0024203663 0.037195556 0.0025193417 0.037558999 0.99513382 -0.075031966
1129577358.4906 0.99676615 -0.078054518 0.0024567954 0.037572011 0.0025073476 0.037885282 0.99497175 -0.075516522
1139573584.9057 0.99658966 -0.078956962 0.0025211172 0.037863392 0.002603258 0.038264815 0.99506789 -0.076175243
1149569811.3208 0.99643278 -0.079794459 0.0025726145 0.038203336 0.0026416073 0.038566843 0.99525607 -0.076850325
1159566037.7358 0.99622738 -0.080543309 0.002623288 0.038516402 0.0027128197 0.038874414 0.99538672 -0.077958733
1169562264.1509 0.99620044 -0.081093729 0.0026111379 0.038808342 0.0026895478 0.03920671 0.99517143 -0.078719407
1179558490.566 0.99613601 -0.081950188 0.0026466465 0.03921983 0.0027358932 0.039570175 0.99502438 -0.07941848
1189554716.9811 0.9960655 -0.08261025 0.0026720185 0.039554946 0.0027721114 0.039929252 0.99478263 -0.079974473
1199550943.3962 0.99602199 -0.083438963 0.0026780535 0.039898459 0.0028546546 0.040287528 0.99454546 -0.080441713
1209547169.8113 0.9957999 -0.084340617 0.0027562743 0.040272832 0.0028526662 0.040562566 0.99447817 -0.080704957
1219543396.2264 0.99569356 -0.085227802 0.0028053657 0.040565494 0.0029141577 0.040954303 0.99453735 -0.081149563
1229539622.6415 0.99534285 -0.085985154 0.0028807912 0.040938891 0.002987545 0.041284941 0.99471742 -0.081791252
1239535849.0566 0.99504614 -0.086696506 0.0029234439 0.041222408 0.0030374127 0.041644219 0.99481714 -0.082715482
1249532075.4717 0.99476725 -0.087351218 0.0029835831 0.041598827 0.0031232857 0.04193379 0.99461365 -0.083561294
1259528301.8868 0.99457085 -0.087855041 0.0030601174 0.041925088 0.0031979345 0.042237688 0.99435747 -0.08445704
1269524528.3019 0.99434292 -0.088596702 0.0030810442 0.042208508 0.0032494385 0.042550977 0.99413246 -0.085223049
1279520754.717 0.99400789 -0.089351431 0.0031586471 0.042499915 0.0032899806 0.042864475 0.99394929 -0.085764013
1289516981.1321 0.99388045 -0.090150535 0.0031822324 0.042794231 0.0033292314 0.043140214 0.99388844 -0.086085498
1299513207.5472 0.99357402 -0.090985835 0.0031972174 0.043119363 0.0033391248 0.043462701 0.99408162 -0.08657527
1309509433.9623 0.9930914 -0.091665894 0.0032196213 0.04342515 0.0033565536 0.043736905 0.99414349 -0.0872394
1319505660.3774 0.99271536 -0.092516631 0.0032076091 0.043810103 0.0033593494 0.04411529 0.99418253 -0.087949544
1329501886.7925 0.99257791 -0.093049437 0.0032055434 0.044125505 0.0033898409 0.044415135 0.99422407 -0.088886827
1339498113.2075 0.99216866 -0.093528301 0.0032331059 0.044423155 0.0034240503 0.044769008 0.99376237 -0.089639187
1349494339.6226 0.99206018 -0.09416616 0.0032075779 0.044757824 0.0034054201 0.045114458 0.99335057 -0.090251133
1359490566.0377 0.99190962 -0.094752848 0.0032814909 0.045151658 0.0033858549 0.045424134 0.9931891 -0.090688556
1369486792.4528 0.99167442 -0.095307767 0.0032801321 0.045482438 0.0034286045 0.045773271 0.99299634 -0.091201752
1379483018.8679 0.99143511 -0.095838808 0.0032863505 0.045904502 0.0033783447 0.046153024 0.9930613 -0.091589861
1389479245.283 0.99096298 -0.096481919 0.0033554863 0.046251327 0.003436679 0.04654295 0.99303836 -0.092306703
1399475471.6981 0.99062133 -0.096784413 0.0033593494 0.046596538 0.0034669954 0.046897851 0.99324489 -0.092976183
1409471698.1132 0.99034196 -0.097269088 0.0033717745 0.046990566 0.003486274 0.047306411 0.99319446 -0.093814828
1419467924.5283 0.990143 -0.097526461 0.0034410302 0.047340773 0.0035535805 0.047688179 0.99298608 -0.094452828
1429464150.9434 0.99007457 -0.097850949 0.0034536999 0.047765736 0.0035695359 0.048034769 0.99287921 -0.095015585
1439460377.3585 0.99016094 -0.098377585 0.0035518799 0.048242491 0.0036257943 0.048504852 0.99263573 -0.095393836
1449456603.7736 0.99014586 -0.098888025 0.0036776522 0.048640717 0.0037111714 0.048916917 0.99248594 -0.095763996
1459452830.1887 0.99024928 -0.099588394 0.0038088653 0.049055621 0.0038088709 0.049316622 0.99261248 -0.096033931
1469449056.6038 0.99031138 -0.10030064 0.003974651 0.049363568 0.0039929338 0.049654111 0.99280655 -0.096733451
1479445283.0189 0.990049 -0.10091986 0.0040916987 0.049673814 0.0041547371 0.049960971 0.99285746 -0.097599201
1489441509.434 0.98999882 -0.10146672 0.0042323023 0.049995854 0.0042656921 0.050326027 0.99273849 -0.098562658
1499437735.8491 0.98977435 -0.1017721 0.00432669 0.050257575 0.0043907557 0.050559759 0.99271512 -0.099337429
1509433962.2642 0.98985016 -0.10224073 0.0044575483 0.050533537 0.0044663143 0.050842412 0.99246699 -0.10005813
1519430188.6792 0.98988128 -0.1027523 0.0044954792 0.050821632 0.0045353062 0.051130231 0.99234474 -0.1006099
1529426415.0943 0.98983681 -0.10351798 0.0045666564 0.051118683 0.0045824107 0.051414825 0.9922713 -0.10107139
1539422641.5094 0.98987889 -0.10434209 0.0045801508 0.051386468 0.0046153385 0.051714797 0.99239218 -0.10148234
1549418867.9245 0.98967296 -0.10509306 0.004681807 0.051697176 0.0046800487 0.052008454 0.99257135 -0.10224375
1559415094.3396 0.9896034 -0.10581234 0.0047263019 0.051964872 0.0047418028 0.052250199 0.99268448 -0.10288221
1569411320.7547 0.98943925 -0.10649191 0.0047711572 0.052260909 0.0047514103 0.052636094 0.99268609 -0.10372905
1579407547.1698 0.98944974 -0.10709038 0.0047919825 0.052508276 0.0047948528 0.052884534 0.99229378 -0.10454662
1589403773.5849 0.98941034 -0.10758013 0.004817443 0.052832682 0.0047780965 0.053206451 0.99209726 -0.10529891
1599400000 0.98929101 -0.10807508 0.0047613718 0.053146787 0.00479188 0.053502422 0.99166393 -0.10573766
1609396226.4151 0.98928738 -0.10876441 0.0047941571 0.05346122 0.0047849622 0.053804472 0.9914794 -0.10627045
1619392452.8302 0.98923802 -0.10931846 0.0047952384 0.053839214 0.004811516 0.054157954 0.99145329 -0.10663658
1629388679.2453 0.98903233 -0.11006474 0.0048054401 0.054160774 0.0047561936 0.054540902 0.99168384 -0.10725844
1639384905.6604 0.98882443 -0.11069752 0.0048106555 0.054501809 0.0048124129 0.054953147 0.99185479 -0.10811215
1649381132.0755 0.98862106 -0.11137024 0.0048073586 0.054860331 0.0048565399 0.055264447 0.99187589 -0.10905921
1659377358.4906 0.98845196 -0.11213884 0.0048337504 0.055237915 0.0048644543 0.055663288 0.9918471 -0.1099425
1669373584.9057 0.98836035 -0.11270651 0.0048681106 0.055645745 0.0048649348 0.056037012 0.99150133 -0.11059053
1679369811.3208 0.988442 -0.11333489 0.0049506603 0.056026295 0.0049504656 0.056413058 0.99129218 -0.11111882
1689366037.7358 0.9884479 -0.1138635 0.0049437527 0.05640658 0.0049312077 0.056834929 0.9910574 -0.11139709
1699362264.1509 0.98860514 -0.11457907 0.0050378088 0.056708079 0.0050619133 0.057226218 0.9912734 -0.11184703
1709358490.566 0.98838168 -0.11517982 0.0050446792 0.057106078 0.0051167868 0.057607356 0.99133193 -0.11237542
1719354716.9811 0.98806775 -0.11585349 0.0051674508 0.057464458 0.0051666014 0.057972871 0.99140835 -0.11308882
1729350943.3962 0.9878149 -0.11635858 0.0052170753 0.057927329 0.0052615367 0.058363222 0.99135447 -0.11402947
