!Keysight Technologies,N5222B,MY61253708,A.15.00.15
!Date: Wednesday, June 19, 2024 09:37:22
!Correction: S11(C  2-Port  ) 
!S21(C  2-Port  ) 
!S12(C  2-Port  ) 
!S22(C  2-Port  ) 
!S2P File: Measurements: S11, S21, S12, S22:
# Hz S  RI   R 50
10000000 0.99846816 -0.0027245581 -0.00032507683 0.00043128108 1.5043275e-005 0.00042113863 0.99839342 -0.0013674796
19996226.415094 0.99877751 -0.0026064813 4.6551286e-005 0.00074968394 1.549031e-005 0.00054179394 0.99898231 -0.0025972128
29992452.830189 0.99971747 -0.0024015903 4.6317116e-005 0.0010480749 1.5678233e-007 0.0010491157 0.99951768 -0.0027144551
39988679.245283 1.0000018 -0.0029407144 4.8652277e-005 0.0013317149 1.4233228e-005 0.0013614752 0.99971962 -0.0030792654
49984905.660377 1.0001627 -0.0037255883 4.7470443e-005 0.0016852363 5.2750809e-005 0.0016681865 0.99980581 -0.0036400557
59981132.075472 1.0003393 -0.0046415329 4.6686619e-006 0.0020064008 4.7178764e-005 0.002021454 0.99982238 -0.0041838884
69977358.490566 1.0001317 -0.0051772632 -7.4299423e-006 0.0023529301 1.5091107e-005 0.0023193753 0.99970114 -0.0047219731
79973584.90566 0.99986076 -0.0057890117 3.2049487e-005 0.0026380597 2.0065927e-005 0.0027239264 0.99941689 -0.0051835477
89969811.320755 0.99987733 -0.0058997273 -1.2854114e-005 0.0029909126 4.279986e-005 0.0030036545 0.99962068 -0.0054591596
99966037.735849 1.0001109 -0.0065995008 7.7093136e-006 0.0033412194 8.9587411e-006 0.0033429528 0.99966627 -0.0062675178
109962264.15094 1.0000929 -0.0075512379 3.5342644e-005 0.0036303431 2.4874986e-005 0.0036843373 0.99970037 -0.0070784986
119958490.56604 1.0001256 -0.0084819496 1.959654e-005 0.0039840252 4.2080064e-005 0.0040093395 0.99969846 -0.0079345107
129954716.98113 1.0000973 -0.0094389915 4.0174695e-005 0.004300965 4.1030115e-005 0.004357392 0.99971616 -0.0088498294
139950943.39623 1.0000211 -0.010257887 5.2682924e-005 0.0046339524 6.3254687e-005 0.004680838 0.99961013 -0.00956803
149947169.81132 0.99991173 -0.010885149 5.4853037e-005 0.0049647922 3.5139266e-005 0.0050252546 0.99959034 -0.01020658
159943396.22642 0.99983692 -0.01144585 5.7634199e-005 0.005316271 5.357177e-005 0.0053608017 0.99965739 -0.010632873
169939622.64151 0.99985117 -0.011852935 7.4606913e-005 0.0056594661 6.4808002e-005 0.0057178875 0.99970126 -0.01105506
179935849.0566 0.99989557 -0.012192279 8.955982e-005 0.0059978352 7.8005833e-005 0.0060267025 0.99956489 -0.011441052
189932075.4717 0.99998391 -0.012921184 8.6323591e-005 0.0063017523 7.4124429e-005 0.0063646492 0.99984419 -0.012008786
199928301.88679 0.99995577 -0.013734072 8.2950806e-005 0.0066175452 7.2665745e-005 0.0067147901 0.99977332 -0.012877226
209924528.30189 0.99967915 -0.014305472 0.00012742053 0.0069547147 0.00011107454 0.0070409719 0.999493 -0.013594255
219920754.71698 0.99975437 -0.015171915 0.00010987069 0.0072905114 0.00011027255 0.0073631839 0.99936432 -0.014273405
229916981.13208 0.99951351 -0.01603502 0.00012299907 0.0076163118 0.00012262259 0.0077011902 0.99932003 -0.014972717
239913207.54717 0.99938732 -0.016736455 0.00012699343 0.0079752384 0.00013269657 0.0080323583 0.99929208 -0.015697887
249909433.96226 0.99941742 -0.017339349 0.0001485711 0.0083119683 0.00013836683 0.0083585232 0.99938428 -0.016353786
259905660.37736 0.99941456 -0.018016309 0.00014763977 0.0085621811 0.00015802588 0.008741823 0.99958587 -0.01691258
269901886.79245 0.99962461 -0.018604115 0.00018666044 0.0089753633 8.581311e-005 0.0090455627 0.99988598 -0.017621204
279898113.20755 0.99974364 -0.01918593 0.00014428422 0.0093095265 0.00014788238 0.0093401149 0.99976182 -0.01837495
289894339.62264 0.99971318 -0.019939929 0.00023807539 0.0095550902 0.00019623246 0.009695882 0.99970704 -0.01908952
299890566.03774 0.99965394 -0.02050674 0.00017570402 0.0099924859 0.00021070451 0.0099847149 0.99945861 -0.019487888
309886792.45283 0.9994415 -0.021126315 0.00019708916 0.010224645 0.00017257885 0.010373177 0.99929518 -0.019930027
319883018.86792 0.99941742 -0.021623999 0.00021983963 0.01059753 0.00024603261 0.010723201 0.9994899 -0.020417362
329879245.28302 0.99949181 -0.022531956 0.00026978226 0.010926372 0.00023190118 0.011060076 0.99951124 -0.021213561
339875471.69811 0.99931002 -0.023215212 0.00025619427 0.011261901 0.00026819634 0.01136183 0.99944079 -0.022036284
349871698.11321 0.99954349 -0.024024844 0.00031093182 0.011646888 0.0002785956 0.011700833 0.99952543 -0.022975624
359867924.5283 0.99940938 -0.024801701 0.0003454932 0.011978047 0.00027733529 0.012018214 0.99942493 -0.023898482
369864150.9434 0.99957091 -0.025536746 0.00032427232 0.012212377 0.00026834803 0.01237091 0.99945283 -0.024573505
379860377.35849 0.99938691 -0.0262568 0.00034563593 0.012566266 0.00032205298 0.012732107 0.99939841 -0.025258467
389856603.77358 0.99935222 -0.026816696 0.00034294184 0.012962323 0.00034933491 0.013028268 0.99940753 -0.025740385
399852830.18868 0.99923861 -0.027471542 0.00040188525 0.013261003 0.00036901003 0.013352291 0.99940348 -0.02627632
409849056.60377 0.99920422 -0.027861658 0.0003783158 0.013583372 0.00035485244 0.01371152 0.99934787 -0.026740277
419845283.01887 0.99914247 -0.028342307 0.00038473913 0.013928073 0.0003793668 0.014018737 0.99930155 -0.027273566
429841509.43396 0.99927807 -0.028967261 0.00042535923 0.014229885 0.00038692867 0.014409862 0.99945533 -0.027997851
439837735.84906 0.99912912 -0.02988416 0.00044365134 0.014581559 0.00045102695 0.01465513 0.99929464 -0.028964221
449833962.26415 0.99902844 -0.030644655 0.00045322161 0.014893093 0.00048876181 0.01500405 0.9988457 -0.029787451
459830188.67925 0.99888283 -0.031475514 0.0004273043 0.015189487 0.000451745 0.015360087 0.99865794 -0.030514061
469826415.09434 0.99892294 -0.032254517 0.00044622459 0.015557835 0.00045380415 0.015694786 0.99842 -0.031000435
479822641.50943 0.99881166 -0.03283447 0.00048793131 0.015878499 0.00051062461 0.016048927 0.99851155 -0.031433083
489818867.92453 0.99881673 -0.033323616 0.00055956002 0.016211107 0.00052894233 0.016409075 0.99872053 -0.031942099
499815094.33962 0.99901974 -0.033987999 0.00054832734 0.016547633 0.00056975149 0.016668428 0.99904454 -0.032521814
509811320.75472 0.99897361 -0.034321729 0.00058446126 0.016873213 0.00055289117 0.016987445 0.99917191 -0.033346217
519807547.16981 0.99893779 -0.034959704 0.00055692391 0.01718238 0.00059618242 0.017350674 0.9991011 -0.034037024
529803773.58491 0.99883741 -0.035552204 0.00061476044 0.017504036 0.00057653338 0.017707609 0.99894726 -0.0346407
539800000 0.99904317 -0.036218241 0.00061141606 0.017859984 0.00056661665 0.018043838 0.99880689 -0.035370186
549796226.41509 0.99882048 -0.037107527 0.00060114684 0.01820408 0.00065787369 0.018359378 0.99868804 -0.035792738
559792452.83019 0.998577 -0.037875354 0.00061939005 0.018541455 0.00068598241 0.018703721 0.99854755 -0.036245972
569788679.24528 0.99846369 -0.038527519 0.0007218793 0.018873498 0.00066064671 0.018985255 0.99867344 -0.037039936
579784905.66038 0.99848318 -0.039053842 0.00070582365 0.019223541 0.0007340482 0.019372266 0.99878913 -0.037817307
589781132.07547 0.99858266 -0.039777756 0.00077983644 0.019549511 0.00073256064 0.019717855 0.99900252 -0.038622111
599777358.49057 0.99867326 -0.040335566 0.00080971699 0.01986297 0.00076180231 0.020035623 0.99892497 -0.03943637
609773584.90566 0.99882871 -0.041155782 0.00081591471 0.020187508 0.00080743257 0.020381829 0.99880999 -0.040269043
619769811.32075 0.99892372 -0.041771978 0.00087114749 0.020531699 0.00088893855 0.020699261 0.99871397 -0.040766627
629766037.73585 0.99873072 -0.042460501 0.00087034609 0.020816781 0.00086192973 0.021027271 0.99856567 -0.041307569
639762264.15094 0.99855477 -0.043055534 0.00089560845 0.021157106 0.00092452229 0.021265903 0.99846089 -0.041751355
649758490.56604 0.99846876 -0.043729424 0.00091892993 0.021465188 0.0009061154 0.021637762 0.99851906 -0.042249724
659754716.98113 0.99832964 -0.044254899 0.00091832224 0.021749433 0.00091920514 0.02198354 0.99859244 -0.04281652
669750943.39623 0.9983449 -0.044718653 0.00095213391 0.022129457 0.00091637019 0.02238261 0.99868315 -0.043621123
679747169.81132 0.99830389 -0.045503706 0.00097214046 0.02247145 0.00097913912 0.022720797 0.99862766 -0.044537596
689743396.22642 0.99845678 -0.046248794 0.0010496341 0.022806479 0.001051113 0.023052018 0.99847615 -0.045468748
699739622.64151 0.998528 -0.047053933 0.0010624472 0.023141691 0.0010770727 0.023357486 0.99840665 -0.046117038
709735849.0566 0.99850798 -0.047952622 0.0011232937 0.023449542 0.0010962433 0.023648852 0.99811471 -0.046836764
719732075.4717 0.99846882 -0.048560739 0.0011474648 0.023780275 0.0011524339 0.023979938 0.99824142 -0.04745838
729728301.88679 0.99824965 -0.049133331 0.0011915648 0.024093781 0.0011424115 0.024310434 0.99832571 -0.047867954
739724528.30189 0.99824631 -0.049828008 0.0012141354 0.0244333 0.0012115086 0.024649806 0.99837148 -0.048593864
749720754.71698 0.99816006 -0.050346717 0.0012170058 0.024739241 0.0012116497 0.024959708 0.99840182 -0.049202621
759716981.13208 0.9982568 -0.050855398 0.0012556035 0.025067169 0.0012793234 0.025301663 0.9984085 -0.050016254
769713207.54717 0.99815875 -0.051573068 0.0012837835 0.025353709 0.0013051424 0.025616927 0.99812686 -0.05068931
779709433.96226 0.99828053 -0.052176129 0.001309756 0.025739513 0.0013121024 0.025929758 0.99786544 -0.051358521
789705660.37736 0.99809384 -0.053049266 0.0013842583 0.026044108 0.0013933172 0.026267458 0.99765468 -0.052102625
799701886.79245 0.99816477 -0.053811222 0.001392209 0.026343631 0.0014091078 0.026581623 0.99750841 -0.052621812
809698113.20755 0.99805909 -0.054444551 0.0014555026 0.026656272 0.0014345872 0.026895007 0.99756002 -0.053123191
819694339.62264 0.99787885 -0.055161446 0.0014710496 0.026987841 0.0014599874 0.027229846 0.99767983 -0.053680748
829690566.03774 0.99788964 -0.055721879 0.0014747288 0.027278785 0.0015063686 0.027589515 0.99790961 -0.054631203
839686792.45283 0.99796605 -0.056233853 0.0015137321 0.027607426 0.0015249802 0.027883081 0.99795413 -0.055375218
849683018.86792 0.99804902 -0.056765534 0.0015060396 0.027935782 0.0015329646 0.028227957 0.99781632 -0.056135349
859679245.28302 0.99805593 -0.057519943 0.0015409635 0.028304901 0.0015747584 0.028556775 0.99758351 -0.056777656
869675471.69811 0.99794972 -0.058276772 0.0016100276 0.0286061 0.0016356632 0.028887536 0.99722981 -0.057297617
879671698.11321 0.99788606 -0.058940608 0.0016535714 0.028889861 0.0016481411 0.029204469 0.99724936 -0.057681825
889667924.5283 0.99775279 -0.059714407 0.001691211 0.029212987 0.0016849143 0.029512379 0.99699998 -0.058205873
899664150.9434 0.99751318 -0.060479969 0.001704176 0.029532883 0.0017100191 0.029839873 0.99712443 -0.058801204
909660377.35849 0.99757832 -0.061240286 0.0017272276 0.029871169 0.0017407029 0.030180093 0.99728453 -0.059723556
919656603.77358 0.99763107 -0.061897039 0.0017608362 0.030201079 0.0017594956 0.03048294 0.99726647 -0.060555652
929652830.18868 0.99763888 -0.062563688 0.0017755581 0.030529419 0.0017895903 0.030814627 0.99715674 -0.061497122
939649056.60377 0.99779058 -0.063127041 0.0017742217 0.030814674 0.0017980402 0.031128131 0.99696243 -0.062114835
949645283.01887 0.99777937 -0.063958332 0.001793049 0.031162117 0.0018047295 0.031440813 0.99670041 -0.062650092
959641509.43396 0.99773061 -0.064681262 0.00182846 0.031540122 0.0018563019 0.031814538 0.99667072 -0.063210011
969637735.84906 0.99761134 -0.065437675 0.001891816 0.031854473 0.0019047437 0.032184675 0.99674046 -0.063562572
979633962.26415 0.99743664 -0.066152342 0.0019409989 0.032193366 0.001933367 0.032468297 0.99673951 -0.064150818
989630188.67925 0.9974739 -0.066651911 0.0019782493 0.032488979 0.0019737445 0.032817762 0.99694592 -0.06478563
999626415.09434 0.99748039 -0.067322344 0.0019765133 0.032792859 0.0020226315 0.033140965 0.99694175 -0.065562606
1009622641.5094 0.99751413 -0.067981869 0.0019938108 0.033155974 0.0020403406 0.033483475 0.9966644 -0.06640096
1019618867.9245 0.99760318 -0.068731502 0.0020711692 0.033506211 0.0021290481 0.033820912 0.99645585 -0.0672061
1029615094.3396 0.99761331 -0.069738686 0.0021231398 0.03376697 0.0021835249 0.03408765 0.99610996 -0.067853659
1039611320.7547 0.99764025 -0.070531696 0.0021519344 0.034092344 0.0021807943 0.034411285 0.99608481 -0.068453044
1049607547.1698 0.99744427 -0.07149227 0.0021616276 0.034403749 0.0022260181 0.034706008 0.99606317 -0.069073543
1059603773.5849 0.99736911 -0.072134078 0.0022259932 0.034706932 0.0022676531 0.035034936 0.99605519 -0.069564313
1069600000 0.99711627 -0.072853267 0.0022372333 0.035018381 0.0022980236 0.035360388 0.9961639 -0.070337236
1079596226.4151 0.9971053 -0.073469907 0.0022345278 0.035341237 0.0023080911 0.035681274 0.99620175 -0.071135841
1089592452.8302 0.99714649 -0.074088544 0.0022756085 0.035665128 0.0023239311 0.036006268 0.99611866 -0.071818262
1099588679.2453 0.99715805 -0.074726164 0.0022787768 0.035999425 0.0023246109 0.03635864 0.99585837 -0.072416812
1109584905.6604 0.99724174 -0.075622126 0.0023110127 0.036347777 0.0023787525 0.036686189 0.99560046 -0.073048219
1119581132.0755 0.99723011 -0.076479018 0.0023031523 0.036665343 0.0024015293 0.037035681 0.99532843 -0.073416144
1129577358.4906 0.99703908 -0.077289701 0.0023568477 0.0370389 0.0024296176 0.037404191 0.9952507 -0.073876083
1139573584.9057 0.99679971 -0.078175604 0.0023707971 0.037356853 0.0024728058 0.037725274 0.99534833 -0.074534774
1149569811.3208 0.99672496 -0.079088345 0.0024434072 0.0376634 0.0025213282 0.038053766 0.99541992 -0.075258583
1159566037.7358 0.99649501 -0.079719514 0.0025098519 0.037988983 0.0025845496 0.038372982 0.99560332 -0.076297283
1169562264.1509 0.99633068 -0.080366254 0.0024817418 0.038298778 0.0025977325 0.038683999 0.99546373 -0.077066779
1179558490.566 0.99628186 -0.081171222 0.0025147018 0.038664624 0.0026176542 0.03908594 0.99526495 -0.077752635
1189554716.9811 0.99632704 -0.081832498 0.0025764043 0.039002519 0.0026859026 0.039405398 0.99502605 -0.078267902
1199550943.3962 0.99621272 -0.08271271 0.0026094355 0.039373703 0.0027347282 0.039719153 0.99480987 -0.078731447
1209547169.8113 0.99608952 -0.083539754 0.0026680836 0.039694 0.0027649952 0.040042359 0.99475497 -0.079057902
1219543396.2264 0.99593341 -0.084375665 0.0026662676 0.040054802 0.0028020479 0.040413082 0.99480832 -0.079471394
1229539622.6415 0.99562699 -0.08519721 0.002765201 0.040373694 0.0028716959 0.040757369 0.99500281 -0.080187917
1239535849.0566 0.99542195 -0.085870892 0.0028072055 0.040711433 0.0029381486 0.041048292 0.99508625 -0.081057221
1249532075.4717 0.99507302 -0.086539 0.0028641464 0.041021612 0.0030197487 0.041395191 0.99491858 -0.081863187
1259528301.8868 0.99480641 -0.08704403 0.0029188469 0.041347891 0.0030967575 0.041670844 0.99463272 -0.082708269
1269524528.3019 0.99472022 -0.087780237 0.0029583927 0.041654196 0.0031461734 0.041984841 0.99444437 -0.083433926
1279520754.717 0.99434936 -0.088544175 0.0030010145 0.041923389 0.0031763823 0.042284824 0.9941563 -0.083953515
1289516981.1321 0.99415636 -0.089282483 0.0030551227 0.042262368 0.0031765364 0.042565398 0.99424052 -0.084359169
1299513207.5472 0.99386775 -0.090193927 0.0030664019 0.042548321 0.0031999461 0.042873893 0.99437153 -0.084771752
1309509433.9623 0.99346209 -0.090873986 0.0030708527 0.042857725 0.0032184608 0.04316828 0.9944464 -0.085527733
1319505660.3774 0.99306417 -0.091628164 0.0030680317 0.043185618 0.0032399427 0.043512315 0.99447608 -0.086141944
1329501886.7925 0.99279195 -0.092276275 0.0031280257 0.043512024 0.003224276 0.043849513 0.99446487 -0.087184846
1339498113.2075 0.99251258 -0.092777669 0.0031436412 0.043805927 0.0033046147 0.044128418 0.99412042 -0.087826639
1349494339.6226 0.9923051 -0.093226716 0.0031031324 0.044137035 0.0031952527 0.044494193 0.99379081 -0.088433258
1359490566.0377 0.99224091 -0.093908668 0.003101971 0.044506311 0.0032811519 0.044851519 0.99352282 -0.088957071
1369486792.4528 0.99203855 -0.094442874 0.0031315917 0.044891197 0.0032933988 0.045180686 0.99334866 -0.089322209
1379483018.8679 0.99167931 -0.094984755 0.0031763702 0.045252807 0.0032790625 0.045539916 0.99342495 -0.089686573
1389479245.283 0.99134046 -0.09553057 0.0032200571 0.045620717 0.003340967 0.045913607 0.99330705 -0.090429395
1399475471.6981 0.9909426 -0.095883697 0.0032149591 0.045977134 0.0033402164 0.046294674 0.99353075 -0.091111869
1409471698.1132 0.99066561 -0.096246414 0.0032323 0.046340808 0.0033787198 0.046675347 0.99359494 -0.091885105
1419467924.5283 0.99043328 -0.096628249 0.0032718349 0.046738908 0.0033690659 0.047014695 0.99337226 -0.092683703
1429464150.9434 0.99028122 -0.09701854 0.0033097696 0.047131024 0.0034615956 0.047465317 0.9932065 -0.093169183
1439460377.3585 0.9904713 -0.097511247 0.0034240503 0.047551792 0.0034862291 0.047856797 0.99307001 -0.093440711
1449456603.7736 0.99050933 -0.098043054 0.0035102488 0.047968801 0.0035745287 0.048235387 0.99296707 -0.093826815
1459452830.1887 0.9905467 -0.098737597 0.0036685895 0.048364155 0.0036864374 0.048663333 0.99307311 -0.094237775
1469449056.6038 0.99053299 -0.09934321 0.0037950501 0.048698466 0.0038784351 0.049014933 0.99328136 -0.094867736
1479445283.0189 0.99040222 -0.099990293 0.0039585307 0.048975572 0.0039870031 0.049302004 0.99330765 -0.095721871
1489441509.434 0.99026811 -0.10059294 0.0040642973 0.049259502 0.0040923413 0.049618661 0.9931736 -0.096530527
1499437735.8491 0.99016553 -0.10087022 0.004158983 0.049568623 0.0042326637 0.049915809 0.99309945 -0.097417921
1509433962.2642 0.99017513 -0.10133731 0.0042660553 0.049827363 0.0043077283 0.050190452 0.99292934 -0.098093033
1519430188.6792 0.99020004 -0.10180679 0.0043344498 0.050129995 0.0043419711 0.050440531 0.99279004 -0.098622561
1529426415.0943 0.99017334 -0.1025382 0.0043738745 0.050393507 0.0043884609 0.050734483 0.99265063 -0.099051625
1539422641.5094 0.9902072 -0.10336377 0.0044239094 0.050709389 0.0045001493 0.051073458 0.99279177 -0.099544287
1549418867.9245 0.99009883 -0.10416232 0.0045187576 0.050945282 0.0045022257 0.051340304 0.99307013 -0.10028495
1559415094.3396 0.98994708 -0.10481247 0.0044954158 0.051272556 0.0045269504 0.051614389 0.99315828 -0.10099643
1569411320.7547 0.98978251 -0.10559949 0.0045586228 0.051535323 0.0046368092 0.051960416 0.99310172 -0.10172661
1579407547.1698 0.98968428 -0.10602942 0.0046034865 0.051826317 0.0046609505 0.052225422 0.99280697 -0.1025902
1589403773.5849 0.98961985 -0.10668352 0.0046019442 0.052132081 0.004609311 0.052493181 0.99251902 -0.10332894
1599400000 0.98967588 -0.10702008 0.0045921961 0.052416284 0.0046142433 0.052813753 0.99208397 -0.10368386
1609396226.4151 0.98964792 -0.10769926 0.0045862151 0.052771561 0.0045928992 0.053095326 0.99191099 -0.10426632
1619392452.8302 0.98961705 -0.10838404 0.0045993701 0.053066671 0.0046049468 0.053465568 0.99190569 -0.10462838
1629388679.2453 0.98937798 -0.1090185 0.0046340935 0.053444378 0.0046114232 0.053842522 0.99223518 -0.1052399
1639384905.6604 0.98917806 -0.10972951 0.0045881253 0.053766258 0.0045945835 0.054203648 0.99241298 -0.1060871
1649381132.0755 0.98897934 -0.11036018 0.0046312101 0.054109383 0.0046594571 0.054582026 0.99240804 -0.10695493
1659377358.4906 0.98877954 -0.11115959 0.0046481565 0.054508563 0.0046746209 0.054936424 0.99234194 -0.1078406
1669373584.9057 0.98870564 -0.11161534 0.0046752482 0.054865099 0.0046743904 0.055347394 0.99208665 -0.10848767
1679369811.3208 0.98882812 -0.11233869 0.0047141602 0.055247445 0.0047576511 0.055703998 0.99175918 -0.10900724
1689366037.7358 0.98875755 -0.11299491 0.004764691 0.05561991 0.0047731157 0.056051854 0.99168324 -0.10941315
1699362264.1509 0.98892862 -0.11346497 0.0048593162 0.055988289 0.0048200972 0.056457397 0.99195147 -0.10976446
1709358490.566 0.98876643 -0.11409411 0.0049046641 0.056344695 0.0048841778 0.056877058 0.99187589 -0.11029726
1719354716.9811 0.98849034 -0.11473984 0.0049203895 0.05672159 0.0049778912 0.057196409 0.99185777 -0.11102822
1729350943.3962 0.98822117 -0.11533058 0.0049771983 0.057094596 0.0050443336 0.057632912 0.99198169 -0.11192781
