!Keysight Technologies,N5222B,MY61253708,A.15.00.15
!Date: Wednesday, June 19, 2024 08:43:41
!Correction: S11(C  2-Port  ) 
!S21(C  2-Port  ) 
!S12(C  2-Port  ) 
!S22(C  2-Port  ) 
!S2P File: Measurements: S11, S21, S12, S22:
# Hz S  RI   R 50
10000000 0.99843591 -0.0024845004 -5.0070623e-005 0.00046828698 0.00018253157 0.00047967944 0.99840868 -0.0010225773
19996226.415094 0.9991231 -0.0020895004 -2.9729534e-005 0.00089976285 0.0001723773 0.00069589831 0.99933982 -0.0022905469
29992452.830189 0.99982768 -0.0026982725 2.0311854e-006 0.0012144072 -4.2219617e-005 0.0012192248 0.99944407 -0.002941519
39988679.245283 1.0001001 -0.0033660233 -5.3584372e-006 0.0016897916 6.6964756e-005 0.0016263106 0.99965382 -0.0034493059
49984905.660377 1.0001191 -0.00421983 -1.9463478e-005 0.0020645373 4.7283771e-005 0.0020490747 0.99975866 -0.0041154623
59981132.075472 1.0003285 -0.0050790012 -2.8079492e-005 0.0024759709 -2.3648376e-005 0.002506701 0.99972922 -0.0046138763
69977358.490566 0.99993247 -0.005651718 -4.2592001e-006 0.0028814711 2.2803586e-005 0.0028735939 0.99959308 -0.005229203
79973584.90566 0.99979687 -0.0062654912 4.7458219e-005 0.0032860965 -1.8277322e-005 0.0033044682 0.99932736 -0.0058029294
89969811.320755 0.99979627 -0.0066252053 4.1190418e-005 0.003710113 -1.039065e-005 0.003681025 0.9994148 -0.0062718391
99966037.735849 0.99997944 -0.0074225813 3.8020895e-005 0.0041247718 2.4829933e-005 0.0040830965 0.99949366 -0.0070919842
109962264.15094 1.0000212 -0.0083724111 7.7076431e-005 0.0044991681 5.859253e-005 0.0045242766 0.99952328 -0.0079945177
119958490.56604 1.0000794 -0.0094778836 3.6967685e-005 0.0049257954 3.4085708e-005 0.004910361 0.99954039 -0.0089607239
129954716.98113 1.0000175 -0.010599673 8.4316358e-005 0.0053299861 6.6090841e-005 0.0053292699 0.9995414 -0.009994626
139950943.39623 0.99990553 -0.0115427 7.9893216e-005 0.0057229484 8.1641017e-005 0.0057431357 0.99940884 -0.010831688
149947169.81132 0.99974775 -0.012281209 8.0632977e-005 0.0061514196 7.9442514e-005 0.0061518466 0.99938715 -0.011480808
159943396.22642 0.99973863 -0.012806982 9.1130612e-005 0.0065598278 8.6666085e-005 0.0065561966 0.99948025 -0.012006283
169939622.64151 0.99977458 -0.013221189 0.00010763307 0.0069682109 0.00011432491 0.0069577615 0.99957871 -0.012482151
179935849.0566 0.99974656 -0.013598859 0.00010210113 0.0073793735 0.00012341514 0.0073771379 0.99947232 -0.012953788
189932075.4717 0.99989605 -0.01440075 0.00015283749 0.0078008412 0.00011473871 0.0078106765 0.99963403 -0.013671041
199928301.88679 0.99992317 -0.015409529 0.00015481468 0.0082032923 0.00014863675 0.0082017761 0.99956656 -0.014585376
209924528.30189 0.99967545 -0.016193822 0.00015187869 0.0086133704 0.00016374746 0.00860528 0.99932504 -0.015448064
219920754.71698 0.99953389 -0.017183393 0.00024481071 0.0090030758 0.00022114394 0.0089908503 0.99909407 -0.016261578
229916981.13208 0.99924099 -0.018140644 0.00018024747 0.0094042951 0.00018827524 0.0093858726 0.99895257 -0.017107666
239913207.54717 0.99912518 -0.018846994 0.00022226432 0.009823503 0.0002152769 0.009811732 0.99896425 -0.017854199
249909433.96226 0.99918234 -0.019548059 0.00022557192 0.010208458 0.00021964428 0.010221599 0.99914992 -0.018534184
259905660.37736 0.99940288 -0.020102054 0.00026501901 0.010589467 0.00024168566 0.010613332 0.9992758 -0.019193679
269901886.79245 0.99949539 -0.020840377 0.00027705473 0.011089077 0.00025167363 0.01103933 0.99962986 -0.019942224
279898113.20755 0.99958938 -0.021636441 0.00028885156 0.011406196 0.00028582127 0.011417451 0.9994998 -0.020744041
289894339.62264 0.99962819 -0.022474259 0.00029209815 0.011887718 0.00030174758 0.011845951 0.99943197 -0.021677256
299890566.03774 0.99943358 -0.023108125 0.00029514683 0.012242883 0.00029452913 0.012309492 0.99912608 -0.022162527
309886792.45283 0.99911112 -0.023852296 0.0003137145 0.012673257 0.00038144016 0.012697743 0.99899954 -0.022709697
319883018.86792 0.99899685 -0.024562985 0.00036471616 0.01305666 0.00036241766 0.013070123 0.99897492 -0.023299932
329879245.28302 0.99897087 -0.025107861 0.000432509 0.013518681 0.00035618059 0.013515593 0.99907935 -0.024022758
339875471.69811 0.99887967 -0.025923051 0.00042782596 0.013955805 0.00036703737 0.013908 0.99906653 -0.024886511
349871698.11321 0.99912703 -0.027021021 0.00043586735 0.014310082 0.00042230915 0.014315412 0.99910861 -0.02592364
359867924.5283 0.99909395 -0.027858049 0.00044171838 0.014695875 0.00048770336 0.014744804 0.99905759 -0.026989341
369864150.9434 0.99925393 -0.028704405 0.00045557204 0.015091219 0.00043422775 0.015134307 0.99906677 -0.027764887
379860377.35849 0.99912149 -0.029514208 0.00052326266 0.015523894 0.00047730375 0.015510581 0.99891853 -0.028553754
389856603.77358 0.99896908 -0.030222654 0.00050159823 0.015944049 0.00051628985 0.015943952 0.9988848 -0.02907747
399852830.18868 0.99879777 -0.030838072 0.00054295082 0.01633215 0.00054389238 0.016319593 0.9990018 -0.029525697
409849056.60377 0.99883229 -0.031336822 0.00058282196 0.016746275 0.00057549408 0.016764654 0.99897206 -0.030083863
419845283.01887 0.99877656 -0.0319435 0.00061727082 0.017100245 0.00061921729 0.017132267 0.99900699 -0.030759186
429841509.43396 0.99870396 -0.032565236 0.0006288616 0.017559014 0.000689785 0.017543074 0.99914932 -0.031567931
439837735.84906 0.99865329 -0.033616602 0.00075731962 0.017965253 0.0007160157 0.017990591 0.99892282 -0.032611772
449833962.26415 0.99866557 -0.034483254 0.00074648997 0.018276297 0.00071946671 0.018314751 0.99854434 -0.033561468
459830188.67925 0.99863803 -0.035328835 0.00074034929 0.018754385 0.00069575105 0.01871212 0.99846506 -0.034331053
469826415.09434 0.99855512 -0.036322951 0.00077083334 0.019167384 0.00075560529 0.019172383 0.99816787 -0.035079956
479822641.50943 0.99832034 -0.036975332 0.00077335536 0.019568246 0.00077331648 0.019578874 0.99824059 -0.035558842
489818867.92453 0.99850941 -0.037562639 0.00080431439 0.019996736 0.00079495646 0.020003183 0.99857736 -0.036199927
499815094.33962 0.99857289 -0.03823331 0.0008422602 0.020367844 0.00086813979 0.020348582 0.99883944 -0.036844343
509811320.75472 0.99879682 -0.038698267 0.00091817998 0.020809133 0.00087807584 0.020740053 0.99901599 -0.037798524
519807547.16981 0.99864995 -0.03930679 0.00091187842 0.021192096 0.00093744695 0.021175828 0.9989959 -0.038647145
529803773.58491 0.99855542 -0.040065885 0.00093181524 0.021571334 0.00092826504 0.021586632 0.99861604 -0.039344043
539800000 0.99851948 -0.040831238 0.001019256 0.022028526 0.00093225855 0.021988979 0.99843568 -0.040126935
549796226.41509 0.99827468 -0.041856527 0.00099983811 0.022432603 0.00099982973 0.022434117 0.99820286 -0.040726572
559792452.83019 0.99803048 -0.042675018 0.0010965336 0.022825504 0.0010213833 0.022827204 0.99801672 -0.041240484
569788679.24528 0.99787545 -0.043440461 0.0011068955 0.02326306 0.0010754974 0.023255371 0.99816811 -0.042060047
579784905.66038 0.99783921 -0.044081539 0.0011154851 0.023652509 0.0011291082 0.023655064 0.99833453 -0.042842224
589781132.07547 0.99802804 -0.044746161 0.0011650054 0.024069494 0.0011439798 0.024076603 0.99848282 -0.04382363
599777358.49057 0.99813765 -0.045487374 0.001266052 0.024482835 0.0012313593 0.024500277 0.99849123 -0.044784218
609773584.90566 0.99827898 -0.046352394 0.0012697431 0.024900785 0.0013330205 0.024903031 0.99824363 -0.045720384
619769811.32075 0.99834186 -0.047166765 0.0013836669 0.02526441 0.001377916 0.025290623 0.99808395 -0.046309501
629766037.73585 0.99811053 -0.047777176 0.0014365511 0.025634063 0.0014231633 0.025598027 0.99790424 -0.046805054
639762264.15094 0.99788636 -0.048469469 0.0014038943 0.025978977 0.0013915687 0.025953719 0.99776632 -0.047333404
649758490.56604 0.99760908 -0.049177766 0.0014525917 0.026353359 0.0014497698 0.02640529 0.99794459 -0.047787577
659754716.98113 0.99747825 -0.049687445 0.00142687 0.02676281 0.0014435351 0.02681116 0.99792123 -0.048448443
669750943.39623 0.99748808 -0.050358534 0.0014692014 0.027226122 0.001463105 0.027239608 0.99797302 -0.049356401
679747169.81132 0.99751496 -0.051155902 0.0015530816 0.027649475 0.0015095436 0.027648252 0.99790061 -0.050446704
689743396.22642 0.99771821 -0.052146345 0.0015868768 0.028062744 0.0015812302 0.028062338 0.99767441 -0.051445574
699739622.64151 0.99786973 -0.053023458 0.0016472265 0.028443113 0.001658923 0.028472517 0.99761283 -0.052218288
709735849.0566 0.99790555 -0.053914599 0.0017059101 0.028826084 0.0016746351 0.028861124 0.99734706 -0.052970596
719732075.4717 0.99762917 -0.054767609 0.0017926181 0.02923793 0.0017322879 0.029194806 0.9974308 -0.053551316
729728301.88679 0.9974339 -0.055389941 0.0018043248 0.029605387 0.0017760908 0.029673183 0.99747878 -0.054031104
739724528.30189 0.99730724 -0.056061119 0.0018490888 0.030023418 0.0018298733 0.030035473 0.99769396 -0.054745853
749720754.71698 0.99721813 -0.056635991 0.0019218107 0.030390173 0.0018843263 0.030451624 0.99767059 -0.055627987
759716981.13208 0.99734563 -0.057189167 0.0019688234 0.030813325 0.0019306177 0.030829821 0.99760741 -0.056443304
769713207.54717 0.99716675 -0.057953537 0.0019804155 0.031206455 0.0019623963 0.031222507 0.99732137 -0.057203263
779709433.96226 0.99739993 -0.058814853 0.0020546066 0.031592537 0.0020841479 0.031617504 0.99702024 -0.057915937
789705660.37736 0.99727762 -0.059778064 0.0021222057 0.031982169 0.0020935787 0.031994723 0.99671412 -0.058738738
799701886.79245 0.99723089 -0.060721606 0.0021336731 0.032388434 0.0021063387 0.032397967 0.99668205 -0.059354275
809698113.20755 0.99714196 -0.061353952 0.0021861712 0.032736856 0.0021477817 0.032765124 0.99669248 -0.059889883
819694339.62264 0.99690056 -0.062093839 0.0022028433 0.033134215 0.0021718433 0.033179611 0.9968583 -0.060602948
829690566.03774 0.99694657 -0.062720478 0.0022659246 0.033540875 0.002228789 0.03359852 0.99711823 -0.061561942
839686792.45283 0.99703085 -0.063228399 0.0023075296 0.033936247 0.0022807298 0.03399175 0.99716902 -0.062515765
849683018.86792 0.99709916 -0.063986905 0.0023519169 0.034378588 0.0023402197 0.034389824 0.99701637 -0.063351385
859679245.28302 0.99706447 -0.064767778 0.0024108095 0.034776587 0.0023739459 0.034787323 0.99664038 -0.064030588
869675471.69811 0.99697375 -0.065592527 0.0024768831 0.035183989 0.0024663312 0.035179295 0.99633372 -0.064598501
879671698.11321 0.99682277 -0.066368148 0.0025484315 0.035559896 0.0025006924 0.03557466 0.99632037 -0.065155692
889667924.5283 0.99654508 -0.067316741 0.0026041307 0.035926353 0.0025819326 0.035995774 0.99613082 -0.065714389
899664150.9434 0.99626189 -0.068118274 0.0026293378 0.036350042 0.0026284438 0.036415659 0.99614954 -0.066460729
909660377.35849 0.9962455 -0.068912506 0.0027235281 0.036744479 0.0026927902 0.036736071 0.99627352 -0.067410156
919656603.77358 0.99636108 -0.069540098 0.0027905134 0.037092634 0.0026967833 0.037128743 0.99621755 -0.068430439
929652830.18868 0.99639535 -0.070319325 0.0028004125 0.037450098 0.002764089 0.037518702 0.99608755 -0.069395512
939649056.60377 0.99659455 -0.071130008 0.0027949354 0.037828084 0.0027847756 0.037875023 0.99593294 -0.070142269
949645283.01887 0.9964776 -0.072043628 0.002804416 0.038201127 0.0028026067 0.038307719 0.99562889 -0.07070826
959641509.43396 0.99640405 -0.072849184 0.0028441995 0.038656201 0.0028519863 0.038752586 0.99558055 -0.071267903
969637735.84906 0.99625534 -0.073527068 0.0029266812 0.039081283 0.0029143747 0.039120726 0.9956398 -0.071681678
979633962.26415 0.99612123 -0.074320436 0.0029931949 0.039468147 0.002982242 0.039509125 0.99560982 -0.072386332
989630188.67925 0.99608284 -0.074919164 0.0030785361 0.039866023 0.0030298596 0.039987501 0.99579531 -0.073094815
999626415.09434 0.99617285 -0.075655967 0.0030915365 0.040264338 0.0031065978 0.040355466 0.99563003 -0.074099392
1009622641.5094 0.9961102 -0.076375529 0.003148648 0.040702634 0.0031611091 0.040781666 0.99544388 -0.074986175
1019618867.9245 0.99614227 -0.07734707 0.0032134173 0.041104034 0.0032500364 0.041174453 0.99515897 -0.075964734
1029615094.3396 0.99619693 -0.078374207 0.0033091884 0.041510541 0.0033020452 0.041550711 0.99472117 -0.076569051
1039611320.7547 0.99618256 -0.079348505 0.0033627059 0.041874476 0.0033772429 0.041925516 0.99468869 -0.077362448
1049607547.1698 0.99597108 -0.08038266 0.0034587982 0.042253803 0.0034110015 0.042302076 0.99470824 -0.078000247
1059603773.5849 0.99577606 -0.081054896 0.0034824824 0.042597137 0.0034827832 0.042682894 0.99461025 -0.078689992
1069600000 0.99552155 -0.081736714 0.0035050455 0.042991869 0.0035200268 0.043102786 0.99479759 -0.079424024
1079596226.4151 0.99549139 -0.08247178 0.003561995 0.043356702 0.0035890113 0.0434746 0.99474472 -0.08022669
1089592452.8302 0.99540597 -0.083006799 0.0036277324 0.04374969 0.0036108084 0.043854959 0.99466509 -0.080976158
1099588679.2453 0.9954747 -0.083856702 0.003624877 0.044125684 0.003660135 0.04422811 0.99423891 -0.081703901
1109584905.6604 0.99558139 -0.084772766 0.0036630481 0.044549193 0.0036824225 0.044660926 0.99400038 -0.082346737
1119581132.0755 0.9955076 -0.085883588 0.0037301276 0.04500857 0.0037289788 0.04503284 0.99369764 -0.08274705
1129577358.4906 0.99529147 -0.08675763 0.0037787929 0.045425393 0.0038283728 0.045512807 0.99366683 -0.083349705
1139573584.9057 0.99506688 -0.087790489 0.0038473532 0.045799699 0.0038998015 0.04585623 0.9937073 -0.084082425
1149569811.3208 0.99491167 -0.088706508 0.0039573372 0.046192277 0.0039627869 0.046293519 0.99386781 -0.084989719
1159566037.7358 0.99457639 -0.089395493 0.0039951429 0.0465662 0.0040202755 0.046689101 0.99390119 -0.086067826
1169562264.1509 0.99439657 -0.090052515 0.0040077418 0.046947714 0.0040619206 0.04704839 0.99373674 -0.086960316
1179558490.566 0.99430895 -0.09090361 0.0040440606 0.04737835 0.0041299011 0.047469519 0.99351877 -0.087694392
1189554716.9811 0.99438113 -0.091640979 0.0040871603 0.047775604 0.0042079147 0.047887236 0.99317747 -0.088229865
1199550943.3962 0.99431145 -0.092501789 0.0041402467 0.048219826 0.0042783152 0.048274726 0.9929589 -0.088696927
1209547169.8113 0.99411166 -0.093525454 0.0042458475 0.048601344 0.0043257866 0.048662823 0.9929406 -0.089053407
1219543396.2264 0.99385756 -0.094433665 0.0043250252 0.049050447 0.0043787509 0.049123563 0.99295962 -0.089547284
1229539622.6415 0.99356961 -0.095347553 0.0044207331 0.049442202 0.004486898 0.049499832 0.99310517 -0.090360999
1239535849.0566 0.99321818 -0.096114665 0.0044919029 0.049811862 0.004602218 0.049921744 0.99318129 -0.0914011
1249532075.4717 0.99290812 -0.096865386 0.004571218 0.050224639 0.0046869209 0.050249342 0.99295157 -0.092362702
1259528301.8868 0.99268091 -0.09748286 0.0046148021 0.050595045 0.0047580861 0.050632276 0.99271303 -0.093276292
1269524528.3019 0.99259394 -0.098264158 0.0047177691 0.050982799 0.0048301592 0.051024288 0.99240202 -0.094026029
1279520754.717 0.99216491 -0.099069417 0.004826156 0.051360264 0.0049213194 0.051324055 0.99218804 -0.094651155
1289516981.1321 0.99194467 -0.099956214 0.0048328377 0.051700838 0.0049665943 0.051712975 0.9921754 -0.095085889
1299513207.5472 0.99157202 -0.10080972 0.0048904791 0.052108519 0.0050071143 0.052071437 0.99227679 -0.095538378
1309509433.9623 0.99106574 -0.10160527 0.0049049063 0.052462842 0.0050341599 0.052432217 0.99235535 -0.096323743
1319505660.3774 0.99070191 -0.10238102 0.004940724 0.052881777 0.0050271433 0.052847411 0.99233174 -0.097073272
1329501886.7925 0.99031705 -0.10311416 0.0050178468 0.053266365 0.0051228721 0.053261898 0.99230909 -0.09814164
1339498113.2075 0.99003911 -0.1036495 0.0050608963 0.053653374 0.005138074 0.053634644 0.9919157 -0.098855585
1349494339.6226 0.98983264 -0.10436312 0.0050715283 0.05406519 0.0051400247 0.05401063 0.99154669 -0.099527456
1359490566.0377 0.98974431 -0.10502356 0.0050898958 0.054494992 0.0052175783 0.054460816 0.99122798 -0.10017842
1369486792.4528 0.98949718 -0.10576764 0.0051295925 0.054917514 0.0052321777 0.054855101 0.99104398 -0.10065627
1379483018.8679 0.98915213 -0.10629517 0.0051927371 0.055358846 0.0052719489 0.055265944 0.99103242 -0.10110281
1389479245.283 0.98878658 -0.10687694 0.0052922741 0.055836998 0.0053033624 0.055712111 0.99095201 -0.10187072
1399475471.6981 0.98825681 -0.10737279 0.0052909125 0.056238905 0.0053540766 0.056146674 0.9911229 -0.10263833
1409471698.1132 0.98794198 -0.10766791 0.0054016002 0.056652021 0.005401161 0.056617659 0.99112523 -0.10354479
1419467924.5283 0.98775983 -0.10802317 0.0054254476 0.057088897 0.0054644849 0.057035506 0.99088544 -0.10426247
1429464150.9434 0.98756295 -0.10859028 0.0054610614 0.057559237 0.0055328943 0.057497568 0.99073654 -0.10487846
1439460377.3585 0.98773485 -0.10906239 0.0056311367 0.058074735 0.0055965157 0.057984751 0.99049813 -0.10517263
1449456603.7736 0.98772657 -0.10968378 0.0057259677 0.058552418 0.0057389643 0.058492605 0.99042338 -0.10562557
1459452830.1887 0.9877761 -0.11051935 0.0058926959 0.059024025 0.0058655441 0.058929637 0.99041903 -0.105988
1469449056.6038 0.98770475 -0.11139393 0.0061038435 0.059430677 0.006074816 0.059330337 0.99064302 -0.10677037
1479445283.0189 0.98754096 -0.11209074 0.0062339213 0.059771366 0.0061969333 0.059735671 0.99066961 -0.10785073
1489441509.434 0.98736823 -0.11257011 0.0064155981 0.06010269 0.0063569117 0.060091987 0.99052507 -0.10879749
1499437735.8491 0.98722613 -0.11294925 0.006549567 0.060473733 0.0065180119 0.060398906 0.99039632 -0.10970834
1509433962.2642 0.98720878 -0.11356291 0.006669763 0.06082803 0.0065742228 0.060766634 0.99009824 -0.11042903
1519430188.6792 0.98722243 -0.11410487 0.0067191999 0.061155461 0.0067001861 0.061076004 0.98998928 -0.11103046
1529426415.0943 0.98716176 -0.1147829 0.0068331957 0.061510608 0.006760167 0.061445884 0.98980552 -0.11147457
1539422641.5094 0.98724788 -0.11567981 0.0068836617 0.061843749 0.0068019372 0.061853409 0.99007732 -0.11196122
1549418867.9245 0.98695511 -0.11663982 0.006990023 0.06217033 0.0068554822 0.062224865 0.99026346 -0.11280994
1559415094.3396 0.98685378 -0.11745417 0.0070647411 0.062571801 0.0069713965 0.062550493 0.99027455 -0.11350748
1569411320.7547 0.98664343 -0.11823823 0.0071284324 0.062878102 0.007026365 0.062853053 0.99016178 -0.1144027
1579407547.1698 0.98656923 -0.11882018 0.0071767708 0.063208267 0.0070970152 0.0632765 0.98968589 -0.11539809
1589403773.5849 0.9864676 -0.11950666 0.0072354861 0.06361714 0.0071342345 0.063605875 0.98944843 -0.11610523
1599400000 0.98638773 -0.11995634 0.0072068553 0.063981563 0.0071374867 0.063983195 0.98904961 -0.1166923
1609396226.4151 0.98632586 -0.12066967 0.0072686132 0.064369902 0.0071683805 0.064385377 0.98891413 -0.11725643
1619392452.8302 0.98639655 -0.12135065 0.0072818361 0.064810991 0.007162055 0.064830348 0.98881423 -0.11775702
1629388679.2453 0.98613113 -0.12216628 0.0073412936 0.065206416 0.0071881469 0.06523338 0.98909003 -0.11834511
1639384905.6604 0.98583901 -0.12288877 0.0073625161 0.065616705 0.0072156936 0.065706588 0.98922724 -0.11924212
1649381132.0755 0.98553801 -0.12362295 0.0074086431 0.066048212 0.0073304735 0.066096023 0.98917252 -0.12034786
1659377358.4906 0.98533285 -0.1244863 0.0074688382 0.066509128 0.007418396 0.066555321 0.98909837 -0.12126598
1669373584.9057 0.98516393 -0.12505421 0.0075341035 0.066931948 0.0074759433 0.067028001 0.98870707 -0.12192519
1679369811.3208 0.9852711 -0.12572458 0.0076442882 0.067459792 0.0075138733 0.06748689 0.98844433 -0.12259032
1689366037.7358 0.98528898 -0.12646291 0.0077627022 0.067896888 0.0076347366 0.067933463 0.98822868 -0.12298757
1699362264.1509 0.98535222 -0.12713963 0.0078454521 0.068270929 0.0076984819 0.06838993 0.98838592 -0.12330343
1709358490.566 0.98520899 -0.12789857 0.0079366667 0.068741292 0.0077963155 0.068855628 0.98844689 -0.12410054
1719354716.9811 0.98482126 -0.1285578 0.0080505237 0.069176421 0.0079259276 0.069259532 0.98841155 -0.12481982
1729350943.3962 0.98443025 -0.12920445 0.0081714652 0.069565386 0.0080729946 0.069714449 0.98839259 -0.12586764
