!Keysight Technologies,N5222B,MY61253708,A.15.00.15
!Date: Wednesday, June 19, 2024 10:24:44
!Correction: S11(C  2-Port  ) 
!S21(C  2-Port  ) 
!S12(C  2-Port  ) 
!S22(C  2-Port  ) 
!S2P File: Measurements: S11, S21, S12, S22:
# Hz S  RI   R 50
10000000 0.99861956 -0.0031732023 0.00022070153 0.00021193376 4.5816509e-005 0.00032808346 0.9985432 -0.0013988018
19996226.415094 0.99987894 -0.0024932027 9.0137764e-005 0.00057277834 4.275376e-005 0.0005971418 1.0002087 -0.0024084747
29992452.830189 0.99962926 -0.0024684966 4.2796863e-005 0.00096661662 2.0525156e-005 0.00095068762 0.99949944 -0.0027076602
39988679.245283 1.000036 -0.0029922873 -1.4482153e-005 0.0013010093 4.0900049e-006 0.0013218473 0.99977565 -0.0031190068
49984905.660377 1.0001597 -0.0037027895 -7.7434292e-005 0.001587518 -8.1892358e-007 0.0016441203 0.99997574 -0.0036104023
59981132.075472 1.0004375 -0.0044662356 -2.5563699e-005 0.0019229543 -2.8552255e-005 0.0019405631 0.99994278 -0.0040957332
69977358.490566 1.0001835 -0.0050262399 -2.2039869e-005 0.0022827354 1.02831e-005 0.0022995269 0.99983269 -0.0046580229
79973584.90566 0.9999088 -0.0056507587 -3.6536949e-006 0.0026218412 3.6549987e-005 0.0025853522 0.9994092 -0.0051065683
89969811.320755 0.99989218 -0.0056913495 -1.2215227e-005 0.00292686 2.1936721e-005 0.0029307052 0.99966359 -0.0053007305
99966037.735849 1.000126 -0.0064588189 -1.9259052e-005 0.0032627722 2.3948727e-005 0.003248096 0.99976254 -0.0060597956
109962264.15094 1.0002044 -0.0072966814 1.0094082e-005 0.0035758535 2.1473039e-005 0.0035872154 0.99982262 -0.00684762
119958490.56604 1.0002491 -0.0082089901 4.6069734e-005 0.003890709 2.111448e-005 0.0039159702 0.99981391 -0.0077168047
129954716.98113 1.0002036 -0.009218514 4.7071022e-005 0.0042383308 4.3032225e-005 0.0042264475 0.99982703 -0.0085682869
139950943.39623 1.0000877 -0.0099691823 4.2111322e-005 0.0045472188 3.1777163e-005 0.0045766989 0.99973685 -0.0092989542
149947169.81132 0.99995351 -0.01065892 4.8346352e-005 0.0048706778 5.0880713e-005 0.0048852381 0.99968207 -0.0098806322
159943396.22642 0.99989939 -0.011189163 6.0338294e-005 0.0052171024 5.8660051e-005 0.005208768 0.99973083 -0.010330468
169939622.64151 0.99983841 -0.011510015 6.4204447e-005 0.0055316235 6.0153718e-005 0.0055397693 0.99978137 -0.010744117
179935849.0566 0.99988896 -0.011789471 7.4380077e-005 0.0058639566 8.0745202e-005 0.0058669439 0.99967206 -0.01111567
189932075.4717 1.0000392 -0.012578309 6.9122761e-005 0.0061697662 9.0610236e-005 0.006161388 0.99992526 -0.011600167
199928301.88679 0.99998927 -0.013380826 9.0665766e-005 0.0065123728 7.2001945e-005 0.0065108873 0.99979323 -0.01252234
209924528.30189 0.99975628 -0.013926059 8.2683982e-005 0.0068207229 0.00011340657 0.0068356716 0.99958652 -0.013211653
219920754.71698 0.99988723 -0.014688224 0.00011498574 0.0071547963 0.00010457798 0.0071634669 0.99948514 -0.013792545
229916981.13208 0.99970609 -0.015597612 0.00012319325 0.0074678576 0.00010559661 0.0075080553 0.99945122 -0.014571756
239913207.54717 0.99952322 -0.016288634 0.00013423245 0.0077788285 0.00010762688 0.0078193508 0.99940884 -0.0152769
249909433.96226 0.99957192 -0.016896963 0.0001225064 0.00811953 0.00012735859 0.0081341956 0.99950641 -0.015827715
259905660.37736 0.99971443 -0.017449945 0.00012233807 0.0084492099 0.00013299286 0.008468044 0.99968857 -0.016467512
269901886.79245 0.99984169 -0.018059418 0.00019063253 0.0087464191 0.0001728331 0.0087851603 1.0000135 -0.017063275
279898113.20755 1.000008 -0.018675715 0.00017980905 0.0091121066 0.00016786112 0.009058089 0.99991 -0.0177764
289894339.62264 0.99985152 -0.019493908 0.00018132338 0.0094183572 0.00021130405 0.0094578424 0.99979734 -0.018555254
299890566.03774 0.99972713 -0.019995004 0.0001897593 0.0097160041 0.00019816658 0.0097643072 0.9995665 -0.018989176
309886792.45283 0.99955654 -0.020510383 0.00015723798 0.010102294 0.00024051615 0.010115856 0.9994818 -0.019421034
319883018.86792 0.99959558 -0.021182746 0.00023381133 0.010385212 0.00016690092 0.010395764 0.9996345 -0.019883752
329879245.28302 0.99956906 -0.022078127 0.00025808997 0.010744135 0.00021922821 0.010730638 0.99973845 -0.02069512
339875471.69811 0.99942684 -0.022543609 0.00025487214 0.01105009 0.00023986597 0.011097339 0.99965745 -0.02146282
349871698.11321 0.99970859 -0.023532361 0.00028300821 0.011370213 0.00026443787 0.011386397 0.99974847 -0.02239424
359867924.5283 0.99951923 -0.024306655 0.000290439 0.011676345 0.00027329428 0.01170722 0.99969506 -0.023309857
369864150.9434 0.99967098 -0.025011748 0.00029237871 0.01202108 0.00028254348 0.012023743 0.99970865 -0.024066478
379860377.35849 0.99961245 -0.0257525 0.00030406401 0.012337998 0.00035977666 0.012356497 0.99961108 -0.02470693
389856603.77358 0.99956691 -0.026331007 0.00034424569 0.012652646 0.00032878295 0.01268064 0.99946469 -0.025227457
399852830.18868 0.99930596 -0.026996553 0.00033473829 0.013012495 0.00033965195 0.013000388 0.99957395 -0.025722355
409849056.60377 0.99918771 -0.02741375 0.00038385161 0.013311577 0.00034047355 0.013313445 0.99947357 -0.026205532
419845283.01887 0.99922657 -0.027786434 0.0003884621 0.013585551 0.00036606332 0.013672909 0.99939221 -0.026802331
429841509.43396 0.9992336 -0.028448015 0.00039748754 0.013922777 0.00041690515 0.013988387 0.99956 -0.02755025
439837735.84906 0.99906904 -0.029472932 0.00042290916 0.014299114 0.00042849849 0.014317347 0.99921805 -0.028529435
449833962.26415 0.99897045 -0.03016901 0.00042220857 0.01459256 0.00041704532 0.014589288 0.99876022 -0.029327035
459830188.67925 0.99882245 -0.030835927 0.00045225769 0.014907712 0.00044608442 0.014924786 0.99853742 -0.029952258
469826415.09434 0.99873394 -0.031540662 0.00044109486 0.015255777 0.00044657476 0.015254796 0.99819237 -0.030358374
479822641.50943 0.99867815 -0.032065384 0.00048400729 0.015564471 0.00047195028 0.015628424 0.99817997 -0.030785635
489818867.92453 0.99878359 -0.032636017 0.00051979581 0.015883941 0.00049626362 0.015905816 0.998492 -0.031195819
499815094.33962 0.99877465 -0.033167422 0.00053461036 0.016193479 0.00055957213 0.01625945 0.99877697 -0.031700224
509811320.75472 0.99889117 -0.033542551 0.00053694431 0.016517002 0.00055967609 0.016567748 0.99891752 -0.032389205
519807547.16981 0.99888718 -0.034074485 0.00054374803 0.016882561 0.0005686637 0.016879579 0.99892402 -0.033156276
529803773.58491 0.9987936 -0.034601808 0.00062114559 0.017196208 0.00057195686 0.017205153 0.99870789 -0.033607066
539800000 0.99889493 -0.035253242 0.00058813137 0.017450752 0.00059854425 0.017548047 0.99858558 -0.034251332
549796226.41509 0.99879062 -0.036161959 0.00057712756 0.017814714 0.00060600601 0.017881591 0.99840695 -0.034695715
559792452.83019 0.99851197 -0.036834538 0.00061547477 0.018160677 0.00063311588 0.018147051 0.99844098 -0.035085291
569788679.24528 0.99848396 -0.037500501 0.00065867463 0.018480644 0.00063867727 0.018556003 0.99859935 -0.0358769
579784905.66038 0.99848276 -0.038060695 0.00069334568 0.018831087 0.00067596172 0.018847844 0.9987365 -0.036529794
589781132.07547 0.99855876 -0.038705945 0.00069780461 0.019114826 0.00071229041 0.019175164 0.99887323 -0.03740555
599777358.49057 0.99874282 -0.039232939 0.00072861556 0.019443192 0.00076703355 0.019474637 0.99894369 -0.038130671
609773584.90566 0.99886703 -0.040052831 0.00078862172 0.019779971 0.00076982682 0.019813148 0.99880016 -0.03902027
619769811.32075 0.99892235 -0.040692538 0.00079003768 0.020116186 0.00082000392 0.020112123 0.99876451 -0.039471477
629766037.73585 0.99882185 -0.041359127 0.00082193036 0.020395629 0.00083900057 0.020444203 0.99857146 -0.039976895
639762264.15094 0.99862218 -0.042036414 0.00085063744 0.020679917 0.0008506868 0.020738473 0.99856287 -0.040483549
649758490.56604 0.99851584 -0.042541057 0.00087460503 0.021016605 0.00086407084 0.021067908 0.99858886 -0.0408483
659754716.98113 0.99846995 -0.043029368 0.00087449234 0.021381132 0.00085369591 0.021379896 0.99868786 -0.041421205
669750943.39623 0.99843276 -0.043553084 0.0008897027 0.021715039 0.00089331716 0.021768671 0.99888086 -0.042313039
679747169.81132 0.99843419 -0.044319518 0.00092338782 0.02206072 0.0009010213 0.022094363 0.99880707 -0.043251187
689743396.22642 0.99859852 -0.045149624 0.00098263659 0.022343706 0.00098664965 0.022417512 0.99868286 -0.044128001
699739622.64151 0.99872279 -0.045943379 0.001037973 0.022664972 0.0010344647 0.022732189 0.99857223 -0.044838995
709735849.0566 0.99872708 -0.046746477 0.0010771074 0.02295371 0.0010606882 0.023010124 0.99834782 -0.045502886
719732075.4717 0.99860007 -0.04745993 0.0010917899 0.023297194 0.001098779 0.023362037 0.99839723 -0.046106786
729728301.88679 0.99847037 -0.047983944 0.0011063516 0.023607245 0.0011087256 0.023641746 0.99846286 -0.046535254
739724528.30189 0.99833614 -0.048669085 0.0011466923 0.023934495 0.0011230209 0.023973633 0.99861354 -0.047210842
749720754.71698 0.99822539 -0.049188569 0.0011941576 0.024223149 0.0011586226 0.024311109 0.99866146 -0.047999233
759716981.13208 0.99834609 -0.049634039 0.0012188992 0.0245483 0.0011998992 0.02461596 0.998631 -0.048754543
769713207.54717 0.99816316 -0.050391734 0.0012359051 0.024862783 0.0012452956 0.024922177 0.99833935 -0.049472213
779709433.96226 0.99840331 -0.051024865 0.0012780754 0.025171146 0.0012744897 0.025229681 0.99802887 -0.050137427
789705660.37736 0.99822581 -0.051875442 0.0013095997 0.025497764 0.0012789257 0.025562758 0.99782526 -0.050771892
799701886.79245 0.99820232 -0.052667379 0.0012939246 0.025758084 0.0013281945 0.025863159 0.99767244 -0.051352382
809698113.20755 0.99810898 -0.053236812 0.0013383788 0.026121793 0.0013452454 0.026164465 0.9977079 -0.051837891
819694339.62264 0.99791974 -0.053940415 0.0013896641 0.026435738 0.0013784091 0.026483884 0.99773109 -0.052403986
829690566.03774 0.99791771 -0.054507703 0.0014118794 0.026718408 0.0014304314 0.026831053 0.99798149 -0.053268194
839686792.45283 0.99798191 -0.054931223 0.00144041 0.027062122 0.0014234423 0.027123474 0.99803811 -0.054002017
849683018.86792 0.99807853 -0.055573426 0.0014410771 0.027405579 0.001466563 0.027459035 0.99785274 -0.054808177
859679245.28302 0.99801052 -0.056236744 0.0015048031 0.027696602 0.0014720196 0.027790314 0.99759901 -0.055384666
869675471.69811 0.99795794 -0.057014287 0.001545527 0.028026562 0.0015533222 0.028108921 0.99725282 -0.055835456
879671698.11321 0.99784333 -0.057606637 0.0015785759 0.028320264 0.0015621881 0.028394591 0.99724936 -0.056222204
889667924.5283 0.99779576 -0.058422595 0.00160708 0.02863986 0.0015753061 0.0286969 0.99706727 -0.056745321
899664150.9434 0.99755156 -0.059072971 0.0015886296 0.028922668 0.0016015712 0.029002283 0.99712956 -0.057300359
909660377.35849 0.99759918 -0.059777096 0.0016253088 0.029243542 0.0016311524 0.029341623 0.99731439 -0.058134541
919656603.77358 0.99764061 -0.060429484 0.0016687606 0.029571777 0.0016508941 0.029666511 0.99731821 -0.059031487
929652830.18868 0.99763215 -0.061117947 0.0016800622 0.029895954 0.0016810298 0.029967926 0.99711806 -0.059834391
939649056.60377 0.99781293 -0.061751425 0.00170229 0.030177422 0.0016833413 0.030292828 0.99700052 -0.060549319
949645283.01887 0.99778551 -0.062530234 0.0016770812 0.030523835 0.0016843883 0.030625323 0.99671626 -0.06103931
959641509.43396 0.99766386 -0.063233525 0.001733372 0.030865613 0.0017244183 0.03094101 0.99669456 -0.061509043
969637735.84906 0.99763429 -0.063903004 0.0017778939 0.031185739 0.0017911252 0.031287234 0.99666226 -0.061884105
979633962.26415 0.99745345 -0.064630434 0.0018387954 0.031515505 0.0018145742 0.031578284 0.9967742 -0.062487148
989630188.67925 0.99746019 -0.065082431 0.0018716659 0.031802919 0.0018761652 0.031909961 0.99694955 -0.063059449
999626415.09434 0.99752951 -0.065722317 0.0018836102 0.032140587 0.0018996457 0.032263752 0.99689406 -0.063887298
1009622641.5094 0.99764037 -0.066270337 0.0019145939 0.032468341 0.0019247965 0.032569379 0.99677336 -0.064690292
1019618867.9245 0.99762654 -0.067103967 0.0019751443 0.032773495 0.0020110318 0.032898545 0.99652314 -0.065501243
1029615094.3396 0.99763727 -0.068056524 0.002027452 0.033083186 0.0020443201 0.033177692 0.99619257 -0.066061288
1039611320.7547 0.99766207 -0.068902165 0.0020333892 0.033381809 0.0020645848 0.033476256 0.99611992 -0.066698402
1049607547.1698 0.99761498 -0.069781184 0.0021010167 0.033658266 0.0020716353 0.03376583 0.99612927 -0.06729418
1059603773.5849 0.99749076 -0.070428252 0.0020924415 0.033973638 0.0021119975 0.034071196 0.99619389 -0.067741752
1069600000 0.99723089 -0.071098 0.0021161968 0.034258481 0.0021330742 0.034413032 0.99635971 -0.068514079
1079596226.4151 0.99721825 -0.071683273 0.0021253061 0.034598965 0.0021610232 0.034688387 0.99634534 -0.069284566
1089592452.8302 0.99720514 -0.072324097 0.002146598 0.034924079 0.0021721059 0.035029236 0.99624383 -0.06996277
1099588679.2453 0.99726272 -0.073004186 0.0021427087 0.035226785 0.002158856 0.035358481 0.99603057 -0.070568562
1109584905.6604 0.99739128 -0.073781863 0.0021734405 0.035601605 0.002224464 0.035699237 0.99574482 -0.071136072
1119581132.0755 0.99737298 -0.074766368 0.0022024573 0.035942119 0.0022419458 0.036016922 0.99563718 -0.071547493
1129577358.4906 0.99724567 -0.075480342 0.0022251196 0.036284775 0.0022586249 0.03639378 0.99547648 -0.07201311
1139573584.9057 0.99700433 -0.0764229 0.0022873152 0.036601618 0.0023211753 0.036694862 0.99557734 -0.072621614
1149569811.3208 0.99691361 -0.077242702 0.0023361582 0.036913514 0.0023728684 0.037041869 0.9956969 -0.073379382
1159566037.7358 0.99671137 -0.077886075 0.0023372257 0.037209675 0.002423306 0.037292272 0.99580145 -0.074388623
1169562264.1509 0.99647701 -0.078449458 0.002375273 0.037490178 0.0024195705 0.037641324 0.99568546 -0.075193673
1179558490.566 0.99655664 -0.079247668 0.002385559 0.037885793 0.0024268283 0.037996978 0.99547535 -0.075851291
1189554716.9811 0.99649119 -0.079970032 0.0024037268 0.03820955 0.0025232425 0.038298719 0.99526006 -0.076399058
1199550943.3962 0.99644846 -0.080756634 0.0024477914 0.038548641 0.002537109 0.03864067 0.99506736 -0.076727092
1209547169.8113 0.99631029 -0.081633717 0.0024850005 0.038878944 0.0025543422 0.038973268 0.99497926 -0.077152729
1219543396.2264 0.9960795 -0.082432792 0.0025493833 0.039218735 0.0026448336 0.039327372 0.99512213 -0.077559993
1229539622.6415 0.99579 -0.083224326 0.0026145559 0.039533693 0.002701791 0.039649405 0.99521744 -0.078206211
1239535849.0566 0.9956522 -0.083886802 0.0026573632 0.039822798 0.0027513653 0.03994957 0.99535322 -0.07912448
1249532075.4717 0.99531215 -0.084617108 0.0027139466 0.040173948 0.002833527 0.04026654 0.99521238 -0.079891473
1259528301.8868 0.99516869 -0.085067779 0.0027891416 0.040479951 0.002884835 0.040561818 0.9948945 -0.080756307
1269524528.3019 0.99498534 -0.085760415 0.0028396035 0.040771767 0.0029457537 0.04083664 0.99475527 -0.081407815
1279520754.717 0.99462777 -0.086492226 0.0028916788 0.041064758 0.002978388 0.041100677 0.99446273 -0.081987299
1289516981.1321 0.99464786 -0.087268859 0.0029025795 0.041364245 0.0029760767 0.041400503 0.99452919 -0.082361758
1299513207.5472 0.99425733 -0.088122517 0.0028988961 0.041663185 0.0029790197 0.041731596 0.99469048 -0.082752764
1309509433.9623 0.99375522 -0.088856623 0.0029205298 0.041970778 0.0030146595 0.042010084 0.99480492 -0.083488926
1319505660.3774 0.99342668 -0.089596108 0.0029244926 0.042289015 0.0030100895 0.042342924 0.9948014 -0.084075108
1329501886.7925 0.99317706 -0.090250224 0.0029236116 0.042599946 0.0030431803 0.042642377 0.99487114 -0.085074574
1339498113.2075 0.99283648 -0.090666652 0.0029342826 0.04291705 0.0030483622 0.042974014 0.99444789 -0.085740328
1349494339.6226 0.9927476 -0.091332309 0.0029172893 0.043258652 0.003047341 0.043251038 0.9940834 -0.086303487
1359490566.0377 0.99269766 -0.091875702 0.002957657 0.0436076 0.0030463133 0.043655679 0.99391985 -0.086848587
1369486792.4528 0.99246603 -0.092418015 0.0029547941 0.043969452 0.0030586394 0.043984435 0.99372947 -0.087321401
1379483018.8679 0.99220014 -0.09296833 0.0029764366 0.044347074 0.0030307663 0.044335201 0.99378914 -0.087646052
1389479245.283 0.99183244 -0.093458295 0.00305379 0.044693857 0.0030864794 0.044734966 0.99374777 -0.088362664
1399475471.6981 0.9914853 -0.093908876 0.0030334163 0.045038991 0.0031030718 0.045046438 0.99390996 -0.088996917
1409471698.1132 0.99117851 -0.094258703 0.0030441924 0.045418285 0.0031147727 0.04542942 0.99397463 -0.089811042
1419467924.5283 0.9910143 -0.09457016 0.0031038169 0.045776568 0.0031544892 0.045782585 0.99374497 -0.090528816
1429464150.9434 0.99091095 -0.095006496 0.0031071659 0.046170522 0.003192056 0.046137169 0.99369431 -0.091104805
1439460377.3585 0.99103546 -0.095480159 0.0031914134 0.046586283 0.0032417597 0.046589002 0.99340177 -0.091391608
1449456603.7736 0.99104381 -0.095993429 0.0033087237 0.046982743 0.0033176243 0.046987928 0.99336153 -0.091693237
1459452830.1887 0.99103224 -0.096721321 0.0034622028 0.047393993 0.0034417622 0.047388084 0.99350846 -0.09203589
1469449056.6038 0.99111867 -0.097429931 0.0035937009 0.047710154 0.0035995403 0.047719467 0.99370009 -0.092740774
1479445283.0189 0.99096727 -0.097996555 0.0037190162 0.048000209 0.0037204735 0.048000604 0.99378812 -0.093547136
1489441509.434 0.99092901 -0.098529696 0.0038365647 0.048264269 0.0038587619 0.048303917 0.99364978 -0.094471425
1499437735.8491 0.99073529 -0.098864555 0.0039448105 0.048558921 0.0039739739 0.048623793 0.99361205 -0.095290303
1509433962.2642 0.99068016 -0.099443108 0.0040633278 0.048854999 0.0040140809 0.048853073 0.9933756 -0.095971599
1519430188.6792 0.99082804 -0.099886 0.0040786788 0.049101185 0.0041230582 0.049102366 0.99326301 -0.096512914
1529426415.0943 0.99076581 -0.10047835 0.0041479245 0.04934442 0.0041386671 0.049386933 0.99313569 -0.096879721
1539422641.5094 0.99072748 -0.10137779 0.004225105 0.04965914 0.0041878088 0.049679954 0.99321759 -0.097381026
1549418867.9245 0.99062586 -0.10215893 0.0042822137 0.049927514 0.004226204 0.049970575 0.99332023 -0.098059103
1559415094.3396 0.99044991 -0.10279822 0.0043506343 0.050246272 0.0042673647 0.050289035 0.9936074 -0.098774105
1569411320.7547 0.99038005 -0.10364181 0.0043313559 0.050512623 0.0043140966 0.050532334 0.99351722 -0.099546239
1579407547.1698 0.99024433 -0.10405175 0.0043669469 0.050770815 0.0043361518 0.050809082 0.99322939 -0.10042247
1589403773.5849 0.99019009 -0.10469055 0.0043869875 0.051066209 0.0043489356 0.051132165 0.99299318 -0.10106593
1599400000 0.99020058 -0.10510883 0.0043747835 0.051368594 0.0043524439 0.051389173 0.9925794 -0.10160494
1609396226.4151 0.99008405 -0.10571166 0.0043557808 0.051638994 0.004326974 0.0516899 0.99246323 -0.10207683
1619392452.8302 0.99015808 -0.10633263 0.0043849722 0.051978838 0.0043141749 0.052024093 0.99237525 -0.10245544
1629388679.2453 0.98990524 -0.1069749 0.0043966472 0.052326914 0.0043239351 0.052379798 0.99267852 -0.10292894
1639384905.6604 0.98974198 -0.10763969 0.0043702335 0.052664798 0.0043208031 0.052799333 0.99292833 -0.10380361
1649381132.0755 0.98945087 -0.1083492 0.0044290628 0.053009368 0.0043423772 0.053111218 0.99293399 -0.104772
1659377358.4906 0.9892875 -0.1090934 0.0043814648 0.053398833 0.004370356 0.053509377 0.9928149 -0.10560936
1669373584.9057 0.98926991 -0.10948791 0.0044495198 0.053787097 0.0043915333 0.053841859 0.99254274 -0.10624725
1679369811.3208 0.98925549 -0.11014935 0.0044878246 0.054106712 0.0044606263 0.054193731 0.99227321 -0.10681036
1689366037.7358 0.98928559 -0.11077017 0.0045004543 0.054480389 0.0044693016 0.054589994 0.99206758 -0.10713342
1699362264.1509 0.98949379 -0.11133766 0.0045814449 0.054896891 0.0045025675 0.054943081 0.99236685 -0.10754432
1709358490.566 0.98930824 -0.11195718 0.0046435008 0.05518667 0.0045567052 0.055352412 0.9923777 -0.10798463
1719354716.9811 0.98899007 -0.11256644 0.0046554841 0.055576563 0.0046238899 0.055693865 0.99248242 -0.1087274
1729350943.3962 0.988792 -0.11321726 0.004738668 0.055975668 0.0046887975 0.056086268 0.99248856 -0.1095736
