!Keysight Technologies,N5222B,MY61253708,A.15.00.15
!Date: Wednesday, June 19, 2024 10:39:30
!Correction: S11(C  2-Port  ) 
!S21(C  2-Port  ) 
!S12(C  2-Port  ) 
!S22(C  2-Port  ) 
!S2P File: Measurements: S11, S21, S12, S22:
# Hz S  RI   R 50
10000000 0.99833417 -0.0034317672 0.00023648787 0.0005028536 -9.793861e-006 0.00037662245 0.99830073 -0.0015676916
19996226.415094 0.99967682 -0.0023315251 -9.2016067e-005 0.00067732867 4.471335e-005 0.00066692312 1.0000035 -0.0022698045
29992452.830189 0.99949437 -0.002556473 9.0367103e-006 0.0010279111 4.7919864e-005 0.00094427582 0.99938905 -0.002753526
39988679.245283 1.0000911 -0.0030340552 -3.4877507e-005 0.0013262652 8.2842453e-006 0.0012868257 0.99975502 -0.0031229556
49984905.660377 1.0002578 -0.0036948323 -1.0713702e-006 0.0016206126 1.3372395e-005 0.0015912105 0.99991941 -0.003624469
59981132.075472 1.0004599 -0.0045513213 1.8063991e-005 0.0019280661 -8.5947686e-006 0.0019213022 0.99991393 -0.0041206181
69977358.490566 1.0001874 -0.0051031075 1.1600237e-005 0.002256487 -1.2268461e-005 0.0022460464 0.99976993 -0.00471217
79973584.90566 0.99991214 -0.0056990087 -8.152565e-007 0.0025896735 3.0287891e-005 0.0025856292 0.99945372 -0.0050874054
89969811.320755 0.99995685 -0.0056852698 2.8278795e-005 0.0029039681 7.8693265e-006 0.0028996957 0.99969447 -0.00527969
99966037.735849 1.0001242 -0.0064703971 -3.5022967e-006 0.0032302286 1.6592094e-006 0.0032325238 0.99975157 -0.0060309619
109962264.15094 1.0001948 -0.007372424 1.9127154e-005 0.0035409066 4.4255052e-005 0.0035674521 0.99977559 -0.0068479031
119958490.56604 1.0002255 -0.008276999 2.9978692e-005 0.0038799639 3.8506696e-005 0.0038889009 0.99983042 -0.0076692104
129954716.98113 1.0001792 -0.0092409551 6.5061729e-005 0.0041922871 4.9423892e-005 0.0041941698 0.99982727 -0.0085684061
139950943.39623 1.0000874 -0.010048203 4.4300294e-005 0.0044986401 2.8582988e-005 0.0045207022 0.99972034 -0.0092972014
149947169.81132 0.9999494 -0.010733128 4.1102758e-005 0.0048429458 4.9991067e-005 0.004835513 0.99969977 -0.0099004209
159943396.22642 0.99991095 -0.011247545 6.6838227e-005 0.0051594027 4.6733301e-005 0.0051765107 0.99975961 -0.010292202
169939622.64151 0.99989283 -0.01153148 5.9959013e-005 0.00549686 6.7120243e-005 0.005517995 0.99980921 -0.01070331
179935849.0566 0.99994814 -0.011796951 6.2887091e-005 0.0058092671 7.1194838e-005 0.005850926 0.99971759 -0.01104334
189932075.4717 1.0000262 -0.012503356 8.1810635e-005 0.0061375019 6.6381181e-005 0.0061687734 0.99991977 -0.011579335
199928301.88679 0.99995297 -0.013351023 8.1842183e-005 0.0064269793 8.0076279e-005 0.0064633158 0.99983495 -0.012496203
209924528.30189 0.99975508 -0.013832033 8.8841072e-005 0.0067859958 9.2393486e-005 0.006780623 0.9996112 -0.013142034
219920754.71698 0.99986339 -0.014648497 9.0214657e-005 0.0070945779 0.00010086363 0.0071307495 0.99948728 -0.01374054
229916981.13208 0.99968642 -0.015592724 0.00010071276 0.0073966505 0.00011431542 0.0074312631 0.9994663 -0.01449284
239913207.54717 0.99953276 -0.016264031 0.00012411681 0.0077266376 0.00013370313 0.0077682794 0.99942696 -0.015195681
249909433.96226 0.9995324 -0.016827762 0.00011483557 0.0080449805 0.00015594368 0.0080759209 0.99952507 -0.015756547
259905660.37736 0.99959707 -0.017365992 0.00014257897 0.0083843321 0.00014433218 0.0084102992 0.99975157 -0.016318738
269901886.79245 0.99985081 -0.018019363 0.00013563479 0.0087140119 0.00015463878 0.008705996 1.0001582 -0.016946167
279898113.20755 1.0000012 -0.018737003 0.00017376733 0.009028119 0.00011675153 0.0090496419 0.99995607 -0.01775068
289894339.62264 0.99988544 -0.019464523 0.00017456245 0.0093714595 0.00018251361 0.0093996841 0.99993396 -0.018520594
299890566.03774 0.99984103 -0.020052612 0.0001649214 0.0096667269 0.00018425775 0.0096826125 0.99962676 -0.018911719
309886792.45283 0.99964964 -0.020551868 0.00017524522 0.010021757 0.00025200087 0.010040002 0.99953353 -0.019330502
319883018.86792 0.99962103 -0.021141499 0.0002453085 0.010341315 0.00023628445 0.01033477 0.99969685 -0.019808412
329879245.28302 0.99970871 -0.021781415 0.00021178089 0.010605306 0.00023542251 0.010702337 0.99974275 -0.020540327
339875471.69811 0.99945426 -0.022585854 0.00021549256 0.010902421 0.00028092926 0.010970525 0.99968666 -0.021346472
349871698.11321 0.99969649 -0.023406535 0.00021334249 0.011254472 0.00025801524 0.011306652 0.99981809 -0.022289932
359867924.5283 0.99955344 -0.024249524 0.00028236583 0.011583086 0.00023644976 0.011607599 0.99973738 -0.02321595
369864150.9434 0.99971575 -0.025096118 0.0002836457 0.011912939 0.00030369242 0.011955334 0.99974597 -0.024009734
379860377.35849 0.99968588 -0.025756553 0.00025365571 0.012279436 0.00031819241 0.012275469 0.99966037 -0.02468963
389856603.77358 0.99952102 -0.026180834 0.00031745899 0.012538815 0.00029447442 0.012605604 0.99956977 -0.025115252
399852830.18868 0.99929982 -0.026809096 0.00035927212 0.012924178 0.00031620823 0.012897871 0.99966556 -0.025674582
409849056.60377 0.99926144 -0.02727722 0.00034940196 0.013201731 0.00035796285 0.013252494 0.99958277 -0.026163302
419845283.01887 0.99921048 -0.027751416 0.00036715856 0.013492473 0.00038493471 0.013577037 0.99941874 -0.026737213
429841509.43396 0.99924076 -0.028410941 0.00038519083 0.013835637 0.00041411957 0.013892821 0.99960309 -0.027441651
439837735.84906 0.99908382 -0.029415116 0.00040022808 0.014173225 0.0004222641 0.01421049 0.99930805 -0.028519794
449833962.26415 0.99895513 -0.030215442 0.00039119553 0.014494119 0.00041855965 0.014517731 0.99880433 -0.029315919
459830188.67925 0.9987278 -0.030825466 0.00047371769 0.014793957 0.00043324241 0.014795261 0.99840331 -0.029932201
469826415.09434 0.99867338 -0.031536341 0.00041434681 0.015124744 0.00043202983 0.015131291 0.99807715 -0.030426681
479822641.50943 0.99855614 -0.032065682 0.00048336352 0.015483241 0.00045629265 0.015501126 0.99808824 -0.030715786
489818867.92453 0.99865115 -0.032509744 0.00051905075 0.015787743 0.00052070385 0.015812881 0.99841702 -0.031097054
499815094.33962 0.9986645 -0.033084422 0.00052885199 0.016113687 0.00052821171 0.016119981 0.99868596 -0.031542271
509811320.75472 0.99879873 -0.033325262 0.00054599228 0.016399331 0.00058096112 0.01641337 0.99875677 -0.032214571
519807547.16981 0.9987238 -0.033915699 0.00053942809 0.016744833 0.00057728123 0.016763315 0.99877983 -0.032895863
529803773.58491 0.99875981 -0.034402758 0.00056092814 0.017039634 0.00057106419 0.017076977 0.99866676 -0.033412844
539800000 0.99887937 -0.035058096 0.00058636558 0.017346779 0.00056580314 0.01739092 0.99847192 -0.03395921
549796226.41509 0.99868077 -0.035887986 0.00061379187 0.017668234 0.00062670419 0.017738167 0.99830854 -0.034364849
559792452.83019 0.99853742 -0.03665936 0.00063995272 0.018010613 0.00063353311 0.018048406 0.99828899 -0.034775883
569788679.24528 0.99835795 -0.037224263 0.00065403571 0.018340472 0.00063160993 0.018414982 0.99852353 -0.035532892
579784905.66038 0.99835855 -0.03778623 0.00063814956 0.018657357 0.0006863873 0.018713702 0.99870181 -0.036203466
589781132.07547 0.99852228 -0.038437903 0.00071077887 0.018966135 0.0006941529 0.019040978 0.99889636 -0.037082076
599777358.49057 0.99872327 -0.039067239 0.00074771605 0.019321775 0.00074272882 0.019351386 0.99896562 -0.037838876
609773584.90566 0.99881876 -0.039703712 0.00073848071 0.019629125 0.00074820302 0.019662717 0.99881542 -0.038717464
619769811.32075 0.9989962 -0.040436357 0.00080389576 0.019903438 0.00079625845 0.019978054 0.99874222 -0.039200515
629766037.73585 0.99882245 -0.041126162 0.00086864084 0.020250119 0.00083109364 0.020293325 0.99861908 -0.039693683
639762264.15094 0.99863386 -0.041771442 0.00084624742 0.020562168 0.00087128649 0.020598838 0.99849069 -0.040135324
649758490.56604 0.99852639 -0.042349666 0.00087484997 0.020843839 0.00084972335 0.020933155 0.99863589 -0.040565684
659754716.98113 0.99837106 -0.042737573 0.00085835624 0.021205511 0.00085128564 0.021253582 0.99876308 -0.041069925
669750943.39623 0.99837923 -0.043315411 0.00088011008 0.021539835 0.00086586084 0.021608992 0.99888468 -0.041962504
679747169.81132 0.99837548 -0.044072822 0.00091848022 0.021849459 0.00090153771 0.021938765 0.99883991 -0.042924143
689743396.22642 0.99862516 -0.044888049 0.00096417684 0.022201296 0.00098368712 0.022276398 0.99869227 -0.043851554
699739622.64151 0.99871165 -0.045662612 0.0010195198 0.022512715 0.00099145435 0.022555374 0.99861753 -0.044590861
709735849.0566 0.99870628 -0.046557747 0.0010283019 0.022798635 0.0010297712 0.02287215 0.9983958 -0.045226209
719732075.4717 0.99861085 -0.047169417 0.0010652221 0.023122011 0.0010992307 0.023160387 0.99843794 -0.045842618
729728301.88679 0.99850142 -0.047768056 0.0010756757 0.023447642 0.0010651927 0.023483474 0.9985472 -0.046199143
739724528.30189 0.99839753 -0.048456356 0.0011442481 0.02375894 0.0011280202 0.023817899 0.99872208 -0.046938449
749720754.71698 0.99825335 -0.048886776 0.0011344813 0.024063332 0.0011485964 0.024112884 0.99873894 -0.047647372
759716981.13208 0.99825764 -0.049418509 0.0011969395 0.02436978 0.0011658054 0.024438433 0.99863613 -0.048443556
769713207.54717 0.99814546 -0.050154716 0.0012310799 0.024671491 0.0012149811 0.024740394 0.99835312 -0.04913044
779709433.96226 0.99833101 -0.050708085 0.0012291219 0.025003713 0.0012470181 0.025070535 0.99804908 -0.049776636
789705660.37736 0.99827516 -0.051634997 0.0012967475 0.025307924 0.0012894506 0.02536408 0.99780631 -0.050551057
799701886.79245 0.99824244 -0.052431405 0.0013272697 0.02564596 0.0012741368 0.025699999 0.99770617 -0.051101685
809698113.20755 0.99804294 -0.053051546 0.001318041 0.025910387 0.0013159527 0.026016159 0.99771285 -0.05152908
819694339.62264 0.99791771 -0.05366227 0.0013779886 0.026212713 0.0013521411 0.026315387 0.9977802 -0.052164644
829690566.03774 0.9978866 -0.054215908 0.0013775099 0.026559792 0.0013823751 0.02662326 0.99800563 -0.052996367
839686792.45283 0.99790394 -0.054705679 0.0013956483 0.026860533 0.0014159176 0.026954014 0.99805146 -0.053765774
849683018.86792 0.99799591 -0.055280745 0.0014276223 0.027200464 0.0014165565 0.027268127 0.99796319 -0.054478921
859679245.28302 0.99802244 -0.05595988 0.0014645215 0.027506674 0.0014802869 0.027572207 0.99755526 -0.055092633
869675471.69811 0.99794173 -0.05668053 0.0015188549 0.027797844 0.0015065596 0.027887439 0.99722737 -0.055519909
879671698.11321 0.99789864 -0.057376005 0.0015763231 0.028101653 0.0015619461 0.028225062 0.99724793 -0.055929895
889667924.5283 0.99771804 -0.058183372 0.0015858859 0.028404228 0.0016007554 0.02850711 0.99708009 -0.056436718
899664150.9434 0.99747908 -0.058790386 0.0015746187 0.028708832 0.0015814677 0.028808117 0.99706656 -0.05698517
909660377.35849 0.99755043 -0.059420943 0.0016068467 0.0290369 0.0016123587 0.029134972 0.99725598 -0.05779624
919656603.77358 0.99762064 -0.060053527 0.0016448149 0.029375138 0.0016448554 0.029455176 0.99726236 -0.058685526
929652830.18868 0.99758053 -0.060736895 0.0016475478 0.029640406 0.0016691042 0.029744526 0.99708563 -0.059564918
939649056.60377 0.99780512 -0.061413586 0.0016585095 0.029946193 0.0016493117 0.03005092 0.9969489 -0.060243934
949645283.01887 0.99773216 -0.06215157 0.0016608307 0.030291686 0.0016772894 0.030379245 0.99674296 -0.060705733
959641509.43396 0.997648 -0.062861025 0.0017037084 0.03063589 0.0017269645 0.030723941 0.99663556 -0.061155438
969637735.84906 0.99759376 -0.0635207 0.0017468864 0.03096192 0.0017697718 0.031064183 0.9966836 -0.061462373
979633962.26415 0.99736494 -0.064265028 0.0018133991 0.031285338 0.0018123325 0.031385049 0.99674064 -0.062089898
989630188.67925 0.99747682 -0.064785957 0.0018447554 0.031580564 0.0018403176 0.031709913 0.99695295 -0.062640101
999626415.09434 0.99751157 -0.065274417 0.0018840302 0.031896308 0.0018846011 0.032029424 0.99690354 -0.063429058
1009622641.5094 0.99761248 -0.066038877 0.0018886179 0.032212075 0.0019124546 0.032354929 0.99674326 -0.064304277
1019618867.9245 0.99760234 -0.066772357 0.0019559888 0.032559808 0.001967656 0.032662682 0.99652141 -0.065079227
1029615094.3396 0.99767405 -0.067712456 0.0019920571 0.032845449 0.0020246012 0.032956377 0.99611938 -0.065650672
1039611320.7547 0.9977181 -0.068567425 0.0020460235 0.03314513 0.0020427732 0.033228584 0.99611914 -0.066299081
1049607547.1698 0.9976002 -0.069426 0.0020823355 0.033419941 0.0020816824 0.033538103 0.99613887 -0.066813424
1059603773.5849 0.99750626 -0.070072025 0.0020744298 0.033728629 0.0020874636 0.033826906 0.99622625 -0.06735906
1069600000 0.99723732 -0.070740998 0.002066344 0.034022357 0.0021117004 0.034139708 0.99635357 -0.06806013
1079596226.4151 0.99719661 -0.071286581 0.0020913985 0.034335136 0.0021200888 0.034470301 0.9963913 -0.068849124
1089592452.8302 0.99723351 -0.071938604 0.002103392 0.034679957 0.0021505104 0.034797575 0.9962998 -0.069527835
1099588679.2453 0.99726915 -0.072581679 0.002120506 0.034986891 0.0021555815 0.035101756 0.99598265 -0.070182413
1109584905.6604 0.99740863 -0.073392987 0.0021647252 0.035333484 0.0021996601 0.035466474 0.99574089 -0.070708632
1119581132.0755 0.99741012 -0.074327543 0.002153405 0.035667792 0.0022072932 0.035778761 0.99559134 -0.071104616
1129577358.4906 0.99732113 -0.075160772 0.0021999851 0.036009666 0.0022427905 0.036148008 0.99555457 -0.071505606
1139573584.9057 0.99701989 -0.076039106 0.0022439528 0.036312334 0.0022996385 0.03646614 0.99559623 -0.072244167
1149569811.3208 0.99694836 -0.076826259 0.0023077135 0.03662068 0.0023535495 0.036757652 0.99580467 -0.072947226
1159566037.7358 0.99666601 -0.07748577 0.0023207208 0.036932066 0.0023674536 0.037075229 0.99590206 -0.074022144
1169562264.1509 0.99659932 -0.078078449 0.002335906 0.03723821 0.0023912191 0.037368473 0.99575013 -0.074801713
1179558490.566 0.99654841 -0.078882642 0.002358702 0.037621025 0.0024151157 0.037765991 0.99558592 -0.075415768
1189554716.9811 0.99659169 -0.079516143 0.0023823362 0.03792933 0.0024626991 0.038056526 0.99534142 -0.075974345
1199550943.3962 0.99644744 -0.080376953 0.0023969505 0.038265117 0.0025004838 0.03838098 0.9951756 -0.076331705
1209547169.8113 0.99633825 -0.08124195 0.0024536122 0.038604263 0.0025422219 0.038673893 0.99508619 -0.076647609
1219543396.2264 0.99615276 -0.081999004 0.0025078519 0.0389379 0.0025706585 0.039072342 0.99518698 -0.077065796
1229539622.6415 0.99593389 -0.082898229 0.002581533 0.039236531 0.0026583672 0.039385401 0.99534082 -0.077773064
1239535849.0566 0.99565309 -0.083506852 0.0026262142 0.039555486 0.0027288748 0.03968145 0.99543518 -0.078639925
1249532075.4717 0.99534339 -0.084202565 0.0026759109 0.039869782 0.0027747718 0.039996993 0.99524975 -0.079509884
1259528301.8868 0.99518323 -0.084656864 0.0027065072 0.040202189 0.0028405413 0.040294446 0.99504924 -0.080349058
1269524528.3019 0.99503976 -0.085420698 0.0027621621 0.040487062 0.0028970353 0.04056612 0.99479419 -0.081011921
1279520754.717 0.9947111 -0.086115643 0.0028428 0.040767394 0.0029128056 0.04082866 0.99456608 -0.081503846
1289516981.1321 0.99457717 -0.086909622 0.0028657457 0.041050378 0.0029505622 0.041129664 0.99460018 -0.081889808
1299513207.5472 0.99431676 -0.087704957 0.0028807558 0.041364081 0.0029778127 0.041445557 0.99467552 -0.082320392
1309509433.9623 0.99384463 -0.088408068 0.0028599873 0.041662071 0.0029491065 0.041739687 0.99488413 -0.082990974
1319505660.3774 0.9934715 -0.089139521 0.0028772382 0.041983988 0.0029746704 0.042054005 0.99494249 -0.083641425
1329501886.7925 0.99320692 -0.089814842 0.0028880779 0.042293835 0.0030056275 0.042347196 0.99488616 -0.084589273
1339498113.2075 0.99292409 -0.090211838 0.0029090745 0.04261693 0.0030170241 0.04266559 0.99448961 -0.085219711
1349494339.6226 0.99284482 -0.090899356 0.0029009748 0.042951997 0.0029778867 0.04300271 0.99416476 -0.085902058
1359490566.0377 0.99271429 -0.09144792 0.0029192697 0.043309458 0.0029689632 0.043358125 0.99397492 -0.086358219
1369486792.4528 0.99255991 -0.091981649 0.0029103458 0.04364273 0.0029997639 0.043678433 0.99377775 -0.086774021
1379483018.8679 0.99226534 -0.092555471 0.0029127586 0.043976631 0.0030155652 0.044040035 0.99384099 -0.087156326
1389479245.283 0.9919827 -0.093084574 0.0029885266 0.044345133 0.0030468479 0.044389762 0.99380082 -0.087808371
1399475471.6981 0.99158311 -0.093484879 0.0029846244 0.044686407 0.0030402653 0.044739407 0.99399245 -0.088524669
1409471698.1132 0.99123448 -0.093858778 0.0030111491 0.045076005 0.0030754346 0.04512601 0.99412304 -0.089343034
1419467924.5283 0.99101257 -0.094127953 0.0030297255 0.045436848 0.0030803839 0.045446798 0.99383438 -0.089991361
1429464150.9434 0.99088871 -0.094547212 0.0030390471 0.045840785 0.0031328946 0.045875557 0.99375266 -0.090500742
1439460377.3585 0.99106735 -0.095012859 0.0031492626 0.046278737 0.0031814938 0.046290103 0.993541 -0.090897709
1449456603.7736 0.99114823 -0.095600113 0.0032590898 0.046674892 0.0033032112 0.046664238 0.99338257 -0.091241747
1459452830.1887 0.99113876 -0.096392334 0.0034129415 0.047070011 0.0033904202 0.047081549 0.99358237 -0.091585934
1469449056.6038 0.99118888 -0.096989095 0.0035779867 0.047366459 0.0035291351 0.047458827 0.99383414 -0.092214048
1479445283.0189 0.99097252 -0.097616173 0.0036615049 0.047677696 0.0036810667 0.047688354 0.99382818 -0.093109533
1489441509.434 0.9909246 -0.098039687 0.0037828963 0.04796822 0.003787443 0.048000827 0.99380767 -0.093985021
1499437735.8491 0.99073434 -0.09836188 0.0039278865 0.048222065 0.0038985889 0.048231136 0.99363303 -0.09480235
1509433962.2642 0.99077803 -0.098909579 0.0039826073 0.048463404 0.0039809346 0.048522025 0.99345595 -0.095463537
1519430188.6792 0.99085534 -0.099348247 0.0040345769 0.04873763 0.0040640216 0.048787542 0.9933728 -0.096055269
1529426415.0943 0.99081075 -0.10013896 0.0040891021 0.049031921 0.0040866118 0.049070295 0.99326587 -0.096446514
1539422641.5094 0.99092567 -0.10089163 0.0041566603 0.04931584 0.0041243513 0.049339656 0.99336064 -0.096879132
1549418867.9245 0.99061382 -0.10176645 0.0042328425 0.049577489 0.0041745352 0.049634941 0.99354976 -0.097573265
1559415094.3396 0.99056816 -0.10234833 0.0042768586 0.049879942 0.0042081363 0.049933441 0.99373925 -0.098223686
1569411320.7547 0.99045908 -0.10324478 0.0042962991 0.050087772 0.0042437157 0.050191168 0.99366933 -0.099109322
1579407547.1698 0.99032712 -0.10361576 0.0043111541 0.050396513 0.0042731091 0.050464336 0.99326891 -0.099926114
1589403773.5849 0.9903121 -0.1041874 0.004311176 0.05068041 0.0043018367 0.050776646 0.99309444 -0.1005711
1599400000 0.99030483 -0.10461661 0.0043195067 0.050977848 0.0042675296 0.051065542 0.99273056 -0.10106432
1609396226.4151 0.99023151 -0.10525303 0.0043090666 0.051294453 0.0042740651 0.051323526 0.9925561 -0.10158007
1619392452.8302 0.99027181 -0.10585302 0.0043336879 0.051606607 0.004241325 0.051689848 0.99252772 -0.10203648
1629388679.2453 0.98996079 -0.1065653 0.0043307766 0.051967129 0.0042485893 0.052046545 0.99284118 -0.10256356
1639384905.6604 0.98977202 -0.10711676 0.0043200571 0.052320376 0.0042612646 0.052394766 0.99306601 -0.10337282
1649381132.0755 0.9896279 -0.10789776 0.0042832159 0.052627951 0.0043020062 0.052786294 0.99296862 -0.10431287
1659377358.4906 0.98938072 -0.10858461 0.0043426305 0.052983165 0.0043137558 0.053109206 0.99292189 -0.10517272
1669373584.9057 0.98931354 -0.10906383 0.0043786275 0.053344738 0.0043711215 0.053473458 0.99263114 -0.10579251
1679369811.3208 0.9893527 -0.10971355 0.0043987846 0.053762238 0.0043925922 0.053842448 0.99243331 -0.10631463
1689366037.7358 0.98932308 -0.11026999 0.0044312198 0.054104619 0.0043986589 0.054208592 0.99224812 -0.10656661
1699362264.1509 0.98952681 -0.11086904 0.0044947779 0.054451346 0.0044553196 0.054603446 0.99251503 -0.10707909
1709358490.566 0.9894141 -0.11153434 0.0045584869 0.054806184 0.0045077996 0.05497922 0.99246305 -0.10760172
1719354716.9811 0.98907495 -0.11215511 0.0046097506 0.055189997 0.0045717657 0.055342622 0.99256766 -0.10825863
