!Keysight Technologies,N5222B,MY61253708,A.15.00.15
!Date: Wednesday, June 19, 2024 09:58:34
!Correction: S11(C  2-Port  ) 
!S21(C  2-Port  ) 
!S12(C  2-Port  ) 
!S22(C  2-Port  ) 
!S2P File: Measurements: S11, S21, S12, S22:
# Hz S  RI   R 50
10000000 0.9987331 -0.0028980374 0.00022351892 0.00050782604 1.246178e-005 0.00037211878 0.99846369 -0.0014643669
19996226.415094 0.99994284 -0.0034706593 -3.2420096e-005 0.00063382043 5.0124334e-005 0.00075112982 1.0004165 -0.0030250847
29992452.830189 0.9998045 -0.0025621653 6.2580861e-005 0.0010472169 -6.8281108e-005 0.0010488934 0.99945354 -0.002671808
39988679.245283 1.0000069 -0.002994895 2.0805921e-005 0.0013424474 1.8078223e-005 0.001354022 0.99969709 -0.0030889809
49984905.660377 1.0001278 -0.0036501884 1.6799138e-005 0.0016585552 -2.2096152e-005 0.00167607 0.99984527 -0.0036227405
59981132.075472 1.0003737 -0.0045238733 -2.495537e-006 0.0020067263 4.6988134e-005 0.0019857644 0.99984974 -0.0042253137
69977358.490566 1.0002276 -0.0050664656 -2.3394983e-005 0.0023146993 1.4266261e-006 0.002353159 0.99970925 -0.0047895461
79973584.90566 0.99997723 -0.0057325363 1.232489e-005 0.0026623229 1.803739e-006 0.0026570817 0.99934769 -0.0052556694
89969811.320755 0.99997568 -0.0057787299 1.9918545e-005 0.0029641176 -1.2673903e-005 0.0029835352 0.99963057 -0.0055162609
99966037.735849 1.0001576 -0.0065321326 8.2997722e-006 0.0032797712 8.8004163e-006 0.0033093744 0.99966776 -0.0063042939
109962264.15094 1.0001886 -0.0074229985 2.994237e-005 0.0036251075 2.3558387e-005 0.0036569436 0.99965924 -0.0070934296
119958490.56604 1.0001407 -0.0082948208 1.9687344e-005 0.0039764587 5.332171e-005 0.0039847307 0.99971867 -0.0079179108
129954716.98113 1.0001311 -0.0092286468 3.1998497e-005 0.0042751483 4.5664725e-005 0.0043032039 0.99968213 -0.0088188946
139950943.39623 1.0000738 -0.010049244 3.8372338e-005 0.0045920685 6.1129831e-005 0.0046371967 0.99960691 -0.0095499288
149947169.81132 0.99998486 -0.010713398 4.6440866e-005 0.0049648727 6.0619786e-005 0.0049590035 0.99958158 -0.010156393
159943396.22642 0.99994028 -0.011269093 5.6148507e-005 0.0052993125 4.9830647e-005 0.0052955141 0.99963903 -0.010648191
169939622.64151 0.99987584 -0.011665963 7.2003168e-005 0.0056017162 6.2971958e-005 0.0056534386 0.99968076 -0.011100382
179935849.0566 0.99995887 -0.011933178 6.7199115e-005 0.0059137871 0.00010471616 0.0059660436 0.9995448 -0.011477292
189932075.4717 1.0000591 -0.01273489 6.5055676e-005 0.0062354365 6.03355e-005 0.0062885126 0.99980873 -0.01205346
199928301.88679 0.99997711 -0.013531834 9.4639021e-005 0.0065955929 8.1362319e-005 0.0066295513 0.99968874 -0.012892544
209924528.30189 0.99979883 -0.014084414 0.00010960281 0.006908888 9.7550452e-005 0.0069263862 0.99944746 -0.013505295
219920754.71698 0.99990857 -0.014892071 0.0001313712 0.007246722 0.00010842946 0.0072783502 0.99939162 -0.014127642
229916981.13208 0.99967557 -0.015779972 0.00014449866 0.0075540114 0.00011483789 0.0076256865 0.99939871 -0.014985859
239913207.54717 0.99953526 -0.01643387 0.00012934592 0.0078828149 0.00014161832 0.007970253 0.99929821 -0.015701203
249909433.96226 0.99959862 -0.017058492 0.00012824405 0.0082481857 0.00014062459 0.0082786502 0.99939471 -0.016314834
259905660.37736 0.99974275 -0.017657578 0.00018004188 0.0085259713 0.0001637945 0.008588532 0.99957001 -0.016835123
269901886.79245 0.9998306 -0.018305063 0.0001518809 0.0088521186 0.00012121326 0.0089390958 0.99986023 -0.01761198
279898113.20755 0.9998734 -0.018950984 0.00016976614 0.0092256172 0.00019764737 0.0092500597 0.99982083 -0.01840505
289894339.62264 0.99986649 -0.019736499 0.00019623619 0.0095343227 0.00020468282 0.0095323864 0.99965703 -0.019106328
299890566.03774 0.99982715 -0.020184606 0.00020833849 0.0098458827 0.00020569609 0.0098748887 0.99940789 -0.019509345
309886792.45283 0.99963421 -0.020676687 0.00019600929 0.010209057 0.00024140294 0.010298496 0.9993428 -0.019959196
319883018.86792 0.99974012 -0.021247149 0.00024509663 0.010545886 0.0002092733 0.010624718 0.99951434 -0.02046603
329879245.28302 0.99966443 -0.022252321 0.00022379588 0.010876777 0.00022322033 0.010932968 0.99952352 -0.021238923
339875471.69811 0.99956161 -0.022847563 0.00027101836 0.011212376 0.00024629431 0.01125489 0.9994697 -0.022014253
349871698.11321 0.99962401 -0.023808748 0.00024434971 0.011532995 0.0002633268 0.011576065 0.99945015 -0.022872508
359867924.5283 0.9995091 -0.024519414 0.00029663742 0.011850959 0.00029392727 0.011928711 0.99937916 -0.023818702
369864150.9434 0.99971426 -0.025264412 0.00032947771 0.012178019 0.0003086736 0.012238475 0.99940646 -0.024448782
379860377.35849 0.99961323 -0.026038587 0.00033767452 0.012509177 0.00035304297 0.012540287 0.99930382 -0.025155589
389856603.77358 0.99947858 -0.026538193 0.00034198631 0.012838218 0.00033554435 0.012872662 0.99932414 -0.025565565
399852830.18868 0.99927855 -0.027192354 0.00035089068 0.013157491 0.00035905652 0.013229284 0.9993639 -0.026117682
409849056.60377 0.99918336 -0.027693117 0.00040703086 0.013470751 0.00034568689 0.013550716 0.99938291 -0.026570024
419845283.01887 0.99916929 -0.028106213 0.00036496529 0.013802864 0.00036986219 0.013872017 0.99938923 -0.027152956
429841509.43396 0.99931431 -0.028722376 0.00037763594 0.014109876 0.00039524492 0.014236908 0.99960446 -0.027855903
439837735.84906 0.99908 -0.029688016 0.00043901533 0.014479541 0.00044554356 0.014539532 0.99936771 -0.028857112
449833962.26415 0.9990195 -0.03044486 0.00042170566 0.014760384 0.0004474856 0.014850996 0.99900311 -0.029621184
459830188.67925 0.9988367 -0.031111568 0.00043673581 0.015116525 0.00044202385 0.015163694 0.99882364 -0.030320227
469826415.09434 0.99884903 -0.031790942 0.00046062283 0.015433992 0.00044750283 0.015547686 0.99856371 -0.030900359
479822641.50943 0.99866164 -0.032324806 0.00047079031 0.015746564 0.00049126032 0.015856128 0.99860537 -0.031426892
489818867.92453 0.99878329 -0.032812446 0.00051786564 0.016089587 0.00052667642 0.016174445 0.99885333 -0.031948268
499815094.33962 0.998824 -0.033505529 0.000563554 0.016417785 0.00053003477 0.016493544 0.99913502 -0.032482743
509811320.75472 0.99890304 -0.033954583 0.000572889 0.016729655 0.00052448176 0.016877219 0.99926096 -0.033337861
519807547.16981 0.99886876 -0.034395397 0.00058871461 0.017082656 0.00054337503 0.017159812 0.99927604 -0.034023613
529803773.58491 0.9988426 -0.035024971 0.00062013324 0.017404726 0.0005985992 0.017540244 0.99896103 -0.034573913
539800000 0.99892104 -0.035721913 0.00061917445 0.017729601 0.00060142297 0.01780181 0.99885976 -0.035263851
549796226.41509 0.99882364 -0.036496133 0.00060566515 0.018111762 0.00064572692 0.018201577 0.9987765 -0.035728365
559792452.83019 0.99866056 -0.03715992 0.00063747726 0.018381467 0.00067859422 0.018492628 0.99863756 -0.03624779
569788679.24528 0.99848038 -0.037798822 0.00066370657 0.018739842 0.00068043498 0.018844346 0.99884003 -0.037001789
579784905.66038 0.99850357 -0.038403146 0.00069682905 0.019056149 0.00067947386 0.019174738 0.99886787 -0.037712015
589781132.07547 0.99859869 -0.03899166 0.00071532186 0.019391993 0.00074961409 0.019474521 0.99895334 -0.03857699
599777358.49057 0.99862194 -0.039629459 0.00079284981 0.019723885 0.00081187114 0.019831138 0.99897623 -0.039328158
609773584.90566 0.99878246 -0.040395334 0.00078942743 0.020042552 0.00082287268 0.020180583 0.99882233 -0.040162362
619769811.32075 0.99903989 -0.041096032 0.00085143559 0.020314585 0.00079823378 0.020481296 0.99879414 -0.040724486
629766037.73585 0.99881059 -0.041714519 0.00086274557 0.020689007 0.00084638223 0.020775031 0.99862206 -0.041310936
639762264.15094 0.99866396 -0.042335436 0.00088672969 0.02096889 0.00088528264 0.021110037 0.99846846 -0.041786298
649758490.56604 0.99857026 -0.042981043 0.00090373633 0.021312596 0.000903429 0.021418113 0.99852198 -0.042204276
659754716.98113 0.99851727 -0.043485731 0.00091775414 0.02160785 0.00088468473 0.021786327 0.99860495 -0.042741209
669750943.39623 0.99850082 -0.043946445 0.00092204614 0.021998629 0.00092397444 0.022106901 0.9987241 -0.043454647
679747169.81132 0.99846518 -0.044746473 0.00094841677 0.022355203 0.00096488337 0.022460096 0.99865901 -0.04445824
689743396.22642 0.99863863 -0.045506328 0.0010019066 0.022659503 0.00098667666 0.022804569 0.99849558 -0.045335561
699739622.64151 0.99867821 -0.046287984 0.0010915566 0.022966944 0.0010692123 0.023108721 0.9984448 -0.046061784
709735849.0566 0.9986788 -0.047197409 0.0010805024 0.023305817 0.0011487884 0.023434952 0.9981935 -0.046616778
719732075.4717 0.99844784 -0.047917843 0.0011279956 0.023626311 0.0011325143 0.023732876 0.99828631 -0.047292084
729728301.88679 0.99844551 -0.048392594 0.0011632107 0.023892382 0.0011232113 0.024090203 0.99833822 -0.047765493
739724528.30189 0.99839646 -0.04911378 0.0011731209 0.024246458 0.0011775717 0.024378132 0.99841666 -0.048446879
749720754.71698 0.99833304 -0.049686015 0.0012185611 0.024566967 0.0012156609 0.024692047 0.99849534 -0.049152389
759716981.13208 0.9983294 -0.050183594 0.0012303637 0.024856456 0.0012601763 0.025037602 0.99844861 -0.04986313
769713207.54717 0.99826908 -0.050903499 0.0012550717 0.025212131 0.0012761923 0.025331177 0.99824846 -0.05054155
779709433.96226 0.99840665 -0.051473901 0.0012978929 0.02555359 0.0013047678 0.02566872 0.9979943 -0.051188786
789705660.37736 0.99816972 -0.052351803 0.0013441704 0.025892755 0.0013394533 0.025985526 0.99773359 -0.051899284
799701886.79245 0.99825287 -0.053112686 0.001329097 0.026153576 0.0013348078 0.026317062 0.99758577 -0.052427977
809698113.20755 0.99812621 -0.053740725 0.0013650151 0.026475497 0.0013892492 0.026632698 0.99764889 -0.05290167
819694339.62264 0.99792045 -0.054373026 0.0014111097 0.026767617 0.0014161845 0.026954507 0.99771678 -0.053500056
829690566.03774 0.99793899 -0.055054873 0.0014610654 0.027111605 0.0014703237 0.027268693 0.99800593 -0.054413974
839686792.45283 0.99797678 -0.05541265 0.0014714771 0.027436258 0.0014915694 0.027596505 0.99802577 -0.055168569
849683018.86792 0.99815553 -0.056151137 0.0014986352 0.027750976 0.0015017237 0.027892461 0.99791408 -0.055973679
859679245.28302 0.99811453 -0.056817323 0.0015315255 0.028087735 0.0015378464 0.028254842 0.99764109 -0.056577772
869675471.69811 0.99801403 -0.057521999 0.0015977845 0.028397715 0.0015918957 0.028574722 0.99734318 -0.057081342
879671698.11321 0.99800557 -0.058148243 0.0016405815 0.028700653 0.0016347844 0.028887937 0.99735552 -0.05752863
889667924.5283 0.99781889 -0.058930874 0.0016673561 0.029031774 0.0016604867 0.029202487 0.99718845 -0.058017612
899664150.9434 0.99764067 -0.059659779 0.0016528163 0.0293415 0.001666897 0.029515907 0.99725938 -0.058601677
909660377.35849 0.99754488 -0.060266644 0.0016868147 0.029669093 0.0016858405 0.029826082 0.99729794 -0.059495434
919656603.77358 0.99768394 -0.060981855 0.0017058817 0.029995501 0.0017484422 0.030153057 0.99734634 -0.060376734
929652830.18868 0.99766839 -0.061606467 0.0017265035 0.030290108 0.0017604157 0.030456558 0.99720597 -0.061225981
939649056.60377 0.99785101 -0.062256962 0.001725819 0.030595582 0.0017531533 0.03078163 0.99709904 -0.061988503
949645283.01887 0.99777865 -0.063177288 0.0017291062 0.030918324 0.0017912863 0.031120736 0.99688101 -0.062468603
959641509.43396 0.99771374 -0.063741624 0.0017752359 0.031276036 0.0018110247 0.031449545 0.99681097 -0.062994897
969637735.84906 0.99762744 -0.064493209 0.0018450124 0.031656202 0.0018482152 0.031814124 0.99681127 -0.063319445
979633962.26415 0.99752104 -0.065257221 0.0019026049 0.031931344 0.0018934198 0.032110848 0.99684471 -0.064022273
989630188.67925 0.99760914 -0.065703332 0.0019247811 0.03223592 0.0019499194 0.032442018 0.99702191 -0.064611286
999626415.09434 0.99770081 -0.06630218 0.0019421708 0.032601193 0.0019365717 0.032791801 0.99696434 -0.06542182
1009622641.5094 0.99763429 -0.066938967 0.0019660266 0.032899197 0.0020059654 0.033114605 0.99685669 -0.066276342
1019618867.9245 0.99763602 -0.067709491 0.0020322124 0.033218924 0.002074033 0.033421528 0.99657488 -0.067051604
1029615094.3396 0.99774921 -0.068715513 0.0020985464 0.033548824 0.002102905 0.03372927 0.99624503 -0.06761989
1039611320.7547 0.99771178 -0.069550455 0.0021289177 0.033815645 0.0021567419 0.034032717 0.9961853 -0.068287671
1049607547.1698 0.99761373 -0.070426971 0.0021608511 0.034138661 0.0021727602 0.03434265 0.99621421 -0.068901271
1059603773.5849 0.99748254 -0.071119994 0.0021566125 0.034412667 0.0022141263 0.034666725 0.99612617 -0.069454104
1069600000 0.99731612 -0.071787059 0.0021874262 0.03475466 0.0022127246 0.034969874 0.99624848 -0.070151269
1079596226.4151 0.99724871 -0.072494902 0.0021728151 0.035071187 0.0022388254 0.035342198 0.99629664 -0.070893079
1089592452.8302 0.9973073 -0.073133141 0.0022228565 0.035400901 0.0022368031 0.0356551 0.99629295 -0.071671754
1099588679.2453 0.99729228 -0.073754311 0.0022148136 0.035722658 0.0022606887 0.035970904 0.99594098 -0.072251141
1109584905.6604 0.99746555 -0.074596748 0.0022787163 0.036049102 0.0023101158 0.036282539 0.99569857 -0.07277976
1119581132.0755 0.99744219 -0.075517446 0.0022602337 0.036406748 0.0023369589 0.036630262 0.9955523 -0.073244184
1129577358.4906 0.99723041 -0.076237082 0.0022776462 0.036772624 0.0023537595 0.036999293 0.99543381 -0.073617518
1139573584.9057 0.99695659 -0.077110112 0.0023334054 0.037090652 0.002426438 0.037319019 0.99553132 -0.074270308
1149569811.3208 0.99690074 -0.077966325 0.0024039752 0.037424549 0.00247659 0.0376429 0.99559546 -0.075040214
1159566037.7358 0.99666584 -0.078610122 0.0024411436 0.037704881 0.0025218474 0.037954971 0.99572629 -0.076094985
1169562264.1509 0.99647033 -0.079243094 0.0024408121 0.03802596 0.0025222432 0.03826692 0.99556613 -0.076788694
1179558490.566 0.9965167 -0.08004947 0.0024500794 0.038387969 0.0025308849 0.038631205 0.99543607 -0.077498272
1189554716.9811 0.99634951 -0.080779284 0.0024890248 0.038728189 0.0026049512 0.038966876 0.99517417 -0.078067601
1199550943.3962 0.99640548 -0.081657678 0.0025384072 0.039069537 0.0026550181 0.039288372 0.99497706 -0.078472972
1209547169.8113 0.99626845 -0.082481384 0.0025673909 0.039389014 0.0026849452 0.039613489 0.99496305 -0.078854948
1219543396.2264 0.99600708 -0.08325626 0.0026185401 0.039752431 0.0027247402 0.039989479 0.99502277 -0.079217762
1229539622.6415 0.99579298 -0.084027618 0.0026953612 0.040091433 0.0027951896 0.040320896 0.99516451 -0.079944968
1239535849.0566 0.99554056 -0.084707499 0.0027729264 0.040387407 0.002855924 0.040648673 0.99524164 -0.080893606
1249532075.4717 0.99518508 -0.085375845 0.0027989135 0.040691782 0.0029203412 0.040921178 0.99511188 -0.081588075
1259528301.8868 0.99501717 -0.085860401 0.0028527323 0.041036632 0.0029710084 0.041234553 0.99486208 -0.082472593
1269524528.3019 0.99489313 -0.086617112 0.00291631 0.041340016 0.0030491855 0.041542433 0.99469078 -0.083109677
1279520754.717 0.99453467 -0.087329641 0.0029793181 0.041636299 0.0030949668 0.041806165 0.99436861 -0.083677739
1289516981.1321 0.99443561 -0.088161319 0.0029841335 0.041907571 0.0031310646 0.042122569 0.99442136 -0.084132671
1299513207.5472 0.99417037 -0.089031607 0.0030194111 0.042237155 0.0031139683 0.042436741 0.99459398 -0.084539264
1309509433.9623 0.993595 -0.089714587 0.0030316589 0.042546682 0.0031400509 0.04272712 0.99465036 -0.085257933
1319505660.3774 0.9933182 -0.090459928 0.0030288426 0.042880077 0.003109823 0.043059077 0.99464834 -0.085940436
1329501886.7925 0.99311835 -0.091067404 0.0030451436 0.043224029 0.0031397957 0.043402079 0.99466956 -0.086887866
1339498113.2075 0.99281484 -0.091577828 0.0031090705 0.043540247 0.0031926325 0.043683223 0.99432427 -0.087561429
1349494339.6226 0.99261606 -0.092165172 0.0030290224 0.043855753 0.0031495774 0.044045713 0.99397391 -0.088106476
1359490566.0377 0.99251765 -0.092666715 0.0030604471 0.044201057 0.0031596534 0.044345833 0.99377364 -0.088693827
1369486792.4528 0.99226928 -0.093216211 0.0030934056 0.044560473 0.0031826049 0.044672947 0.99358809 -0.089072317
1379483018.8679 0.99200684 -0.093704499 0.003083945 0.044935793 0.0031893281 0.045063008 0.99357414 -0.089444131
1389479245.283 0.99166071 -0.094317913 0.0031389352 0.045288511 0.0032314472 0.045470767 0.99356937 -0.090156406
1399475471.6981 0.99128759 -0.09471187 0.0031600073 0.045647137 0.0032382943 0.045793526 0.99375218 -0.090787649
1409471698.1132 0.9910596 -0.095182471 0.0032047438 0.046003472 0.0032495635 0.046172377 0.99379283 -0.091546364
1419467924.5283 0.99081808 -0.095398068 0.0031806165 0.046403337 0.0032911869 0.046542328 0.9936052 -0.092336953
1429464150.9434 0.99069166 -0.095834404 0.0032505002 0.046817102 0.0033009779 0.04693697 0.99351156 -0.092933148
1439460377.3585 0.99093366 -0.096299633 0.003326376 0.047239419 0.0034087775 0.04738519 0.99327856 -0.093286455
1449456603.7736 0.99085224 -0.096884578 0.0034636306 0.047668833 0.0034659263 0.047756735 0.99312663 -0.093601197
1459452830.1887 0.9908973 -0.09756273 0.0035732854 0.048010945 0.0036090873 0.048178196 0.9932636 -0.093912452
1469449056.6038 0.99093258 -0.09811756 0.0037264442 0.048330728 0.0037534507 0.048514552 0.99350452 -0.094583571
1479445283.0189 0.99077266 -0.098746188 0.0038499767 0.048650742 0.0038958052 0.048807148 0.99347848 -0.095429368
1489441509.434 0.99071467 -0.099230796 0.0039764754 0.048975728 0.0040070564 0.049129304 0.99342048 -0.096246511
1499437735.8491 0.9905439 -0.09959808 0.0040681567 0.049257305 0.0041009784 0.04936919 0.99334651 -0.097094387
1509433962.2642 0.99052662 -0.1000862 0.0041435491 0.049477238 0.0041817669 0.049657386 0.99313414 -0.097766481
1519430188.6792 0.99064457 -0.10063601 0.0042353719 0.04977034 0.0042389371 0.049939629 0.9930594 -0.098436832
1529426415.0943 0.99052227 -0.10135975 0.0043020137 0.050055467 0.0043015033 0.050193556 0.99296135 -0.098885328
1539422641.5094 0.99065965 -0.10209189 0.0043445122 0.050361857 0.0043219272 0.050493293 0.99296898 -0.099298306
1549418867.9245 0.99046624 -0.10298151 0.0044350252 0.05063162 0.0044204695 0.050785691 0.99326026 -0.099986687
1559415094.3396 0.9903934 -0.10360089 0.0044428352 0.050906613 0.0044274591 0.051099915 0.9933784 -0.10068524
1569411320.7547 0.99022323 -0.10434996 0.0045003975 0.051164489 0.0044479743 0.05135851 0.99327636 -0.10147528
1579407547.1698 0.99017465 -0.10488364 0.0044933846 0.051447559 0.0045180488 0.051646117 0.99290991 -0.10224846
1589403773.5849 0.9901045 -0.10542768 0.0045038331 0.051761623 0.0045108404 0.051947933 0.99276268 -0.10291165
1599400000 0.99009913 -0.10586482 0.004505137 0.052022047 0.0045017423 0.052236985 0.99240315 -0.1034362
1609396226.4151 0.99001694 -0.10652274 0.0045097321 0.052360334 0.0044737477 0.052586433 0.99222231 -0.10396034
1619392452.8302 0.99000573 -0.10715002 0.0045151338 0.052694108 0.0044702496 0.052902456 0.99206811 -0.10440934
1629388679.2453 0.9897452 -0.10780561 0.0045378525 0.05298733 0.0045114774 0.053285297 0.99238998 -0.10486016
1639384905.6604 0.98951924 -0.1084544 0.0045265392 0.053387497 0.0045138253 0.053653199 0.99259746 -0.10576765
1649381132.0755 0.98943144 -0.10915363 0.0045394339 0.053758327 0.004518982 0.054027677 0.99257427 -0.10666418
1659377358.4906 0.98927331 -0.10994217 0.0045485552 0.054123648 0.0045667887 0.054384604 0.99251354 -0.10762689
1669373584.9057 0.98917753 -0.11034187 0.0045859581 0.054464243 0.0045739464 0.054737452 0.99223483 -0.10822021
1679369811.3208 0.98923045 -0.11098951 0.0046346933 0.054878205 0.0046387073 0.055124123 0.99211073 -0.10875309
1689366037.7358 0.98921418 -0.11158454 0.0046868436 0.055212669 0.0046283286 0.055513889 0.99184394 -0.10901651
1699362264.1509 0.98941821 -0.11222039 0.0047469977 0.05559941 0.0047378317 0.055903278 0.99200362 -0.10945608
1709358490.566 0.98924822 -0.11282565 0.0047833482 0.055956133 0.0047452515 0.056256164 0.9919647 -0.10995032
1719354716.9811 0.9889406 -0.11349103 0.0048260074 0.056342393 0.0048479848 0.056609765 0.99207288 -0.11071599
1729350943.3962 0.98864567 -0.11401173 0.0049124639 0.056676138 0.0048855245 0.05700285 0.99210376 -0.11146593
