!Keysight Technologies,N5222B,MY61253708,A.15.00.15
!Date: Wednesday, June 19, 2024 10:33:27
!Correction: S11(C  2-Port  ) 
!S21(C  2-Port  ) 
!S12(C  2-Port  ) 
!S22(C  2-Port  ) 
!S2P File: Measurements: S11, S21, S12, S22:
# Hz S  RI   R 50
10000000 0.99847502 -0.00303635 -0.00010759651 0.00079956104 -6.4153297e-005 0.00046996976 0.99827647 -0.0017527938
19996226.415094 0.99998641 -0.0023321807 -1.5598634e-005 0.00068962551 -3.1096599e-005 0.00046905765 0.99981821 -0.002301693
29992452.830189 0.99966931 -0.0024873316 2.0026026e-005 0.00096868613 4.5503431e-005 0.00095490937 0.99925137 -0.0027858913
39988679.245283 1.0000619 -0.0030340254 -1.8660503e-005 0.0012777197 4.4212109e-005 0.0013065102 0.99970788 -0.003057763
49984905.660377 1.0002711 -0.0036687553 -8.291041e-006 0.0016483265 1.052575e-005 0.0016215005 0.99986118 -0.0036856532
59981132.075472 1.0004702 -0.0044788122 4.4119661e-006 0.0019448705 -8.97469e-006 0.0019536894 0.99989146 -0.0042084157
69977358.490566 1.0002508 -0.0050957315 -1.2807832e-005 0.0022061092 2.0048061e-005 0.0022947215 0.99973303 -0.0047299806
79973584.90566 0.99993521 -0.0055881739 -1.1677039e-005 0.0025996624 8.8153174e-006 0.0026104467 0.99936414 -0.0052099824
89969811.320755 0.99995542 -0.0056553483 6.2503386e-007 0.0029114273 1.3347715e-005 0.0029069637 0.99959302 -0.0054422021
99966037.735849 1.0001941 -0.0063954443 1.2997945e-005 0.0032353017 5.8950973e-006 0.0032349725 0.99967378 -0.0061601996
109962264.15094 1.0002156 -0.0072501451 8.9793466e-006 0.0035660393 2.4055305e-005 0.00358135 0.99966359 -0.0069487095
119958490.56604 1.0002749 -0.0081674457 8.2331244e-006 0.003878322 2.5348389e-005 0.0038963067 0.99973607 -0.0078053474
129954716.98113 1.0002162 -0.0091339648 2.6586233e-005 0.0041811261 5.1688869e-005 0.0042117843 0.9997108 -0.008701086
139950943.39623 1.0001413 -0.0099294893 4.2863801e-005 0.0045241239 4.1260355e-005 0.004530719 0.99962372 -0.0094565693
149947169.81132 1.0000052 -0.010618418 5.4001808e-005 0.0048487051 3.1468226e-005 0.0048756651 0.99958885 -0.010041058
159943396.22642 0.99995756 -0.011097044 6.3852407e-005 0.0051797954 4.2294152e-005 0.0051790238 0.99963945 -0.010502994
169939622.64151 0.99994588 -0.011443712 7.9987396e-005 0.0055115032 5.7246361e-005 0.0055128839 0.99967915 -0.010886855
179935849.0566 1.0000606 -0.011665702 7.4970536e-005 0.0058371029 6.2919455e-005 0.0058368966 0.99957561 -0.011212319
189932075.4717 1.0001675 -0.012430131 4.8487913e-005 0.0061253402 9.4746705e-005 0.0061561717 0.99983132 -0.011765748
199928301.88679 1.0000621 -0.013264835 8.914934e-005 0.0064740758 7.0393668e-005 0.006468866 0.99972683 -0.01262182
209924528.30189 0.9998095 -0.013857275 9.4303046e-005 0.0067974292 0.0001000585 0.006822105 0.99948585 -0.013259083
219920754.71698 0.9999153 -0.014657795 0.00010416307 0.007117766 8.7085646e-005 0.0071242526 0.99936968 -0.013900042
229916981.13208 0.99972183 -0.015560299 0.00012657302 0.0074305856 0.0001310159 0.0074589625 0.99939626 -0.014713645
239913207.54717 0.99962628 -0.016139744 0.00013977059 0.0077552437 0.00011275041 0.007773336 0.99926496 -0.015401723
249909433.96226 0.99963069 -0.016770989 0.00015272247 0.0080764992 0.00012904429 0.0080951545 0.99937421 -0.015953153
259905660.37736 0.99978822 -0.017325282 0.00013874099 0.0083656143 0.00016737264 0.0084295692 0.99965668 -0.016433477
269901886.79245 0.99986798 -0.017801568 0.00012741133 0.0087265633 0.00015316927 0.0087466463 1.0000416 -0.017127782
279898113.20755 1.0000899 -0.018593401 0.00015774788 0.0090613253 0.00014293171 0.0090814931 0.99990499 -0.017990619
289894339.62264 0.9999457 -0.019350529 0.0001630378 0.0093681104 0.0001942357 0.0093812887 0.99982417 -0.01873216
299890566.03774 0.99994469 -0.019895107 0.00019156723 0.0096469475 0.00016593817 0.0096993754 0.99949098 -0.019225299
309886792.45283 0.99966341 -0.020396516 0.00019179774 0.010011591 0.00020209898 0.010026954 0.99931979 -0.019528434
319883018.86792 0.99967384 -0.020993561 0.00019161869 0.010346557 0.00025371602 0.010390304 0.99947149 -0.020107388
329879245.28302 0.99964291 -0.021784544 0.00019964902 0.010689951 0.00027116481 0.010685685 0.99959558 -0.020719439
339875471.69811 0.99966043 -0.022409394 0.0002868257 0.011000556 0.00024204305 0.011005691 0.99945134 -0.021615051
349871698.11321 0.99980187 -0.023343682 0.00028283172 0.011293003 0.0002710314 0.011314451 0.99955857 -0.022534341
359867924.5283 0.99968576 -0.024127483 0.00029270444 0.011620069 0.00028555468 0.011652045 0.99952102 -0.023448378
369864150.9434 0.99984097 -0.024959356 0.00027908478 0.011931625 0.00032364251 0.011954492 0.99949646 -0.024129242
379860377.35849 0.99964768 -0.025773391 0.00031522685 0.012265593 0.00032927305 0.012293869 0.99932873 -0.024788797
389856603.77358 0.9996444 -0.02621004 0.00032303808 0.012603654 0.00034465222 0.012591536 0.99934483 -0.02516675
399852830.18868 0.99941158 -0.026861846 0.00035071094 0.012880456 0.00033041835 0.012912884 0.99941355 -0.025729239
409849056.60377 0.99935234 -0.027339758 0.00035875462 0.013228786 0.00032667411 0.013263004 0.99938589 -0.026221266
419845283.01887 0.99925554 -0.027751952 0.00033610547 0.013523135 0.00039311172 0.013610763 0.99942797 -0.026710391
429841509.43396 0.99930418 -0.028388768 0.00042336201 0.013868649 0.00036856718 0.013890138 0.99960411 -0.02753824
439837735.84906 0.99907476 -0.029396489 0.00041528838 0.014195465 0.00042842084 0.014258315 0.99928993 -0.028522089
449833962.26415 0.99885976 -0.030117542 0.00042099878 0.014522038 0.00041644974 0.014510006 0.99886453 -0.029290706
459830188.67925 0.99868774 -0.03080219 0.00045084115 0.014827664 0.00040639937 0.014850589 0.99861282 -0.02993089
469826415.09434 0.99848521 -0.031490147 0.00045938604 0.015164188 0.00044390326 0.015175313 0.9984225 -0.030431777
479822641.50943 0.99853402 -0.031961687 0.00046608632 0.015481458 0.00045054266 0.015530124 0.99840373 -0.030840158
489818867.92453 0.99852949 -0.032382876 0.0005092714 0.015817132 0.00053881016 0.015839327 0.9987449 -0.031265557
499815094.33962 0.99864352 -0.032903939 0.00054174429 0.016160855 0.00053478451 0.016135823 0.99897814 -0.031864673
509811320.75472 0.99871349 -0.033244882 0.00058074121 0.01644991 0.0005383917 0.016467525 0.99911964 -0.032636948
519807547.16981 0.99866456 -0.033748686 0.00058617257 0.01674211 0.00054470263 0.016793095 0.99910057 -0.033322066
529803773.58491 0.99866951 -0.034254223 0.00054445956 0.017123241 0.00055653648 0.017101401 0.99886996 -0.033828884
539800000 0.99881637 -0.034875482 0.00057715713 0.017422831 0.00055760797 0.017474148 0.99877423 -0.034545377
549796226.41509 0.99857086 -0.035726219 0.00061010197 0.01774157 0.00056561595 0.01778803 0.9985826 -0.034985095
559792452.83019 0.99844325 -0.036329865 0.00060913339 0.018027598 0.00065338332 0.018079665 0.99853671 -0.035408646
569788679.24528 0.99835289 -0.037092805 0.00060721161 0.018363891 0.00065528369 0.018410441 0.99863076 -0.036203384
579784905.66038 0.99836302 -0.037608571 0.00067057507 0.018688813 0.00063247525 0.018715726 0.99886465 -0.036895327
589781132.07547 0.99855405 -0.038236529 0.00072356407 0.018993976 0.00070233922 0.019052789 0.99895567 -0.037724406
599777358.49057 0.9987272 -0.038731933 0.00075852778 0.019303625 0.00074089225 0.019369531 0.99909222 -0.038575888
609773584.90566 0.99888706 -0.039578997 0.00077755167 0.019671943 0.00074335461 0.0197099 0.99890929 -0.039344773
619769811.32075 0.99896157 -0.040141523 0.00077637425 0.019994788 0.00080207037 0.020061495 0.99885613 -0.039871156
629766037.73585 0.99877501 -0.040855169 0.00084081478 0.020274339 0.00082262792 0.020318847 0.9986347 -0.040397733
639762264.15094 0.99869132 -0.041496798 0.00087889843 0.020617465 0.0008239348 0.020605143 0.99847656 -0.040826932
649758490.56604 0.99855727 -0.04206723 0.0008656499 0.020908907 0.00083552673 0.020917814 0.99860454 -0.041233987
659754716.98113 0.99840593 -0.042554319 0.00085288659 0.021214165 0.00087312609 0.02128906 0.99869871 -0.041821748
669750943.39623 0.99839973 -0.043038428 0.0008495925 0.021578493 0.00089211436 0.021653159 0.99876529 -0.042656034
679747169.81132 0.99854308 -0.043863028 0.00095729937 0.021904521 0.00093398534 0.021984547 0.99873435 -0.043559201
689743396.22642 0.99868488 -0.044692665 0.00096140243 0.022242775 0.00096176378 0.022276128 0.99855053 -0.044496745
699739622.64151 0.99880421 -0.045450747 0.00099361129 0.022570789 0.0010358468 0.022601802 0.99849534 -0.04513979
709735849.0566 0.99875033 -0.046337001 0.0010724859 0.022844845 0.0010675016 0.022909218 0.99823624 -0.045830943
719732075.4717 0.99866122 -0.047013134 0.0010827482 0.023179347 0.0010938644 0.023215 0.99828601 -0.046373755
729728301.88679 0.99857157 -0.047604501 0.0011160905 0.023446266 0.0010848828 0.023545999 0.99839503 -0.046793342
739724528.30189 0.9984324 -0.0481942 0.001138004 0.023799969 0.0011136881 0.023841999 0.99855566 -0.047436684
749720754.71698 0.9983533 -0.0487248 0.0011821282 0.024088884 0.0011374583 0.024172226 0.99862403 -0.048170656
759716981.13208 0.99832821 -0.049281478 0.0012072362 0.024408866 0.0012045624 0.024456069 0.99849665 -0.048931867
769713207.54717 0.9982543 -0.050028503 0.001213219 0.024698969 0.0012069931 0.024786882 0.99829125 -0.049609333
779709433.96226 0.99850136 -0.05055042 0.0012603807 0.025047915 0.0012541796 0.025107412 0.99804574 -0.050246634
789705660.37736 0.99823642 -0.051587731 0.0012954976 0.025360674 0.00128238 0.025400663 0.99773043 -0.05098784
799701886.79245 0.99828517 -0.052354842 0.0013184985 0.025677858 0.0013012132 0.025726657 0.99763602 -0.051523387
809698113.20755 0.99813187 -0.052871585 0.0013491227 0.025953516 0.0013330735 0.026028009 0.99762046 -0.051987454
819694339.62264 0.99798036 -0.053503662 0.0013797986 0.026285594 0.0013519991 0.026371548 0.99776548 -0.052560359
829690566.03774 0.99790931 -0.054130256 0.0013968246 0.026604932 0.0013738852 0.026673242 0.99799895 -0.053459376
839686792.45283 0.99790865 -0.054437429 0.0013886821 0.026921369 0.0014248253 0.02697432 0.99805611 -0.054227173
849683018.86792 0.99805576 -0.05507271 0.0014331457 0.027244819 0.0014428643 0.027309975 0.9978773 -0.054980904
859679245.28302 0.99807346 -0.055825949 0.0014653243 0.027542725 0.0014955923 0.027641397 0.99764621 -0.055553526
869675471.69811 0.99798119 -0.056558192 0.0015427982 0.02788168 0.0015235702 0.027955731 0.99730265 -0.056079775
879671698.11321 0.99783331 -0.057164472 0.0015682986 0.028159885 0.0015515841 0.028254336 0.99732858 -0.056485191
889667924.5283 0.99775136 -0.057931602 0.0015851175 0.028484104 0.0015738513 0.028535521 0.99714088 -0.056906223
899664150.9434 0.99751365 -0.058650702 0.0015984895 0.028744049 0.0016185036 0.02881404 0.99716949 -0.057517081
909660377.35849 0.997495 -0.059239984 0.0016173851 0.02910015 0.0016364199 0.029162396 0.997374 -0.058371484
919656603.77358 0.99756104 -0.05990386 0.0016576988 0.029373188 0.0016283458 0.0294914 0.99743897 -0.059292033
929652830.18868 0.99759996 -0.060638398 0.0016868627 0.029713474 0.0016528843 0.029765945 0.99723756 -0.06010136
939649056.60377 0.99774975 -0.06121853 0.001682397 0.030023362 0.0016946644 0.030114125 0.99710226 -0.060836226
949645283.01887 0.99767828 -0.062004164 0.0016714409 0.030329498 0.0016731145 0.030437734 0.99682772 -0.061346583
959641509.43396 0.99770921 -0.062703013 0.0016989615 0.030681521 0.0017353613 0.0307624 0.9967525 -0.06178236
969637735.84906 0.99759638 -0.063329577 0.0017391574 0.031013595 0.0017666975 0.031118516 0.99680316 -0.062088907
979633962.26415 0.99742711 -0.064085737 0.001822857 0.031312741 0.0017871123 0.031421348 0.99684083 -0.062797479
989630188.67925 0.99740314 -0.064485639 0.0018621106 0.031649455 0.001841967 0.031741023 0.99706477 -0.063331097
999626415.09434 0.99757278 -0.065118372 0.0018920926 0.031948775 0.0018756157 0.032056361 0.99698067 -0.0641599
1009622641.5094 0.99757791 -0.06573911 0.0018942817 0.032275025 0.0018987441 0.032400519 0.99682546 -0.064941451
1019618867.9245 0.99761671 -0.066546842 0.0019544619 0.032614738 0.0019650357 0.032726288 0.99661326 -0.065821186
1029615094.3396 0.99764329 -0.06751138 0.001989753 0.0328817 0.0020384099 0.032981999 0.99626541 -0.066410124
1039611320.7547 0.99770623 -0.068297982 0.0020359382 0.033181924 0.002040389 0.033283737 0.99624169 -0.067007691
1049607547.1698 0.9975329 -0.069168776 0.0020687447 0.033480767 0.0020488442 0.033585247 0.99628079 -0.067554995
1059603773.5849 0.99745661 -0.069862276 0.0020794766 0.033778794 0.0020933887 0.033898361 0.99622214 -0.068088472
1069600000 0.99722207 -0.070427269 0.0020783609 0.034084577 0.0021065027 0.034202389 0.99643564 -0.068823874
1079596226.4151 0.99717689 -0.071103469 0.0020784927 0.034394227 0.0021205521 0.034520824 0.99643666 -0.069563888
1089592452.8302 0.99721563 -0.071709096 0.0021209419 0.034742735 0.0021672659 0.034836635 0.99637592 -0.070323676
1099588679.2453 0.99729955 -0.072394341 0.002109278 0.03506019 0.0021755341 0.035162497 0.99603057 -0.070923895
1109584905.6604 0.99740273 -0.073157296 0.0021516187 0.035370782 0.0021992158 0.035489842 0.99581033 -0.071441695
1119581132.0755 0.99747372 -0.0742089 0.0021563354 0.035766978 0.0022135703 0.03581965 0.99562246 -0.071868181
1129577358.4906 0.99728322 -0.074888438 0.0022018179 0.036050707 0.0022786949 0.036213588 0.99558091 -0.07231915
1139573584.9057 0.99701989 -0.075775295 0.0022547701 0.036386363 0.0023198109 0.036511213 0.99563175 -0.072927654
1149569811.3208 0.99688411 -0.076633982 0.0023084732 0.036727313 0.0023719794 0.036791537 0.99581623 -0.073657811
1159566037.7358 0.99676156 -0.077266425 0.0023323819 0.03700136 0.0023892215 0.037113555 0.99595428 -0.07470274
1169562264.1509 0.99657595 -0.077839613 0.0023271032 0.037272021 0.0023873784 0.037429374 0.99575204 -0.075512916
1179558490.566 0.99652439 -0.078632191 0.0023599314 0.037646797 0.0024159576 0.037757989 0.99557686 -0.076157674
1189554716.9811 0.99651033 -0.079353333 0.0024011852 0.037983414 0.00247485 0.038124397 0.99529332 -0.076661587
1199550943.3962 0.99645936 -0.080161691 0.0024264734 0.03833013 0.0025251955 0.038422756 0.99513572 -0.077073067
1209547169.8113 0.9963333 -0.08109203 0.0024689222 0.038661759 0.0025474671 0.038763035 0.99503917 -0.077346116
1219543396.2264 0.99611545 -0.081845596 0.0025165575 0.039031256 0.0025812588 0.039092332 0.99513245 -0.077741101
1229539622.6415 0.99582517 -0.082618386 0.0025737695 0.0393297 0.0026850309 0.039430745 0.99533355 -0.078477889
1239535849.0566 0.99567568 -0.083250314 0.0026252763 0.039614026 0.0027297912 0.039737388 0.99539351 -0.079351783
1249532075.4717 0.99537134 -0.084030047 0.0026899993 0.039926466 0.0027931037 0.040039334 0.99524879 -0.080156758
1259528301.8868 0.99515307 -0.084420681 0.0027353894 0.040289272 0.0028373059 0.040351786 0.99499303 -0.081060171
1269524528.3019 0.99505228 -0.08514294 0.0028029634 0.040557515 0.0029134592 0.040666889 0.99477702 -0.081721276
1279520754.717 0.99468106 -0.085854709 0.0028527644 0.040826432 0.0029620561 0.040893395 0.99455416 -0.082258105
1289516981.1321 0.9945749 -0.08667323 0.0028799968 0.041105419 0.0029476192 0.041168243 0.99460089 -0.082643747
1299513207.5472 0.99426913 -0.087520003 0.0028784964 0.041409139 0.0029504765 0.041487873 0.99475455 -0.083033741
1309509433.9623 0.99384379 -0.088176191 0.0028789435 0.041714899 0.002937302 0.04178597 0.99488366 -0.083789214
1319505660.3774 0.99346381 -0.088852152 0.0028565573 0.042075898 0.002992182 0.042099383 0.99487835 -0.084383205
1329501886.7925 0.99321342 -0.089524508 0.002903793 0.042393424 0.0029964782 0.042406622 0.99488556 -0.085343421
1339498113.2075 0.99299324 -0.08999753 0.0029007839 0.042669546 0.0030173827 0.042743318 0.99449635 -0.086069614
1349494339.6226 0.99280196 -0.090591922 0.0029017385 0.043020647 0.0029912102 0.043056149 0.99420363 -0.086698778
1359490566.0377 0.9927696 -0.091266513 0.0029196404 0.043356843 0.0030118767 0.04338425 0.99398327 -0.087142795
1369486792.4528 0.99249929 -0.091771662 0.0029201983 0.04372938 0.0030082762 0.043724354 0.993788 -0.087609947
1379483018.8679 0.99224859 -0.092338271 0.0029617723 0.044079714 0.0030170693 0.044059813 0.9938339 -0.087849714
1389479245.283 0.99189341 -0.092855632 0.0029760543 0.044433378 0.0030185394 0.044445224 0.99383128 -0.088611841
1399475471.6981 0.99147451 -0.093201697 0.0029708687 0.044800781 0.0030617192 0.044791877 0.99401498 -0.089287013
1409471698.1132 0.99128658 -0.093633942 0.0030316543 0.045156017 0.0030692313 0.045176454 0.99405426 -0.090110563
1419467924.5283 0.99105 -0.093808204 0.0030375319 0.045499127 0.0030949134 0.045506552 0.99388438 -0.090784341
1429464150.9434 0.99097067 -0.094309628 0.003087787 0.04593046 0.0031381249 0.045926392 0.99378908 -0.091320813
1439460377.3585 0.9910779 -0.09480086 0.0031857025 0.046374928 0.0031901933 0.046377525 0.99354446 -0.091758087
1449456603.7736 0.99116415 -0.095357329 0.0032720547 0.046754111 0.0033115707 0.046754234 0.99343103 -0.092020079
1459452830.1887 0.99119973 -0.096039712 0.0034065638 0.047157291 0.0033992901 0.047132503 0.993577 -0.092285991
1469449056.6038 0.99120557 -0.096737862 0.0035546469 0.047466483 0.0035717878 0.047471784 0.99377382 -0.093000561
1479445283.0189 0.99103028 -0.097295962 0.0036813715 0.047733385 0.0036744201 0.04778327 0.99384499 -0.093875512
1489441509.434 0.99092996 -0.097819239 0.0038101953 0.048077881 0.003782263 0.048036732 0.99366605 -0.094750732
1499437735.8491 0.99076927 -0.098204762 0.0039215144 0.048340723 0.0039273296 0.048318952 0.99364555 -0.095591784
1509433962.2642 0.99071956 -0.098659508 0.0039984081 0.048551124 0.0040126638 0.048560593 0.99345064 -0.096258909
1519430188.6792 0.99085373 -0.099102437 0.0040729903 0.048856556 0.0040250886 0.048844252 0.99330711 -0.096770376
1529426415.0943 0.99079657 -0.099810302 0.0041126702 0.049119338 0.0041003656 0.049138524 0.9932667 -0.097286433
1539422641.5094 0.9908458 -0.10060992 0.0041667446 0.049401846 0.0041379896 0.049424212 0.99327368 -0.097683772
1549418867.9245 0.9906618 -0.10146262 0.0042578587 0.049647067 0.0042024264 0.049702439 0.99352092 -0.098399073
1559415094.3396 0.99055195 -0.10210729 0.0042802338 0.049967121 0.0042517874 0.04996527 0.99375165 -0.099032134
1569411320.7547 0.99047124 -0.10292287 0.0043197554 0.050205179 0.0042674253 0.050281763 0.99363273 -0.099832699
1579407547.1698 0.99037135 -0.10335465 0.0043122089 0.050501078 0.004311515 0.050560404 0.99323398 -0.10066912
1589403773.5849 0.99032581 -0.10393551 0.0043284167 0.050767839 0.0043082293 0.050837241 0.99296558 -0.101383
1599400000 0.99028933 -0.10434949 0.0042987159 0.051073164 0.0042652022 0.05109892 0.992589 -0.10184017
1609396226.4151 0.99030328 -0.10500924 0.0043324945 0.051342305 0.0042565716 0.051412471 0.99247909 -0.10230696
1619392452.8302 0.9902181 -0.10550481 0.0043134633 0.051742211 0.0042355824 0.051749915 0.99241519 -0.10275427
1629388679.2453 0.99000883 -0.10630938 0.0043302383 0.05201932 0.0042726137 0.052094571 0.99261844 -0.1032066
1639384905.6604 0.98983485 -0.10695496 0.0043329704 0.05241869 0.0042755664 0.052470788 0.99291247 -0.10408652
1649381132.0755 0.9895435 -0.10753402 0.0043858197 0.052736737 0.0043236669 0.052844658 0.99288774 -0.10498902
1659377358.4906 0.98945391 -0.10833055 0.0043536443 0.053067628 0.0043271799 0.053189896 0.992805 -0.10582605
1669373584.9057 0.98933303 -0.10881685 0.0043683928 0.053471446 0.0043542632 0.053534925 0.99252439 -0.10651891
1679369811.3208 0.98945445 -0.10947499 0.0044086082 0.053803924 0.0043759709 0.053937417 0.9922291 -0.10707787
1689366037.7358 0.98944032 -0.11014208 0.0044766348 0.054218896 0.004389815 0.054273494 0.99209106 -0.10732478
1699362264.1509 0.98963374 -0.11062694 0.004502248 0.054529615 0.0044307662 0.054677706 0.99234074 -0.10771523
1709358490.566 0.98945355 -0.11127779 0.004554458 0.054890096 0.0045039859 0.055001128 0.99235553 -0.10823795
1719354716.9811 0.98916405 -0.11191857 0.0046106391 0.055264391 0.0045524165 0.05538388 0.99245369 -0.10891378
1729350943.3962 0.98889679 -0.11247227 0.0046588089 0.055675358 0.0046073496 0.055786114 0.99251854 -0.10983726
