!Keysight Technologies,N5222B,MY61253708,A.15.00.15
!Date: Wednesday, June 19, 2024 08:57:16
!Correction: S11(C  2-Port  ) 
!S21(C  2-Port  ) 
!S12(C  2-Port  ) 
!S22(C  2-Port  ) 
!S2P File: Measurements: S11, S21, S12, S22:
# Hz S  RI   R 50
10000000 0.99861908 -0.0023964942 1.1337819e-005 0.00043211845 0.00033604482 0.00060917228 0.99868548 -0.00086551905
19996226.415094 0.99918675 -0.0019584894 -2.6491645e-005 0.00082832249 1.2499164e-005 0.00058724172 0.99925435 -0.0021066368
29992452.830189 0.9997701 -0.0025458038 2.6865309e-005 0.0011035821 6.2652311e-005 0.0010871118 0.99955875 -0.0027211905
39988679.245283 1.0000303 -0.003149271 2.5468689e-005 0.0014487059 1.7979415e-005 0.0015015334 0.99959522 -0.0032532662
49984905.660377 1.0001951 -0.0038872361 -4.3680193e-006 0.0018807045 -6.7852088e-006 0.0018296032 0.99977827 -0.0038643777
59981132.075472 1.0003464 -0.0047753751 5.240523e-005 0.0021605922 -7.0754322e-006 0.0021515605 0.99974912 -0.0044356585
69977358.490566 1.0000416 -0.0053050909 2.6676469e-005 0.0025218627 1.4414189e-005 0.0025660123 0.99958968 -0.0049565379
79973584.90566 0.99980992 -0.0058637559 3.0704541e-005 0.0028459339 3.7602265e-005 0.0028737085 0.999358 -0.005479306
89969811.320755 0.99980676 -0.0061562657 -3.6515412e-005 0.0032218518 3.9696344e-005 0.0032446617 0.99948013 -0.0058411658
99966037.735849 1.0000471 -0.0069136769 1.8141e-006 0.003592619 3.2379234e-005 0.0035971596 0.99952769 -0.0066255778
109962264.15094 1.000104 -0.0078579932 2.9128627e-005 0.0039545689 1.655193e-005 0.0039776298 0.99957013 -0.0074872822
119958490.56604 1.0001335 -0.0088706017 4.8018759e-005 0.0042908988 3.708736e-005 0.0043460177 0.99958944 -0.008417815
129954716.98113 1.0000407 -0.0099219084 3.5666046e-005 0.0046738526 2.9030256e-005 0.0046870555 0.99959522 -0.0093744397
139950943.39623 0.99993336 -0.010786997 5.0090108e-005 0.0050373105 6.2472143e-005 0.0050586252 0.99949193 -0.010173988
149947169.81132 0.99979293 -0.011448145 7.4173557e-005 0.0053950869 7.0700189e-005 0.0054079443 0.99939495 -0.010775715
159943396.22642 0.99974865 -0.011981905 6.2617473e-005 0.0057757711 5.2842079e-005 0.0057700896 0.99950802 -0.011283964
169939622.64151 0.99978244 -0.012335621 8.2567043e-005 0.0060995077 7.9150253e-005 0.0061550378 0.99959981 -0.011726916
179935849.0566 0.999825 -0.012610853 0.00010247331 0.0064631491 0.00011234276 0.0064896899 0.99951142 -0.012158602
189932075.4717 0.99999833 -0.013455361 0.00011577504 0.0068317242 9.9411234e-005 0.0068519129 0.99969727 -0.012787789
199928301.88679 0.99996221 -0.014407575 0.00011677411 0.0071776272 0.00012414623 0.0072281063 0.99962205 -0.013643533
209924528.30189 0.9996292 -0.015108526 0.00013444631 0.0075453524 0.00011231028 0.0075458353 0.99935514 -0.014405891
219920754.71698 0.99955654 -0.015994698 0.00013011345 0.0078820707 0.00014310516 0.0079349931 0.99919045 -0.015194327
229916981.13208 0.99940288 -0.016868919 0.0001460833 0.0082302149 0.00016737031 0.0083085997 0.99907541 -0.015982121
239913207.54717 0.99924886 -0.017559847 0.00014410728 0.008604208 0.00014886544 0.0086483555 0.99909931 -0.016688831
249909433.96226 0.99930763 -0.018208236 0.00015214481 0.0089430595 0.00017046975 0.0090321302 0.99919295 -0.017369688
259905660.37736 0.99930841 -0.018876702 0.0001990716 0.0092994133 0.00015518069 0.0093725696 0.999349 -0.017964989
269901886.79245 0.99953979 -0.019509584 0.00013990724 0.0097126523 0.00015360978 0.0097189602 0.99969923 -0.018717214
279898113.20755 0.9997099 -0.020204261 0.00019704388 0.010094004 0.00016964553 0.010094363 0.99955511 -0.019423485
289894339.62264 0.9996525 -0.020968616 0.00024049357 0.010413227 0.00021483982 0.010458093 0.99947304 -0.020287782
299890566.03774 0.99957174 -0.021624804 0.00022890628 0.010756232 0.00023562461 0.010827936 0.99926639 -0.020767003
309886792.45283 0.99929029 -0.022188485 0.00022654445 0.011134597 0.00020750752 0.011190765 0.99912488 -0.021339141
319883018.86792 0.9992075 -0.022882104 0.00026478339 0.011503864 0.0002562697 0.011567326 0.99911261 -0.021755844
329879245.28302 0.99916029 -0.023588866 0.00025802106 0.011823269 0.00028106384 0.011912968 0.99922013 -0.022535294
339875471.69811 0.99917769 -0.024334013 0.00032538944 0.012204189 0.00034199457 0.012263267 0.99913925 -0.023304351
349871698.11321 0.99932516 -0.025259465 0.00033083837 0.012536669 0.00035317522 0.012664836 0.99927974 -0.024312824
359867924.5283 0.99923658 -0.026043653 0.00034412229 0.012921156 0.00035503041 0.012969591 0.99921548 -0.025240004
369864150.9434 0.99946594 -0.026894003 0.00041046296 0.01324811 0.00037370785 0.013331804 0.99916792 -0.025983632
379860377.35849 0.99927002 -0.027625635 0.00039736135 0.013589792 0.00041905814 0.013693285 0.99917233 -0.026777372
389856603.77358 0.99917281 -0.02826038 0.00041670306 0.013972996 0.00040949462 0.014051726 0.99908614 -0.027206153
399852830.18868 0.99904764 -0.028870702 0.00038943952 0.014298264 0.00041454891 0.014461738 0.99913299 -0.027671933
409849056.60377 0.99892265 -0.029334009 0.00042256617 0.014681513 0.0004310183 0.014792706 0.99912906 -0.028117316
419845283.01887 0.99896669 -0.029774427 0.00047326321 0.015033026 0.00050223945 0.015145431 0.99926257 -0.028756142
429841509.43396 0.9990387 -0.03043741 0.00049893418 0.015400533 0.00046880823 0.015492195 0.99931681 -0.029520839
439837735.84906 0.99904156 -0.031382293 0.00048748404 0.015733682 0.00052061048 0.01582662 0.99910563 -0.030514821
449833962.26415 0.99881941 -0.032269418 0.00052221538 0.016065916 0.00051897392 0.016174 0.99883026 -0.031359553
459830188.67925 0.99875677 -0.033082992 0.00054553337 0.016451342 0.00054365117 0.016503859 0.99861938 -0.032236636
469826415.09434 0.99872398 -0.033938676 0.00056296587 0.016826529 0.00054352917 0.016912507 0.99842447 -0.03287515
479822641.50943 0.99861997 -0.034533098 0.00063168677 0.017153591 0.00058122328 0.017296933 0.99847174 -0.033340216
489818867.92453 0.99862647 -0.035047203 0.00062481593 0.017568458 0.0006387569 0.017636191 0.99881351 -0.033894807
499815094.33962 0.99879044 -0.035654604 0.0006426 0.017909838 0.00066512311 0.017978402 0.99906158 -0.034556448
509811320.75472 0.99891496 -0.036155969 0.00066558114 0.018227018 0.00067534921 0.018385578 0.99919093 -0.035371888
519807547.16981 0.99880558 -0.03673932 0.00072833663 0.018586788 0.00071076397 0.01869482 0.99920499 -0.036241591
529803773.58491 0.99872655 -0.037402272 0.0007003881 0.018968655 0.00066721532 0.019094015 0.99895418 -0.036975116
539800000 0.99875784 -0.038233921 0.00076604332 0.019319735 0.00074187666 0.019403387 0.99865377 -0.037653103
549796226.41509 0.99854797 -0.03904447 0.00079168985 0.019666826 0.00076811342 0.019821571 0.99845678 -0.038128734
559792452.83019 0.99833167 -0.039795667 0.00081307348 0.020033251 0.00078517664 0.02015529 0.99835527 -0.038698584
569788679.24528 0.99818003 -0.040598184 0.00080238516 0.020368285 0.00081400713 0.020479914 0.99847108 -0.039403975
579784905.66038 0.99816686 -0.041138835 0.00087269186 0.020756166 0.00084571866 0.020877907 0.99859798 -0.040218875
589781132.07547 0.99827909 -0.041877836 0.00090584718 0.02108942 0.00089736283 0.021271409 0.99874759 -0.041117817
599777358.49057 0.9983952 -0.04241854 0.0009410372 0.021504676 0.00094548147 0.021593306 0.99877781 -0.041919827
609773584.90566 0.99856734 -0.043357071 0.00098230643 0.021796705 0.00098019582 0.021969777 0.99856979 -0.042780943
619769811.32075 0.99866009 -0.04395175 0.0010488881 0.022186887 0.0010524485 0.022313399 0.99854296 -0.043389171
629766037.73585 0.99837673 -0.044745833 0.0011065509 0.022482399 0.0010847552 0.022600526 0.99828517 -0.043923914
639762264.15094 0.99820834 -0.045305595 0.0010747192 0.02283185 0.0010711846 0.02294944 0.99818105 -0.04444848
649758490.56604 0.99811268 -0.045929521 0.0010840483 0.02317436 0.0010734051 0.023326907 0.99823034 -0.044866249
659754716.98113 0.99795544 -0.046466857 0.0010914914 0.023559563 0.001088189 0.023678076 0.99823725 -0.045474142
669750943.39623 0.99791068 -0.047035843 0.0010623951 0.023895271 0.0011409912 0.024098221 0.99832463 -0.046361595
679747169.81132 0.99784118 -0.047847141 0.0011769233 0.024288652 0.0011817187 0.02446655 0.99826521 -0.047275599
689743396.22642 0.99810028 -0.048702508 0.001249535 0.024660479 0.0012609055 0.024821224 0.99812424 -0.048259616
699739622.64151 0.998173 -0.049490094 0.0012725517 0.024948165 0.0012898063 0.025172906 0.99797237 -0.049036384
709735849.0566 0.9982363 -0.05032444 0.0013030376 0.025343969 0.001314208 0.025510537 0.99773878 -0.049695812
719732075.4717 0.99804491 -0.051064491 0.0013520401 0.025672814 0.0013627037 0.02590682 0.99785447 -0.050299317
729728301.88679 0.99794954 -0.051655591 0.0013780864 0.026015274 0.0013967464 0.026202455 0.99787331 -0.050750554
739724528.30189 0.99781877 -0.052305266 0.0014096061 0.026370643 0.0014122864 0.026580626 0.99810451 -0.05143176
749720754.71698 0.99774247 -0.052787945 0.001460983 0.026737068 0.0014735116 0.026904713 0.99809468 -0.052137434
759716981.13208 0.99775422 -0.053434998 0.0015118839 0.027043056 0.0014735879 0.027211584 0.9980309 -0.052976668
769713207.54717 0.99763423 -0.054180026 0.0015291041 0.027400715 0.0015587993 0.027622867 0.99773169 -0.053711385
779709433.96226 0.99797493 -0.05485557 0.0015486159 0.027759286 0.0015682986 0.027956106 0.99752539 -0.054342609
789705660.37736 0.99775469 -0.055808634 0.0016176868 0.028081372 0.0016358197 0.028308112 0.99724191 -0.055102408
799701886.79245 0.99772298 -0.056699932 0.0016666697 0.028429003 0.0016629174 0.02862582 0.99714708 -0.055694908
809698113.20755 0.9976083 -0.057291701 0.0016823988 0.028789507 0.0016719145 0.028983781 0.99716824 -0.05617179
819694339.62264 0.99740809 -0.057975054 0.0017225058 0.029124603 0.0016750544 0.029370468 0.99734932 -0.056835324
829690566.03774 0.99744833 -0.058559924 0.001770298 0.029487083 0.0017505763 0.029707111 0.99763572 -0.057784468
839686792.45283 0.99752408 -0.059067905 0.0017640591 0.029816931 0.0017882418 0.03001965 0.99769491 -0.05861342
849683018.86792 0.997554 -0.059693977 0.0018381379 0.030187305 0.0018353399 0.030416531 0.99744225 -0.059492573
859679245.28302 0.99756813 -0.060480684 0.0018505082 0.030545622 0.0018685991 0.030742887 0.99724925 -0.060137957
869675471.69811 0.99745882 -0.061285317 0.0018837871 0.030915111 0.001901133 0.03113015 0.99688941 -0.060634673
879671698.11321 0.99744695 -0.062042914 0.0019729841 0.031222323 0.0019705459 0.031447195 0.99686313 -0.061082058
889667924.5283 0.99717587 -0.062874705 0.0019907868 0.031566523 0.0019977912 0.031804763 0.99671662 -0.06165725
899664150.9434 0.99701548 -0.063664794 0.0020173974 0.031911857 0.0020141648 0.032146763 0.99674344 -0.062326729
909660377.35849 0.99698323 -0.064338312 0.0020452584 0.032234125 0.002030334 0.032503225 0.99688351 -0.063230634
919656603.77358 0.99711388 -0.065007955 0.0020544622 0.032596566 0.0020990539 0.03285319 0.99688637 -0.064192057
929652830.18868 0.99708831 -0.065714091 0.0020928057 0.032923479 0.002132195 0.033173725 0.99673092 -0.065142453
939649056.60377 0.99723119 -0.066423208 0.0021489207 0.033295035 0.0021676347 0.033515323 0.99651009 -0.065828413
949645283.01887 0.99722207 -0.067291059 0.0021067113 0.033629879 0.0021720747 0.033900086 0.996346 -0.066412076
959641509.43396 0.99706447 -0.067997187 0.0021676365 0.034006879 0.0021663215 0.034249231 0.99622786 -0.066905618
969637735.84906 0.99699938 -0.068766028 0.0022416618 0.034381229 0.0022489186 0.034638032 0.99629313 -0.067270875
979633962.26415 0.99683732 -0.069486804 0.0023011609 0.03469678 0.0022929728 0.034984775 0.9962526 -0.068024918
989630188.67925 0.99674243 -0.070050895 0.002308487 0.035047341 0.0023512421 0.035335004 0.99643648 -0.06866172
999626415.09434 0.99695432 -0.070676714 0.0023621675 0.035431314 0.0023919698 0.035680637 0.99634445 -0.069525778
1009622641.5094 0.9969002 -0.071423128 0.0024059629 0.035799161 0.0024191597 0.036061332 0.99623221 -0.070390463
1019618867.9245 0.99699134 -0.072303683 0.0024570031 0.0361524 0.0025210544 0.036462508 0.9959693 -0.071289822
1029615094.3396 0.99695539 -0.073304564 0.002542492 0.036459655 0.0025886223 0.036727861 0.99549216 -0.071943372
1039611320.7547 0.99701357 -0.074211776 0.0025909198 0.036801238 0.0026058471 0.03709824 0.99548841 -0.072623372
1049607547.1698 0.99686909 -0.075087227 0.002623939 0.037131712 0.0026313558 0.037395466 0.99548215 -0.073225312
1059603773.5849 0.99668139 -0.075861841 0.002665868 0.037455224 0.0026658801 0.03773804 0.99550116 -0.073808044
1069600000 0.99635255 -0.076466471 0.0026315488 0.037768766 0.0027302615 0.038104396 0.99559927 -0.074535638
1079596226.4151 0.99628961 -0.077144898 0.0026699705 0.038106263 0.0027398523 0.038430892 0.99554795 -0.075320788
1089592452.8302 0.99645245 -0.07777071 0.0027248254 0.0384886 0.0027940171 0.038788412 0.99544668 -0.076106697
1099588679.2453 0.99639893 -0.078496397 0.0027080886 0.038841315 0.0027723573 0.039136335 0.99513912 -0.076679468
1109584905.6604 0.99649572 -0.079306215 0.0027455091 0.039198402 0.002832978 0.039501123 0.9948644 -0.077299029
1119581132.0755 0.99649632 -0.080405466 0.0028109262 0.039577052 0.0028615058 0.039882403 0.99468589 -0.077724487
1129577358.4906 0.99628228 -0.08125037 0.0028518159 0.03996934 0.0029208045 0.040255763 0.99455798 -0.078242928
1139573584.9057 0.99599952 -0.082119703 0.0028976807 0.040313113 0.0029569315 0.040597849 0.99462938 -0.07896021
1149569811.3208 0.99590814 -0.083057791 0.0029835554 0.040671017 0.003030706 0.040968154 0.99482554 -0.079774827
1159566037.7358 0.99561095 -0.083777785 0.0030094739 0.040993832 0.0030853283 0.04128975 0.99491322 -0.080792457
1169562264.1509 0.99545956 -0.084378392 0.0030040797 0.041325498 0.0030975156 0.04163669 0.99468195 -0.081621379
1179558490.566 0.99539071 -0.085121915 0.0030301383 0.041722715 0.0031581705 0.04203381 0.99452311 -0.0823346
1189554716.9811 0.99542803 -0.085861742 0.0030793389 0.042085074 0.0031867502 0.042382166 0.99430406 -0.082899421
1199550943.3962 0.99537259 -0.086719543 0.0031330809 0.042460561 0.0032460727 0.042758204 0.99400902 -0.083319366
1209547169.8113 0.99518859 -0.087655976 0.0031847386 0.042807858 0.0032952745 0.043099605 0.99402559 -0.083717704
1219543396.2264 0.9949705 -0.088499755 0.0032288418 0.043184377 0.0033630575 0.043515347 0.99408364 -0.084084556
1229539622.6415 0.99463934 -0.089391321 0.0033137649 0.043531463 0.0034700576 0.043857403 0.99416244 -0.084829509
1239535849.0566 0.99434155 -0.090090573 0.0033795778 0.04387711 0.0035292935 0.044183362 0.994205 -0.085808575
1249532075.4717 0.99404877 -0.09079197 0.0034268147 0.044235449 0.0035857249 0.04451289 0.99407965 -0.086651728
1259528301.8868 0.99389899 -0.091315985 0.0034794286 0.044567764 0.0036594942 0.044826042 0.99374115 -0.087611794
1269524528.3019 0.99373925 -0.092188776 0.0035923701 0.04488185 0.0037329402 0.045170441 0.99354112 -0.088300198
1279520754.717 0.99339581 -0.092952475 0.0036410452 0.045238923 0.003778934 0.04546098 0.99325842 -0.088850185
1289516981.1321 0.99318826 -0.093700439 0.0036409311 0.045522012 0.0038013412 0.045792256 0.99330842 -0.089320481
1299513207.5472 0.99287355 -0.094576001 0.0036843661 0.045878157 0.0038202126 0.046141356 0.99347651 -0.089726359
1309509433.9623 0.99238694 -0.095226258 0.0036962861 0.046187468 0.0038507972 0.046463605 0.99355239 -0.090505093
1319505660.3774 0.99199206 -0.096043721 0.0036963401 0.046552129 0.0038648704 0.046816912 0.99365252 -0.091122001
1329501886.7925 0.99162579 -0.096725136 0.0037635043 0.04689911 0.003910251 0.047118507 0.99358577 -0.092139065
1339498113.2075 0.99144667 -0.097274244 0.0037835734 0.047267765 0.0039135879 0.047479872 0.99313456 -0.092874199
1349494339.6226 0.99114585 -0.097911559 0.0037549585 0.047625598 0.003913465 0.047862109 0.99272335 -0.093516834
1359490566.0377 0.99114013 -0.098462015 0.0038022008 0.048000142 0.0039014053 0.04825823 0.99250108 -0.09401086
1369486792.4528 0.99087226 -0.099102914 0.0038301833 0.04838419 0.0039167292 0.048639551 0.99237329 -0.094519466
1379483018.8679 0.99059165 -0.099638149 0.0038668062 0.048782811 0.0039624916 0.049012799 0.99231696 -0.094929323
1389479245.283 0.9901495 -0.10017523 0.0038985945 0.049202181 0.0040054414 0.049410574 0.99231583 -0.095662385
1399475471.6981 0.98973817 -0.10058618 0.0039313864 0.049540304 0.0040266663 0.049795836 0.99250007 -0.096349746
1409471698.1132 0.98941249 -0.10097089 0.0039918283 0.049959436 0.0040680333 0.050190683 0.99246925 -0.097284608
1419467924.5283 0.98920816 -0.1012094 0.0040152967 0.050347243 0.0040954379 0.050587595 0.99227512 -0.097905099
1429464150.9434 0.98907804 -0.10168093 0.0040488075 0.050789215 0.0041481983 0.05102177 0.99222255 -0.09849146
1439460377.3585 0.98927611 -0.10219097 0.0041853758 0.051245175 0.0042062411 0.051459853 0.99184716 -0.098893955
1449456603.7736 0.98930168 -0.10282604 0.0042725662 0.051658075 0.0042810123 0.051878665 0.99175906 -0.099205241
1459452830.1887 0.98941123 -0.10357252 0.0044227149 0.052096672 0.0044327565 0.052326493 0.99187446 -0.099551052
1469449056.6038 0.98923969 -0.10428554 0.0045526959 0.052439574 0.0046326593 0.052704658 0.9920823 -0.1002962
1479445283.0189 0.98912001 -0.10491095 0.0046915561 0.052746221 0.004710705 0.052999705 0.9921661 -0.10124385
1489441509.434 0.98902762 -0.10553071 0.0048660822 0.053092398 0.0049014445 0.053329349 0.99200559 -0.10214445
1499437735.8491 0.98884392 -0.10582656 0.004976619 0.053395748 0.0049711354 0.053637408 0.99191904 -0.10300317
1509433962.2642 0.98888016 -0.10631405 0.0050930092 0.053672601 0.0050736703 0.053950571 0.99174523 -0.10365787
1519430188.6792 0.98888361 -0.10679808 0.0051415805 0.053987917 0.0051565226 0.054225691 0.99157596 -0.10425448
1529426415.0943 0.98887312 -0.10750547 0.0052170698 0.054287337 0.0051803011 0.054577533 0.99156111 -0.10470659
1539422641.5094 0.98897469 -0.10839244 0.0052787783 0.054596212 0.0052751168 0.054874681 0.99157441 -0.10517726
1549418867.9245 0.98869795 -0.10926726 0.0053359559 0.054940857 0.0053122845 0.055196974 0.99177676 -0.10599218
1559415094.3396 0.98862219 -0.10995486 0.0053839479 0.055247501 0.0053785145 0.055492297 0.99184793 -0.10668832
1569411320.7547 0.98848212 -0.11075884 0.0054600397 0.055510968 0.0054505775 0.055807427 0.99174672 -0.10750706
1579407547.1698 0.98841256 -0.11128575 0.005459805 0.055832881 0.0054364866 0.056119248 0.99136597 -0.10834381
1589403773.5849 0.98831528 -0.1118699 0.0054750163 0.056152277 0.0054551754 0.056459524 0.9910655 -0.10913387
1599400000 0.98828137 -0.11235273 0.0055058282 0.05648496 0.005499715 0.056751773 0.9907757 -0.10956386
1609396226.4151 0.98821002 -0.11300977 0.0054586371 0.056824576 0.0054859063 0.057094298 0.99059939 -0.11013924
1619392452.8302 0.98825431 -0.11369887 0.0055111535 0.057192303 0.0054739844 0.057472654 0.99062753 -0.11059093
1629388679.2453 0.98796976 -0.11438853 0.0055413879 0.057555165 0.0055282451 0.057905152 0.99080032 -0.11122516
1639384905.6604 0.98774892 -0.11508138 0.0055101458 0.057932708 0.0055288021 0.058258396 0.99110085 -0.11208095
1649381132.0755 0.98752064 -0.11583871 0.005606506 0.058310114 0.0055619422 0.058673859 0.99093056 -0.1129885
1659377358.4906 0.98728633 -0.11656764 0.0056006331 0.058725961 0.0056141652 0.05910711 0.99093783 -0.1138899
1669373584.9057 0.98729652 -0.1171096 0.0056536603 0.059087481 0.0056188265 0.059461862 0.99057645 -0.11455801
1679369811.3208 0.98727793 -0.11779092 0.0057160575 0.059488509 0.0056893118 0.059861012 0.99031413 -0.11510006
1689366037.7358 0.98719621 -0.11836928 0.0057644658 0.059896108 0.0057466347 0.060294464 0.99019444 -0.11546251
1699362264.1509 0.9874478 -0.11911586 0.0058762813 0.060324501 0.0058094794 0.060697161 0.99030638 -0.11593145
1709358490.566 0.98724514 -0.11982411 0.0058883531 0.06069928 0.0058601154 0.061091468 0.99034464 -0.11652553
1719354716.9811 0.98695862 -0.12040666 0.0060107224 0.061120212 0.0059919544 0.061530352 0.99043763 -0.11724117
1729350943.3962 0.9866972 -0.12097582 0.0061074197 0.061513621 0.0060660522 0.061935559 0.99034935 -0.11815503
