!Keysight Technologies,N5222B,MY61253708,A.15.00.15
!Date: Wednesday, June 19, 2024 09:17:37
!Correction: S11(C  2-Port  ) 
!S21(C  2-Port  ) 
!S12(C  2-Port  ) 
!S22(C  2-Port  ) 
!S2P File: Measurements: S11, S21, S12, S22:
# Hz S  RI   R 50
10000000 0.9986015 -0.0023305118 3.9876795e-005 0.00030010976 4.4632645e-005 0.00043668458 0.9989199 -0.0011176765
19996226.415094 0.99896264 -0.0021285117 3.4912024e-005 0.0008395015 2.0193751e-005 0.00062322058 0.99902999 -0.0023194253
29992452.830189 0.99974447 -0.0025036037 -8.1976759e-007 0.0010134717 2.0750507e-005 0.00096178171 0.99960172 -0.0026953816
39988679.245283 1.0000547 -0.0030478239 1.199964e-005 0.001342118 3.0241121e-005 0.0013541561 0.99965566 -0.00315772
49984905.660377 1.0001726 -0.0038264096 -2.9472576e-005 0.0016979307 6.4672204e-006 0.0017169258 0.99981141 -0.0037586689
59981132.075472 1.000246 -0.0047232509 -1.2229313e-005 0.0020411769 4.3766282e-005 0.0020610401 0.99972987 -0.0043121278
69977358.490566 1.0000361 -0.0053211134 -4.981317e-006 0.0023802582 3.8837185e-005 0.0023918645 0.99964666 -0.004889654
79973584.90566 0.99980044 -0.0058268309 2.1713553e-005 0.0027262431 -1.9627623e-005 0.0027047801 0.99937582 -0.0053704977
89969811.320755 0.99982727 -0.0060402155 4.2169122e-006 0.0030475757 4.014466e-006 0.0031000811 0.99955845 -0.0056273639
99966037.735849 1.0000139 -0.0068117976 4.6467234e-005 0.0034016424 3.879267e-005 0.0034146493 0.99962872 -0.0064362586
109962264.15094 1.0000765 -0.0077451468 2.40191e-005 0.0037207832 3.4463184e-005 0.0037768278 0.99964583 -0.0072684437
119958490.56604 1.0000815 -0.008654952 3.581401e-005 0.0040773009 2.6549445e-005 0.0041104457 0.99965298 -0.0082024038
129954716.98113 1.0000371 -0.0096520483 4.150474e-005 0.0044277795 5.4306816e-005 0.0044406583 0.99961925 -0.0091071129
139950943.39623 0.99996269 -0.010495642 5.4480304e-005 0.0047589946 4.4397035e-005 0.00479049 0.99954236 -0.0098658446
149947169.81132 0.99984968 -0.011150658 6.4322259e-005 0.0050939643 5.8482867e-005 0.005140163 0.99952132 -0.01045084
159943396.22642 0.99982619 -0.011697203 7.0346287e-005 0.0054344283 6.5261964e-005 0.0054676104 0.99955869 -0.010906637
169939622.64151 0.99978381 -0.012104802 6.9795642e-005 0.0057751327 6.1096856e-005 0.0058198045 0.99965715 -0.01134555
179935849.0566 0.99990225 -0.012372226 8.218945e-005 0.006117247 9.7426469e-005 0.0061441474 0.99953943 -0.011766523
189932075.4717 0.99996579 -0.013142496 0.00010210369 0.0064483685 7.0659211e-005 0.0064876564 0.99974245 -0.01232174
199928301.88679 0.9999066 -0.014042407 8.5997162e-005 0.0068083443 0.00010835752 0.006830438 0.99963516 -0.013248563
209924528.30189 0.99965745 -0.01465793 0.00011254195 0.0071199001 0.00010691024 0.0071828729 0.99940765 -0.01395902
219920754.71698 0.99970281 -0.015549868 0.00011599855 0.0074575515 0.0001125827 0.0075083054 0.9992578 -0.014649183
229916981.13208 0.99943322 -0.01644817 0.0001286536 0.0078045446 0.00012471434 0.0078464709 0.99918038 -0.015405595
239913207.54717 0.99936837 -0.017030912 0.00011638702 0.0081426352 0.00016309698 0.0082195224 0.99916953 -0.016146842
249909433.96226 0.99940437 -0.017692536 0.0001490009 0.0084624179 0.00014840206 0.0085473834 0.99925905 -0.016755432
259905660.37736 0.99958235 -0.01829803 0.00017175917 0.0088198278 0.00019964296 0.0088618733 0.99950874 -0.017346025
269901886.79245 0.99955291 -0.01899685 0.00018628768 0.0091659129 0.00013719324 0.0092162313 0.99978054 -0.018026724
279898113.20755 0.99981076 -0.019751385 0.00021110498 0.0095353024 0.00014757249 0.0095912125 0.99964988 -0.018829137
289894339.62264 0.99980867 -0.020431638 0.00018473575 0.0098511856 0.00021636067 0.009924043 0.99958009 -0.019557416
299890566.03774 0.99956226 -0.02095902 0.00019274303 0.010158343 0.00021632505 0.010226927 0.99927431 -0.020064056
309886792.45283 0.99934942 -0.02157896 0.00022875634 0.010519154 0.00029378658 0.010596246 0.99924421 -0.020424359
319883018.86792 0.99924386 -0.022181451 0.00026940648 0.010869518 0.00023945048 0.010895917 0.99936914 -0.021026313
329879245.28302 0.99931693 -0.022804767 0.00028459169 0.011189761 0.00021803845 0.011288352 0.99940056 -0.021736383
339875471.69811 0.9992221 -0.023671404 0.00028437178 0.011555742 0.00025040773 0.011592377 0.99925578 -0.022535704
349871698.11321 0.99933904 -0.0244039 0.00029052049 0.011897869 0.00029002759 0.011964008 0.99930531 -0.023516983
359867924.5283 0.99924779 -0.025246799 0.00031606341 0.012191836 0.00026773615 0.01230929 0.99922967 -0.024406284
369864150.9434 0.99947745 -0.026069403 0.00031257025 0.012504242 0.00028255372 0.012649989 0.99933422 -0.025115162
379860377.35849 0.99940169 -0.026741743 0.00032360828 0.012896226 0.00036172126 0.012996727 0.99920583 -0.02582106
389856603.77358 0.99925864 -0.027280629 0.00034673885 0.013162918 0.00039004069 0.013327779 0.99918509 -0.026272297
399852830.18868 0.99909955 -0.028032959 0.00038431399 0.013546661 0.00035756081 0.013638137 0.99916273 -0.026722968
409849056.60377 0.99903291 -0.028417539 0.00042959303 0.013868184 0.00039189137 0.01396398 0.99925238 -0.027193049
419845283.01887 0.99907166 -0.028860956 0.00043336209 0.014202651 0.00041293725 0.014336003 0.99928033 -0.027753115
429841509.43396 0.99920559 -0.029544085 0.000468574 0.014562568 0.00043093273 0.014714871 0.99946052 -0.028539747
439837735.84906 0.99911058 -0.030464411 0.0004628934 0.014894089 0.00044610386 0.014993764 0.99919999 -0.029611155
449833962.26415 0.9990443 -0.031274915 0.00046905642 0.015201699 0.00051523047 0.015337399 0.99882156 -0.030362457
459830188.67925 0.99882984 -0.032042116 0.00046411622 0.015557745 0.00049797632 0.015678257 0.99863911 -0.031159282
469826415.09434 0.99887341 -0.032872915 0.00049924757 0.015930448 0.00047502434 0.016015785 0.99838138 -0.03167063
479822641.50943 0.99871123 -0.033408217 0.00054412056 0.016252872 0.00051514478 0.016358903 0.99844301 -0.032113127
489818867.92453 0.99886638 -0.033991426 0.00055865385 0.016584205 0.00057298364 0.016722746 0.99869764 -0.032628506
499815094.33962 0.99896812 -0.034641296 0.00059275143 0.016927296 0.0005828836 0.017077163 0.99903256 -0.033276081
509811320.75472 0.99906176 -0.035140134 0.0005885635 0.01725542 0.00060278486 0.017391104 0.99928141 -0.034146022
519807547.16981 0.99886954 -0.035616159 0.00061895465 0.017527688 0.00059952913 0.01774282 0.9991734 -0.034911126
529803773.58491 0.99892819 -0.03633377 0.00060978346 0.017912734 0.00064271968 0.01808453 0.99882269 -0.035491049
539800000 0.99892676 -0.036978438 0.00066221505 0.018271346 0.00069839717 0.018426193 0.99869049 -0.036208257
549796226.41509 0.99882007 -0.037713945 0.00065014558 0.01860288 0.00069866981 0.018740071 0.99851149 -0.036713421
559792452.83019 0.9984498 -0.038675159 0.00072492566 0.018945111 0.00067971554 0.019120011 0.99841321 -0.037107199
569788679.24528 0.99840307 -0.039234042 0.00072481902 0.019289853 0.00077514583 0.019419147 0.99858332 -0.037935436
579784905.66038 0.99828941 -0.039868541 0.00078826351 0.019646991 0.00074509974 0.019802187 0.99876684 -0.038659342
589781132.07547 0.99847931 -0.040538102 0.00085925031 0.019966707 0.00080757309 0.02012202 0.99876821 -0.039590657
599777358.49057 0.99855411 -0.041238993 0.00081996527 0.020308929 0.00085064769 0.02048357 0.99886483 -0.040407717
609773584.90566 0.9987092 -0.041927446 0.0008616203 0.020669995 0.00091255154 0.020824574 0.99869889 -0.041280292
619769811.32075 0.99881792 -0.042669117 0.00091444049 0.021001924 0.00091216061 0.021163674 0.99865532 -0.041781574
629766037.73585 0.99865323 -0.043314636 0.00093027484 0.021283491 0.00090515241 0.021439549 0.99846935 -0.042235464
639762264.15094 0.9984414 -0.043921739 0.00096809468 0.021604102 0.00094312569 0.021788273 0.99833709 -0.042766273
649758490.56604 0.9983632 -0.044560924 0.00099093886 0.021932006 0.000949868 0.022114929 0.99832177 -0.043213546
659754716.98113 0.99808538 -0.045088172 0.00099881552 0.022275239 0.00097987149 0.022456475 0.99839294 -0.043770224
669750943.39623 0.99815786 -0.045565754 0.00096592214 0.022629656 0.0010047453 0.022784192 0.99846607 -0.044610053
679747169.81132 0.99817216 -0.046301596 0.0010493438 0.022981053 0.0010342231 0.023162058 0.99842048 -0.045533486
689743396.22642 0.99838656 -0.047164321 0.0011093775 0.023309655 0.0011178171 0.02350626 0.99837989 -0.046528161
699739622.64151 0.99844956 -0.047961682 0.0011188546 0.023601912 0.0011476427 0.023847578 0.99820185 -0.047284663
709735849.0566 0.99849826 -0.04892268 0.001170404 0.023986276 0.0011977575 0.024163436 0.99791133 -0.047852829
719732075.4717 0.99825323 -0.049568594 0.0012004706 0.024317035 0.0012001367 0.024479182 0.99809158 -0.048482209
729728301.88679 0.99816585 -0.050161272 0.0012447424 0.024621349 0.0012327218 0.024849208 0.99812245 -0.048838526
739724528.30189 0.99808013 -0.050714016 0.0012740712 0.024947919 0.0012738528 0.025178552 0.99827111 -0.049632534
749720754.71698 0.99798858 -0.051267058 0.0013025431 0.025269382 0.0013152817 0.025497235 0.99824739 -0.050323665
759716981.13208 0.99804711 -0.051824331 0.0013437374 0.02559891 0.001335334 0.025826126 0.99822336 -0.051082313
769713207.54717 0.99803358 -0.052532136 0.0013347752 0.025961041 0.0013707848 0.026167205 0.99799967 -0.051787198
779709433.96226 0.99813992 -0.0531298 0.0013764313 0.026268924 0.0014201123 0.026484666 0.99780262 -0.052487869
789705660.37736 0.99795187 -0.054160595 0.001453355 0.026620843 0.0014653942 0.026857425 0.99747604 -0.05317992
799701886.79245 0.99800408 -0.054915875 0.0014729844 0.026933983 0.0014683185 0.027159376 0.99730611 -0.053755313
809698113.20755 0.99790579 -0.055530667 0.0014828062 0.027227506 0.00149065 0.027521281 0.99734396 -0.054194734
819694339.62264 0.99773097 -0.056211174 0.0015260177 0.027591588 0.0015227152 0.027839877 0.99751383 -0.054847836
829690566.03774 0.99771845 -0.056789428 0.0015509864 0.02788043 0.0015842654 0.028147349 0.99775863 -0.055769265
839686792.45283 0.99778283 -0.057319045 0.0015833764 0.028203577 0.0016288618 0.028506469 0.9977529 -0.056565672
849683018.86792 0.99783695 -0.057875037 0.0016166808 0.028615583 0.0016229381 0.028821532 0.99763304 -0.057372101
859679245.28302 0.9979049 -0.058633536 0.0016280003 0.028937813 0.0016721897 0.029135959 0.99741435 -0.05797407
869675471.69811 0.99782568 -0.059447318 0.0017100694 0.029240947 0.0017136168 0.029476106 0.99706686 -0.058463871
879671698.11321 0.99767733 -0.060114436 0.0017384816 0.02956583 0.0017453337 0.029819855 0.99712968 -0.058938213
889667924.5283 0.99752033 -0.060934782 0.0017581116 0.029879536 0.0017945021 0.030154055 0.99692458 -0.059438258
899664150.9434 0.99739522 -0.061631888 0.0017832797 0.030193709 0.0018014899 0.030486027 0.99704421 -0.060057312
909660377.35849 0.99738699 -0.062318817 0.0018237215 0.030537149 0.0018370538 0.030797185 0.99714303 -0.060997471
919656603.77358 0.99741614 -0.063056469 0.0018642778 0.030841365 0.0018560104 0.031152308 0.99712867 -0.061873078
929652830.18868 0.99748957 -0.063772976 0.0018853601 0.03117427 0.0018805256 0.031453434 0.9968679 -0.062809199
939649056.60377 0.99757421 -0.064388871 0.0018877322 0.031514384 0.0019357027 0.031780116 0.99676251 -0.063555002
949645283.01887 0.99752796 -0.06522657 0.0018872754 0.031828716 0.0019203901 0.032133024 0.99655241 -0.064029112
959641509.43396 0.99750805 -0.065921992 0.001950766 0.032217357 0.0019496977 0.032484286 0.996503 -0.064518362
969637735.84906 0.99742627 -0.066678047 0.0019880831 0.032554101 0.0019906955 0.032854833 0.99651873 -0.064846128
979633962.26415 0.99727452 -0.067471109 0.0020565505 0.032883853 0.0020735187 0.03316997 0.99653834 -0.065524831
989630188.67925 0.99719924 -0.067930341 0.0020632669 0.033179518 0.0020914236 0.033492889 0.99675548 -0.066177517
999626415.09434 0.99722868 -0.068529516 0.0021286272 0.033521041 0.002127029 0.033871904 0.99668884 -0.066995472
1009622641.5094 0.99721247 -0.069221154 0.002133416 0.033864297 0.0021634493 0.034224693 0.99647021 -0.067904875
1019618867.9245 0.99729884 -0.070138395 0.002188459 0.03421152 0.002252942 0.034526352 0.99620253 -0.068781495
1029615094.3396 0.99737209 -0.071008593 0.0022491626 0.034542531 0.0022956468 0.03485724 0.99580765 -0.06936124
1039611320.7547 0.99741089 -0.071939528 0.0022921404 0.034846887 0.0023171343 0.035147347 0.99580127 -0.069990903
1049607547.1698 0.99728328 -0.072815791 0.0022917732 0.035156671 0.0023599598 0.035433363 0.99579722 -0.070598803
1059603773.5849 0.99708903 -0.073475897 0.0023614261 0.035442993 0.0023933304 0.035801917 0.99580765 -0.071110785
1069600000 0.99688578 -0.074167103 0.0023385938 0.035757415 0.0023886114 0.036111686 0.99600577 -0.071884036
1079596226.4151 0.99674463 -0.07482598 0.0023691701 0.036087975 0.0024561556 0.036473598 0.99591511 -0.072616979
1089592452.8302 0.99681616 -0.075508028 0.0024099164 0.036445323 0.0024753558 0.03680424 0.99586856 -0.07342729
1099588679.2453 0.99684417 -0.076131582 0.0024103895 0.036785454 0.0024847519 0.037123024 0.99550283 -0.074004799
1109584905.6604 0.99705058 -0.076990649 0.0024603922 0.037132885 0.0025274893 0.037468836 0.99523228 -0.074603766
1119581132.0755 0.99695385 -0.077960789 0.0024362146 0.03747873 0.0025447984 0.037835259 0.99514008 -0.075006932
1129577358.4906 0.99674702 -0.078769296 0.0024749823 0.037840329 0.0025513656 0.038194992 0.99502361 -0.075414389
1139573584.9057 0.99653322 -0.07967782 0.0025324319 0.038156021 0.0026368536 0.038531225 0.99512571 -0.076186657
1149569811.3208 0.99635959 -0.080502219 0.0026077104 0.03849408 0.0026649984 0.038866807 0.99524683 -0.076874316
1159566037.7358 0.996234 -0.081175685 0.0026529413 0.038801953 0.002729387 0.039145023 0.99531806 -0.077908844
1169562264.1509 0.99598229 -0.081848443 0.0026668534 0.039125852 0.0027400646 0.039507147 0.99517584 -0.078746378
1179558490.566 0.99612564 -0.082546487 0.002650148 0.039492518 0.0027670299 0.039882183 0.99500507 -0.079494208
1189554716.9811 0.99597323 -0.083338499 0.002696733 0.039856099 0.0028046863 0.04021183 0.99470413 -0.079996347
1199550943.3962 0.99592066 -0.084228754 0.002748739 0.040231384 0.0028760489 0.040542532 0.99457419 -0.080413908
1209547169.8113 0.99572635 -0.085095152 0.0028023906 0.040527221 0.0029219296 0.040881902 0.99446809 -0.080736756
1219543396.2264 0.99548227 -0.085885599 0.0028408295 0.040904913 0.0029655532 0.041257873 0.9945268 -0.081086099
1229539622.6415 0.99523616 -0.086732715 0.0029237606 0.041240338 0.003072625 0.041634783 0.99465537 -0.081848651
1239535849.0566 0.99501985 -0.087429166 0.0029854104 0.041559041 0.0030941023 0.041912086 0.99473268 -0.0827384
1249532075.4717 0.99465543 -0.088142917 0.003028933 0.041877132 0.0031730984 0.04224563 0.99461937 -0.083586358
1259528301.8868 0.9944737 -0.088657975 0.0030841269 0.042208314 0.0032484438 0.042549964 0.99431956 -0.084581226
1269524528.3019 0.9942528 -0.089369535 0.003179308 0.04254834 0.0032944344 0.042883098 0.99406135 -0.085188806
1279520754.717 0.99394035 -0.090148322 0.0032339937 0.042828552 0.0033349735 0.043159105 0.99378264 -0.085837387
1289516981.1321 0.99377459 -0.090899348 0.0032162527 0.043131202 0.0033903923 0.043445952 0.99385512 -0.086220086
1299513207.5472 0.99343121 -0.09179163 0.0032631047 0.043448586 0.0033953246 0.043759678 0.99403203 -0.086539894
1309509433.9623 0.99297601 -0.092481345 0.0032461584 0.043737326 0.0034072129 0.044076607 0.99411911 -0.087239891
1319505660.3774 0.992589 -0.093203217 0.003277977 0.044087563 0.0034043035 0.044408709 0.99414372 -0.087882802
1329501886.7925 0.99241537 -0.093883604 0.0032982733 0.044454239 0.0034406502 0.044742901 0.99414933 -0.088858575
1339498113.2075 0.99207497 -0.09435913 0.0033210283 0.044787847 0.0034785662 0.045073703 0.99369633 -0.089639008
1349494339.6226 0.99190992 -0.095008887 0.0032936493 0.045126487 0.0034687882 0.045403287 0.99335861 -0.090266772
1359490566.0377 0.9919107 -0.09561497 0.0033290517 0.045459174 0.0034365803 0.045787193 0.99311912 -0.090743244
1369486792.4528 0.99153942 -0.096134633 0.003341401 0.045850664 0.0034649372 0.046112873 0.99293011 -0.091320783
1379483018.8679 0.99124122 -0.096721612 0.0033869245 0.046233829 0.003470103 0.046507299 0.99295807 -0.091637321
1389479245.283 0.99092281 -0.097174823 0.0034276973 0.04657457 0.0035246611 0.046878841 0.99293137 -0.092268616
1399475471.6981 0.99056709 -0.097596735 0.0034530889 0.046943109 0.0035198163 0.047221493 0.99308419 -0.092938691
1409471698.1132 0.99021494 -0.098032638 0.0034716721 0.047330379 0.003570121 0.047620237 0.99316877 -0.093803652
1419467924.5283 0.99005252 -0.098267198 0.0034943856 0.047735434 0.0035953317 0.048019242 0.99296832 -0.09441492
1429464150.9434 0.98988438 -0.0987598 0.003521895 0.048128128 0.0036192723 0.048412673 0.99282932 -0.095107228
1439460377.3585 0.99001539 -0.099116266 0.003616388 0.048561998 0.0036625396 0.048854902 0.99252576 -0.095447376
1449456603.7736 0.9900918 -0.099769562 0.0037479792 0.048965365 0.0038156435 0.04925536 0.99251407 -0.095734268
1459452830.1887 0.99006295 -0.10043737 0.0038714036 0.04940727 0.0039511714 0.049707007 0.99252856 -0.096008897
1469449056.6038 0.99007404 -0.10118806 0.0040068598 0.049724381 0.0040956279 0.050057132 0.99276352 -0.096767575
1479445283.0189 0.98992234 -0.10170384 0.004159966 0.050008252 0.0041826749 0.050339505 0.99282795 -0.097583875
1489441509.434 0.98980522 -0.10223487 0.0042631831 0.050356019 0.0043214913 0.0506448 0.99279332 -0.09854427
1499437735.8491 0.98964411 -0.10260636 0.0044038463 0.050655562 0.0044606123 0.050936535 0.9926554 -0.099385768
1509433962.2642 0.9896009 -0.10313834 0.0045012217 0.050949249 0.0045320923 0.051216979 0.99249196 -0.10011856
1519430188.6792 0.98973894 -0.10368934 0.0045745205 0.051199034 0.0046074577 0.051496204 0.99234277 -0.1006493
1529426415.0943 0.98969734 -0.10427949 0.0046092812 0.051455073 0.0046797954 0.051755473 0.99226797 -0.10112491
1539422641.5094 0.98973459 -0.10514722 0.0047112727 0.051783603 0.0046969955 0.052116957 0.99232256 -0.10154355
1549418867.9245 0.98955613 -0.10597114 0.0047593182 0.052025929 0.0047268476 0.052384973 0.99258333 -0.10226882
1559415094.3396 0.98940432 -0.10665509 0.004794009 0.052375693 0.0047877766 0.052717816 0.99263537 -0.10290599
1569411320.7547 0.9893406 -0.10737878 0.0048613083 0.05264809 0.0047979634 0.052978266 0.99257898 -0.10371698
1579407547.1698 0.98924756 -0.10796107 0.0048615905 0.052880064 0.004874263 0.053301804 0.99220437 -0.1046178
1589403773.5849 0.98909408 -0.10854834 0.0048473757 0.053224746 0.0048580263 0.053577475 0.99198079 -0.10526693
1599400000 0.98905325 -0.10897651 0.0048589446 0.0535243 0.0048977882 0.053888403 0.99149823 -0.1058352
1609396226.4151 0.98910177 -0.10966276 0.0048585129 0.053856954 0.004828061 0.054236241 0.99142361 -0.10628217
1619392452.8302 0.98904806 -0.11029354 0.0048694685 0.054195583 0.0048603006 0.054557301 0.99135262 -0.10678127
1629388679.2453 0.98883951 -0.11093026 0.0048870258 0.054580919 0.0048747156 0.054975674 0.99164033 -0.10733932
1639384905.6604 0.9886111 -0.11165494 0.0048733628 0.054939643 0.0049196025 0.055355094 0.99191642 -0.10817914
1649381132.0755 0.98842514 -0.11229667 0.0049244035 0.055304661 0.0049248636 0.055728164 0.99185854 -0.10901573
1659377358.4906 0.98828554 -0.11301181 0.0049453899 0.055618271 0.0049293339 0.056062687 0.99177206 -0.10988593
1669373584.9057 0.98818308 -0.11347316 0.0049972315 0.056039169 0.0049653272 0.056442812 0.99150741 -0.11056879
1679369811.3208 0.98822564 -0.11418808 0.0050295247 0.05642245 0.005040396 0.056836974 0.99132574 -0.11113158
1689366037.7358 0.98817468 -0.11491424 0.0050955545 0.056784704 0.0050661489 0.057219494 0.9909991 -0.1115281
1699362264.1509 0.98836994 -0.11548369 0.0051390221 0.057153556 0.0051432243 0.057620555 0.99125302 -0.11194131
1709358490.566 0.9882533 -0.1161723 0.0052072015 0.05755024 0.0052268989 0.058019519 0.99131387 -0.1124727
1719354716.9811 0.98788261 -0.11671418 0.0052576102 0.057933189 0.0052729063 0.058424555 0.99132383 -0.11327299
1729350943.3962 0.98769295 -0.11738673 0.0053882822 0.058336586 0.0053612608 0.058805972 0.99146658 -0.11407009
