!Keysight Technologies,N5222B,MY61253708,A.15.00.15
!Date: Wednesday, June 19, 2024 09:53:12
!Correction: S11(C  2-Port  ) 
!S21(C  2-Port  ) 
!S12(C  2-Port  ) 
!S22(C  2-Port  ) 
!S2P File: Measurements: S11, S21, S12, S22:
# Hz S  RI   R 50
10000000 0.99882257 -0.0028516948 -2.8928465e-005 0.00015839504 0.00014829687 -7.0083093e-005 0.99882936 -0.0014846921
19996226.415094 0.9993937 -0.0034111738 0.00010193759 0.00058276748 5.7846773e-006 0.00063012773 0.99986011 -0.0034112632
29992452.830189 0.99974555 -0.0024968088 4.6643923e-005 0.0010146677 8.7353692e-005 0.00095137034 0.9993996 -0.002687186
39988679.245283 1.000131 -0.0030269772 -2.0026942e-005 0.0012624774 1.0709569e-005 0.0013310555 0.99964952 -0.0031205863
49984905.660377 1.0002041 -0.0036289692 -1.0721909e-005 0.0017159653 1.6894774e-005 0.0016913686 0.99980879 -0.0036206543
59981132.075472 1.0003735 -0.0045394599 -1.1547178e-005 0.0019704537 2.3430504e-005 0.0020113639 0.99981427 -0.0042520761
69977358.490566 1.0002462 -0.0051544569 1.2743927e-005 0.0022933281 -3.8157341e-006 0.0023158172 0.99966848 -0.0048218984
79973584.90566 0.99994493 -0.0056850314 1.5957165e-005 0.0026557271 3.5299803e-005 0.0026634485 0.99936819 -0.0052287877
89969811.320755 0.99995416 -0.0057937801 -8.1330072e-006 0.0029859254 3.4222961e-005 0.0029801396 0.99960423 -0.005531311
99966037.735849 1.0001981 -0.0065563917 2.3466942e-005 0.0033050689 4.5859779e-005 0.0033284852 0.9996776 -0.0062972009
109962264.15094 1.0001633 -0.0074684173 2.1638814e-005 0.0036416827 2.3074215e-005 0.0036619578 0.99965978 -0.0071201622
119958490.56604 1.00018 -0.0083752573 4.4708606e-005 0.0039697615 2.5685295e-005 0.0039851246 0.99967599 -0.0079812407
129954716.98113 1.0001566 -0.0093142688 3.2381038e-005 0.0042885104 6.5386062e-005 0.0043202341 0.99970734 -0.0088326633
139950943.39623 1.0000713 -0.010150829 4.984843e-005 0.0046101385 6.7260182e-005 0.0046486175 0.99959737 -0.0095812399
149947169.81132 0.99998963 -0.010760069 2.9840972e-005 0.0049777338 2.6322436e-005 0.0049967095 0.99956828 -0.010222673
159943396.22642 0.9999516 -0.011349201 6.0648192e-005 0.0052827615 5.4435106e-005 0.0053126146 0.99962509 -0.010677665
169939622.64151 0.99991161 -0.011721283 6.9202855e-005 0.005625396 5.5497687e-005 0.0056662806 0.9996897 -0.011147387
179935849.0566 1.0000173 -0.011976808 6.055634e-005 0.0059330938 6.5461034e-005 0.0060118521 0.99957681 -0.011538357
189932075.4717 1.0000907 -0.012785763 8.947216e-005 0.0062972261 9.3247276e-005 0.0063123335 0.9997685 -0.012059927
199928301.88679 1.0000416 -0.013591707 0.00011978974 0.0066009536 8.7833847e-005 0.006651415 0.99963677 -0.012925267
209924528.30189 0.99975896 -0.014127687 9.5372903e-005 0.0069338419 0.00011422322 0.0069985897 0.99943799 -0.013571128
219920754.71698 0.99983829 -0.014987528 0.00011242554 0.0072473316 0.00010610325 0.0073042475 0.99934685 -0.014234394
229916981.13208 0.99964631 -0.015794694 0.00010592933 0.007603623 0.00012931251 0.0076383976 0.99933285 -0.015058637
239913207.54717 0.99954975 -0.016429627 0.00011737684 0.007914288 0.00011222268 0.0079734484 0.9992919 -0.015754992
249909433.96226 0.99953783 -0.017114401 0.00014702859 0.0082494067 0.00014150981 0.0083074244 0.99937284 -0.01635775
259905660.37736 0.99968195 -0.017744809 0.00012953766 0.0086124279 0.00018320745 0.0086674187 0.99955928 -0.016982347
269901886.79245 0.99977899 -0.018253222 0.00015237764 0.0089088464 0.0001358334 0.0089522777 0.99994045 -0.017646998
279898113.20755 0.9998734 -0.019029632 0.00023926632 0.0092614936 0.00017947634 0.0093043111 0.99973643 -0.018395945
289894339.62264 0.99987853 -0.019767821 0.00020624977 0.0096057178 0.00022874819 0.0096575227 0.99961734 -0.019197732
299890566.03774 0.99976391 -0.020226032 0.00023017172 0.0099034254 0.00023326371 0.0099940524 0.99941993 -0.019586116
309886792.45283 0.99960405 -0.02077052 0.00018749898 0.010225734 0.00021766021 0.010282659 0.9993273 -0.019953489
319883018.86792 0.9996928 -0.021389157 0.0002179998 0.010583909 0.00021143816 0.010652404 0.99945951 -0.02057308
329879245.28302 0.99964976 -0.022304446 0.00024910178 0.01090824 0.00024534855 0.01094971 0.99950182 -0.021291226
339875471.69811 0.99955893 -0.022968672 0.00028333766 0.011213851 0.00024308427 0.011317167 0.99941993 -0.022090651
349871698.11321 0.99969327 -0.023873508 0.00030311337 0.011567491 0.00025117747 0.011629364 0.99948341 -0.022976756
359867924.5283 0.99944031 -0.024591833 0.00031324336 0.011894414 0.00030216668 0.011973977 0.99939978 -0.023916095
369864150.9434 0.99972814 -0.025413752 0.00029785791 0.012225395 0.00031945924 0.012302214 0.99937809 -0.024541587
379860377.35849 0.99958652 -0.026076347 0.00032341015 0.012509242 0.00033549615 0.012601512 0.99932569 -0.025203601
389856603.77358 0.99948728 -0.026616395 0.00035576383 0.012912096 0.00035210559 0.012943465 0.99930781 -0.025697231
399852830.18868 0.99936903 -0.027317315 0.0003563473 0.013182952 0.00035209721 0.013250891 0.999403 -0.026209444
409849056.60377 0.99921155 -0.027714053 0.00040364705 0.013552494 0.00037469313 0.013621262 0.99937361 -0.026664898
419845283.01887 0.99921203 -0.028128773 0.00038606348 0.013826864 0.00039973715 0.013958172 0.99930674 -0.02721855
429841509.43396 0.9993366 -0.028791189 0.0004081605 0.014177581 0.00042594224 0.014289401 0.99951351 -0.027977169
439837735.84906 0.99918658 -0.029720262 0.00042666204 0.014497053 0.00044449628 0.014610722 0.99936336 -0.028900295
449833962.26415 0.99900031 -0.030458629 0.0004232619 0.0148278 0.00048795575 0.014903424 0.9989602 -0.029691219
459830188.67925 0.99879658 -0.031185836 0.00045144651 0.01515558 0.00044037588 0.015231105 0.99882531 -0.030406415
469826415.09434 0.99877542 -0.031931192 0.00047911424 0.015509662 0.00047506718 0.015577826 0.9985714 -0.030997366
479822641.50943 0.99868625 -0.03235925 0.0004622452 0.015836893 0.00050172512 0.015956542 0.99861896 -0.031462431
489818867.92453 0.99886149 -0.033003867 0.00052881939 0.016171481 0.00053161662 0.016244642 0.99893087 -0.032043248
499815094.33962 0.99888301 -0.03356728 0.00055605406 0.016498476 0.00058640167 0.016573079 0.99911922 -0.032646865
509811320.75472 0.99901116 -0.03395386 0.00060101325 0.016808733 0.00058322144 0.016894724 0.99926442 -0.033450916
519807547.16981 0.99895447 -0.034472078 0.0005544899 0.017159484 0.00060997019 0.017246503 0.99923044 -0.034150064
529803773.58491 0.9988445 -0.035132021 0.00058032665 0.017465301 0.0005777413 0.017541461 0.99896979 -0.034745336
539800000 0.9989723 -0.035803899 0.00063871592 0.017799975 0.00057327677 0.017886929 0.99883837 -0.035433233
549796226.41509 0.99882615 -0.036523342 0.00062714703 0.018132489 0.00062931748 0.018244872 0.9987914 -0.035880446
559792452.83019 0.99864018 -0.037308395 0.00065803993 0.018453304 0.00066294335 0.018572155 0.99863362 -0.036381155
569788679.24528 0.9985255 -0.037938178 0.00066917762 0.018807093 0.00068267714 0.018899577 0.99881995 -0.037120908
579784905.66038 0.99850583 -0.038532965 0.00073575508 0.019093024 0.00067962636 0.019269317 0.99887794 -0.037863925
589781132.07547 0.99856448 -0.039212853 0.00074409042 0.019428294 0.00075149164 0.019558556 0.99898088 -0.038755506
599777358.49057 0.99871278 -0.039766848 0.00078459084 0.019823875 0.00078274682 0.01989585 0.99900138 -0.039509296
609773584.90566 0.9988507 -0.040517546 0.00081135734 0.020126253 0.00080544606 0.020226741 0.9988699 -0.040314902
619769811.32075 0.99898618 -0.041317523 0.00088084769 0.020431196 0.00084407767 0.02051647 0.99883616 -0.04096058
629766037.73585 0.99888742 -0.041847169 0.00086923223 0.020727757 0.00084902439 0.020860907 0.99862754 -0.041432023
639762264.15094 0.99866301 -0.042590991 0.00087353913 0.021032386 0.00087887747 0.021171834 0.99850857 -0.041921884
649758490.56604 0.99865496 -0.043161616 0.00094499951 0.021405229 0.00088964822 0.021490693 0.99855322 -0.042370006
659754716.98113 0.9984237 -0.043634117 0.00089711137 0.021708984 0.00091245398 0.021850176 0.99855059 -0.042846739
669750943.39623 0.99841213 -0.044103116 0.00096032955 0.022039561 0.00093694264 0.022203796 0.99867272 -0.043698013
679747169.81132 0.99850351 -0.044984177 0.00094339519 0.022388048 0.00099052303 0.022534639 0.99865222 -0.04461588
689743396.22642 0.99861956 -0.04566592 0.001012587 0.02277673 0.001050883 0.022879606 0.99842662 -0.045463175
699739622.64151 0.99870247 -0.046521544 0.0010688594 0.02308291 0.0010479707 0.023176856 0.99840391 -0.046167046
709735849.0566 0.99863482 -0.047353134 0.0011210382 0.023358013 0.0011173646 0.023519693 0.99817777 -0.046813294
719732075.4717 0.99854362 -0.048019379 0.0011422923 0.023682171 0.0011391356 0.023835171 0.99821311 -0.047454506
729728301.88679 0.99850678 -0.048604697 0.001170706 0.024025362 0.0011192439 0.024141803 0.99829495 -0.047877699
739724528.30189 0.99840295 -0.049173877 0.0011947858 0.024340553 0.0011912235 0.024489086 0.99843609 -0.048595414
749720754.71698 0.99830276 -0.049790978 0.0012194952 0.024658987 0.001220711 0.024792472 0.99847931 -0.049248591
759716981.13208 0.99831611 -0.050353885 0.0012415843 0.024956871 0.0012584738 0.025103945 0.99841428 -0.050015032
769713207.54717 0.99819458 -0.051013291 0.0012788288 0.025285413 0.0012923684 0.025419367 0.99817389 -0.050684631
779709433.96226 0.99837875 -0.051645309 0.0013021179 0.025621202 0.0012854207 0.025769511 0.99802345 -0.051314667
789705660.37736 0.99827206 -0.052562416 0.001331198 0.025918514 0.0013491949 0.026078817 0.99770927 -0.05206731
799701886.79245 0.99818039 -0.053349167 0.001372017 0.026215855 0.0013552886 0.026411247 0.99761224 -0.052645057
809698113.20755 0.99811637 -0.053853393 0.0014087451 0.02656644 0.0014024391 0.026730355 0.99764842 -0.053042069
819694339.62264 0.99790388 -0.054547846 0.0014273915 0.026869927 0.001412434 0.027056813 0.99772358 -0.053682953
829690566.03774 0.99788034 -0.055135697 0.0014662864 0.0271894 0.0014576381 0.027378736 0.99796045 -0.054593921
839686792.45283 0.9980458 -0.055627346 0.0014827596 0.027511902 0.0014776578 0.027701445 0.99798179 -0.055424035
849683018.86792 0.99804294 -0.056194104 0.0015127379 0.027880143 0.0015336168 0.028032018 0.99788773 -0.056162477
859679245.28302 0.99815631 -0.056915402 0.0015743114 0.028174745 0.0015527131 0.028348217 0.99764156 -0.056763262
869675471.69811 0.99806547 -0.05771631 0.0015889434 0.028503956 0.001612193 0.028676679 0.99735725 -0.057278872
879671698.11321 0.99796355 -0.0583703 0.001631178 0.028786127 0.0016272992 0.02900292 0.99726099 -0.057719834
889667924.5283 0.99779701 -0.059121519 0.0016545579 0.029109892 0.0016745785 0.029284252 0.997177 -0.058242947
899664150.9434 0.99752903 -0.059832931 0.0016866289 0.029445328 0.0016990481 0.029629074 0.99716735 -0.058804959
909660377.35849 0.99761415 -0.060453445 0.0016990392 0.029730067 0.0017186347 0.029937765 0.99740034 -0.05967699
919656603.77358 0.99772227 -0.061143115 0.0017143772 0.030071994 0.0017475486 0.030282466 0.99736637 -0.060560271
929652830.18868 0.99767637 -0.061831772 0.0017561018 0.030384501 0.0017690342 0.030586494 0.99724007 -0.061461896
939649056.60377 0.99785805 -0.062451631 0.0017930036 0.03069441 0.001766175 0.030891843 0.99709606 -0.06206733
949645283.01887 0.99778241 -0.063322157 0.001762532 0.031039014 0.0017747424 0.031236514 0.99682266 -0.062697768
959641509.43396 0.99774265 -0.064006835 0.0017803246 0.031404503 0.0018181466 0.031599566 0.9968152 -0.063191682
969637735.84906 0.99763644 -0.064750642 0.0018462203 0.031737186 0.0018781545 0.03194119 0.99677962 -0.063619018
979633962.26415 0.99751246 -0.065426856 0.0019056245 0.032044105 0.0019166588 0.032238863 0.99677986 -0.064211473
989630188.67925 0.99753761 -0.065987557 0.001944378 0.032364115 0.0019432241 0.03260503 0.99698907 -0.06486553
999626415.09434 0.99766493 -0.066519171 0.0019734241 0.03267226 0.0019676983 0.032903276 0.99694067 -0.065688878
1009622641.5094 0.99765861 -0.067181721 0.001998404 0.033024494 0.0020359922 0.033250384 0.99676776 -0.066450685
1019618867.9245 0.99769199 -0.067993253 0.002043528 0.033339333 0.0020906441 0.033561733 0.99653196 -0.067289203
1029615094.3396 0.99763781 -0.068921536 0.002105915 0.033654794 0.002144848 0.033855267 0.99619174 -0.067881167
1039611320.7547 0.99766421 -0.069738716 0.002140793 0.033944033 0.0021615066 0.034167837 0.99613404 -0.068484306
1049607547.1698 0.99761271 -0.070644334 0.0021621347 0.034258272 0.0021867864 0.034471426 0.99612153 -0.069110304
1059603773.5849 0.99747932 -0.071388662 0.0022056065 0.034543164 0.0022097025 0.034800712 0.99611831 -0.069624096
1069600000 0.9972645 -0.071992129 0.002191172 0.034853112 0.0022321623 0.035106447 0.99628401 -0.070379049
1079596226.4151 0.99718475 -0.072650135 0.0021967562 0.035179321 0.0022425321 0.035447463 0.99624044 -0.071112968
1089592452.8302 0.99720293 -0.073318988 0.0022345809 0.035520997 0.0022827238 0.035776567 0.99628443 -0.071917176
1099588679.2453 0.99731874 -0.074021876 0.0022469722 0.035841547 0.0022990629 0.036099076 0.99589705 -0.072504222
1109584905.6604 0.99743778 -0.074729815 0.002272171 0.036187898 0.0023302278 0.036406528 0.99569696 -0.073081762
1119581132.0755 0.99742138 -0.07572189 0.0023047691 0.036543038 0.0023301877 0.036781926 0.99548423 -0.073439166
1129577358.4906 0.99723375 -0.076510131 0.0023564473 0.036892492 0.002399113 0.037166014 0.99537724 -0.073901832
1139573584.9057 0.99695456 -0.077342361 0.0023742393 0.037215263 0.0024471823 0.037477098 0.99548686 -0.074510992
1149569811.3208 0.99685168 -0.078160368 0.0024146773 0.03755324 0.0025119793 0.037796497 0.99561131 -0.075230211
1159566037.7358 0.99667233 -0.078825623 0.0024610544 0.037841212 0.0025049038 0.038104665 0.99566263 -0.0762586
1169562264.1509 0.99648845 -0.07954663 0.0024682079 0.038158 0.0025274772 0.038411528 0.995498 -0.077074468
1179558490.566 0.99644482 -0.080293685 0.0024841954 0.038511507 0.0025634626 0.038767587 0.99535918 -0.077781439
1189554716.9811 0.99644125 -0.080994308 0.0025087344 0.038871594 0.0026020044 0.039116126 0.99520791 -0.07833454
1199550943.3962 0.99639428 -0.081861675 0.0025684405 0.039190985 0.0026776865 0.039443452 0.99497294 -0.078683406
1209547169.8113 0.99622333 -0.082696259 0.0025969362 0.039522666 0.0027001984 0.039758984 0.99485099 -0.079123378
1219543396.2264 0.99604863 -0.083567232 0.0026746872 0.039889116 0.0027543535 0.040137202 0.99500585 -0.079487324
1229539622.6415 0.99570227 -0.084316313 0.0027144141 0.040213231 0.0028366465 0.040454842 0.99506795 -0.080142051
1239535849.0566 0.9954899 -0.084913313 0.0027834326 0.040529817 0.0028901594 0.040786512 0.9951967 -0.081046104
1249532075.4717 0.99523413 -0.08563453 0.0028395718 0.040834691 0.0029606109 0.04103988 0.99502587 -0.08186239
1259528301.8868 0.99507791 -0.086121768 0.0028760005 0.041175537 0.0030187573 0.041414496 0.99482298 -0.082737088
1269524528.3019 0.99484527 -0.086890668 0.0029521938 0.041494489 0.0030857306 0.041721318 0.99461329 -0.083397001
1279520754.717 0.9944576 -0.08756721 0.0030096453 0.041754704 0.0031274101 0.041983113 0.99429995 -0.083981834
1289516981.1321 0.99435079 -0.088391751 0.0029937783 0.042073451 0.0031299852 0.042256571 0.99434692 -0.084358931
1299513207.5472 0.99401426 -0.089317083 0.0030162111 0.042353876 0.0031596795 0.042596463 0.9945178 -0.084765404
1309509433.9623 0.9936924 -0.089986831 0.0030541709 0.042689811 0.0031586625 0.042863593 0.99465185 -0.085536495
1319505660.3774 0.99334365 -0.090707764 0.0030424949 0.043011881 0.0031708777 0.043215368 0.99465394 -0.086168855
1329501886.7925 0.99301982 -0.091325551 0.0030647442 0.043322776 0.0031771734 0.043521598 0.99461806 -0.087126613
1339498113.2075 0.9927218 -0.091812342 0.003100235 0.043654811 0.0032260632 0.043833297 0.99423093 -0.087845445
1349494339.6226 0.99252617 -0.092386328 0.0030761403 0.043993391 0.0032008039 0.044188466 0.99386889 -0.088432483
1359490566.0377 0.99249971 -0.093051612 0.0030716956 0.044367835 0.0031956565 0.044519514 0.99374288 -0.088896334
1369486792.4528 0.99229896 -0.093491673 0.0030813208 0.044753268 0.0032220371 0.04488384 0.99355149 -0.089378476
1379483018.8679 0.99203092 -0.094017446 0.0031154598 0.045094967 0.0032228199 0.045228541 0.99354666 -0.089718603
1389479245.283 0.99164152 -0.09453544 0.0031554606 0.045464776 0.0032556001 0.045626223 0.99352312 -0.090392113
1399475471.6981 0.99131644 -0.09499228 0.0031749289 0.045779932 0.0032484382 0.045969397 0.9936583 -0.091067165
1409471698.1132 0.99091834 -0.09528809 0.0032260409 0.046190877 0.0032897054 0.046343766 0.99374551 -0.09197706
1419467924.5283 0.990749 -0.095713109 0.0032399502 0.046544679 0.0033220844 0.046728585 0.99352574 -0.092621833
1429464150.9434 0.99068224 -0.096090734 0.0033203475 0.046964895 0.0033784248 0.04708688 0.99339932 -0.09315443
1439460377.3585 0.99078912 -0.096542329 0.0033732355 0.047375899 0.0034256345 0.047535338 0.99319983 -0.093552023
1449456603.7736 0.99079323 -0.097109377 0.0034640301 0.047765803 0.0035248613 0.047924787 0.99306512 -0.093887821
1459452830.1887 0.99083841 -0.097813517 0.0036034472 0.048187211 0.003653435 0.048331983 0.99318254 -0.094173878
1469449056.6038 0.99085128 -0.098426461 0.00378069 0.04855765 0.0037805689 0.048692465 0.99342382 -0.094812751
1479445283.0189 0.99069536 -0.098907448 0.0038810312 0.048803724 0.0039024407 0.04897945 0.99342102 -0.095677324
1489441509.434 0.99063182 -0.099508435 0.0039979741 0.049110226 0.0040457081 0.049294196 0.99339461 -0.096588939
1499437735.8491 0.99047601 -0.099839061 0.004146127 0.049393173 0.0041476768 0.049551353 0.99330091 -0.097331256
1509433962.2642 0.99046916 -0.10033479 0.0042112037 0.049684171 0.0042101359 0.049837593 0.99309611 -0.098084651
1519430188.6792 0.99056077 -0.1010167 0.0042480212 0.049922653 0.0042923559 0.050126389 0.99288476 -0.098682195
1529426415.0943 0.99058616 -0.10170171 0.0043326505 0.050196566 0.0043244604 0.05037684 0.99288487 -0.0991292
1539422641.5094 0.99047005 -0.10251028 0.0043786969 0.050502114 0.004363772 0.050698504 0.99300849 -0.099568501
1549418867.9245 0.99038303 -0.10323627 0.0044206129 0.050776459 0.0044255611 0.051006462 0.99308723 -0.10030782
1559415094.3396 0.9902935 -0.10385311 0.0045083165 0.05107234 0.0044799242 0.051262975 0.9932574 -0.10087779
1569411320.7547 0.99011397 -0.10460551 0.0045271693 0.051333752 0.0044894926 0.051560663 0.99318224 -0.10170256
1579407547.1698 0.99008268 -0.10502613 0.0045442488 0.051570181 0.0045713438 0.051831923 0.99285793 -0.10258445
1589403773.5849 0.99000114 -0.10563982 0.004561102 0.051897451 0.0045552608 0.05215719 0.99268055 -0.10325235
1599400000 0.99001372 -0.10615203 0.0045178486 0.052210368 0.0045042485 0.052463714 0.99231154 -0.10373002
1609396226.4151 0.98994231 -0.10674828 0.0045383736 0.05252352 0.004535412 0.052773114 0.99208021 -0.10419409
1619392452.8302 0.98992777 -0.10739744 0.0045664329 0.052858509 0.0045067072 0.053101473 0.99201864 -0.10473016
1629388679.2453 0.9896822 -0.1080792 0.0045575816 0.053227916 0.0045115389 0.053461704 0.99227232 -0.10518456
1639384905.6604 0.98952454 -0.10873378 0.0045661782 0.053564113 0.0045526265 0.053815972 0.99247789 -0.10602292
1649381132.0755 0.98927164 -0.10935909 0.0045919418 0.05391546 0.0045551099 0.054173376 0.99241346 -0.1069831
1659377358.4906 0.98923159 -0.11018384 0.0046175402 0.054292075 0.0045944378 0.054546028 0.99239606 -0.10778838
1669373584.9057 0.98912561 -0.11061446 0.0046343827 0.054692961 0.0046547623 0.054930691 0.99217141 -0.10852985
1679369811.3208 0.98913229 -0.11125553 0.0046569426 0.055026185 0.0046466878 0.055305414 0.99188524 -0.10899594
1689366037.7358 0.9890818 -0.11193123 0.0047210138 0.055403497 0.0046876222 0.055697028 0.99174124 -0.10930958
1699362264.1509 0.98926586 -0.11251433 0.0047868295 0.055794135 0.0047512772 0.056079593 0.99197996 -0.10976523
1709358490.566 0.98912281 -0.11318474 0.0048042545 0.0561333 0.0047877925 0.056437626 0.99194962 -0.11026226
1719354716.9811 0.98887688 -0.11379394 0.004876174 0.056501519 0.0048558023 0.056817967 0.99196702 -0.11093172
1729350943.3962 0.98855972 -0.11430892 0.0049425736 0.056895237 0.0049371291 0.057214294 0.99208063 -0.11182925
