!Keysight Technologies,N5222B,MY61253708,A.15.00.15
!Date: Wednesday, June 19, 2024 10:06:37
!Correction: S11(C  2-Port  ) 
!S21(C  2-Port  ) 
!S12(C  2-Port  ) 
!S22(C  2-Port  ) 
!S2P File: Measurements: S11, S21, S12, S22:
# Hz S  RI   R 50
10000000 0.99838626 -0.0030068755 0.00059747498 0.00051536201 -3.7738326e-005 0.00042142792 0.99854344 -0.0017096698
19996226.415094 1.0001032 -0.0028988123 7.6019496e-006 0.00069134223 7.8189827e-005 0.00061577861 1.0004666 -0.0026886165
29992452.830189 0.99980402 -0.0024975538 3.7231977e-005 0.00098537875 1.2581295e-005 0.0010776758 0.99949437 -0.0026423037
39988679.245283 1.0000712 -0.0029907376 1.8921099e-005 0.0013072735 7.9441816e-006 0.0013578654 0.99967486 -0.0030653775
49984905.660377 1.0002015 -0.0036846995 -1.7100247e-006 0.0016306604 -1.3564713e-006 0.0016370113 0.99986148 -0.0036039352
59981132.075472 1.0004394 -0.004529506 -3.8717408e-005 0.0019446682 -2.5001122e-005 0.002026411 0.99985194 -0.0041965544
69977358.490566 1.0001979 -0.0050864127 -7.8361045e-006 0.0022902624 3.5500307e-005 0.0022554318 0.99975336 -0.004791392
79973584.90566 0.99992645 -0.0056776106 2.3008324e-006 0.0026345146 2.5733258e-005 0.0026487412 0.99940884 -0.0052473843
89969811.320755 1.0000142 -0.0057244897 3.0569499e-006 0.0029532274 2.0872685e-005 0.0029583648 0.99963379 -0.0054740906
99966037.735849 1.0002208 -0.006516546 3.0600175e-005 0.0032806143 1.5580386e-005 0.0033032524 0.99968338 -0.0062655956
109962264.15094 1.0002325 -0.0073836148 2.7028727e-005 0.0036031383 2.7508766e-005 0.0036129975 0.9996894 -0.0070328563
119958490.56604 1.0002499 -0.0083089471 4.1343854e-005 0.0039254841 4.5203953e-005 0.0039583948 0.99971902 -0.0078772604
129954716.98113 1.0001906 -0.009218663 2.2845459e-005 0.0042409217 5.3451047e-005 0.0042892229 0.9997409 -0.0087537766
139950943.39623 1.0001285 -0.0099970363 3.7167134e-005 0.0045957537 3.644258e-005 0.0045979926 0.99966365 -0.0095237941
149947169.81132 1.0000254 -0.010637969 7.153675e-005 0.0049118614 4.1666441e-005 0.0049363491 0.99958432 -0.010108024
159943396.22642 0.99999642 -0.01126796 6.2851701e-005 0.0052451128 5.8738282e-005 0.0052643628 0.99966365 -0.010576576
169939622.64151 0.99993801 -0.011615902 6.5404747e-005 0.0055757035 7.1279006e-005 0.0056023942 0.9996841 -0.011032328
179935849.0566 1.0000172 -0.011844695 6.9841393e-005 0.0058927741 8.3572231e-005 0.0059157424 0.99957639 -0.011399716
189932075.4717 1.0001423 -0.012612849 9.2791626e-005 0.006223232 9.6763717e-005 0.0062681139 0.99977225 -0.011962742
199928301.88679 1.0000317 -0.013430923 7.4276468e-005 0.0065583228 7.7352743e-005 0.0065638642 0.99966568 -0.012823194
209924528.30189 0.99982357 -0.013961986 0.00010051718 0.0068727117 0.00010120939 0.0069058579 0.9994635 -0.013443783
219920754.71698 0.99998242 -0.014778376 0.0001234957 0.0072221416 9.8840334e-005 0.0072308984 0.99944067 -0.014067233
229916981.13208 0.99972641 -0.015647411 0.00011621648 0.0075325812 0.00011732755 0.0075797131 0.99938321 -0.014884323
239913207.54717 0.99961185 -0.016324583 0.0001335491 0.0078672245 0.00011927786 0.0079007186 0.99934262 -0.015613856
249909433.96226 0.99964654 -0.016949505 0.00011897716 0.0081981039 0.00014046882 0.0082273381 0.99938607 -0.016210556
259905660.37736 0.9997046 -0.01757744 0.00011567399 0.0085436786 0.0001402963 0.008551022 0.99952757 -0.016799808
269901886.79245 0.99987543 -0.018199041 0.00017537607 0.0088401642 0.00015971716 0.0088360179 0.99995685 -0.017473653
279898113.20755 0.99997574 -0.018765092 0.00016470812 0.0091591645 0.00019086781 0.0091780759 0.99971777 -0.018239081
289894339.62264 0.99985033 -0.019558609 0.00017200503 0.0095413681 0.00016740803 0.0095232539 0.99968332 -0.019038022
299890566.03774 0.99982864 -0.020009339 0.00019512186 0.0097753666 0.00023072492 0.009878749 0.99944937 -0.019419104
309886792.45283 0.99967909 -0.02060388 0.0001730324 0.010169762 0.00023597822 0.010236544 0.99935734 -0.019831032
319883018.86792 0.99965894 -0.021185786 0.00021950295 0.010512279 0.00021900935 0.01052912 0.99945807 -0.020359129
329879245.28302 0.99971962 -0.02205196 0.00024065888 0.010818832 0.00025216164 0.010873966 0.99959564 -0.021101087
339875471.69811 0.99958986 -0.022869468 0.00023229036 0.011176682 0.00025230355 0.011160882 0.99944818 -0.021909453
349871698.11321 0.99976176 -0.023652643 0.00027745683 0.011474599 0.00025412906 0.011515683 0.99949211 -0.022735119
359867924.5283 0.99958128 -0.024407297 0.00026468141 0.011774691 0.00026714336 0.01183155 0.99944425 -0.023621053
369864150.9434 0.99979758 -0.025129318 0.00028237491 0.012079578 0.00029282714 0.012171348 0.9994607 -0.024361908
379860377.35849 0.99967772 -0.025859743 0.00031675072 0.012449098 0.00031725364 0.012496834 0.99935567 -0.025003344
389856603.77358 0.99955606 -0.026434302 0.00034385594 0.012791539 0.00033614878 0.012807367 0.99937439 -0.025449872
399852830.18868 0.99936825 -0.027050644 0.00034058373 0.013072669 0.00033935998 0.013166614 0.99945092 -0.025948405
409849056.60377 0.99933404 -0.027630242 0.0003561255 0.013395533 0.00036707177 0.013481712 0.99936974 -0.026458578
419845283.01887 0.9992975 -0.027954459 0.00038663298 0.013706733 0.00036320975 0.013792723 0.99939632 -0.027048975
429841509.43396 0.99935198 -0.028642386 0.00036859512 0.014067721 0.00040054647 0.014168492 0.9995749 -0.027789205
439837735.84906 0.99921697 -0.029566422 0.00043401832 0.014393541 0.00045880105 0.014453411 0.99939579 -0.028758213
449833962.26415 0.99905157 -0.030380368 0.00043572672 0.014666962 0.00047253678 0.014741614 0.99896383 -0.029570222
459830188.67925 0.99880147 -0.030984342 0.00044205971 0.015020452 0.00041947933 0.015097055 0.99875712 -0.030202389
469826415.09434 0.99876755 -0.031655401 0.00045962911 0.015333909 0.00042994134 0.015445408 0.99859744 -0.030741245
479822641.50943 0.99873567 -0.03216099 0.00048894016 0.015720706 0.00048616924 0.015770765 0.99856251 -0.031167351
489818867.92453 0.99885398 -0.032719612 0.00051427307 0.016019614 0.00050103571 0.016113546 0.99889338 -0.031736672
499815094.33962 0.99884975 -0.033278644 0.00051715784 0.016354121 0.00053919805 0.016425783 0.99904841 -0.032382995
509811320.75472 0.99892229 -0.033761106 0.00058420165 0.016633248 0.00058518519 0.016694998 0.99919081 -0.033120763
519807547.16981 0.99891412 -0.034189224 0.00057271216 0.016947147 0.00054025184 0.017060397 0.99920577 -0.03379184
529803773.58491 0.99886662 -0.034808487 0.00057267491 0.017291795 0.00054754317 0.017359126 0.99899453 -0.034364849
539800000 0.99899328 -0.035437733 0.0006039876 0.017641664 0.00057380949 0.017718688 0.9988631 -0.03499116
549796226.41509 0.99885535 -0.03625226 0.00062154373 0.0180007 0.00061937841 0.01806074 0.99875474 -0.035496205
559792452.83019 0.99858773 -0.036943018 0.00064218324 0.01828732 0.00062844437 0.018382732 0.99867582 -0.03600949
569788679.24528 0.99848759 -0.037610501 0.00065656658 0.018619373 0.00064215343 0.018697863 0.99877709 -0.036830544
579784905.66038 0.99849659 -0.038141005 0.00072581216 0.018992513 0.00068295083 0.019048497 0.9989208 -0.037518762
589781132.07547 0.99861801 -0.038702607 0.00074764807 0.019284664 0.00071365852 0.0193551 0.99897969 -0.038330764
599777358.49057 0.9987278 -0.039408356 0.00078141317 0.019612137 0.00073860027 0.019686121 0.99899387 -0.039120764
609773584.90566 0.99886084 -0.040201403 0.00082170544 0.019912088 0.00079448498 0.020043563 0.99887121 -0.04002735
619769811.32075 0.99901778 -0.040843904 0.00085751386 0.020233996 0.00082879141 0.020366905 0.99885428 -0.040466756
629766037.73585 0.99891394 -0.041500062 0.00086819194 0.020569392 0.00085923076 0.020666927 0.99865711 -0.040971726
639762264.15094 0.9987464 -0.042145789 0.00087862392 0.020880923 0.00082688569 0.020964308 0.99852675 -0.041487277
649758490.56604 0.99869418 -0.042770818 0.00087134354 0.021202365 0.00085967174 0.021332366 0.99858671 -0.04196386
659754716.98113 0.99848044 -0.043227166 0.00088283513 0.021526953 0.00086784549 0.021661285 0.99861145 -0.042477667
669750943.39623 0.99854195 -0.043691128 0.00091198226 0.021861505 0.00090586627 0.021990567 0.99865317 -0.043257207
679747169.81132 0.99851882 -0.044460587 0.00095315964 0.022221375 0.00095064496 0.022329168 0.99869406 -0.044208288
689743396.22642 0.99867499 -0.045262367 0.001000355 0.02254967 0.0010067578 0.022661395 0.99850178 -0.045083702
699739622.64151 0.99875623 -0.046032667 0.001038067 0.022881422 0.0010269964 0.022980113 0.99847198 -0.04581818
709735849.0566 0.99877059 -0.046918221 0.0010470602 0.023148056 0.0010742501 0.023299271 0.99818039 -0.046422288
719732075.4717 0.99863148 -0.047642678 0.0011018342 0.023495402 0.001099729 0.023596969 0.99826205 -0.046988159
729728301.88679 0.99853778 -0.048234224 0.001124409 0.02382727 0.0011429442 0.023898568 0.99829209 -0.047529072
739724528.30189 0.99842626 -0.048860356 0.0011841869 0.024142604 0.0011513415 0.024228087 0.99848771 -0.04814294
749720754.71698 0.99833804 -0.049393684 0.0012107799 0.024475982 0.0011838078 0.024550868 0.99843997 -0.04883267
759716981.13208 0.99840808 -0.049901068 0.001215403 0.024727575 0.0012028133 0.024884608 0.9984746 -0.049567193
769713207.54717 0.99832225 -0.050595373 0.0012629004 0.025057508 0.0012462623 0.025193285 0.99819028 -0.050272733
779709433.96226 0.9984144 -0.051280413 0.0013018562 0.025392665 0.0012911905 0.025517454 0.99806547 -0.050922159
789705660.37736 0.9982537 -0.052091897 0.0013000928 0.025690738 0.0013185339 0.025822526 0.99776649 -0.05158639
799701886.79245 0.99826455 -0.052866638 0.0013248865 0.026021838 0.0013520503 0.026150197 0.99765825 -0.05215171
809698113.20755 0.99821627 -0.053468972 0.0013848501 0.026343862 0.0013719718 0.026477784 0.99762416 -0.052633852
819694339.62264 0.99801081 -0.054079056 0.0013905009 0.02666631 0.0013843044 0.026788397 0.99775618 -0.053226709
829690566.03774 0.99799943 -0.054726869 0.0014211778 0.026972966 0.001460922 0.027121009 0.99800527 -0.054147363
839686792.45283 0.99808633 -0.055136263 0.0014201473 0.027290251 0.0014628982 0.027425254 0.99805015 -0.054885745
849683018.86792 0.99811941 -0.055871151 0.001457999 0.027623048 0.0015120187 0.027762007 0.99787503 -0.0556527
859679245.28302 0.99819124 -0.056546032 0.0014927285 0.027941015 0.0015195152 0.028071133 0.99769437 -0.056307256
869675471.69811 0.99803674 -0.057306975 0.0015610494 0.028246567 0.0015579974 0.028405821 0.99733251 -0.056865185
879671698.11321 0.99795347 -0.057877891 0.0016067936 0.028571319 0.0015955516 0.02870962 0.99737877 -0.057236947
889667924.5283 0.99790478 -0.058635801 0.0016402528 0.028874155 0.0016365638 0.029029947 0.9971894 -0.057737231
899664150.9434 0.99767148 -0.059271753 0.0016298676 0.029170368 0.0016546492 0.029339526 0.99725068 -0.05834955
909660377.35849 0.99767292 -0.059981987 0.0016418849 0.029497685 0.0016859882 0.029669674 0.99741781 -0.059162185
919656603.77358 0.99775857 -0.060643181 0.0016845185 0.029823208 0.0017009638 0.029988043 0.9973855 -0.060039073
929652830.18868 0.99770075 -0.061335593 0.0016872389 0.030126674 0.0017269943 0.030284774 0.99723625 -0.060850829
939649056.60377 0.9978227 -0.061880946 0.0017009256 0.030445891 0.0017369119 0.030580293 0.99704027 -0.061602175
949645283.01887 0.99777269 -0.062727623 0.0017187388 0.030785877 0.0017460611 0.030924337 0.9968372 -0.06209426
959641509.43396 0.99777442 -0.063430876 0.0017597629 0.031110693 0.0017668465 0.031271834 0.99678928 -0.06263116
969637735.84906 0.99770719 -0.064198315 0.0018225228 0.031481571 0.001827375 0.03162504 0.99683601 -0.062999099
979633962.26415 0.99751854 -0.064845435 0.0018713993 0.031766191 0.0018607646 0.03193707 0.99691266 -0.063714817
989630188.67925 0.99756092 -0.065419286 0.0019064452 0.032085173 0.0018914966 0.032279208 0.99711508 -0.064202756
999626415.09434 0.99766445 -0.066003829 0.0019410998 0.032413818 0.0019500162 0.032582354 0.99697769 -0.06505236
1009622641.5094 0.99764222 -0.066597149 0.0019416879 0.032714285 0.0020148847 0.03292324 0.99686992 -0.065848902
1019618867.9245 0.99771601 -0.067430452 0.0020067869 0.033057529 0.0020256639 0.033258073 0.99655956 -0.066671968
1029615094.3396 0.99778754 -0.068365306 0.0020648232 0.033357322 0.0020995513 0.03353072 0.99627066 -0.067274541
1039611320.7547 0.99778259 -0.069147468 0.0020888736 0.033638474 0.0021243012 0.033835575 0.99620539 -0.067895532
1049607547.1698 0.99758768 -0.07000529 0.002114102 0.03393488 0.0021195724 0.034145597 0.99623793 -0.068484664
1059603773.5849 0.99750739 -0.070750862 0.0021441197 0.034246251 0.0021658866 0.03446044 0.99622059 -0.0690099
1069600000 0.99733531 -0.071353793 0.0021240879 0.034561776 0.0021825423 0.034755077 0.9963904 -0.069761783
1079596226.4151 0.99723554 -0.072040848 0.0021458087 0.03487986 0.0022148993 0.035095621 0.99635905 -0.070500553
1089592452.8302 0.99735379 -0.072704315 0.0021947231 0.035233237 0.0022524977 0.035440128 0.99631214 -0.071240485
1099588679.2453 0.99740124 -0.073377728 0.0021767821 0.035565589 0.0022315718 0.035742216 0.99592799 -0.071858257
1109584905.6604 0.99746203 -0.074194923 0.0022316407 0.035884224 0.0022659386 0.036062837 0.99577492 -0.072435156
1119581132.0755 0.99750417 -0.075082481 0.0022288011 0.036209129 0.002294851 0.0364273 0.9955914 -0.072793409
1129577358.4906 0.99730331 -0.075833976 0.0022572149 0.036570366 0.0023088772 0.036759675 0.9954797 -0.073197603
1139573584.9057 0.9970566 -0.076671332 0.0022985078 0.036865205 0.0023910431 0.037105251 0.99557012 -0.073921233
1149569811.3208 0.99699891 -0.077522345 0.0023684998 0.037225917 0.0024142433 0.037427943 0.9956978 -0.074656531
1159566037.7358 0.99674642 -0.078212887 0.0024269251 0.037518792 0.0024605105 0.037719656 0.99581504 -0.075634301
1169562264.1509 0.99652141 -0.078882575 0.0023963973 0.03781848 0.0024879761 0.038039323 0.99560422 -0.076356232
1179558490.566 0.99657404 -0.079668209 0.0024319452 0.038205191 0.0025114515 0.038420253 0.99553627 -0.077108733
1189554716.9811 0.99653631 -0.080341846 0.0024749264 0.038534738 0.002564026 0.038738605 0.99520314 -0.077668756
1199550943.3962 0.99646699 -0.081214547 0.0025069471 0.038883597 0.0026123598 0.039060201 0.99506682 -0.078083187
1209547169.8113 0.99632162 -0.082118332 0.0025475249 0.039186493 0.0026082508 0.039398111 0.99499726 -0.078448728
1219543396.2264 0.9961834 -0.082838535 0.0025962135 0.039546996 0.0026845285 0.039768532 0.99503058 -0.078770906
1229539622.6415 0.99588299 -0.083570689 0.0026771277 0.039883226 0.0027448684 0.040051796 0.99516141 -0.079466999
1239535849.0566 0.99561185 -0.084260821 0.0027063731 0.040162902 0.0028065499 0.040370062 0.99528527 -0.080371797
1249532075.4717 0.99536312 -0.084935173 0.002767622 0.040500004 0.0028895999 0.040697355 0.99514687 -0.081168368
1259528301.8868 0.99519831 -0.085434288 0.0028059259 0.040819384 0.0029167291 0.041007906 0.99493349 -0.082045943
1269524528.3019 0.99495089 -0.086191624 0.0028945561 0.041111991 0.0030132346 0.041302934 0.9946993 -0.082628965
1279520754.717 0.99464875 -0.086922206 0.0029506919 0.041391637 0.0030684005 0.041584983 0.99446088 -0.083250992
1289516981.1321 0.99457765 -0.087701648 0.0029390017 0.041698106 0.0030748937 0.041871287 0.99451959 -0.083732307
1299513207.5472 0.99419481 -0.088643938 0.0029836744 0.042001318 0.0030719452 0.042206302 0.99462473 -0.084101856
1309509433.9623 0.99379057 -0.089273676 0.002988698 0.042304564 0.003073412 0.042497844 0.99469697 -0.084852904
1319505660.3774 0.99347937 -0.090023533 0.0029722508 0.042644609 0.0030796919 0.042813431 0.99469227 -0.085506201
1329501886.7925 0.99317932 -0.090646416 0.002976764 0.042971767 0.0031146519 0.043122586 0.99479318 -0.086417615
1339498113.2075 0.99299395 -0.091118991 0.0030087112 0.043288127 0.0031314949 0.043419443 0.99444288 -0.087128073
1349494339.6226 0.99267578 -0.09174338 0.0030100066 0.043629371 0.0031120828 0.043777496 0.99402601 -0.087701358
1359490566.0377 0.9926796 -0.092210114 0.0030308906 0.043987904 0.0031095836 0.044093542 0.99388343 -0.088201374
1369486792.4528 0.99239141 -0.092765599 0.0030247169 0.044322554 0.0031272778 0.044468917 0.99367064 -0.088647246
1379483018.8679 0.99211949 -0.093295023 0.003050945 0.044694457 0.0031139273 0.044823173 0.99370223 -0.088947967
1389479245.283 0.99180412 -0.093803108 0.0030919462 0.045073006 0.0031901412 0.045185879 0.9936462 -0.089654565
1399475471.6981 0.99145037 -0.094245225 0.0031195022 0.045386456 0.0031953491 0.045511462 0.99387133 -0.09034729
1409471698.1132 0.99115413 -0.094721943 0.0031423925 0.045796067 0.0032291091 0.045903545 0.99386305 -0.091158763
1419467924.5283 0.99095905 -0.094978273 0.0031860285 0.046149816 0.0032246727 0.046271741 0.99364889 -0.091813624
1429464150.9434 0.9909128 -0.09540385 0.0031753872 0.046569668 0.0032862183 0.046665065 0.99359477 -0.092391551
1439460377.3585 0.99094087 -0.095891058 0.0033072168 0.046974964 0.0033462783 0.047093172 0.99336016 -0.092822418
1449456603.7736 0.99101233 -0.096388444 0.0034101326 0.04741402 0.0034130448 0.04752082 0.99323636 -0.093128711
1459452830.1887 0.99100876 -0.097064525 0.0035440326 0.047786914 0.0035581794 0.047891155 0.99334419 -0.093459398
1469449056.6038 0.99105537 -0.097734511 0.0036869617 0.048095632 0.0036731344 0.048217926 0.99360704 -0.094003886
1479445283.0189 0.9909054 -0.098277107 0.0038098018 0.048411153 0.0038087757 0.048538499 0.99365819 -0.094893448
1489441509.434 0.99081349 -0.098749489 0.0039255042 0.048700992 0.0039635599 0.048803851 0.99357486 -0.095753849
1499437735.8491 0.99071407 -0.099142104 0.0040759332 0.048975237 0.0040501561 0.04909749 0.9934836 -0.096624106
1509433962.2642 0.99071687 -0.099597022 0.0040958747 0.049224664 0.0041362466 0.049367525 0.99322486 -0.097312123
1519430188.6792 0.99081677 -0.1002754 0.0041866042 0.049509339 0.0041721538 0.049621765 0.99314046 -0.097858131
1529426415.0943 0.99075854 -0.10092112 0.0042676497 0.049782857 0.0042092204 0.049940705 0.9930532 -0.098303139
1539422641.5094 0.99074852 -0.10170618 0.0043191956 0.050072402 0.0043095625 0.050238907 0.99309045 -0.098819174
1549418867.9245 0.99060094 -0.102557 0.0043833787 0.050399568 0.0043623568 0.050495289 0.99331474 -0.099499345
1559415094.3396 0.99046588 -0.1031383 0.004370952 0.050630402 0.0043666996 0.050765052 0.99348378 -0.10011342
1569411320.7547 0.99035704 -0.10391121 0.0044647725 0.050894905 0.0044360999 0.051052958 0.99338186 -0.10091975
1579407547.1698 0.99032354 -0.10438639 0.0044601001 0.051202286 0.0044405973 0.051366564 0.99309242 -0.10176912
1589403773.5849 0.9903096 -0.10490924 0.0044430047 0.051435314 0.0044536591 0.051655989 0.99279761 -0.10245895
1599400000 0.99024022 -0.10534036 0.004442594 0.05178003 0.0044359965 0.051950917 0.99252403 -0.10295302
1609396226.4151 0.99019319 -0.1060387 0.0044410992 0.052076049 0.0044522882 0.052274954 0.9922868 -0.10344932
1619392452.8302 0.99018085 -0.10670131 0.0044794939 0.052413493 0.00443938 0.052610315 0.99227178 -0.10395622
1629388679.2453 0.98994762 -0.10737452 0.0044534057 0.052753083 0.0044310577 0.052980453 0.99254066 -0.10444415
1639384905.6604 0.98969418 -0.10795604 0.0044701379 0.053106476 0.0044368878 0.053334814 0.99265844 -0.10521112
1649381132.0755 0.98954988 -0.1087046 0.0044958293 0.053466529 0.0044484474 0.053722486 0.9927026 -0.10612109
1659377358.4906 0.98935717 -0.10942256 0.0045285057 0.053825956 0.0045193415 0.054055784 0.99258697 -0.10695669
1669373584.9057 0.98939288 -0.10990033 0.0045215087 0.054187734 0.0045165629 0.054394946 0.99237579 -0.10763501
1679369811.3208 0.98946971 -0.11052746 0.0045754453 0.054604873 0.0045353174 0.054796748 0.99210101 -0.10815537
1689366037.7358 0.98937088 -0.11112374 0.004644841 0.054952472 0.0045731962 0.055170033 0.99200773 -0.10849902
1699362264.1509 0.98951221 -0.11170031 0.0046841921 0.05530801 0.0046199346 0.055594806 0.99221045 -0.10897295
1709358490.566 0.9894172 -0.11233696 0.0047142887 0.055665717 0.0047019813 0.055934306 0.99215758 -0.10939266
1719354716.9811 0.98911953 -0.11294174 0.0047634933 0.056037024 0.0047410131 0.056307331 0.99222672 -0.11018527
