!Keysight Technologies,N5222B,MY61253708,A.15.00.15
!Date: Wednesday, June 19, 2024 09:26:53
!Correction: S11(C  2-Port  ) 
!S21(C  2-Port  ) 
!S12(C  2-Port  ) 
!S22(C  2-Port  ) 
!S2P File: Measurements: S11, S21, S12, S22:
# Hz S  RI   R 50
10000000 0.99874252 -0.0026319921 -0.00016520756 -0.00032252117 0.00018197855 0.00036538515 0.99842525 -0.0012573302
19996226.415094 0.99893486 -0.0021273792 2.0794425e-005 0.00052271888 0.00010277977 0.00071887311 0.99927151 -0.0022206306
29992452.830189 0.99982262 -0.0024516284 -1.1103402e-005 0.00099502248 1.4456251e-005 0.0010467375 0.99948829 -0.0027169883
39988679.245283 1.0000184 -0.0030227453 -1.3974131e-005 0.0013894843 2.4071414e-005 0.0013829743 0.99972755 -0.0030997545
49984905.660377 1.0001507 -0.0037631392 3.4694269e-005 0.0016894629 4.6602217e-006 0.0017102349 0.99977815 -0.0037429631
59981132.075472 1.000317 -0.0046102405 2.7228787e-005 0.0019862722 7.8653684e-006 0.002013704 0.99975169 -0.0043426752
69977358.490566 1.0001608 -0.0052602645 -6.0660859e-006 0.0023631146 -8.7175795e-006 0.0023648581 0.99957448 -0.0048572086
79973584.90566 0.99983573 -0.0057871044 1.4674501e-005 0.0026799915 2.352288e-005 0.0027035635 0.99931049 -0.0053344071
89969811.320755 0.99989438 -0.0059728324 3.3867545e-006 0.0030312499 3.3991528e-005 0.0030279756 0.9995203 -0.00562343
99966037.735849 1.0001255 -0.0067186505 1.5222642e-005 0.003384578 4.1343679e-005 0.0033853985 0.99957895 -0.0064496398
109962264.15094 1.0000846 -0.0075927973 1.8774299e-005 0.0036856388 3.1248841e-005 0.0037395561 0.99959493 -0.0072584897
119958490.56604 1.0001595 -0.008534044 3.3256714e-005 0.0040196022 4.365819e-005 0.0040436289 0.9996171 -0.008148253
129954716.98113 1.0000823 -0.0095501244 4.3251785e-005 0.0043609994 6.5216562e-005 0.004401545 0.99961048 -0.0090342462
139950943.39623 0.99998039 -0.010364106 5.0777409e-005 0.0046965913 4.6313304e-005 0.0047263852 0.99951392 -0.0098396502
149947169.81132 0.99992573 -0.011022717 5.1440438e-005 0.0050560776 4.0599611e-005 0.0050797956 0.99947822 -0.010436147
159943396.22642 0.99981499 -0.011546314 6.3513638e-005 0.0053876019 5.5180164e-005 0.0054127262 0.99954325 -0.01089406
169939622.64151 0.99987465 -0.011938624 7.0438604e-005 0.0057132835 6.4365333e-005 0.0057660732 0.99958009 -0.011312522
179935849.0566 0.99992698 -0.012222618 8.9942361e-005 0.006053457 0.0001090134 0.0061081364 0.99948907 -0.011713892
189932075.4717 1.0000275 -0.013010949 9.2119677e-005 0.0063582342 6.7854533e-005 0.006445318 0.9997021 -0.012253016
199928301.88679 0.99994725 -0.013801634 9.5477677e-005 0.0067208977 9.5021562e-005 0.0067678755 0.9996115 -0.013193011
209924528.30189 0.99970216 -0.014497325 0.00010513957 0.0070474693 0.00011227909 0.0071119182 0.99933404 -0.013913482
219920754.71698 0.99977756 -0.015362263 0.00011272938 0.0073694121 0.00011631078 0.007463593 0.99924266 -0.014590681
229916981.13208 0.99950349 -0.016240984 0.0001226957 0.0077405926 0.00014094613 0.0077823871 0.99919581 -0.015386611
239913207.54717 0.9994238 -0.016836828 0.00012996302 0.0080415504 0.00012769556 0.008117809 0.99914473 -0.016074656
249909433.96226 0.99946761 -0.01750657 0.00013272348 0.0083717126 0.0001446947 0.008456517 0.99923885 -0.016746789
259905660.37736 0.99960077 -0.018098593 0.0001550233 0.0086806156 0.00014705537 0.0087949121 0.99940145 -0.017207623
269901886.79245 0.99966741 -0.018697158 0.00015219254 0.0090436283 0.00012115983 0.009143698 0.99971652 -0.018059686
279898113.20755 0.99975014 -0.019310921 0.0001685305 0.0093951244 0.00022694608 0.0094727511 0.99965101 -0.018836841
289894339.62264 0.99980223 -0.020094663 0.00025611836 0.0097077359 0.00019492349 0.0098416787 0.99954551 -0.019550979
299890566.03774 0.99970162 -0.020673424 0.00022958196 0.010061119 0.00020798366 0.010211675 0.99925649 -0.020004988
309886792.45283 0.99951863 -0.021277331 0.00023485377 0.010376559 0.00023291516 0.010478448 0.99913722 -0.02041661
319883018.86792 0.99947953 -0.021922141 0.00020954665 0.010728543 0.0002275398 0.01084297 0.99923503 -0.020873874
329879245.28302 0.99952269 -0.022698492 0.00026151165 0.011029426 0.00022157887 0.011192555 0.99935406 -0.021717191
339875471.69811 0.99936795 -0.023420721 0.00020707177 0.011414885 0.00021452701 0.011535813 0.99931937 -0.022524036
349871698.11321 0.99957311 -0.024230659 0.00030408311 0.011710611 0.00026272144 0.011867067 0.99923289 -0.023436308
359867924.5283 0.99931169 -0.025048226 0.00032090349 0.012059813 0.00033321744 0.012161488 0.99924511 -0.024305403
369864150.9434 0.99960893 -0.025802881 0.00029560458 0.012410043 0.00029318733 0.012519657 0.99925703 -0.02500543
379860377.35849 0.99945492 -0.026492313 0.00032955827 0.012755287 0.00033155922 0.012846434 0.99913269 -0.025744617
389856603.77358 0.99942672 -0.027055383 0.00037093041 0.013082289 0.00035339734 0.013191754 0.99917006 -0.026158184
399852830.18868 0.99923193 -0.027682841 0.00036799628 0.013393694 0.00037737563 0.013500475 0.99921358 -0.026682556
409849056.60377 0.99918509 -0.028095623 0.00038482717 0.013757874 0.00038585317 0.013870621 0.99929005 -0.027117677
419845283.01887 0.99915099 -0.028537214 0.00042808848 0.01406969 0.0004000105 0.014190064 0.9993186 -0.02767399
429841509.43396 0.99924314 -0.029274881 0.00042845169 0.014440799 0.00043363729 0.014497823 0.99957973 -0.028501064
439837735.84906 0.99910241 -0.030205861 0.00045799592 0.014747843 0.00047582493 0.014842757 0.99925798 -0.029401094
449833962.26415 0.99893975 -0.030917525 0.00043681404 0.015038666 0.00046176743 0.015203892 0.99890888 -0.030220419
459830188.67925 0.99883115 -0.03175503 0.00048683025 0.015417133 0.00049092341 0.015516201 0.99871886 -0.031005502
469826415.09434 0.99873084 -0.032499015 0.00048511056 0.015749678 0.00047652423 0.015871005 0.998505 -0.031633317
479822641.50943 0.99877363 -0.033025846 0.00047719828 0.016085368 0.00049312646 0.016249854 0.99849856 -0.032053217
489818867.92453 0.99877095 -0.033609718 0.00054230075 0.016399197 0.00053696241 0.016589116 0.99883354 -0.032690436
499815094.33962 0.99892557 -0.034228265 0.00057836203 0.016737489 0.0006068754 0.016882686 0.99912822 -0.033326477
509811320.75472 0.99899954 -0.034569502 0.00060233445 0.017070914 0.00062053138 0.017193904 0.99927104 -0.034111418
519807547.16981 0.99896306 -0.035259634 0.00057296036 0.017373791 0.00063229399 0.017557381 0.99920779 -0.034841627
529803773.58491 0.99884272 -0.035812706 0.00062050577 0.017742347 0.00061035715 0.017860547 0.99900275 -0.035432577
539800000 0.99891514 -0.036589429 0.00064039789 0.018056743 0.00068522617 0.018211024 0.99880683 -0.036244005
549796226.41509 0.99880552 -0.037421405 0.00070230383 0.018429037 0.00066871988 0.018562576 0.99856806 -0.036633879
559792452.83019 0.9985888 -0.038087875 0.00066241529 0.018797679 0.00068998802 0.018926542 0.99851668 -0.037189275
569788679.24528 0.99843687 -0.038766474 0.00070068054 0.019081356 0.00071821129 0.019270515 0.99864852 -0.037909031
579784905.66038 0.9983567 -0.039348327 0.00073792296 0.019444117 0.00074200239 0.019586662 0.99871552 -0.038658485
589781132.07547 0.99851441 -0.039954066 0.00080599356 0.019746358 0.00076744985 0.019861668 0.99889177 -0.039512306
599777358.49057 0.99869341 -0.040622383 0.00080882758 0.02009318 0.0007997537 0.020249991 0.99893141 -0.040350378
609773584.90566 0.99877822 -0.041410271 0.00087651797 0.020428531 0.00086566707 0.020587429 0.99879861 -0.041252382
619769811.32075 0.99885654 -0.042062968 0.00088202022 0.020770134 0.00085021043 0.020912757 0.99870771 -0.041716814
629766037.73585 0.99871582 -0.042702615 0.00092470832 0.021031827 0.00094253197 0.021247897 0.99852294 -0.042263329
639762264.15094 0.99856603 -0.043395057 0.0009272811 0.021413255 0.00095886551 0.021539733 0.99834555 -0.042764738
649758490.56604 0.99846041 -0.043956771 0.00092381239 0.021704966 0.00096468907 0.021887459 0.99839795 -0.043138638
659754716.98113 0.99831176 -0.044463634 0.00091256388 0.022090504 0.00094490685 0.022233523 0.99843323 -0.043773323
669750943.39623 0.99818784 -0.045084417 0.00097031752 0.02242252 0.00095758168 0.022610385 0.99847978 -0.044576079
679747169.81132 0.99823344 -0.045731626 0.001004492 0.022737231 0.0010280692 0.022946406 0.9984566 -0.045527853
689743396.22642 0.99837875 -0.046633899 0.0010623345 0.023056047 0.0010646265 0.023315612 0.99827242 -0.046378791
699739622.64151 0.99848223 -0.047389776 0.0010971753 0.023382574 0.0010938374 0.023599269 0.99822801 -0.047106206
709735849.0566 0.99848628 -0.048239097 0.0011468409 0.023703858 0.0011547641 0.02392038 0.99789298 -0.047765054
719732075.4717 0.99830288 -0.048977405 0.0011886456 0.02404543 0.0011897641 0.024245629 0.9980731 -0.04835692
729728301.88679 0.9982475 -0.049532712 0.0012167525 0.024349587 0.0012172824 0.024574399 0.99806035 -0.048790842
739724528.30189 0.9980793 -0.050190821 0.0012582634 0.024695493 0.0012619281 0.024920452 0.99833167 -0.049481347
749720754.71698 0.99811506 -0.050624207 0.0012975358 0.025016919 0.001286943 0.025244689 0.99830532 -0.050148427
759716981.13208 0.99808216 -0.051103443 0.0012848359 0.025360584 0.0013138261 0.025579417 0.99823916 -0.050915837
769713207.54717 0.99806476 -0.051960826 0.0013293587 0.025655922 0.0013660332 0.02590397 0.99800169 -0.051679045
779709433.96226 0.99824387 -0.052594446 0.0013630951 0.025999755 0.0013664339 0.026229359 0.99775678 -0.05229374
789705660.37736 0.99811506 -0.053481281 0.0013961708 0.026320308 0.0014208117 0.026523003 0.99746668 -0.053012192
799701886.79245 0.99810803 -0.054311872 0.0014403993 0.026628237 0.0014458736 0.026881961 0.99739009 -0.053686827
809698113.20755 0.9979791 -0.054870084 0.0014674584 0.026961602 0.0014678272 0.027224788 0.99743128 -0.054108575
819694339.62264 0.99784869 -0.055545121 0.0014754976 0.027279826 0.0014923052 0.027543452 0.99761248 -0.054743111
829690566.03774 0.9977771 -0.056128651 0.0015167184 0.027612288 0.0015292922 0.027878137 0.99783778 -0.055603474
839686792.45283 0.9978621 -0.056606114 0.0015147887 0.02794363 0.0015561059 0.028209148 0.99790543 -0.056458443
849683018.86792 0.99786961 -0.057287805 0.0016123808 0.02828666 0.0015899767 0.028542653 0.99774212 -0.057193652
859679245.28302 0.99798697 -0.058063 0.0016192049 0.028623633 0.0016334737 0.028875083 0.99748969 -0.057852328
869675471.69811 0.99787486 -0.058724046 0.001656224 0.028925709 0.0017025582 0.029191906 0.99715143 -0.058396578
879671698.11321 0.99781168 -0.059417788 0.0017199533 0.029232224 0.001693445 0.029519027 0.997114 -0.058803473
889667924.5283 0.99761021 -0.060237974 0.001741549 0.029559346 0.0017225575 0.029839581 0.99696767 -0.059301466
899664150.9434 0.99739122 -0.060986012 0.0017544907 0.029875496 0.0017664544 0.030137114 0.99706066 -0.059995323
909660377.35849 0.99747747 -0.061598003 0.0017460966 0.030204182 0.0017871349 0.030507335 0.99720615 -0.060830802
919656603.77358 0.99747068 -0.062287435 0.0017984924 0.030531583 0.0018045409 0.030802298 0.99724323 -0.061764464
929652830.18868 0.99753976 -0.062998205 0.0018276749 0.030827336 0.001852042 0.031134481 0.99704075 -0.06265673
939649056.60377 0.99772805 -0.063668072 0.0018653292 0.0311516 0.0018707858 0.031423405 0.99689102 -0.063420922
949645283.01887 0.99760419 -0.064465202 0.0018488596 0.031487465 0.0018681792 0.031811327 0.9965685 -0.063912824
959641509.43396 0.9975698 -0.065133184 0.0018856516 0.031871807 0.0018891692 0.032177821 0.99652404 -0.064479023
969637735.84906 0.99740875 -0.065849572 0.0019133613 0.032240797 0.0019539008 0.032528732 0.99657869 -0.064765662
979633962.26415 0.99733782 -0.066596158 0.0019949737 0.032529779 0.0020089415 0.032800008 0.99658579 -0.065412425
989630188.67925 0.99726796 -0.067071676 0.0020281747 0.032849297 0.0020344304 0.033153798 0.99684584 -0.066086352
999626415.09434 0.99736917 -0.067777961 0.0020440891 0.033169925 0.0020729639 0.033512782 0.99672097 -0.066921741
1009622641.5094 0.99745715 -0.068363369 0.0020753248 0.033523925 0.0021292437 0.033867113 0.99659944 -0.067792222
1019618867.9245 0.99745679 -0.069230244 0.0021206108 0.03386759 0.0022102199 0.034178644 0.99629229 -0.068638444
1029615094.3396 0.99749517 -0.070183754 0.0022134492 0.034178481 0.0022325944 0.034464605 0.99594593 -0.069156915
1039611320.7547 0.99748886 -0.071069062 0.0022451086 0.034464188 0.0023103626 0.034773696 0.99592137 -0.069862783
1049607547.1698 0.99737281 -0.071956076 0.0022592854 0.034750517 0.002299024 0.035108894 0.99588054 -0.070448041
1059603773.5849 0.99722767 -0.072737485 0.0023015207 0.035056654 0.0023029046 0.035407122 0.99595898 -0.071005136
1069600000 0.9970113 -0.073230684 0.0022750553 0.035402011 0.0023449343 0.035753712 0.99605799 -0.071685225
1079596226.4151 0.9969824 -0.073992081 0.0022924482 0.0357248 0.0023695603 0.03605945 0.9960013 -0.072478764
1089592452.8302 0.99699175 -0.074579477 0.0023543667 0.036043871 0.0024164049 0.036415718 0.99597973 -0.073194951
1099588679.2453 0.99697828 -0.07528758 0.0023647919 0.036391482 0.0023961328 0.03673847 0.9955951 -0.073856562
1109584905.6604 0.99715364 -0.076072335 0.0023989305 0.036746416 0.0024504149 0.037114859 0.99536216 -0.074410781
1119581132.0755 0.99707329 -0.077098541 0.0023973365 0.037073992 0.0024754656 0.037453901 0.99521792 -0.074889451
1129577358.4906 0.9968853 -0.077899903 0.0024167746 0.03743178 0.0024942569 0.037794258 0.99504125 -0.075316697
1139573584.9057 0.9965691 -0.078717411 0.0024678977 0.037766509 0.002570495 0.038129974 0.99519837 -0.075980365
1149569811.3208 0.9965834 -0.079584524 0.0025514986 0.038112871 0.0026214162 0.038477208 0.99530613 -0.076738551
1159566037.7358 0.99636734 -0.080281794 0.0025850758 0.038409278 0.0026732842 0.038792178 0.99534845 -0.077717185
1169562264.1509 0.99621159 -0.080820203 0.0025952067 0.03872899 0.002681287 0.039114546 0.9951663 -0.078517318
1179558490.566 0.9962188 -0.081730507 0.0026029518 0.039073907 0.0027067543 0.039472826 0.99507505 -0.079284936
1189554716.9811 0.99613523 -0.082350969 0.0026293406 0.039435677 0.0027578482 0.039806806 0.99483562 -0.079816878
1199550943.3962 0.99604428 -0.083232373 0.0026551336 0.039790139 0.002811512 0.040152371 0.99466985 -0.080254257
1209547169.8113 0.99591541 -0.084145844 0.0027465867 0.040127352 0.0028469032 0.040445492 0.99453992 -0.080482081
1219543396.2264 0.99571633 -0.085025862 0.0027608452 0.040480286 0.0029010107 0.040839609 0.9946205 -0.081004113
1229539622.6415 0.99544412 -0.085802466 0.0028664023 0.040812414 0.0029848143 0.041217089 0.99469566 -0.081678748
1239535849.0566 0.99514306 -0.08638674 0.0028895503 0.04113061 0.0030487999 0.041492924 0.99484628 -0.082557648
1249532075.4717 0.99478501 -0.087150112 0.0029461184 0.041454777 0.0031079436 0.041835975 0.9946506 -0.083451025
1259528301.8868 0.99464172 -0.08763507 0.0030178335 0.041794661 0.0031475555 0.04214808 0.99439144 -0.084309131
1269524528.3019 0.99447924 -0.088413447 0.0030494761 0.042105958 0.0032094475 0.042460945 0.99422628 -0.084975451
1279520754.717 0.99412936 -0.089124151 0.0031314204 0.042360794 0.0032917622 0.042709459 0.99385113 -0.085610546
1289516981.1321 0.9940173 -0.089952201 0.0031723054 0.042705402 0.0032770522 0.043033846 0.99394196 -0.085939378
1299513207.5472 0.99369276 -0.090792358 0.0031739604 0.043003712 0.0033166409 0.043362424 0.99411374 -0.08635655
1309509433.9623 0.99323177 -0.091526106 0.003168026 0.043303918 0.0033420799 0.043648522 0.99416983 -0.087078169
1319505660.3774 0.99280864 -0.092226073 0.0031888625 0.043634377 0.0033363504 0.043939285 0.99422258 -0.087657124
1329501886.7925 0.99264413 -0.092880815 0.0032011922 0.043961618 0.0033705253 0.044268619 0.99415004 -0.088742197
1339498113.2075 0.9922654 -0.093377709 0.0032224357 0.04431865 0.0033647604 0.044610817 0.99381202 -0.089390159
1349494339.6226 0.9921248 -0.093913138 0.0032217172 0.044635061 0.0033565979 0.044935949 0.99337459 -0.090033978
1359490566.0377 0.99197888 -0.094584644 0.0032244269 0.045011267 0.0033723097 0.045302436 0.99326754 -0.090533972
1369486792.4528 0.99189305 -0.095046759 0.003283089 0.045364529 0.003401245 0.045663171 0.99304849 -0.091002047
1379483018.8679 0.99148667 -0.095636696 0.0032797151 0.045750786 0.0033666431 0.046058096 0.99307084 -0.091359176
1389479245.283 0.99115866 -0.096206307 0.0033270419 0.046139032 0.0034269672 0.046405204 0.99308705 -0.092074633
1399475471.6981 0.99078286 -0.096530944 0.0033308659 0.046487466 0.0034421813 0.04678461 0.99319816 -0.09273532
1409471698.1132 0.99039167 -0.096903905 0.0033995563 0.046840686 0.0034539108 0.047166176 0.99324256 -0.093574688
1419467924.5283 0.99025679 -0.097112447 0.003397543 0.047235567 0.0034733796 0.047544856 0.99310726 -0.09433493
1429464150.9434 0.99011886 -0.097637862 0.0034368336 0.047642056 0.0035562497 0.047930401 0.99298048 -0.094831616
1439460377.3585 0.99027508 -0.098119944 0.0035328707 0.048083279 0.0035910001 0.048336953 0.99267375 -0.095191345
1449456603.7736 0.99027503 -0.098635823 0.0036347108 0.048488438 0.0037101284 0.048777528 0.99256241 -0.095536351
1459452830.1887 0.99032205 -0.09937188 0.003799377 0.04888773 0.0038108602 0.049173154 0.99265814 -0.095888495
1469449056.6038 0.99032038 -0.10007998 0.0039567463 0.049237736 0.0040137665 0.049548108 0.99295199 -0.096511275
1479445283.0189 0.99023443 -0.10058614 0.0040549086 0.049505856 0.0041106883 0.04982014 0.99297416 -0.097438708
1489441509.434 0.99004304 -0.10110477 0.0041971374 0.049816705 0.0042762104 0.050159499 0.99280953 -0.098309815
1499437735.8491 0.98986518 -0.10147211 0.0043107588 0.050118476 0.0043378603 0.050420236 0.99265891 -0.099104345
1509433962.2642 0.98992127 -0.10201555 0.0043497384 0.050408017 0.0044261208 0.050694842 0.99256915 -0.099887669
1519430188.6792 0.99009502 -0.10254154 0.0044691935 0.050658025 0.0044933315 0.050953709 0.99234092 -0.10040766
1529426415.0943 0.98990095 -0.10321844 0.0044948421 0.050947756 0.0045413617 0.051237948 0.99235439 -0.10088849
1539422641.5094 0.98993999 -0.10403168 0.0045925346 0.051257398 0.0045760022 0.051560111 0.99248236 -0.10135588
1549418867.9245 0.9898293 -0.10484593 0.0046359515 0.051529486 0.0046331752 0.051867992 0.99258828 -0.10202567
1559415094.3396 0.98965919 -0.10555077 0.0046691671 0.051838569 0.0046892595 0.052150816 0.99272233 -0.10264969
1569411320.7547 0.98952043 -0.10631692 0.0047375057 0.052094776 0.0047505433 0.052455001 0.99265844 -0.10356589
1579407547.1698 0.98944926 -0.10678856 0.0047759195 0.052352723 0.0047035431 0.052732963 0.99232751 -0.1042693
1589403773.5849 0.98953748 -0.10725886 0.0047368277 0.052703679 0.0047495421 0.053053901 0.99204361 -0.10505053
1599400000 0.98936206 -0.10779044 0.0047685122 0.052981861 0.0047432892 0.053366594 0.99164909 -0.1055764
1609396226.4151 0.98940116 -0.10845661 0.0047786878 0.053293549 0.004731406 0.053669691 0.99149776 -0.10609657
1619392452.8302 0.98936915 -0.1090228 0.0047729891 0.053611472 0.0047355443 0.0540381 0.9914726 -0.10645509
1629388679.2453 0.98911726 -0.10979789 0.0047488008 0.053992216 0.0047595091 0.054377437 0.99169183 -0.10697332
1639384905.6604 0.98891753 -0.11036679 0.0047790194 0.05436502 0.0047427155 0.054795213 0.99191254 -0.10782617
1649381132.0755 0.98871303 -0.11112458 0.004791759 0.054683935 0.0047763474 0.055129334 0.99191749 -0.10880268
1659377358.4906 0.98858404 -0.11195162 0.0048188269 0.055070728 0.0048333369 0.055508032 0.99185181 -0.1096271
1669373584.9057 0.98840839 -0.11235281 0.0048316712 0.055467132 0.0048595937 0.055918809 0.99158692 -0.11027928
1679369811.3208 0.9885053 -0.11298901 0.0049050329 0.055815361 0.0048997253 0.056296296 0.99134183 -0.11089018
1689366037.7358 0.98856258 -0.11353561 0.0049274657 0.05622457 0.0049240608 0.056679472 0.99123687 -0.11110765
1699362264.1509 0.9886288 -0.11424832 0.0049890447 0.056554124 0.0050077373 0.057065248 0.99140954 -0.11155209
1709358490.566 0.98849368 -0.11493394 0.0050463136 0.056932982 0.0050783567 0.057443917 0.99143606 -0.11215962
1719354716.9811 0.98823994 -0.11554688 0.005101759 0.057357818 0.0051174667 0.057838731 0.99142146 -0.11291274
