!Keysight Technologies,N5222B,MY61253708,A.15.00.15
!Date: Wednesday, June 19, 2024 09:00:58
!Correction: S11(C  2-Port  ) 
!S21(C  2-Port  ) 
!S12(C  2-Port  ) 
!S22(C  2-Port  ) 
!S2P File: Measurements: S11, S21, S12, S22:
# Hz S  RI   R 50
10000000 0.99871784 -0.0023083091 -8.4204366e-005 0.00071623793 0.00014475787 0.00047614722 0.99887329 -0.0011279881
19996226.415094 0.99911153 -0.0020071566 7.4973097e-005 0.00073870627 -0.00022388781 0.00066579308 0.99919325 -0.0020985305
29992452.830189 0.99976486 -0.0024371445 -3.3560558e-005 0.0011162482 5.1813491e-005 0.00096450426 0.99956834 -0.0028066039
39988679.245283 1.0001898 -0.0031143874 -4.3619235e-005 0.0013879237 -3.5911507e-005 0.0013953557 0.99965489 -0.0031780601
49984905.660377 1.0001926 -0.0038759708 -1.8460269e-005 0.0017496173 -2.9758085e-006 0.0017833819 0.99975866 -0.0038253069
59981132.075472 1.0003763 -0.0046493411 -1.4180201e-005 0.0021182084 1.0160729e-005 0.0021547484 0.9997583 -0.0043651164
69977358.490566 1.000105 -0.0053180289 2.1705033e-005 0.0024698453 5.0001559e-005 0.0024953301 0.99959308 -0.0048983712
79973584.90566 0.99984908 -0.0058453977 3.4901197e-005 0.0027872017 -2.0849518e-005 0.0028720722 0.99937713 -0.0054850578
89969811.320755 0.99985051 -0.0060884356 4.8560556e-005 0.0031845951 4.5833061e-005 0.0032195377 0.99951071 -0.0057478249
99966037.735849 1.0000209 -0.0067719668 2.7348229e-005 0.0035547281 3.1742791e-005 0.0035618392 0.99953014 -0.0065681934
109962264.15094 1.0001494 -0.0077605247 4.5801338e-005 0.0038960471 1.4574616e-005 0.0039305617 0.99955302 -0.0074109435
119958490.56604 1.0001554 -0.0087542236 5.0919596e-005 0.0042267172 5.6372024e-005 0.0042806291 0.99961782 -0.0083635151
129954716.98113 1.0000776 -0.0098225176 3.8003665e-005 0.0045962865 5.3947559e-005 0.0046321042 0.9995805 -0.0093092918
139950943.39623 1.0000145 -0.01071774 6.9763046e-005 0.0049565202 7.2718394e-005 0.0049842098 0.9994821 -0.010088824
149947169.81132 0.99987435 -0.011370778 3.9986102e-005 0.0053044404 5.9768558e-005 0.0053401412 0.99947715 -0.01071164
159943396.22642 0.9998194 -0.01190567 9.2863338e-005 0.0056660399 8.4254192e-005 0.0057104118 0.99953938 -0.011177272
169939622.64151 0.99979019 -0.012269512 8.3921652e-005 0.0060178698 8.4325264e-005 0.0060622334 0.9995957 -0.011636235
179935849.0566 0.99989372 -0.012573332 7.2494964e-005 0.0063809459 7.1393559e-005 0.0064299032 0.99958408 -0.012024522
189932075.4717 1.0000468 -0.013312012 8.2587125e-005 0.006765971 9.094784e-005 0.0067659337 0.99969661 -0.012695014
199928301.88679 1.0000526 -0.014252394 0.00010138797 0.0070934733 0.00011077407 0.0071276142 0.9995774 -0.013622612
209924528.30189 0.99970245 -0.014885724 0.0001103353 0.0074462118 0.00012961368 0.0074538905 0.99935365 -0.014380679
219920754.71698 0.99972641 -0.015852064 0.0001286245 0.0077829538 0.00011409307 0.007859773 0.99922055 -0.015106171
229916981.13208 0.99937057 -0.016835004 0.00015751342 0.0081436867 0.00012730947 0.0082107335 0.99911749 -0.015879989
239913207.54717 0.99930346 -0.017438704 0.00014358337 0.0084869666 0.0001558669 0.0085514616 0.99907875 -0.016578956
249909433.96226 0.99934208 -0.018110722 0.00015980192 0.0088473829 0.00015702867 0.0088997781 0.99921405 -0.017252713
259905660.37736 0.99950826 -0.018701613 0.00015618093 0.0092365444 0.00015763147 0.0092575531 0.9994269 -0.017873347
269901886.79245 0.99969864 -0.019270808 0.0001910266 0.009594474 0.00020669121 0.0096745081 0.99979335 -0.018641517
279898113.20755 0.99978471 -0.020173624 0.00015318627 0.0099069187 0.00021765428 0.0099927709 0.99957365 -0.019334063
289894339.62264 0.99973226 -0.02081123 0.00018650759 0.010218609 0.00021915697 0.010340348 0.99955177 -0.020158947
299890566.03774 0.99965292 -0.021419108 0.00025942037 0.010596166 0.00024665846 0.010693699 0.99935085 -0.020651162
309886792.45283 0.99934232 -0.02207081 0.00028941652 0.010966114 0.00026814127 0.01107856 0.99913549 -0.021143727
319883018.86792 0.99933314 -0.022662848 0.00022968883 0.01127342 0.00029178243 0.011389622 0.99916548 -0.021629333
329879245.28302 0.99929881 -0.023302853 0.00029531261 0.011665368 0.00026043691 0.011754761 0.9992466 -0.022443742
339875471.69811 0.99920964 -0.024137899 0.00031925482 0.012008149 0.00030357414 0.012138471 0.99922794 -0.023185521
349871698.11321 0.99940103 -0.025031924 0.00031772652 0.012373679 0.0002788431 0.012481906 0.99924797 -0.024091393
359867924.5283 0.99922854 -0.025886565 0.00035987189 0.01272547 0.00033217296 0.012815559 0.99918079 -0.025083333
369864150.9434 0.99955332 -0.026674211 0.00036967895 0.013080589 0.00036808383 0.013169256 0.99930429 -0.025843352
379860377.35849 0.99937445 -0.027416036 0.00037214672 0.013431392 0.00036994438 0.0134955 0.99913192 -0.026520863
389856603.77358 0.99925995 -0.02798444 0.00041485671 0.013772881 0.00042907894 0.013868527 0.99913156 -0.026977301
399852830.18868 0.99915123 -0.028594911 0.00041847816 0.014156956 0.00041539548 0.014241588 0.99915922 -0.027459532
409849056.60377 0.99912548 -0.029028438 0.00044378004 0.01446678 0.00043918178 0.014588131 0.99919122 -0.027914986
419845283.01887 0.99899852 -0.029513776 0.00045599509 0.014846025 0.00041996967 0.014925232 0.99918342 -0.028536826
429841509.43396 0.99907684 -0.030245185 0.00049343379 0.015200892 0.00049600145 0.015301703 0.99944049 -0.029286027
439837735.84906 0.99897712 -0.031105742 0.00053220661 0.015520295 0.00049374718 0.015669901 0.99924117 -0.030330703
449833962.26415 0.99901772 -0.032031238 0.00051318854 0.015853826 0.0005334625 0.015997633 0.99881303 -0.031203926
459830188.67925 0.99884999 -0.032776445 0.00049181376 0.016242515 0.00050108787 0.016324151 0.99871206 -0.031974375
469826415.09434 0.9987455 -0.033634275 0.00056263991 0.016605148 0.00054654386 0.016700208 0.99848169 -0.032646477
479822641.50943 0.99860632 -0.034284219 0.00058064167 0.016943021 0.00054606306 0.017087482 0.9985404 -0.033112779
489818867.92453 0.99877751 -0.034728676 0.00059946906 0.017332513 0.00061694253 0.017417679 0.99880552 -0.033693016
499815094.33962 0.99884522 -0.035350353 0.0006421362 0.017654646 0.00061544403 0.017766446 0.99911106 -0.034260958
509811320.75472 0.99892092 -0.035843596 0.00064998877 0.01800021 0.00064736349 0.01814124 0.99933904 -0.035159092
519807547.16981 0.99897873 -0.036364883 0.00069907121 0.018339219 0.00065588765 0.018494364 0.99925917 -0.035996705
529803773.58491 0.99884689 -0.037118673 0.00068504922 0.018707298 0.00072249305 0.018867461 0.99898815 -0.036630154
539800000 0.9988724 -0.037856326 0.00069347234 0.019084465 0.00069844397 0.019193964 0.99871129 -0.037334144
549796226.41509 0.99862397 -0.038701832 0.00076803192 0.019394731 0.00073640188 0.019581661 0.99844593 -0.0378775
559792452.83019 0.99844295 -0.039496541 0.00077220239 0.019743331 0.00079135597 0.01987531 0.99835801 -0.038473099
569788679.24528 0.9982022 -0.040203929 0.00076794159 0.020070573 0.00082311826 0.020242525 0.99851465 -0.039159536
579784905.66038 0.9982239 -0.0408068 0.00083239889 0.020472839 0.00083997101 0.020646492 0.99864495 -0.039895289
589781132.07547 0.99837017 -0.041480809 0.00091033988 0.020820685 0.00084672961 0.020969138 0.99879062 -0.040855765
599777358.49057 0.99853694 -0.042167336 0.00092183612 0.021187197 0.00088751689 0.021376964 0.99877846 -0.041678458
609773584.90566 0.99873263 -0.042935774 0.00097413629 0.021569319 0.00093847187 0.021720288 0.99870819 -0.042535596
619769811.32075 0.99874312 -0.043679237 0.00099938828 0.021888988 0.00099356659 0.022000123 0.99855173 -0.043109119
629766037.73585 0.99856627 -0.044267237 0.0010105586 0.022237133 0.0010559615 0.022384088 0.99832284 -0.043679684
639762264.15094 0.99835378 -0.045026466 0.0010314374 0.022543425 0.001045339 0.022713242 0.9981901 -0.044074103
649758490.56604 0.99811262 -0.045608401 0.0010537393 0.022901421 0.001018242 0.02305045 0.99823791 -0.044551015
659754716.98113 0.99805021 -0.046075672 0.0010831319 0.023239631 0.0010707779 0.023376729 0.99827611 -0.045188665
669750943.39623 0.99799991 -0.046570569 0.0011028573 0.023624288 0.0010661809 0.023770396 0.9983831 -0.045947582
679747169.81132 0.99797362 -0.047378637 0.001135788 0.023964627 0.0011552148 0.024148677 0.99832129 -0.047024377
689743396.22642 0.99818408 -0.048230678 0.0012116134 0.0243125 0.0011985386 0.024478886 0.99811482 -0.047911525
699739622.64151 0.99837828 -0.04912588 0.0012122607 0.024703702 0.0012225639 0.024844002 0.99801981 -0.048625261
709735849.0566 0.99830252 -0.050065883 0.0012770232 0.024994574 0.001271516 0.025192767 0.99777985 -0.049301378
719732075.4717 0.99811894 -0.050785869 0.001310979 0.025374211 0.0012990087 0.025522582 0.99787694 -0.04990086
729728301.88679 0.99814361 -0.05132249 0.0013570646 0.025693441 0.0013677357 0.025850538 0.99790823 -0.050364286
739724528.30189 0.9979378 -0.051937804 0.0013826932 0.026024725 0.0013625911 0.02617942 0.99806082 -0.051010907
749720754.71698 0.9978112 -0.052461505 0.0014137123 0.026389305 0.0014564996 0.026566496 0.9981485 -0.051828891
759716981.13208 0.99789453 -0.05292812 0.0014717551 0.026712712 0.0014652079 0.026893063 0.99802995 -0.05258894
769713207.54717 0.99785268 -0.053789437 0.0015076138 0.027062144 0.001494254 0.027232593 0.99780262 -0.053320497
779709433.96226 0.99803621 -0.054414362 0.0015424406 0.027382126 0.0015693079 0.02756195 0.99755526 -0.053987972
789705660.37736 0.99791569 -0.055387437 0.001572446 0.027735043 0.0015458576 0.027946228 0.99731904 -0.054751933
799701886.79245 0.9977622 -0.056284755 0.0016243812 0.028078711 0.0016282005 0.028265374 0.99715132 -0.055308521
809698113.20755 0.99767697 -0.056838512 0.0015997626 0.028395893 0.0016291672 0.028610429 0.99731147 -0.055846542
819694339.62264 0.99756777 -0.057571828 0.0016539902 0.028749276 0.0016536955 0.028978435 0.99738884 -0.056475937
829690566.03774 0.99758971 -0.058152169 0.0017135907 0.02910747 0.0017191507 0.029303718 0.99764323 -0.057439834
839686792.45283 0.99754792 -0.058634907 0.0017076647 0.029434212 0.0017051147 0.029701531 0.99772465 -0.058274001
849683018.86792 0.99782693 -0.059238985 0.0017723292 0.029821338 0.0017910223 0.029995218 0.99755925 -0.05904372
859679245.28302 0.99772781 -0.060001969 0.0018150378 0.030156322 0.0018324293 0.030362757 0.99727833 -0.059641898
869675471.69811 0.99764383 -0.060847908 0.0018590577 0.030501202 0.0018594777 0.030706555 0.99696183 -0.060272485
879671698.11321 0.99747425 -0.061523519 0.0018674766 0.030818842 0.0018784648 0.031065015 0.99691933 -0.06066867
889667924.5283 0.99731171 -0.06238693 0.0019204682 0.031140594 0.0019167699 0.031422995 0.99678123 -0.061250389
899664150.9434 0.9970454 -0.063111931 0.0019652136 0.03150104 0.0019692257 0.03172747 0.99673831 -0.061876357
909660377.35849 0.99708688 -0.063840881 0.0019863439 0.031839393 0.0020017214 0.032050047 0.99697489 -0.062839895
919656603.77358 0.99722761 -0.064576969 0.0020092037 0.032176509 0.0020369324 0.032424986 0.99695748 -0.063741788
929652830.18868 0.99719322 -0.065276593 0.0020602494 0.032520443 0.0020646444 0.032760493 0.99678588 -0.064665616
939649056.60377 0.99734908 -0.065948904 0.0020649591 0.032810979 0.0020739548 0.033061486 0.99661058 -0.065454036
949645283.01887 0.99736434 -0.066740721 0.0020447436 0.033193972 0.0021162122 0.033468463 0.99634606 -0.065942571
959641509.43396 0.99731547 -0.06751585 0.0021144096 0.033569951 0.0021399884 0.033844635 0.99628401 -0.066483587
969637735.84906 0.99708843 -0.068252981 0.0021722 0.033946745 0.0021958994 0.034221314 0.99632812 -0.066873193
979633962.26415 0.99696559 -0.068991251 0.0022539664 0.034260232 0.0022437605 0.034548916 0.99631691 -0.067522392
989630188.67925 0.99692988 -0.069547623 0.0022736015 0.03460829 0.0022797342 0.034897707 0.99650621 -0.068219364
999626415.09434 0.99705422 -0.070195824 0.0022899341 0.034973025 0.0023117214 0.035258427 0.99646407 -0.069085121
1009622641.5094 0.9970988 -0.070829526 0.0023287395 0.035348743 0.0023635458 0.035628788 0.99622989 -0.069919318
1019618867.9245 0.99706918 -0.071782321 0.0024029166 0.035680249 0.0024535176 0.035935123 0.99602187 -0.070853919
1029615094.3396 0.99710685 -0.072719365 0.0024722554 0.035983782 0.002502948 0.036256887 0.99561501 -0.071442217
1039611320.7547 0.99710214 -0.073640466 0.0025211796 0.036318429 0.0025380971 0.036592174 0.99551976 -0.0720779
1049607547.1698 0.9969312 -0.074585333 0.0025414976 0.036621846 0.0025866744 0.036933027 0.99553877 -0.072743081
1059603773.5849 0.99682641 -0.075348228 0.0025770925 0.036966965 0.0026321048 0.03724511 0.99552494 -0.073412299
1069600000 0.9965626 -0.075963408 0.0025740992 0.037293386 0.0026534218 0.037602663 0.99564123 -0.074047744
1079596226.4151 0.99641412 -0.076524235 0.0026115761 0.037638262 0.0026394511 0.037971664 0.99568391 -0.074803971
1089592452.8302 0.99656004 -0.077232599 0.0026325462 0.038010463 0.0027046781 0.038302209 0.99560344 -0.075557142
1099588679.2453 0.99659109 -0.077847838 0.0026458036 0.038356185 0.0027183406 0.038662132 0.99521875 -0.076218426
1109584905.6604 0.99665791 -0.07878466 0.0026830994 0.0386867 0.002736141 0.038999155 0.99497861 -0.076734707
1119581132.0755 0.99666131 -0.079766139 0.0027215043 0.039057124 0.0027841665 0.039387893 0.99480146 -0.077264637
1129577358.4906 0.99648529 -0.080582619 0.0027449373 0.039455686 0.0028155968 0.039788082 0.99469697 -0.077726424
1139573584.9057 0.9961912 -0.081540167 0.0028220071 0.039793603 0.0028670235 0.040107246 0.99472141 -0.078419387
1149569811.3208 0.9960624 -0.082395107 0.0028701841 0.04016022 0.0029683604 0.040458702 0.99484295 -0.079213694
1159566037.7358 0.9958539 -0.083101451 0.0029078685 0.04045964 0.002996752 0.040787809 0.99495679 -0.080164462
1169562264.1509 0.99564773 -0.083738714 0.0029235035 0.040793594 0.002992006 0.041111428 0.99483252 -0.081019938
1179558490.566 0.99557489 -0.084479317 0.0029461174 0.04116771 0.0030435997 0.041505899 0.9946332 -0.081773318
1189554716.9811 0.9956367 -0.085243672 0.0029981816 0.041531701 0.0030861357 0.041815348 0.99431157 -0.082299501
1199550943.3962 0.99557722 -0.086102426 0.0030736774 0.041901946 0.0031683464 0.042205777 0.99419403 -0.082770407
1209547169.8113 0.99536836 -0.087006629 0.0031038607 0.042251054 0.0032271175 0.042530242 0.99400932 -0.083068937
1219543396.2264 0.99509788 -0.087915055 0.0031674746 0.042647343 0.0032607852 0.042930227 0.99417108 -0.083602801
1229539622.6415 0.99479938 -0.08879596 0.0032053832 0.042970028 0.0033376589 0.043327738 0.99428701 -0.084261328
1239535849.0566 0.99453402 -0.089452803 0.0033103479 0.043297593 0.0034073712 0.043611649 0.99434626 -0.085238367
1249532075.4717 0.99413157 -0.09008877 0.0033323066 0.043646771 0.0034779003 0.043935843 0.9941808 -0.086042814
1259528301.8868 0.9940238 -0.090610325 0.0033942871 0.043991312 0.0035595223 0.044261176 0.99391198 -0.08697325
1269524528.3019 0.9938103 -0.091474026 0.0035153795 0.044316292 0.0035998803 0.044624507 0.99367332 -0.087687314
1279520754.717 0.99347222 -0.092164904 0.0035460251 0.044638507 0.0036722408 0.044891465 0.99338609 -0.088255189
1289516981.1321 0.99341691 -0.093057424 0.0035656793 0.044970028 0.0036908919 0.045240022 0.99342692 -0.088730186
1299513207.5472 0.99303484 -0.09392491 0.0035871863 0.045269355 0.0037177838 0.04556796 0.9935376 -0.089104712
1309509433.9623 0.99255002 -0.0945535 0.0035848729 0.045626249 0.0037312694 0.045873776 0.99366862 -0.089883968
1319505660.3774 0.99214125 -0.095323116 0.0035792915 0.045951828 0.0037436271 0.046239968 0.99375224 -0.090485215
1329501886.7925 0.99185735 -0.095976323 0.003653463 0.046296801 0.0037834272 0.04655838 0.99370462 -0.091531217
1339498113.2075 0.99156624 -0.096517593 0.0036991881 0.046664983 0.0038114563 0.046869256 0.99324995 -0.092259884
1349494339.6226 0.99141651 -0.097119436 0.0036508455 0.047016546 0.0037716078 0.047244791 0.99288666 -0.092850082
1359490566.0377 0.99123871 -0.097750694 0.0036747139 0.047407396 0.0038230214 0.047611713 0.99267077 -0.093494743
1369486792.4528 0.99115682 -0.098361105 0.0036925059 0.047799513 0.003827963 0.047980659 0.99247509 -0.093901038
1379483018.8679 0.99084914 -0.098906577 0.003721436 0.048175994 0.0038271884 0.048401162 0.9925335 -0.094306841
1389479245.283 0.990327 -0.099519849 0.0037659649 0.048539624 0.0038743857 0.048771076 0.99248129 -0.095116228
1399475471.6981 0.99005449 -0.099870324 0.0037898421 0.048931506 0.0038973466 0.049132477 0.99261254 -0.095720977
1409471698.1132 0.98965216 -0.10030878 0.003865235 0.049328551 0.0039424608 0.049541067 0.99259818 -0.096545249
1419467924.5283 0.98944056 -0.10054517 0.0038627675 0.0496745 0.0039742962 0.049937155 0.99241483 -0.097257495
1429464150.9434 0.98934233 -0.10095629 0.0039147157 0.050152496 0.0040176772 0.050383039 0.99229807 -0.097879559
1439460377.3585 0.98943478 -0.10149565 0.0040068859 0.050629325 0.004094719 0.050826423 0.99201417 -0.098193631
1449456603.7736 0.98949265 -0.10202475 0.0040977588 0.051015776 0.0041568093 0.051240336 0.99192518 -0.09852311
1459452830.1887 0.98957956 -0.10272413 0.0042653587 0.051461566 0.0042969249 0.051674284 0.99205387 -0.098879576
1469449056.6038 0.98953444 -0.10357815 0.0044365656 0.051802862 0.0044423435 0.052033786 0.99217433 -0.099653572
1479445283.0189 0.98938441 -0.10413964 0.0045911665 0.052079927 0.0045838533 0.052313518 0.99230456 -0.10049768
1489441509.434 0.98922688 -0.10464609 0.0047106352 0.052426904 0.0047595594 0.052670151 0.9921214 -0.10140193
1499437735.8491 0.98901004 -0.10503492 0.004843181 0.052712515 0.0048632044 0.052992873 0.99202436 -0.10230544
1509433962.2642 0.98910671 -0.10556749 0.004935706 0.053018041 0.0049638227 0.053288784 0.99181664 -0.1030062
1519430188.6792 0.98916739 -0.10608947 0.0050174575 0.053313278 0.0050266292 0.05356149 0.99169302 -0.10356483
1529426415.0943 0.98915815 -0.10670632 0.0050844066 0.053640433 0.0050591994 0.053848207 0.99159425 -0.10402453
1539422641.5094 0.98912555 -0.1076376 0.0051320256 0.053953663 0.0051392331 0.054154944 0.99167311 -0.10454125
1549418867.9245 0.98896533 -0.1084547 0.0051977411 0.054225903 0.0051767854 0.054494899 0.99186218 -0.10525627
1559415094.3396 0.98888314 -0.10907504 0.0052767731 0.054561067 0.0052353162 0.054820344 0.99202752 -0.10598326
1569411320.7547 0.98860389 -0.10989566 0.0053336686 0.054835007 0.0052940995 0.055110447 0.9919765 -0.1067992
1579407547.1698 0.98863113 -0.11042602 0.0053338585 0.055113256 0.0052963551 0.055420835 0.99152321 -0.10764146
1589403773.5849 0.98858678 -0.11102745 0.005338531 0.05543647 0.0053398758 0.055757888 0.99132562 -0.10843349
1599400000 0.98856759 -0.11145383 0.0053547416 0.055746544 0.0053317863 0.056077033 0.9909429 -0.10878849
1609396226.4151 0.98851389 -0.11222552 0.0053388285 0.056103852 0.0053242762 0.056414943 0.99071753 -0.10937279
1619392452.8302 0.98842907 -0.11277157 0.005372325 0.056466244 0.0052772965 0.056794565 0.99067032 -0.10991019
1629388679.2453 0.98826134 -0.11352012 0.0053845886 0.056809161 0.0053060949 0.057160538 0.99092269 -0.11037612
1639384905.6604 0.98802227 -0.11415989 0.0053934883 0.057216052 0.0053418749 0.05756123 0.99121737 -0.11133008
1649381132.0755 0.98777413 -0.11489463 0.0053862557 0.057589617 0.0053716712 0.057972245 0.99115622 -0.11224484
1659377358.4906 0.98759997 -0.11567971 0.0054341722 0.057997495 0.0054282676 0.058340415 0.99114466 -0.11319259
1669373584.9057 0.9875232 -0.11613863 0.0054889745 0.05835101 0.0054629329 0.058708414 0.99073708 -0.11376835
1679369811.3208 0.98752809 -0.11690424 0.0055671055 0.058753792 0.0055261571 0.059162624 0.99050897 -0.11440504
1689366037.7358 0.9875592 -0.1175715 0.0056157093 0.059159644 0.0055709723 0.059541963 0.99038619 -0.11471695
1699362264.1509 0.98775041 -0.11816016 0.0056927279 0.059556294 0.0056254212 0.05993307 0.99050999 -0.115137
1709358490.566 0.98761457 -0.11882484 0.0057397066 0.059977017 0.0057311542 0.060367454 0.99060297 -0.1157328
1719354716.9811 0.98721278 -0.1195392 0.0058377534 0.060334198 0.0058115367 0.060749665 0.99061501 -0.11638555
1729350943.3962 0.98688579 -0.12008014 0.0058811419 0.060760155 0.005883662 0.061172146 0.99059743 -0.11741272
