!Keysight Technologies,N5222B,MY61253708,A.15.00.15
!Date: Wednesday, June 19, 2024 10:43:31
!Correction: S11(C  2-Port  ) 
!S21(C  2-Port  ) 
!S12(C  2-Port  ) 
!S22(C  2-Port  ) 
!S2P File: Measurements: S11, S21, S12, S22:
# Hz S  RI   R 50
10000000 0.99813747 -0.0035559237 -2.2542925e-005 0.0003163956 5.7006237e-005 0.00026409968 0.99844873 -0.0018285811
19996226.415094 0.99972224 -0.0024296045 0.00017309134 0.00066899217 -1.1372438e-005 0.00067907182 0.99998176 -0.0022985339
29992452.830189 0.99944967 -0.0026064217 -1.6191072e-005 0.0009090146 1.5615602e-005 0.00093369139 0.99932843 -0.0027649403
39988679.245283 1.0000272 -0.0030374527 3.3704855e-006 0.001319335 -2.3895074e-005 0.0013096358 0.99979162 -0.0031577796
49984905.660377 1.0002522 -0.0036800504 1.1296477e-005 0.0016403396 6.0800056e-005 0.0015966588 0.99989808 -0.003587842
59981132.075472 1.0003861 -0.0046184063 -1.1450436e-005 0.0019869516 3.0609663e-005 0.0019579949 0.99996614 -0.0041196644
69977358.490566 1.0001714 -0.0051279087 -2.8321871e-005 0.0022813925 1.9504034e-005 0.0022420615 0.99983644 -0.0046758018
79973584.90566 0.99994361 -0.005700618 4.0058396e-005 0.0025512953 3.621506e-005 0.0025725521 0.99944103 -0.0051398575
89969811.320755 0.99985731 -0.0057580769 2.8092298e-005 0.0029082247 1.9958359e-005 0.0029017329 0.99965322 -0.0053058565
99966037.735849 1.0001397 -0.0064709932 2.5235931e-006 0.0032288227 1.5282421e-005 0.0032392226 0.99977124 -0.006033048
109962264.15094 1.0001309 -0.0073757172 4.6119501e-005 0.0035515027 1.8553983e-005 0.003560313 0.99978477 -0.0068430603
119958490.56604 1.0002146 -0.0082407594 3.0120835e-005 0.0038566412 2.9428746e-005 0.0038684718 0.99982452 -0.0077134967
129954716.98113 1.0001826 -0.0092425048 4.9779774e-005 0.004168991 4.6784058e-005 0.0041976245 0.99982244 -0.0085631907
139950943.39623 1.0000961 -0.010025483 2.2599954e-005 0.004520433 4.3348409e-005 0.0045137242 0.99974751 -0.0093203038
149947169.81132 0.99998099 -0.010665625 6.4769993e-005 0.0048397006 2.9357616e-005 0.0048488816 0.99967468 -0.009916544
159943396.22642 0.99989307 -0.011196911 7.2451541e-005 0.0051587345 3.9500417e-005 0.0051704347 0.99973452 -0.010307968
169939622.64151 0.99989069 -0.011551134 6.7327928e-005 0.0054884506 5.1726296e-005 0.0055042356 0.9998045 -0.01071009
179935849.0566 0.99992836 -0.011775404 7.2447932e-005 0.0058155316 6.5671629e-005 0.0058215284 0.99971104 -0.011038184
189932075.4717 0.99998856 -0.012491047 7.6649012e-005 0.0061306339 8.7693334e-005 0.0061370255 0.99992299 -0.011612952
199928301.88679 0.99995106 -0.013337195 8.436793e-005 0.0064275381 0.00011334592 0.0064681559 0.99986356 -0.012434751
209924528.30189 0.99972093 -0.013859302 8.0931582e-005 0.006765868 7.4663199e-005 0.0067799715 0.99959183 -0.013111427
219920754.71698 0.99983358 -0.014648288 0.00010973401 0.0070913667 8.7506836e-005 0.007100035 0.99948144 -0.013745219
229916981.13208 0.99965096 -0.015559644 0.0001172435 0.0074123605 9.372551e-005 0.0074285697 0.99941117 -0.01451546
239913207.54717 0.99954468 -0.016251277 0.0001249075 0.0077156541 0.0001304413 0.0077589257 0.99942631 -0.015176715
249909433.96226 0.99951774 -0.016784966 0.00014055264 0.0080528501 0.0001486782 0.0080721769 0.99952459 -0.015765697
259905660.37736 0.99973643 -0.017298639 0.0001074248 0.0083666239 0.00016517704 0.0084195407 0.99979657 -0.016257137
269901886.79245 0.9999308 -0.017934039 0.0001412878 0.0087069245 0.00012931065 0.0087395729 1.0000538 -0.016975656
279898113.20755 0.99989557 -0.01861845 0.00013567135 0.0090382807 0.0001529709 0.0090160184 1.0000496 -0.017771289
289894339.62264 0.99986947 -0.019392997 0.00018077949 0.0093161529 0.00014629308 0.0093809264 0.99987501 -0.018468291
299890566.03774 0.99981308 -0.020022064 0.00020029396 0.0096389409 0.00018018577 0.0096848477 0.99958467 -0.018877149
309886792.45283 0.9995079 -0.020550668 0.00018278282 0.0099323988 0.00018306985 0.0099964906 0.99950165 -0.019359969
319883018.86792 0.99956143 -0.021137595 0.00021110335 0.010310108 0.00023475103 0.010326479 0.99962586 -0.019719183
329879245.28302 0.9996016 -0.021783173 0.00024742307 0.010648681 0.00025992515 0.010643381 0.99976254 -0.020546615
339875471.69811 0.99945343 -0.022538051 0.00026334985 0.01096897 0.00023297686 0.010958509 0.99971634 -0.021348514
349871698.11321 0.99971676 -0.023409098 0.000312316 0.011296262 0.00023711519 0.011312097 0.99979436 -0.022257149
359867924.5283 0.99948114 -0.024232507 0.00028061634 0.011602279 0.00030197762 0.01164032 0.99976116 -0.023235977
369864150.9434 0.99972987 -0.024934679 0.00029155612 0.011917111 0.00026926701 0.011928484 0.99975443 -0.023945868
379860377.35849 0.99956262 -0.025774881 0.00030833669 0.01224581 0.00033135386 0.012312558 0.99964315 -0.024708182
389856603.77358 0.99952227 -0.026202828 0.00028134696 0.012584595 0.00032921834 0.012587667 0.99955547 -0.025155395
399852830.18868 0.9992246 -0.026825011 0.00034224428 0.012881698 0.00032297242 0.012913543 0.99959457 -0.025642633
409849056.60377 0.99919295 -0.027317604 0.00038061742 0.01322812 0.00037055509 0.013197054 0.99953526 -0.026195217
419845283.01887 0.99918962 -0.027724028 0.00035843905 0.013498491 0.00039428379 0.01358147 0.99947524 -0.026719898
429841509.43396 0.99924421 -0.02833876 0.0004185508 0.013815422 0.0003744415 0.013854134 0.99955261 -0.027513415
439837735.84906 0.99907583 -0.029337958 0.00044261385 0.014164805 0.00044954522 0.014202622 0.99928802 -0.028518751
449833962.26415 0.99888825 -0.030033976 0.00045165233 0.014483247 0.00041831611 0.01451286 0.99871159 -0.029356003
459830188.67925 0.99862468 -0.030833483 0.00045087701 0.014751819 0.00043175044 0.014810779 0.99833405 -0.029964834
469826415.09434 0.99857974 -0.031507313 0.00046660053 0.01512309 0.00045261486 0.015154161 0.99803263 -0.030408889
479822641.50943 0.99849659 -0.031996459 0.00048043055 0.01542705 0.00046950392 0.015496517 0.99801558 -0.030645005
489818867.92453 0.99860805 -0.03246963 0.00050015841 0.015762471 0.00050094537 0.015828241 0.99826658 -0.031135112
499815094.33962 0.99867129 -0.032988787 0.00051340787 0.016084163 0.00053871796 0.016131271 0.99860191 -0.03155908
509811320.75472 0.99870616 -0.033307198 0.00055509125 0.016418336 0.0005455605 0.016455682 0.99875909 -0.032287654
519807547.16981 0.99873686 -0.033830345 0.00054222299 0.016684137 0.00056240661 0.016766518 0.99874467 -0.032880783
529803773.58491 0.99871385 -0.034295738 0.0005564345 0.017009802 0.00056175143 0.017078575 0.99855018 -0.033400506
539800000 0.99869609 -0.034994572 0.00060337014 0.017370125 0.00059312186 0.01741698 0.99834061 -0.033982664
549796226.41509 0.99867511 -0.035806149 0.00060906075 0.017629204 0.0006437297 0.017714992 0.99827468 -0.034388095
559792452.83019 0.99846792 -0.036513895 0.00062605832 0.01801328 0.00059294421 0.0180523 0.99824023 -0.034787804
569788679.24528 0.99834198 -0.037210882 0.000635067 0.018342722 0.00066493591 0.018392544 0.99842197 -0.035521746
579784905.66038 0.99834192 -0.037784696 0.00071105745 0.01866783 0.00069608563 0.018654875 0.99864471 -0.036097601
589781132.07547 0.99839985 -0.038368136 0.00074067991 0.018997869 0.00071103219 0.019030616 0.99884641 -0.037025273
599777358.49057 0.99867707 -0.038963467 0.00072764326 0.019306097 0.00073732901 0.019342788 0.99886453 -0.037837356
609773584.90566 0.9987579 -0.03967005 0.00080658752 0.019616576 0.00073870062 0.019634483 0.99873996 -0.038618337
619769811.32075 0.99887067 -0.040360689 0.00081133144 0.019958504 0.00078661973 0.01996721 0.99876803 -0.039171517
629766037.73585 0.99882019 -0.040991634 0.00083508901 0.020270502 0.00080640614 0.020285422 0.99855667 -0.039621264
639762264.15094 0.99852997 -0.041676745 0.00082486705 0.02052113 0.00083915819 0.020581774 0.99846941 -0.039999917
649758490.56604 0.9984625 -0.042238668 0.00087063713 0.020833198 0.00084298616 0.020910153 0.9986161 -0.040434778
659754716.98113 0.99833357 -0.042778343 0.00087133516 0.021148555 0.00085977372 0.021232538 0.99874389 -0.04105708
669750943.39623 0.99833858 -0.043168992 0.00088598114 0.021509061 0.00088193035 0.021605315 0.99892104 -0.041873962
679747169.81132 0.99842405 -0.043896317 0.00090288324 0.021856954 0.00091113232 0.021915648 0.99887276 -0.042797945
689743396.22642 0.99854696 -0.044760525 0.00097919349 0.022163065 0.00095554069 0.022235751 0.99865758 -0.043849081
699739622.64151 0.9987179 -0.045583814 0.0010101376 0.022518829 0.00099553913 0.022546645 0.9986459 -0.044501692
709735849.0566 0.99865729 -0.04641705 0.0010500535 0.022819815 0.0010534175 0.022851603 0.99835867 -0.045167513
719732075.4717 0.99860168 -0.047213852 0.0010686275 0.023116166 0.0010832353 0.023174204 0.99848342 -0.045750976
729728301.88679 0.99841988 -0.047709554 0.0011351667 0.02344428 0.0010763407 0.023489477 0.99852407 -0.046183944
739724528.30189 0.99830168 -0.04829812 0.0011076704 0.023726054 0.001140527 0.023767741 0.99868727 -0.046890616
749720754.71698 0.99819732 -0.0488085 0.0011535725 0.024039887 0.0011520777 0.024087522 0.9987151 -0.047602266
759716981.13208 0.99827766 -0.049338609 0.0011947639 0.02435472 0.0011873683 0.024440635 0.99867487 -0.048376471
769713207.54717 0.99820614 -0.049970895 0.0011972729 0.024641581 0.0012521166 0.024732372 0.99834609 -0.049158067
779709433.96226 0.99837762 -0.050679911 0.0012339995 0.024992393 0.0012265983 0.025049159 0.99810976 -0.049775731
789705660.37736 0.99809778 -0.051549613 0.0012875348 0.025292957 0.0012820009 0.025366819 0.99783766 -0.05048874
799701886.79245 0.9981364 -0.052368581 0.0013202513 0.025606379 0.0012793373 0.025678877 0.99767208 -0.051088333
809698113.20755 0.99807531 -0.052976072 0.0013562131 0.025923999 0.0013158498 0.025988303 0.99767387 -0.051503927
819694339.62264 0.99782866 -0.053592086 0.0013688486 0.026219344 0.0013408125 0.026317699 0.99775809 -0.052122086
829690566.03774 0.99781501 -0.054156035 0.0014115414 0.026529297 0.0013930313 0.026601166 0.99805605 -0.05293563
839686792.45283 0.99790299 -0.054528862 0.0013906006 0.026858106 0.001428802 0.026931085 0.99801826 -0.053767294
849683018.86792 0.99798048 -0.055136211 0.0014328719 0.027153701 0.0014427966 0.027237402 0.99783307 -0.054474875
859679245.28302 0.99796951 -0.055872113 0.0014815358 0.027500451 0.0014922889 0.027548134 0.9975909 -0.055025637
869675471.69811 0.99793053 -0.056661248 0.0015500458 0.02780287 0.0015027579 0.027860312 0.99719912 -0.055553049
879671698.11321 0.99782884 -0.057224322 0.0015790104 0.028100686 0.0015371079 0.028197015 0.99715036 -0.055919454
889667924.5283 0.99764651 -0.058027744 0.0015737852 0.028391454 0.0015831962 0.028471291 0.99705994 -0.05641076
899664150.9434 0.99744904 -0.058807611 0.0015900973 0.028691784 0.0015929863 0.028789664 0.99702573 -0.056973696
909660377.35849 0.99739796 -0.059368327 0.0016316231 0.028989162 0.0016127401 0.02910501 0.99722862 -0.057858959
919656603.77358 0.99754024 -0.059964925 0.001619549 0.029311443 0.0016322238 0.029439067 0.99727625 -0.058667794
929652830.18868 0.99749398 -0.060730845 0.0016494626 0.029625049 0.0016458752 0.029766701 0.9970718 -0.0594818
939649056.60377 0.99773431 -0.061288118 0.0016666055 0.029926933 0.0016442072 0.030054273 0.99694139 -0.060204089
949645283.01887 0.99773121 -0.062058263 0.0016518801 0.030273644 0.0016941146 0.030384604 0.99666989 -0.060700648
959641509.43396 0.99763346 -0.062716454 0.0016977601 0.030622659 0.001701734 0.030708686 0.99664348 -0.061126739
969637735.84906 0.99750865 -0.06341508 0.0017322702 0.030970663 0.0017657839 0.031046765 0.99668181 -0.06138435
979633962.26415 0.99746835 -0.064136133 0.0017911519 0.031251844 0.0017921207 0.031325597 0.99669236 -0.062046565
989630188.67925 0.99738717 -0.064676702 0.0018388797 0.031571507 0.0018140823 0.031680077 0.99694592 -0.06261304
999626415.09434 0.99743468 -0.065223873 0.0018641697 0.031872243 0.0018629842 0.031990238 0.99691296 -0.063425869
1009622641.5094 0.99754775 -0.065899327 0.0018898062 0.032220945 0.00192464 0.032334402 0.99674618 -0.064285114
1019618867.9245 0.99753618 -0.066706046 0.0019394243 0.032520406 0.0019499199 0.032659408 0.99654013 -0.065080479
1029615094.3396 0.99760199 -0.067605197 0.0020111753 0.032831967 0.0020223698 0.032931052 0.99608886 -0.065617949
1039611320.7547 0.99765372 -0.06841591 0.0020294907 0.033123981 0.0020621875 0.033208843 0.99609709 -0.066272944
1049607547.1698 0.99757975 -0.069312118 0.002049952 0.033390932 0.0020632586 0.03354333 0.99614173 -0.066764407
1059603773.5849 0.99730307 -0.070043355 0.0020737946 0.033688203 0.0020716861 0.033836402 0.99617189 -0.067278355
1069600000 0.99715936 -0.070576042 0.0020626364 0.034019087 0.0021049818 0.034119256 0.99634862 -0.067978114
1079596226.4151 0.99715883 -0.071174607 0.0020711147 0.034335587 0.0021182774 0.034462634 0.99637425 -0.068736099
1089592452.8302 0.99725008 -0.071789443 0.0020988695 0.034668341 0.0021459004 0.034778211 0.99633235 -0.069453984
1099588679.2453 0.99722517 -0.072451562 0.0021058749 0.034951646 0.0021336209 0.035088733 0.99600565 -0.070075393
1109584905.6604 0.99733973 -0.073269144 0.0021566702 0.035292946 0.0021811295 0.035423819 0.99571919 -0.070669383
1119581132.0755 0.99729496 -0.074238434 0.0021563112 0.035629634 0.002188968 0.035745598 0.99561775 -0.071022838
1129577358.4906 0.9972502 -0.075006396 0.0021834671 0.035973825 0.0022593178 0.03612598 0.99551606 -0.07144323
1139573584.9057 0.99697047 -0.075869918 0.0022352766 0.036303785 0.0023070518 0.036423869 0.9955886 -0.072150975
1149569811.3208 0.99689448 -0.076774299 0.0022850423 0.036615688 0.0023614643 0.03674553 0.99581271 -0.072876394
1159566037.7358 0.9966647 -0.077407002 0.0023341263 0.036905147 0.0023632217 0.037034739 0.99591136 -0.07387501
1169562264.1509 0.99648786 -0.07800594 0.0023142211 0.03722376 0.0023795292 0.037375942 0.99575084 -0.074711591
1179558490.566 0.99649978 -0.078718141 0.0023553676 0.037584309 0.0024068842 0.037723053 0.99557173 -0.075368688
1189554716.9811 0.99651694 -0.079360962 0.0023832424 0.037894662 0.0024609137 0.038041715 0.99527937 -0.075933844
1199550943.3962 0.99644738 -0.080252528 0.0024151541 0.038249653 0.0025114212 0.038362466 0.99515188 -0.076247126
1209547169.8113 0.99628007 -0.081116229 0.0024703993 0.038558833 0.00256065 0.038662069 0.99504554 -0.076605335
1219543396.2264 0.99605507 -0.082010776 0.0024927901 0.038926579 0.0025723297 0.039060302 0.995206 -0.07697998
1229539622.6415 0.99579561 -0.082695633 0.0025768466 0.039241847 0.0026479606 0.039369684 0.9953118 -0.077663988
1239535849.0566 0.99553245 -0.083395034 0.0026195468 0.039535761 0.0027073985 0.039669033 0.99542147 -0.078614146
1249532075.4717 0.99535668 -0.084080264 0.0026596666 0.039841607 0.0027695361 0.039974187 0.99517727 -0.079452276
1259528301.8868 0.99515331 -0.08454451 0.0027240627 0.040168904 0.0028398298 0.040286332 0.99502206 -0.080260009
1269524528.3019 0.99501407 -0.085284889 0.0027770493 0.040492527 0.0029128883 0.040557984 0.99477088 -0.080951333
1279520754.717 0.99466324 -0.085948572 0.0028445169 0.040747687 0.0029340188 0.040824827 0.99453115 -0.081423067
1289516981.1321 0.99461138 -0.08673209 0.0028376682 0.041019771 0.002940122 0.041090015 0.99451697 -0.081843317
1299513207.5472 0.99429965 -0.087600976 0.0028513763 0.041327603 0.0029461253 0.041421719 0.99465764 -0.08214128
1309509433.9623 0.99386322 -0.088235036 0.0028590541 0.041626133 0.0029544262 0.041717447 0.99484903 -0.082987353
1319505660.3774 0.99345279 -0.088987604 0.0028835842 0.041970327 0.0029706545 0.042018969 0.99492818 -0.083606809
1329501886.7925 0.99319232 -0.08965677 0.0028698668 0.042285815 0.0029966123 0.042347647 0.99485916 -0.084542245
1339498113.2075 0.99292535 -0.090225577 0.0029102517 0.042572632 0.003015955 0.042633381 0.99448407 -0.085250646
1349494339.6226 0.99287397 -0.090752326 0.0028795027 0.042898644 0.0029887175 0.042978365 0.99415714 -0.085898571
1359490566.0377 0.99280953 -0.091311038 0.0029026903 0.043269657 0.0030037593 0.043295693 0.99396801 -0.08639437
1369486792.4528 0.99256325 -0.091874748 0.002940611 0.043633226 0.0029841699 0.043647923 0.99378669 -0.086821645
1379483018.8679 0.99228692 -0.092487037 0.002917601 0.043984387 0.0029736299 0.044014353 0.99385405 -0.0871666
1389479245.283 0.99196017 -0.092980832 0.0029950421 0.044341244 0.0030127652 0.044368524 0.99379683 -0.087757945
1399475471.6981 0.99154246 -0.093381107 0.0029866192 0.044681422 0.0030483902 0.044726133 0.9940266 -0.088412791
1409471698.1132 0.99117851 -0.093753494 0.0030167778 0.045051817 0.0030655009 0.04508381 0.99402225 -0.089302152
1419467924.5283 0.99104029 -0.093962014 0.0030253334 0.045409307 0.0030805813 0.045452319 0.99390054 -0.089973003
1429464150.9434 0.99094689 -0.09444806 0.0030729584 0.045819744 0.0031119697 0.045836754 0.99373591 -0.090547621
1439460377.3585 0.99104464 -0.094939649 0.0031443983 0.046242867 0.0031703971 0.046267502 0.993514 -0.090851322
1449456603.7736 0.99113953 -0.095455065 0.0032521524 0.046628986 0.0032699071 0.046658434 0.99338901 -0.091210619
1459452830.1887 0.99108541 -0.09620744 0.0033952296 0.047048748 0.003395386 0.047055371 0.99357581 -0.091502905
1469449056.6038 0.99117124 -0.096797496 0.0035336073 0.047347065 0.0035457024 0.047389381 0.99381793 -0.092234015
1479445283.0189 0.9910022 -0.097511768 0.0036979935 0.047622841 0.0036756503 0.04766972 0.9938221 -0.093053915
1489441509.434 0.99094266 -0.098041087 0.0038008913 0.047912795 0.0037981533 0.047940575 0.99369103 -0.093972296
1499437735.8491 0.99074709 -0.098297834 0.003877027 0.048196219 0.0038982276 0.04823485 0.99369669 -0.094855487
1509433962.2642 0.99074817 -0.09880279 0.0039838115 0.048442684 0.0039620684 0.048488338 0.9934296 -0.095460378
1519430188.6792 0.99080479 -0.099296838 0.0040526874 0.048747849 0.0040623266 0.048773352 0.99329048 -0.096023709
1529426415.0943 0.99077106 -0.09997046 0.0040969271 0.04898892 0.004095355 0.049037725 0.9932524 -0.096454501
1539422641.5094 0.99083191 -0.10081485 0.0041586738 0.04930589 0.0041278293 0.04932994 0.99338096 -0.096841954
1549418867.9245 0.99064791 -0.10155454 0.0042412896 0.049568765 0.0041505061 0.049605012 0.99355876 -0.097565591
1559415094.3396 0.99054539 -0.10226554 0.0042256005 0.049846943 0.0042248666 0.049907058 0.99369872 -0.098234922
1569411320.7547 0.99040437 -0.10305759 0.0043019298 0.050073724 0.0042586951 0.050200403 0.9936443 -0.099111319
1579407547.1698 0.99031401 -0.10352661 0.0043029478 0.050385173 0.004277166 0.05045487 0.99329036 -0.099963963
1589403773.5849 0.99026537 -0.10411122 0.0043025631 0.050652489 0.0042944737 0.050757654 0.99305379 -0.10065472
1599400000 0.99024284 -0.10457668 0.0043123132 0.050941899 0.0042841621 0.051032815 0.99269885 -0.10109517
1609396226.4151 0.99019784 -0.10520121 0.004302273 0.051269207 0.0042500049 0.0513044 0.99254966 -0.10157117
1619392452.8302 0.99021977 -0.1057401 0.0043246448 0.051600091 0.0042957943 0.05166506 0.99244153 -0.10197002
1629388679.2453 0.98992836 -0.10638285 0.0042732581 0.05192142 0.0042280145 0.052028447 0.99277639 -0.10247609
1639384905.6604 0.98970765 -0.1071335 0.0043369024 0.052288499 0.0042656544 0.052384827 0.99297798 -0.10337564
1649381132.0755 0.98957586 -0.10768542 0.0043421686 0.052628279 0.0042709261 0.05277089 0.99293745 -0.10422304
1659377358.4906 0.98934186 -0.1084899 0.0042920783 0.052976355 0.0042980332 0.053098895 0.99292922 -0.10512525
1669373584.9057 0.98922372 -0.10894933 0.0043547289 0.053344108 0.0042874138 0.053460702 0.99259096 -0.10582545
1679369811.3208 0.98928767 -0.10961118 0.0044177985 0.053698704 0.0043433271 0.053821042 0.99245358 -0.10627088
1689366037.7358 0.98930275 -0.11025029 0.0044519696 0.054048333 0.0043755937 0.054153454 0.99224633 -0.10655531
1699362264.1509 0.98945379 -0.11074302 0.0045049563 0.054426454 0.0044297548 0.05458466 0.99242324 -0.10701816
1709358490.566 0.98939145 -0.11148712 0.0045586331 0.054807805 0.004491318 0.054914653 0.99251938 -0.10753277
1719354716.9811 0.98904502 -0.11206892 0.0045800209 0.055102617 0.0045241602 0.055275984 0.99253327 -0.10825813
