!Keysight Technologies,N5222B,MY61253708,A.15.00.15
!Date: Wednesday, June 19, 2024 10:01:55
!Correction: S11(C  2-Port  ) 
!S21(C  2-Port  ) 
!S12(C  2-Port  ) 
!S22(C  2-Port  ) 
!S2P File: Measurements: S11, S21, S12, S22:
# Hz S  RI   R 50
10000000 0.99842715 -0.0029432178 0.00012246319 0.00041668949 0.00019407031 0.00028194819 0.9987765 -0.0016300976
19996226.415094 1.0001894 -0.0029462576 -1.4553458e-005 0.0006906148 1.6284757e-005 0.00071245234 1.0004631 -0.0026602447
29992452.830189 0.99971735 -0.0025934875 -2.022722e-005 0.0010033781 7.9238234e-005 0.0010589096 0.99950761 -0.0026160777
39988679.245283 1.0000036 -0.0029763281 -4.5178749e-005 0.0013796454 5.3408527e-005 0.0013466557 0.9997195 -0.0030511767
49984905.660377 1.0001851 -0.0036811829 -3.1361647e-005 0.0016471695 -6.3892803e-006 0.0016830999 0.999861 -0.0035695732
59981132.075472 1.0004489 -0.0045153499 1.7684826e-005 0.0019446805 -2.1249289e-005 0.0019506882 0.99982983 -0.0041180849
69977358.490566 1.0001973 -0.0050841812 1.1842774e-005 0.0022722061 2.4907607e-005 0.0022789771 0.99978256 -0.0046933126
79973584.90566 0.99995267 -0.0057163239 1.1096708e-006 0.0026079225 1.6451464e-005 0.0026409205 0.99941671 -0.0051781237
89969811.320755 1.0000005 -0.0058031678 1.6195467e-005 0.0029432361 2.8100447e-005 0.0029533873 0.99967325 -0.0054010451
99966037.735849 1.0001948 -0.0065547675 1.6125385e-005 0.0032994051 4.0328596e-005 0.0033399111 0.99975789 -0.0061579496
109962264.15094 1.0001564 -0.0074325353 2.475275e-005 0.0036083339 2.8960872e-005 0.0036366538 0.9997319 -0.0069573969
119958490.56604 1.0001991 -0.0083354414 4.6109082e-005 0.0039325804 4.7708396e-005 0.0039612972 0.99976456 -0.0078165233
129954716.98113 1.000159 -0.0092359781 3.6714133e-005 0.004272724 3.6137528e-005 0.0043138578 0.99977195 -0.0086618662
139950943.39623 1.0000378 -0.010051336 3.4769633e-005 0.0046031517 4.6567729e-005 0.004613874 0.9996832 -0.0094047897
149947169.81132 1.0000001 -0.010729164 5.1343348e-005 0.0049286094 5.2321469e-005 0.0049464675 0.9996469 -0.010005862
159943396.22642 0.99991971 -0.011283219 6.7601912e-005 0.0052756662 4.8120972e-005 0.0052881697 0.99971741 -0.010482728
169939622.64151 0.99986953 -0.011719361 6.1723753e-005 0.0055937637 5.6436111e-005 0.0056157191 0.99972367 -0.010949239
179935849.0566 0.99994642 -0.011992067 5.9384503e-005 0.005916554 8.0835656e-005 0.005952917 0.99963814 -0.01131919
189932075.4717 1.0000813 -0.012745172 0.00010373164 0.0062474655 7.0271548e-005 0.0062736296 0.99988663 -0.011819988
199928301.88679 0.99996322 -0.013537288 9.404961e-005 0.0065829838 8.7150722e-005 0.0066154865 0.99975562 -0.012722462
209924528.30189 0.99974811 -0.014109269 6.485777e-005 0.0069228704 0.00010728918 0.0069370843 0.99954033 -0.013408259
219920754.71698 0.99991047 -0.014885128 0.00010498776 0.0072332546 0.00011158106 0.0072676269 0.99940646 -0.013979554
229916981.13208 0.99968243 -0.015755743 0.00013061892 0.0075569171 0.00012307544 0.0075887986 0.99942291 -0.014786422
239913207.54717 0.99957871 -0.016421773 0.00011826122 0.007879992 0.00013000933 0.007930357 0.99939877 -0.015480917
249909433.96226 0.99955755 -0.017024636 0.00013582315 0.0082040289 0.00012433785 0.0082488758 0.99946219 -0.016077071
259905660.37736 0.99967551 -0.017712772 0.00016725855 0.0085366834 0.00014677132 0.0085793724 0.99962425 -0.016690701
269901886.79245 0.99973774 -0.018195882 0.000170407 0.0089076189 0.00016911398 0.0089470763 0.99998367 -0.017378435
279898113.20755 0.99986905 -0.018950284 0.00016122009 0.0092156678 0.00016365713 0.0091613261 0.99980229 -0.018050477
289894339.62264 0.99971586 -0.019663721 0.00021516811 0.009554673 0.00017517339 0.0095494986 0.99968851 -0.018832147
299890566.03774 0.99980795 -0.020196199 0.0001635293 0.0098418165 0.00020013936 0.0099222669 0.99949121 -0.019255042
309886792.45283 0.9995926 -0.02068533 0.00020295975 0.010170448 0.00016813492 0.010245509 0.99943006 -0.019650951
319883018.86792 0.99964774 -0.02144888 0.00018652249 0.0105276 0.00022753794 0.010583691 0.99955499 -0.020130098
329879245.28302 0.99955416 -0.02221337 0.00018612947 0.010859171 0.00020025671 0.010870161 0.99968541 -0.020970345
339875471.69811 0.99948311 -0.022935264 0.00029092468 0.011146742 0.00025749684 0.011172453 0.99958485 -0.021771647
349871698.11321 0.99971634 -0.02374056 0.00029349234 0.011503979 0.00028589251 0.011535413 0.99961048 -0.022666007
359867924.5283 0.99952459 -0.024510622 0.00028788392 0.011800513 0.00029741181 0.011885069 0.99953979 -0.023561299
369864150.9434 0.99968606 -0.025250673 0.00030270708 0.012135461 0.00028453302 0.012212927 0.99958313 -0.024301201
379860377.35849 0.9995054 -0.025999844 0.00031312718 0.012495951 0.00031634676 0.012533642 0.999493 -0.025000483
389856603.77358 0.9994753 -0.026513129 0.00032737246 0.012780553 0.00031714048 0.012829512 0.99940622 -0.025466502
399852830.18868 0.99923408 -0.027124733 0.00037408574 0.013122606 0.00037375744 0.013167772 0.99946767 -0.025985897
409849056.60377 0.9991852 -0.027692508 0.0003794244 0.013443426 0.00035734358 0.013502925 0.99942774 -0.026498443
419845283.01887 0.99928117 -0.028110862 0.00040202448 0.013753854 0.00040615117 0.013856004 0.99936348 -0.027038872
429841509.43396 0.99932241 -0.028693378 0.00042477855 0.01411357 0.00040379446 0.01417848 0.99952322 -0.027729869
439837735.84906 0.99922419 -0.029623672 0.00043977681 0.014422022 0.00045708963 0.014514556 0.9992795 -0.028739586
449833962.26415 0.99902469 -0.030347884 0.00042665657 0.014704054 0.00045089284 0.014793705 0.99882901 -0.029461324
459830188.67925 0.99898636 -0.031069785 0.00047029089 0.015058494 0.0004452914 0.015110914 0.99855328 -0.030165076
469826415.09434 0.99889964 -0.031742215 0.00045351731 0.015396805 0.00044347579 0.015455554 0.99839658 -0.030674398
479822641.50943 0.99882108 -0.032388121 0.00046758214 0.015742019 0.00046947622 0.015823534 0.99834901 -0.031080231
489818867.92453 0.99893016 -0.032904238 0.00052703591 0.016078966 0.00050217705 0.016149092 0.99864984 -0.031592667
499815094.33962 0.99897039 -0.033557415 0.00057154102 0.016395746 0.00052366871 0.016466282 0.99895352 -0.032146096
509811320.75472 0.99904287 -0.033901516 0.00054666621 0.016706828 0.00056079542 0.016759334 0.99906069 -0.032875106
519807547.16981 0.99894005 -0.03447777 0.00056856684 0.017030463 0.00058519794 0.017110435 0.99906611 -0.033555925
529803773.58491 0.99899244 -0.035088122 0.00057165697 0.01736013 0.0005789781 0.01744887 0.99876344 -0.034058899
539800000 0.99901134 -0.035603151 0.00061888737 0.017698869 0.00062619313 0.017807886 0.99868023 -0.034761339
549796226.41509 0.99893981 -0.036629409 0.0006074612 0.018051503 0.00065121707 0.018149992 0.99863011 -0.035162985
559792452.83019 0.99867785 -0.037281752 0.00064947084 0.018333133 0.00065406226 0.018435009 0.99861062 -0.035672426
569788679.24528 0.99855542 -0.037980825 0.00066118687 0.018680019 0.00068435306 0.018752106 0.99872959 -0.036411136
579784905.66038 0.99861681 -0.038481325 0.00070293853 0.019002218 0.0007075686 0.019082684 0.9988358 -0.037082195
589781132.07547 0.99862128 -0.039121956 0.00073682982 0.019344632 0.00069984701 0.019427173 0.99890935 -0.037990391
599777358.49057 0.99887669 -0.039769411 0.00076562818 0.019635919 0.00074579101 0.019752949 0.99895704 -0.038716763
609773584.90566 0.99894255 -0.04049905 0.00078921812 0.019978045 0.00078379642 0.020117715 0.9988398 -0.039628051
619769811.32075 0.99896371 -0.041158408 0.00085194455 0.020295952 0.00082949782 0.02039404 0.99880683 -0.040123314
629766037.73585 0.9988271 -0.041870236 0.00084246416 0.020620916 0.00084904768 0.020696413 0.99860966 -0.040628821
639762264.15094 0.99870872 -0.042499587 0.00088219973 0.02089789 0.00084654381 0.021030344 0.99857444 -0.041117147
649758490.56604 0.99862856 -0.043157086 0.00087759364 0.021209583 0.00089865411 0.021380303 0.9986189 -0.041554838
659754716.98113 0.99844676 -0.043609947 0.00091222953 0.021574743 0.00088751689 0.021699315 0.99866825 -0.0421215
669750943.39623 0.99851942 -0.044075936 0.00091509474 0.021911284 0.00091111474 0.022064831 0.99877936 -0.042928815
679747169.81132 0.99846894 -0.044847488 0.00095502171 0.02226115 0.00092935062 0.022364188 0.99876875 -0.043796122
689743396.22642 0.99860287 -0.045627773 0.0010202862 0.022592209 0.00098488107 0.022723213 0.99859351 -0.044761956
699739622.64151 0.9987601 -0.046429157 0.0010423744 0.022904839 0.0010703392 0.023027966 0.99857026 -0.045409709
709735849.0566 0.99862605 -0.047288045 0.0011043808 0.023214377 0.0010859562 0.023359902 0.99829376 -0.046122059
719732075.4717 0.99856162 -0.048015982 0.0011110823 0.023556797 0.0011112732 0.023650482 0.99833691 -0.046676606
729728301.88679 0.99852175 -0.048581272 0.0011451561 0.023858154 0.0011197058 0.02398948 0.9983781 -0.047152638
739724528.30189 0.99836028 -0.049076393 0.0011698185 0.024170492 0.0011563716 0.024315665 0.99852502 -0.047819495
749720754.71698 0.99828279 -0.049741536 0.0012147371 0.024489395 0.0011907755 0.02463517 0.99850655 -0.048550442
759716981.13208 0.9983862 -0.050227255 0.0012123073 0.024811216 0.0012455648 0.024971746 0.9984805 -0.049309045
769713207.54717 0.99827027 -0.05093196 0.0012380071 0.025121065 0.001234591 0.025251204 0.99827564 -0.050020009
779709433.96226 0.99835974 -0.051550657 0.0012698023 0.025473129 0.0013075063 0.025596701 0.9980306 -0.050638553
789705660.37736 0.99828112 -0.05246383 0.0013298932 0.025784753 0.0013267454 0.025889488 0.99774146 -0.051353663
799701886.79245 0.99832183 -0.05316186 0.0013470929 0.026096968 0.0013445383 0.026207164 0.99764729 -0.051927686
809698113.20755 0.99819726 -0.053820118 0.0013626397 0.026410017 0.0013581628 0.026559332 0.99764693 -0.052380756
819694339.62264 0.99798131 -0.054477423 0.001394032 0.02672511 0.0013877591 0.026884519 0.99773639 -0.052987099
829690566.03774 0.99803853 -0.055060834 0.001448161 0.027035993 0.0014251843 0.027179098 0.99797654 -0.053876221
839686792.45283 0.99799913 -0.055513293 0.0014477465 0.027358107 0.0014811275 0.027500046 0.99796718 -0.054606348
849683018.86792 0.99812603 -0.056180358 0.0014718946 0.027681503 0.0014929399 0.027890185 0.99789357 -0.05537764
859679245.28302 0.99814439 -0.056880087 0.0015451051 0.0280232 0.0015440229 0.028156186 0.99763203 -0.056006014
869675471.69811 0.998097 -0.057597071 0.0015835334 0.028326193 0.0015692534 0.028461758 0.99733722 -0.056459725
879671698.11321 0.99799442 -0.058261573 0.0016215671 0.02863179 0.00160729 0.028805982 0.99728876 -0.056937229
889667924.5283 0.9977777 -0.058987796 0.0016209828 0.028930152 0.0016454747 0.02911773 0.9971174 -0.057370454
899664150.9434 0.99761379 -0.05966574 0.0016354509 0.029258408 0.0016735895 0.029414263 0.99716425 -0.057963073
909660377.35849 0.99766672 -0.060332358 0.0016773096 0.029572889 0.0016903668 0.029741434 0.99732006 -0.058848098
919656603.77358 0.99772578 -0.060976222 0.0017179186 0.02988931 0.001701632 0.030058699 0.99732274 -0.059715331
929652830.18868 0.99770403 -0.061771333 0.001741128 0.030159237 0.0017404389 0.030377457 0.99712902 -0.060582995
939649056.60377 0.99789399 -0.062427372 0.0017391518 0.03050857 0.0017524976 0.030693939 0.99703276 -0.061206907
949645283.01887 0.99784398 -0.063207738 0.0017171203 0.030863196 0.0017175038 0.031024007 0.99678683 -0.061755441
959641509.43396 0.99781293 -0.063929141 0.0017910758 0.031201588 0.0018018698 0.031383041 0.99672282 -0.062225431
969637735.84906 0.99775094 -0.064591527 0.0018387288 0.03155515 0.0018268581 0.03172816 0.99680853 -0.062627584
979633962.26415 0.99753928 -0.065317504 0.0018878833 0.031839434 0.0018750844 0.032032251 0.99676579 -0.063283883
989630188.67925 0.99762332 -0.065811753 0.0019218316 0.032153819 0.0019089906 0.032356352 0.99697351 -0.063838601
999626415.09434 0.99773139 -0.066458642 0.0019554999 0.032478131 0.0019662986 0.032701567 0.9969101 -0.064686596
1009622641.5094 0.99764514 -0.067097858 0.0019584373 0.032817669 0.0019917702 0.033027396 0.99681354 -0.06549114
1019618867.9245 0.99773014 -0.06781514 0.002009715 0.033147372 0.0020749187 0.03334637 0.99661583 -0.066288158
1029615094.3396 0.99769026 -0.068812877 0.0020939186 0.033432066 0.0020937044 0.033627599 0.99622422 -0.066843301
1039611320.7547 0.99779689 -0.069636434 0.0021080505 0.033742372 0.0021035951 0.033961721 0.99617273 -0.067499489
1049607547.1698 0.99763072 -0.070511557 0.0021441348 0.034026902 0.0021514515 0.034247126 0.99621457 -0.068086222
1059603773.5849 0.99748826 -0.07124728 0.0021412689 0.034329921 0.0021849889 0.034557588 0.99615926 -0.068582416
1069600000 0.99726951 -0.071858287 0.0021720342 0.034641311 0.0021712249 0.034864001 0.99629819 -0.069341749
1079596226.4151 0.99729568 -0.072604947 0.002175774 0.034972373 0.002207194 0.035154872 0.9962858 -0.070047662
1089592452.8302 0.99732792 -0.073211819 0.0022132564 0.03530718 0.0022327155 0.035484474 0.99629754 -0.070885062
1099588679.2453 0.99737036 -0.073862642 0.0022143498 0.035635304 0.0022430345 0.035840966 0.99597931 -0.071478695
1109584905.6604 0.99747753 -0.074698329 0.0022436054 0.035955578 0.0022768108 0.036195658 0.99572158 -0.072036356
1119581132.0755 0.99743629 -0.07554929 0.0022459771 0.036296614 0.0023064855 0.036515746 0.9955408 -0.072390676
1129577358.4906 0.99725717 -0.076234072 0.002268808 0.036641143 0.0023431536 0.036897011 0.99552077 -0.072927356
1139573584.9057 0.99707544 -0.077232689 0.0023449287 0.036982786 0.0023884485 0.037214451 0.99555326 -0.073556483
1149569811.3208 0.99690795 -0.078006707 0.0024155807 0.037318248 0.002453184 0.037496068 0.99568295 -0.074179687
1159566037.7358 0.99675262 -0.078683317 0.002430114 0.03762785 0.0024853246 0.037842564 0.99576938 -0.075195014
1169562264.1509 0.99657774 -0.07941252 0.0024324581 0.037909918 0.002494907 0.038165018 0.9955731 -0.075989395
1179558490.566 0.99657476 -0.080175653 0.0024423569 0.038285457 0.0025041043 0.038521554 0.99546516 -0.076715127
1189554716.9811 0.99650276 -0.080905497 0.0024874536 0.038615376 0.0025629895 0.038841486 0.99519265 -0.077261209
1199550943.3962 0.99644983 -0.081719428 0.0025116913 0.039003231 0.0026336368 0.039183252 0.99502146 -0.077746361
1209547169.8113 0.99636185 -0.082577586 0.002596763 0.039301805 0.0026778653 0.039491497 0.99497831 -0.078044027
1219543396.2264 0.99614894 -0.083402544 0.0026032832 0.039653547 0.0027001402 0.039873395 0.99505442 -0.078406766
1229539622.6415 0.99582708 -0.08409664 0.0026967768 0.039959334 0.0027854908 0.040186618 0.99515676 -0.079111159
1239535849.0566 0.99558568 -0.084739983 0.0027292855 0.040278256 0.0028567594 0.040492762 0.99529523 -0.079953283
1249532075.4717 0.99532342 -0.085468724 0.0027557379 0.040612608 0.0028932192 0.040833112 0.99517304 -0.080703616
1259528301.8868 0.99514318 -0.085950732 0.0028374586 0.040928282 0.0029527042 0.041125175 0.99488485 -0.081625134
1269524528.3019 0.99495202 -0.086685508 0.0029042251 0.041258812 0.003027251 0.041410927 0.99469095 -0.08227846
1279520754.717 0.99464411 -0.08746887 0.0029430815 0.041511428 0.0030908003 0.041704401 0.99443257 -0.082858779
1289516981.1321 0.99445534 -0.088304192 0.0030040024 0.041816853 0.0030824952 0.042010099 0.99445307 -0.083255112
1299513207.5472 0.99418306 -0.089092433 0.0029728841 0.042126857 0.0030666441 0.042293146 0.99456078 -0.083681911
1309509433.9623 0.9937923 -0.08976455 0.0030008778 0.042428195 0.0031090686 0.042597286 0.99468642 -0.084425122
1319505660.3774 0.99346375 -0.090540409 0.0030076969 0.042766444 0.0031192331 0.042915761 0.9946636 -0.085062683
1329501886.7925 0.9931916 -0.09114936 0.0030023456 0.043072112 0.0031306688 0.043222301 0.99475259 -0.085967273
1339498113.2075 0.99291104 -0.091719002 0.0030115666 0.043393657 0.0031775199 0.043569021 0.99437958 -0.086716503
1349494339.6226 0.99271584 -0.092256352 0.0030391268 0.043744799 0.0031568469 0.043899823 0.99400353 -0.087211184
1359490566.0377 0.99266392 -0.092830211 0.0030373689 0.044102017 0.0031257719 0.044274002 0.99380982 -0.087775528
1369486792.4528 0.99241388 -0.093257606 0.0030322 0.044489637 0.0031371694 0.044597276 0.9936499 -0.08825919
1379483018.8679 0.99208343 -0.093836956 0.0030769121 0.044820055 0.0031626252 0.044904772 0.99361879 -0.088560872
1389479245.283 0.991826 -0.094422758 0.0031535234 0.045200266 0.00317844 0.04531575 0.99362206 -0.089205772
1399475471.6981 0.99145806 -0.094763041 0.0031173788 0.045529608 0.0032198578 0.045628052 0.9938013 -0.089953184
1409471698.1132 0.99104959 -0.095267624 0.0031710786 0.045892783 0.0032520629 0.046039797 0.99382281 -0.090737239
1419467924.5283 0.99095625 -0.095569134 0.0031794216 0.046276674 0.003236237 0.046439517 0.99364847 -0.091468215
1429464150.9434 0.99082452 -0.096052676 0.0032095853 0.046656646 0.0032903142 0.046818398 0.99353731 -0.09198007
1439460377.3585 0.99097985 -0.096471623 0.0033242982 0.047093805 0.0033737691 0.047229856 0.99328154 -0.09238033
1449456603.7736 0.99094754 -0.096989363 0.0034025526 0.047503967 0.003496795 0.047621701 0.99321735 -0.092738956
1459452830.1887 0.99095172 -0.0975945 0.0035596509 0.047880083 0.003565073 0.048035443 0.99329597 -0.09294486
1469449056.6038 0.99102086 -0.0982261 0.0037225196 0.048236124 0.003705252 0.048349593 0.99355352 -0.093649685
1479445283.0189 0.99083138 -0.09887027 0.0037955777 0.048528332 0.0038650762 0.048660275 0.99370903 -0.094482422
1489441509.434 0.99074733 -0.099364907 0.0039426163 0.048815805 0.0039780494 0.048961055 0.99355006 -0.095306128
1499437735.8491 0.99055803 -0.099729657 0.0040795095 0.049087774 0.0040767584 0.049241196 0.99341011 -0.096187204
1509433962.2642 0.99062192 -0.10025996 0.0041380208 0.049372032 0.0041446313 0.049472652 0.99325603 -0.0968678
1519430188.6792 0.99068451 -0.10083547 0.0042217728 0.049631789 0.0042325724 0.049785718 0.99316549 -0.097512811
1529426415.0943 0.99069118 -0.10148028 0.0042438358 0.049894992 0.0042428412 0.050091144 0.99310941 -0.09792003
1539422641.5094 0.99071503 -0.10229918 0.0043184632 0.050208692 0.0043044528 0.050364826 0.9931795 -0.0983373
1549418867.9245 0.99049538 -0.1030755 0.0043859081 0.05049815 0.0043859659 0.050640434 0.99333358 -0.099041894
1559415094.3396 0.99040991 -0.10370725 0.0044120643 0.050794765 0.0044470206 0.050951499 0.99350196 -0.099734575
1569411320.7547 0.99026537 -0.10446312 0.004470163 0.05103245 0.0044643115 0.051208083 0.99338567 -0.10050939
1579407547.1698 0.99023825 -0.10499997 0.0044881897 0.051310822 0.0044566318 0.051511556 0.99312681 -0.10131727
1589403773.5849 0.99016583 -0.10553619 0.0044867583 0.05158364 0.0044609196 0.051842701 0.99289834 -0.10198766
1599400000 0.99020576 -0.10596883 0.0044687754 0.051895212 0.0044546174 0.052094076 0.99244916 -0.10251918
1609396226.4151 0.99007469 -0.10668673 0.0044901222 0.052234665 0.0044562947 0.052372657 0.99236983 -0.10303225
1619392452.8302 0.99001312 -0.10725152 0.0045015831 0.052564092 0.0044522565 0.052765127 0.99228704 -0.10346797
1629388679.2453 0.98988301 -0.10798845 0.0045120381 0.052871846 0.0044459663 0.053110663 0.99248505 -0.10401228
1639384905.6604 0.98970002 -0.10857727 0.004496593 0.053269323 0.0044417535 0.053478394 0.99269789 -0.10475307
1649381132.0755 0.98941374 -0.10923898 0.004548151 0.053585835 0.0044718571 0.053802066 0.99271554 -0.10574234
1659377358.4906 0.98924673 -0.11008048 0.0045357905 0.053994641 0.0045164693 0.054218899 0.99265885 -0.10657629
1669373584.9057 0.9892906 -0.11049353 0.0045313919 0.054338723 0.0045530661 0.054573815 0.99237317 -0.10721651
1679369811.3208 0.98925632 -0.11117083 0.0045905178 0.054723222 0.0045535145 0.054970756 0.99217474 -0.10782218
1689366037.7358 0.98924208 -0.11175194 0.0046463832 0.05512419 0.0046231132 0.055318784 0.99202621 -0.10805836
1699362264.1509 0.98939431 -0.11229727 0.0046677338 0.055500787 0.0046912618 0.05570168 0.99224162 -0.10851529
1709358490.566 0.98924994 -0.11298512 0.0047881911 0.055807844 0.0047168164 0.056079287 0.99222606 -0.10909796
1719354716.9811 0.98901761 -0.11358419 0.0048007928 0.056205101 0.0047632363 0.056425825 0.99228311 -0.1097061
1729350943.3962 0.98873025 -0.11409816 0.0048797242 0.056546666 0.0048363954 0.056840163 0.99228609 -0.1105662
