!Keysight Technologies,N5222B,MY61253708,A.15.00.15
!Date: Wednesday, June 19, 2024 09:18:51
!Correction: S11(C  2-Port  ) 
!S21(C  2-Port  ) 
!S12(C  2-Port  ) 
!S22(C  2-Port  ) 
!S2P File: Measurements: S11, S21, S12, S22:
# Hz S  RI   R 50
10000000 0.99853051 -0.0024639964 8.985991e-005 0.00055150973 -1.4239457e-005 0.0002377419 0.99842572 -0.00098735094
19996226.415094 0.99903309 -0.002147615 -7.9478807e-005 0.00068782619 6.9131376e-005 0.00061522325 0.99922425 -0.0022530556
29992452.830189 0.9996525 -0.002459228 5.464803e-005 0.0010675904 6.6365872e-005 0.0010367014 0.99946463 -0.0027530193
39988679.245283 1.0000279 -0.0030370355 -5.7189609e-005 0.0013462837 3.0379742e-006 0.0013723505 0.99968433 -0.0031491965
49984905.660377 1.0001243 -0.0037783086 1.9035884e-005 0.0016965345 3.3073185e-005 0.001698866 0.99981582 -0.0037623048
59981132.075472 1.000281 -0.0046773553 -6.7896384e-005 0.0020444421 2.9177463e-005 0.0020547996 0.99979222 -0.0042488277
69977358.490566 1.0000786 -0.0053018853 -4.5019369e-006 0.0023462388 -1.3015062e-005 0.0024400742 0.99962872 -0.0048708487
79973584.90566 0.99985665 -0.0058817267 1.9674771e-005 0.0027121664 5.3189346e-005 0.0027471462 0.99941331 -0.0052976012
89969811.320755 0.99985397 -0.0060087442 2.7247472e-005 0.0030509559 3.5746838e-005 0.0030635432 0.99952495 -0.0055917203
99966037.735849 1.0000499 -0.0067960173 3.9328588e-006 0.0034040348 3.3562887e-005 0.0034316937 0.9996531 -0.0064113587
109962264.15094 1.0001031 -0.0076751262 5.873217e-005 0.0037102688 3.8848433e-005 0.0037497564 0.99961686 -0.0072405785
119958490.56604 1.0001264 -0.0086223483 2.2720778e-005 0.0040336228 2.9589515e-005 0.0040931762 0.99969649 -0.0081452727
129954716.98113 1.0000486 -0.0096445084 5.3160242e-005 0.0044061476 4.9798866e-005 0.0044410052 0.99965119 -0.0090658963
139950943.39623 0.99996459 -0.010471357 6.0919818e-005 0.0047484171 3.7786333e-005 0.0047725197 0.99954486 -0.0098328553
149947169.81132 0.99982512 -0.011164933 5.6975055e-005 0.0050983094 6.0743885e-005 0.0051331008 0.9995181 -0.01040867
159943396.22642 0.99982452 -0.011677504 7.6183584e-005 0.0054349722 8.2606217e-005 0.0054666782 0.99959093 -0.010894448
169939622.64151 0.99977827 -0.012073055 7.2328839e-005 0.005763073 5.9839105e-005 0.005812855 0.99964845 -0.011312626
179935849.0566 0.99984509 -0.012331784 6.8048248e-005 0.0060970038 9.2776376e-005 0.0061614378 0.99956089 -0.011694163
189932075.4717 0.99999011 -0.013147295 8.3709368e-005 0.0064541176 8.6267479e-005 0.0064919349 0.99977481 -0.012301236
199928301.88679 0.9998945 -0.013974786 0.00010297296 0.006771666 8.2334504e-005 0.0068530566 0.99969608 -0.013278067
209924528.30189 0.99964565 -0.014656201 0.00010092859 0.0071255942 0.0001028867 0.0071801012 0.99941146 -0.013975903
219920754.71698 0.99968338 -0.015558541 0.00015110802 0.0074305371 0.00010654796 0.0074949269 0.99928319 -0.014647603
229916981.13208 0.99942273 -0.016404033 0.00012765336 0.0077824485 0.00012355088 0.0078458432 0.9992153 -0.015384972
239913207.54717 0.9993546 -0.017065024 0.00015099997 0.0081208553 0.00014636302 0.0081878752 0.99917358 -0.016084496
249909433.96226 0.99934679 -0.01766023 0.00015610061 0.0084426282 0.00014528376 0.008534967 0.99933136 -0.016738117
259905660.37736 0.99956286 -0.018257946 0.00011829613 0.0087816976 0.00019172952 0.0088746995 0.99952883 -0.017366856
269901886.79245 0.99965882 -0.018928424 0.0001697666 0.0092003867 0.00013505819 0.009178658 0.99983424 -0.018060222
279898113.20755 0.99974424 -0.019684911 0.0001906231 0.0095026596 0.0001524 0.0094919503 0.99968594 -0.018739089
289894339.62264 0.99970365 -0.020417124 0.00018966291 0.0097910017 0.0002085045 0.0098861577 0.99964023 -0.019576401
299890566.03774 0.99961591 -0.02090016 0.0001841581 0.010135307 0.00022791047 0.010205625 0.99933809 -0.019948035
309886792.45283 0.99942249 -0.021505758 0.00025037641 0.010536487 0.00021701702 0.010526694 0.99923909 -0.02048488
319883018.86792 0.99939108 -0.022209764 0.0002343501 0.010844281 0.00028423453 0.010924099 0.99931711 -0.020977378
329879245.28302 0.99926251 -0.023008406 0.0002608709 0.011186271 0.00022150902 0.011281772 0.99934316 -0.021715403
339875471.69811 0.99930328 -0.023577072 0.00026736583 0.011480314 0.00028735597 0.011562813 0.99937385 -0.022543348
349871698.11321 0.99945617 -0.024464369 0.00033119577 0.011858102 0.00026017427 0.011956858 0.99935842 -0.023491919
359867924.5283 0.99929392 -0.025248021 0.00027825311 0.012224193 0.00030390825 0.012265219 0.99931872 -0.024394184
369864150.9434 0.99945319 -0.026000917 0.00038192119 0.012523199 0.00030523166 0.012595897 0.99926072 -0.025068343
379860377.35849 0.99934155 -0.026762128 0.00032496662 0.012812071 0.00030678581 0.012937515 0.99923986 -0.025847048
389856603.77358 0.99928439 -0.027343839 0.00035780855 0.013203515 0.0003451081 0.013299143 0.99913126 -0.026218444
399852830.18868 0.99912184 -0.02798149 0.00034830393 0.013532508 0.00039590709 0.013605861 0.99933088 -0.026784122
409849056.60377 0.99908763 -0.02840146 0.00041117374 0.013842997 0.00039820946 0.013971766 0.99923509 -0.027173879
419845283.01887 0.99908459 -0.028786957 0.00044542132 0.014196512 0.00039831782 0.014332966 0.99920273 -0.02774772
429841509.43396 0.99919164 -0.029543847 0.00044579525 0.014537897 0.00043149386 0.014657252 0.99942183 -0.028559655
439837735.84906 0.99906564 -0.030345336 0.00047946826 0.01483952 0.00046530005 0.014993241 0.99927604 -0.029450625
449833962.26415 0.9990353 -0.0312711 0.00044375286 0.015164882 0.0004772516 0.015300255 0.99885821 -0.030371636
459830188.67925 0.99889851 -0.032063276 0.00048193894 0.015537214 0.00045037968 0.015654374 0.99860048 -0.031059891
469826415.09434 0.99880522 -0.032853752 0.00049434369 0.01583571 0.00047775777 0.016007906 0.99836993 -0.031694114
479822641.50943 0.99861509 -0.033460319 0.00049076765 0.016223658 0.00052422145 0.016358273 0.99847418 -0.032063521
489818867.92453 0.99881816 -0.033888161 0.00054103741 0.016564574 0.00059125898 0.016699839 0.99880028 -0.032641679
499815094.33962 0.99884319 -0.034602433 0.00058901822 0.016890122 0.0005583819 0.017041873 0.99910563 -0.033231616
509811320.75472 0.99908102 -0.035008229 0.00062252424 0.017225202 0.0005494596 0.017356507 0.99914789 -0.034011669
519807547.16981 0.9988429 -0.035634071 0.00063697854 0.017550563 0.00063513033 0.017649945 0.99914896 -0.034839988
529803773.58491 0.99890804 -0.036269307 0.00057530217 0.017855406 0.00061843637 0.018036488 0.99892658 -0.035485178
539800000 0.99899709 -0.037008598 0.00069154217 0.018208155 0.00066660182 0.018375743 0.99867845 -0.036131442
549796226.41509 0.99877822 -0.037872046 0.00070192758 0.018562119 0.00069531705 0.018717706 0.998564 -0.036554545
559792452.83019 0.99846095 -0.038533241 0.00072293356 0.018904317 0.00072302297 0.019074928 0.99844658 -0.037091315
569788679.24528 0.99840558 -0.039160907 0.00075979298 0.019251669 0.00074463664 0.019394463 0.99862635 -0.037869751
579784905.66038 0.99832302 -0.039787613 0.00076391012 0.019602746 0.00072154542 0.019772155 0.9986856 -0.038548522
589781132.07547 0.99847734 -0.040528864 0.00080311485 0.019942002 0.00076605659 0.02005256 0.9988308 -0.039545834
599777358.49057 0.99865365 -0.041083992 0.00082626939 0.020257562 0.00079170428 0.020444302 0.99883759 -0.040253043
609773584.90566 0.99877167 -0.041818447 0.00087350211 0.020624237 0.00088057219 0.020787859 0.99870801 -0.041221425
619769811.32075 0.9987998 -0.042586386 0.00091605028 0.020903107 0.00089569436 0.021102346 0.99860966 -0.041699231
629766037.73585 0.99867415 -0.043220073 0.00094014686 0.021227054 0.00092162658 0.021374732 0.99846679 -0.042245984
639762264.15094 0.99847114 -0.043965548 0.00096307299 0.021561239 0.00099807628 0.021761404 0.9982813 -0.042714387
649758490.56604 0.99834961 -0.044501647 0.00099270931 0.021892328 0.00093967188 0.022088291 0.99835718 -0.043131903
659754716.98113 0.99809837 -0.044967204 0.0009750193 0.022267714 0.00098053738 0.022430237 0.99848497 -0.043726772
669750943.39623 0.99819672 -0.045489848 0.00098201307 0.022600425 0.00099429209 0.022790676 0.99847704 -0.044532448
679747169.81132 0.99820113 -0.046229534 0.0010670956 0.022920307 0.0010298425 0.023152806 0.99844223 -0.045441441
689743396.22642 0.99832904 -0.04712519 0.0011273082 0.023292966 0.0010985369 0.023471216 0.99829048 -0.046438158
699739622.64151 0.99844086 -0.047912598 0.0011148499 0.02363248 0.0011321753 0.023829814 0.99820399 -0.04720214
709735849.0566 0.99830484 -0.048782289 0.0011775764 0.023926251 0.0011596127 0.024153538 0.99797589 -0.047802493
719732075.4717 0.99825972 -0.04946956 0.0012027374 0.024232151 0.0012082644 0.024479844 0.99810994 -0.048406929
729728301.88679 0.99817586 -0.050033689 0.0012310604 0.024567196 0.001250091 0.02477715 0.99806023 -0.048811883
739724528.30189 0.99803382 -0.050733209 0.0012704702 0.024921093 0.0013002693 0.025119031 0.99824566 -0.049511909
749720754.71698 0.99796402 -0.051236242 0.0012982199 0.025249733 0.0013007992 0.025475474 0.99831045 -0.05023858
759716981.13208 0.99807155 -0.051689178 0.0013405941 0.025547747 0.0013173185 0.02579733 0.99829072 -0.051020145
769713207.54717 0.99793386 -0.05240196 0.0013673054 0.025889639 0.0013532871 0.026108967 0.99796486 -0.051705986
779709433.96226 0.99815732 -0.053088795 0.0014227796 0.026217977 0.0013992797 0.026444668 0.99782538 -0.052376889
789705660.37736 0.99793041 -0.05399096 0.0014418876 0.026566252 0.0014269147 0.026788864 0.99748659 -0.053115606
799701886.79245 0.99796963 -0.054837644 0.0014767814 0.026861195 0.0014471142 0.027130023 0.99736059 -0.053674668
809698113.20755 0.99788201 -0.055474982 0.0015174779 0.027208347 0.0014827033 0.027434558 0.99744636 -0.05414702
819694339.62264 0.99775559 -0.056103736 0.0015189182 0.027565939 0.0015197294 0.027776862 0.99758852 -0.054816514
829690566.03774 0.99775362 -0.056741416 0.0015531052 0.027863279 0.0015634978 0.028102532 0.99780285 -0.055650085
839686792.45283 0.99791718 -0.057202399 0.0015731305 0.028202808 0.0016037216 0.02839376 0.99783754 -0.056466252
849683018.86792 0.99786484 -0.057814695 0.0015899511 0.028505987 0.0016150828 0.0287703 0.9977057 -0.057224005
859679245.28302 0.99793154 -0.058601409 0.0016472219 0.028850865 0.0017001368 0.029085847 0.99741346 -0.057790488
869675471.69811 0.99783385 -0.059349477 0.0017097099 0.02918138 0.0017284136 0.029447647 0.99704486 -0.058390021
879671698.11321 0.99771398 -0.060011577 0.0017362367 0.029442513 0.0017537018 0.029749993 0.99706674 -0.058841556
889667924.5283 0.99751115 -0.060830921 0.0017521791 0.029803358 0.0017530425 0.030068457 0.99695289 -0.059356362
899664150.9434 0.99742281 -0.061622828 0.0017923601 0.030140754 0.001793284 0.030398516 0.99702793 -0.059984267
909660377.35849 0.99737716 -0.062284097 0.0017931252 0.03045099 0.0018293709 0.030756395 0.99710834 -0.060950309
919656603.77358 0.99744171 -0.062880367 0.0018342095 0.030791109 0.0018784297 0.03105602 0.99716449 -0.061785623
929652830.18868 0.99736118 -0.063693553 0.0018587159 0.031099219 0.0018788483 0.031388909 0.99699563 -0.062683463
939649056.60377 0.99762332 -0.064319074 0.0018877443 0.031446271 0.0019023148 0.03172379 0.99683893 -0.063315928
949645283.01887 0.99760598 -0.065147124 0.0018905228 0.03177797 0.0018968701 0.032063961 0.99657112 -0.063914463
959641509.43396 0.99745762 -0.065824568 0.0019255644 0.032156102 0.0019533606 0.032445684 0.99650002 -0.064498097
969637735.84906 0.99741554 -0.066573232 0.0019625993 0.032511696 0.0020091282 0.03276787 0.99656832 -0.064792126
979633962.26415 0.99729824 -0.067268826 0.0020359987 0.032804694 0.0020573665 0.033108059 0.99664241 -0.065457985
989630188.67925 0.99723452 -0.067781121 0.0020593861 0.03314212 0.0021056011 0.033443369 0.99679869 -0.066058338
999626415.09434 0.99730003 -0.068399817 0.0020762216 0.033469573 0.002097303 0.033786088 0.99668646 -0.066874802
1009622641.5094 0.99729544 -0.06914413 0.0021212362 0.033796929 0.0021645324 0.03413761 0.99652928 -0.067793384
1019618867.9245 0.99728656 -0.069972411 0.0021973248 0.034133915 0.002226999 0.034458123 0.9962824 -0.068686262
1029615094.3396 0.99741435 -0.070946902 0.0022333227 0.034437891 0.0022937525 0.034748379 0.99586689 -0.069184124
1039611320.7547 0.99739337 -0.07182011 0.002256739 0.034781046 0.0023249425 0.035082906 0.9958359 -0.069870621
1049607547.1698 0.99722451 -0.072673738 0.0022911103 0.035078019 0.0023531346 0.035372995 0.99578077 -0.070524611
1059603773.5849 0.99709868 -0.073384136 0.0023457427 0.035368778 0.0023755012 0.035703927 0.99582767 -0.071003467
1069600000 0.99690771 -0.074021101 0.0023408663 0.035670005 0.0023816861 0.036054112 0.99604732 -0.071724504
1079596226.4151 0.99691135 -0.074728094 0.0023411117 0.036013372 0.0024260734 0.036397431 0.99599797 -0.072504088
1089592452.8302 0.99688625 -0.075299591 0.002397595 0.036362585 0.0024630586 0.03670314 0.99595362 -0.073266476
1099588679.2453 0.99689412 -0.075997114 0.0023950338 0.036692895 0.0024746582 0.037049621 0.99557054 -0.073872179
1109584905.6604 0.99706167 -0.076801986 0.0023913439 0.037024375 0.0025141556 0.037394743 0.99531972 -0.074415177
1119581132.0755 0.99697316 -0.07784687 0.0024799602 0.03736965 0.0025121896 0.037738144 0.99516904 -0.074899852
1129577358.4906 0.99680448 -0.078539133 0.0024880581 0.037758134 0.0025745332 0.038135197 0.99502897 -0.075432777
1139573584.9057 0.99656141 -0.079538077 0.0025311438 0.038083419 0.002609089 0.038439732 0.99511772 -0.076022834
1149569811.3208 0.99644005 -0.08043541 0.0026215145 0.038421679 0.0027220952 0.038812056 0.99523479 -0.076772109
1159566037.7358 0.99619746 -0.081054062 0.0026151184 0.038730435 0.0027202135 0.03907457 0.99537092 -0.077839285
1169562264.1509 0.99608618 -0.081787884 0.0026381295 0.039061561 0.0027227309 0.039424576 0.99519449 -0.078611404
1179558490.566 0.99601817 -0.082469478 0.0026375479 0.039406624 0.0027848931 0.039792761 0.99504882 -0.079324804
1189554716.9811 0.99607849 -0.083218008 0.0026988769 0.039793547 0.0028184159 0.040144257 0.99472737 -0.079799652
1199550943.3962 0.9959501 -0.084038645 0.0027385578 0.040151279 0.0028450601 0.040458195 0.99455905 -0.080269068
1209547169.8113 0.99572068 -0.084993809 0.0027934536 0.040483836 0.0029358752 0.040836077 0.99458992 -0.080588475
1219543396.2264 0.99555326 -0.085805386 0.0028146016 0.040818755 0.0029750736 0.041191585 0.99452943 -0.08100602
1229539622.6415 0.99529421 -0.086691111 0.0029273648 0.041156963 0.0030060336 0.041535884 0.99472797 -0.081749558
1239535849.0566 0.99503613 -0.087297261 0.0029651336 0.041461274 0.0031043207 0.041826021 0.99477953 -0.082677454
1249532075.4717 0.99476796 -0.087958366 0.0030003809 0.041806679 0.003181712 0.042168789 0.99462146 -0.083459146
1259528301.8868 0.99455649 -0.088541567 0.0030755885 0.042142309 0.0032574944 0.042481411 0.99433053 -0.08438018
1269524528.3019 0.99434143 -0.089219451 0.0031510722 0.042448293 0.0032695141 0.042799667 0.99408549 -0.085012883
1279520754.717 0.99404305 -0.090007469 0.003197754 0.042744491 0.0033382087 0.043038815 0.99385065 -0.085604914
1289516981.1321 0.99385631 -0.090847403 0.0032238998 0.043016296 0.0033432171 0.043382589 0.99395299 -0.085996658
1299513207.5472 0.99356163 -0.091586709 0.0032481272 0.043344006 0.0033779815 0.043710448 0.99400866 -0.086431354
1309509433.9623 0.99309283 -0.092320532 0.0032594418 0.043695532 0.0034036785 0.044001751 0.99414563 -0.08714579
1319505660.3774 0.99271721 -0.093113735 0.0032543531 0.044009663 0.003390817 0.044358306 0.99416661 -0.087769225
1329501886.7925 0.99236411 -0.093755186 0.0032828506 0.044361539 0.0034341756 0.044660121 0.99421638 -0.088712513
1339498113.2075 0.99207127 -0.09423089 0.0032891016 0.044697475 0.0034634322 0.04495791 0.99374276 -0.089484215
1349494339.6226 0.991965 -0.094878636 0.0032797987 0.045034885 0.0034268275 0.045341056 0.99343419 -0.090132408
1359490566.0377 0.9918623 -0.095478028 0.0033100639 0.045386381 0.0034390055 0.045674078 0.99313664 -0.090634942
1369486792.4528 0.9916169 -0.096020848 0.0033305967 0.045745142 0.0034530759 0.046016738 0.99301243 -0.091131568
1379483018.8679 0.9913196 -0.09658777 0.0033725186 0.046131045 0.0034210777 0.046384901 0.99296629 -0.091367237
1389479245.283 0.99087894 -0.097131431 0.0034093168 0.046487961 0.0034737382 0.046788368 0.99304479 -0.092213571
1399475471.6981 0.99049044 -0.097509235 0.0034295861 0.04687199 0.0035172552 0.047150686 0.99324965 -0.09285903
1409471698.1132 0.99029642 -0.097788885 0.0034384581 0.04726401 0.0035682777 0.047522202 0.99320543 -0.093610786
1419467924.5283 0.99007052 -0.098159701 0.0034852205 0.047614574 0.0035705213 0.047924399 0.9930625 -0.094278753
1429464150.9434 0.989896 -0.09858045 0.0035183337 0.04804007 0.0036153663 0.048337594 0.99287534 -0.094870597
1439460377.3585 0.98999923 -0.099083856 0.0035963366 0.048487432 0.0036810217 0.04875407 0.99263287 -0.095319599
1449456603.7736 0.99004871 -0.099644274 0.0037150243 0.048931416 0.003784881 0.04914112 0.99253386 -0.09557046
1459452830.1887 0.99009097 -0.10034865 0.003882356 0.04931137 0.0039238464 0.049555205 0.99264216 -0.095907897
1469449056.6038 0.99007177 -0.10110494 0.0040180348 0.049642522 0.0040853247 0.049903829 0.99289531 -0.096667528
1479445283.0189 0.98995513 -0.10167632 0.0041290121 0.049945921 0.0042023496 0.05021875 0.99290955 -0.097568855
1489441509.434 0.98990196 -0.10217327 0.0042540953 0.050253984 0.0043533035 0.05056531 0.99278665 -0.098465532
1499437735.8491 0.98967308 -0.10252747 0.0043727867 0.050509486 0.0044312235 0.050811715 0.99270064 -0.0992679
1509433962.2642 0.9896912 -0.10293917 0.0044715405 0.050805364 0.0045346669 0.051104642 0.99253851 -0.09991926
1519430188.6792 0.9898169 -0.10356453 0.0045585148 0.051079985 0.0045896396 0.051377662 0.99232793 -0.1004754
1529426415.0943 0.98979127 -0.10423875 0.0046006218 0.051385634 0.0046305619 0.051684238 0.99229062 -0.10087585
1539422641.5094 0.98976123 -0.10500149 0.0046213549 0.051679686 0.0046959682 0.051998481 0.99239725 -0.10138906
1549418867.9245 0.98963678 -0.10584249 0.0047242139 0.051947463 0.0047472846 0.052279562 0.99262601 -0.10221162
1559415094.3396 0.98952591 -0.10653266 0.0048015378 0.052260734 0.0047645569 0.052556239 0.99271578 -0.10280299
1569411320.7547 0.98939395 -0.1073399 0.0048184711 0.052521255 0.0047748853 0.052890491 0.9926163 -0.10362338
1579407547.1698 0.98929381 -0.10778552 0.0048337523 0.052804306 0.0048598191 0.053130437 0.99226785 -0.10442549
1589403773.5849 0.98923486 -0.10833111 0.0048578307 0.053102035 0.004882222 0.053470694 0.99209654 -0.1051974
1599400000 0.9891929 -0.1087935 0.0048170146 0.053391084 0.0048364084 0.053784009 0.99165523 -0.10567057
1609396226.4151 0.98912579 -0.10939603 0.004838299 0.053758331 0.0048513585 0.054153427 0.99147987 -0.10613787
1619392452.8302 0.98908943 -0.11007431 0.004860146 0.054091513 0.0048351511 0.054491617 0.99142683 -0.10662746
1629388679.2453 0.98890322 -0.1107609 0.0048748069 0.054443061 0.0048604775 0.054853223 0.99174881 -0.1071071
1639384905.6604 0.9886421 -0.11147418 0.0048583122 0.054786485 0.0048515187 0.055236936 0.99195623 -0.10803312
1649381132.0755 0.98844171 -0.11216849 0.0048836935 0.055141173 0.0048933662 0.055596862 0.99190253 -0.10894293
1659377358.4906 0.98820764 -0.11288989 0.004896434 0.055531185 0.0049042534 0.05598975 0.99190587 -0.10986632
1669373584.9057 0.98816866 -0.11334468 0.0049685598 0.055922039 0.004951545 0.056372479 0.99156672 -0.11042274
1679369811.3208 0.98819661 -0.11413419 0.0049743541 0.056311511 0.0050131604 0.056741651 0.99134451 -0.11093011
1689366037.7358 0.98822832 -0.11461508 0.0050248336 0.056727745 0.0050440244 0.057150558 0.99117279 -0.11120391
1699362264.1509 0.98836946 -0.11517514 0.0051023737 0.057104003 0.0051235911 0.05751301 0.99133617 -0.11169806
1709358490.566 0.98830968 -0.1159685 0.0051759398 0.057412937 0.0051466525 0.057923347 0.9914065 -0.11238633
1719354716.9811 0.98793566 -0.11661333 0.005256867 0.057853941 0.0052284449 0.05830095 0.99141252 -0.11298487
1729350943.3962 0.98767906 -0.11715147 0.0053004194 0.058218502 0.0053219423 0.058663122 0.99139923 -0.11382151
