!Keysight Technologies,N5222B,MY61253708,A.15.00.15
!Date: Wednesday, June 19, 2024 09:02:11
!Correction: S11(C  2-Port  ) 
!S21(C  2-Port  ) 
!S12(C  2-Port  ) 
!S22(C  2-Port  ) 
!S2P File: Measurements: S11, S21, S12, S22:
# Hz S  RI   R 50
10000000 0.99871671 -0.00228706 0.00027770654 0.00094320287 -6.3329935e-007 0.00064862042 0.99836874 -0.00083363056
19996226.415094 0.99922824 -0.0021172762 -3.0884432e-005 0.00071579334 -2.6699272e-005 0.00081536372 0.99916553 -0.0021314323
29992452.830189 0.99996257 -0.0024900138 5.9980841e-005 0.0011343167 -6.8978232e-005 0.00105761 0.99953407 -0.0027133822
39988679.245283 1.0000954 -0.0031068623 2.0090374e-005 0.0014175257 -2.5093963e-005 0.001421444 0.99962223 -0.0031307936
49984905.660377 1.0002273 -0.0038580298 2.1037122e-005 0.0018150737 4.0991232e-005 0.0017312176 0.99978143 -0.0038372576
59981132.075472 1.0003757 -0.0046971738 7.6708558e-005 0.0021582064 -3.7680729e-006 0.0021045511 0.99966371 -0.0043468475
69977358.490566 1.000106 -0.0053007603 -1.7635608e-005 0.0024971887 1.4895486e-006 0.0025089954 0.99963474 -0.0049303621
79973584.90566 0.99988973 -0.0058491826 1.4190678e-005 0.0028104943 5.0411327e-006 0.0028401858 0.99934506 -0.0054526031
89969811.320755 0.99986571 -0.006059736 2.742745e-005 0.003187763 3.7965714e-005 0.0031759609 0.99950492 -0.0057378411
99966037.735849 1.0000548 -0.006773591 2.0498992e-005 0.003521001 1.1796888e-005 0.0035421359 0.9995895 -0.0065434277
109962264.15094 1.0001323 -0.0077020526 2.0794803e-005 0.0038709727 4.54564e-005 0.0039290069 0.99953914 -0.0074086487
119958490.56604 1.0001516 -0.0087767243 4.2977277e-005 0.0042249942 3.2889191e-005 0.0042617829 0.99956834 -0.0083313882
129954716.98113 1.0001254 -0.0098091364 4.3632113e-005 0.0045916685 6.4973603e-005 0.0046325182 0.99961454 -0.0092929304
139950943.39623 0.9999848 -0.010639358 4.032132e-005 0.0049354043 4.8290545e-005 0.0049469657 0.99947965 -0.010041244
149947169.81132 0.99986571 -0.011375844 5.2320305e-005 0.0052959132 6.2275678e-005 0.0053213043 0.99944657 -0.010668159
159943396.22642 0.99983007 -0.011854768 6.2552514e-005 0.0056396406 6.9728121e-005 0.0056931111 0.99950278 -0.011124045
169939622.64151 0.99984193 -0.012238279 8.7475113e-005 0.0059999144 8.5323991e-005 0.0060267709 0.99957848 -0.011596672
179935849.0566 0.99989855 -0.012545615 0.00011674257 0.0063542058 8.8398927e-005 0.0063810083 0.99955165 -0.01202035
189932075.4717 1.0000616 -0.01336959 8.8460743e-005 0.0067122681 9.0478221e-005 0.0067699854 0.99967492 -0.012611866
199928301.88679 1.000007 -0.014211386 7.3023839e-005 0.0070588784 9.7688055e-005 0.0071137603 0.99958807 -0.013547599
209924528.30189 0.99974668 -0.014903083 0.0001231269 0.0074242135 0.0001099857 0.0074268105 0.99938887 -0.014318109
219920754.71698 0.99969494 -0.015814483 0.00013775006 0.0077520586 0.00014270609 0.0078072967 0.9992286 -0.015011638
229916981.13208 0.99938768 -0.016713321 0.00012979517 0.008128575 0.00013111648 0.0081912484 0.99911553 -0.015853226
239913207.54717 0.99930936 -0.017377326 0.00015671746 0.0084549095 0.00016307291 0.0085165352 0.99906766 -0.01655592
249909433.96226 0.99935597 -0.018054634 0.00016598427 0.0088215936 0.00016345782 0.0088876784 0.99918234 -0.017196685
259905660.37736 0.99946439 -0.018607885 0.00019263569 0.0091798343 0.00018331176 0.0092319129 0.99947661 -0.017795801
269901886.79245 0.99963534 -0.019236937 0.0001913507 0.0094661452 0.00015891274 0.0095974542 0.99969316 -0.018584445
279898113.20755 0.99978238 -0.020081252 0.00020008907 0.0099283922 0.00020372518 0.0099281985 0.99960661 -0.019297183
289894339.62264 0.99977648 -0.02077207 0.00023473054 0.010289449 0.00023038406 0.010292882 0.99952435 -0.02005443
299890566.03774 0.99962795 -0.021439493 0.00023266324 0.010608634 0.00023409026 0.01064606 0.99928188 -0.020574689
309886792.45283 0.9993363 -0.021987937 0.00024438452 0.010931266 0.00027457636 0.011005674 0.9991312 -0.021073349
319883018.86792 0.99928594 -0.022637933 0.00025329599 0.011254879 0.00026779482 0.011366734 0.99918139 -0.021607608
329879245.28302 0.99922645 -0.023279399 0.00026262971 0.011628143 0.00025919359 0.011704586 0.99925256 -0.022363365
339875471.69811 0.99918836 -0.024109066 0.00029942067 0.01195487 0.00029055623 0.012095764 0.99912357 -0.023110762
349871698.11321 0.9994272 -0.024966121 0.00030242419 0.012280038 0.00032608653 0.012430898 0.99924225 -0.024100065
359867924.5283 0.99937677 -0.025753975 0.00032115588 0.012675218 0.00035541086 0.012771105 0.99921012 -0.024975389
369864150.9434 0.99957848 -0.026547849 0.00039130799 0.013047458 0.00035910285 0.013088133 0.99924177 -0.02579686
379860377.35849 0.9993667 -0.027465433 0.00038038171 0.013350592 0.00036837975 0.013446259 0.99917054 -0.026446775
389856603.77358 0.99931043 -0.028016716 0.00039739953 0.01371696 0.0003645001 0.013796169 0.99913454 -0.026952922
399852830.18868 0.99904871 -0.02855128 0.00038767792 0.014092229 0.00038045086 0.014219533 0.99914187 -0.027346849
409849056.60377 0.9990136 -0.029006867 0.00042640665 0.014416926 0.00043237113 0.014547955 0.99918962 -0.027872633
419845283.01887 0.99900526 -0.029421717 0.00042349799 0.01481322 0.00044721831 0.014912933 0.99924767 -0.028462917
429841509.43396 0.99905759 -0.030188173 0.00049070176 0.015137642 0.00048027933 0.01521017 0.99931276 -0.029257923
439837735.84906 0.99898171 -0.03108184 0.0005304747 0.015494127 0.0005366921 0.015605758 0.9992165 -0.030226678
449833962.26415 0.99901843 -0.031943142 0.00047987979 0.015793733 0.00052104052 0.015931427 0.99884355 -0.031036913
459830188.67925 0.99888337 -0.032748431 0.00057323091 0.016167888 0.00052686781 0.016256224 0.99864042 -0.03189832
469826415.09434 0.99874479 -0.033591211 0.00054382952 0.016548557 0.00052557094 0.016618546 0.9983995 -0.032543659
479822641.50943 0.9986763 -0.034234524 0.00057811895 0.016890114 0.00054475968 0.017023649 0.99843383 -0.032982208
489818867.92453 0.99870491 -0.034748584 0.00059151649 0.017252294 0.00062972121 0.017344866 0.99880761 -0.033611715
499815094.33962 0.99882793 -0.035228521 0.00065083802 0.017545193 0.00063777342 0.017694848 0.9990412 -0.034240752
509811320.75472 0.99895638 -0.035707515 0.000671922 0.017949209 0.00064605632 0.018001383 0.99929488 -0.03513179
519807547.16981 0.99898124 -0.03638944 0.00067634834 0.018265296 0.00064182281 0.018390156 0.99922717 -0.035941601
529803773.58491 0.99885726 -0.037024438 0.00067646429 0.018590976 0.00069575198 0.01870832 0.99884844 -0.036544383
539800000 0.99893618 -0.037834257 0.00069866399 0.01901957 0.00070477533 0.019143613 0.9987253 -0.037222534
549796226.41509 0.99859792 -0.038728237 0.00075526023 0.019347979 0.00072867377 0.019451393 0.99847376 -0.03779453
559792452.83019 0.99845898 -0.039438665 0.00077940989 0.019684343 0.00075361878 0.019816123 0.99841392 -0.038303673
569788679.24528 0.99826282 -0.040127754 0.00080296351 0.02002139 0.00078259734 0.020187443 0.99848169 -0.039053828
579784905.66038 0.99825215 -0.040734544 0.00079452293 0.02040456 0.00082252547 0.020549484 0.99869978 -0.039829604
589781132.07547 0.99835086 -0.041356623 0.00090816244 0.020726658 0.0008824924 0.020909486 0.99883723 -0.040686131
599777358.49057 0.99856573 -0.042070299 0.00089702196 0.021115376 0.00093017612 0.021241894 0.99887329 -0.041598409
609773584.90566 0.99869359 -0.042871825 0.00092219876 0.021454219 0.0009415028 0.021606609 0.99861807 -0.04255249
619769811.32075 0.99877244 -0.043587208 0.0009823544 0.021779625 0.00098688249 0.021936852 0.99853629 -0.043055743
629766037.73585 0.99855912 -0.044292599 0.0010567196 0.022087522 0.0010452224 0.022248354 0.99836612 -0.04349485
639762264.15094 0.99838072 -0.044900909 0.0010358663 0.022405569 0.0010577848 0.022579445 0.99816018 -0.044025168
649758490.56604 0.99821144 -0.045550838 0.0010071113 0.022778569 0.0010607657 0.022941021 0.99822712 -0.04449974
659754716.98113 0.99798608 -0.046010196 0.0010214644 0.023123918 0.001068498 0.02332758 0.99829316 -0.045073688
669750943.39623 0.99809557 -0.046513736 0.0011122078 0.023515422 0.0010863803 0.023664655 0.99840426 -0.045956403
679747169.81132 0.99799693 -0.047319233 0.0011269586 0.023875065 0.0011209084 0.024006102 0.99835157 -0.046876103
689743396.22642 0.99823797 -0.048154593 0.0011946661 0.024222765 0.0012047878 0.024388928 0.9981572 -0.047835439
699739622.64151 0.99834764 -0.049032837 0.001222726 0.024587711 0.0012167227 0.024732178 0.99809778 -0.048534632
709735849.0566 0.99829429 -0.049920022 0.0012967905 0.024908248 0.0012797901 0.025053324 0.99779457 -0.049223416
719732075.4717 0.99824524 -0.050690949 0.0012963256 0.025263226 0.0013289237 0.025438279 0.99787307 -0.049811721
729728301.88679 0.99812341 -0.051237255 0.0013337638 0.025559526 0.0013504904 0.025787584 0.99789321 -0.05025512
739724528.30189 0.99804235 -0.051852509 0.001393212 0.025911808 0.0013453267 0.026099538 0.99810594 -0.05095017
749720754.71698 0.99782348 -0.052377641 0.0014075362 0.026239742 0.0013971543 0.02645142 0.9982 -0.051637992
759716981.13208 0.99798834 -0.052848905 0.0014641918 0.026561249 0.0014179256 0.026817467 0.99811018 -0.052498609
769713207.54717 0.99782056 -0.053622067 0.001502973 0.026932618 0.0014807573 0.027160203 0.99780619 -0.053144217
779709433.96226 0.99800378 -0.054223701 0.0014948704 0.027314452 0.0014950953 0.027495483 0.99755013 -0.053850487
789705660.37736 0.99788707 -0.055341184 0.0015680343 0.027614595 0.001595119 0.027851632 0.99733436 -0.0545744
799701886.79245 0.99780595 -0.05609718 0.0016027121 0.027962532 0.0015790174 0.028160535 0.99715006 -0.0552544
809698113.20755 0.99770302 -0.056771323 0.0016118488 0.028285902 0.0016256045 0.028514832 0.9972418 -0.055698514
819694339.62264 0.99762338 -0.05750984 0.0016749045 0.028643925 0.0016415636 0.02887175 0.99734432 -0.056345671
829690566.03774 0.99758482 -0.058067501 0.0016851583 0.028995883 0.0016844869 0.029211905 0.99768645 -0.057241797
839686792.45283 0.99759626 -0.058503538 0.0017016372 0.029327568 0.0016943347 0.029563388 0.99771333 -0.058112413
849683018.86792 0.99768156 -0.05917865 0.0017414805 0.029689219 0.0017475225 0.029910324 0.9975552 -0.058891423
859679245.28302 0.99775922 -0.0598979 0.0017761933 0.030044083 0.0018216493 0.03026058 0.99729139 -0.059580892
869675471.69811 0.99765217 -0.060741127 0.0018544067 0.030384997 0.0018660128 0.030627413 0.99690253 -0.060095072
879671698.11321 0.99753416 -0.06140317 0.0019092367 0.030693326 0.0019051726 0.030922061 0.99687231 -0.060619965
889667924.5283 0.9973284 -0.062309653 0.0018888069 0.031013422 0.0019204058 0.031276457 0.99673218 -0.061074674
899664150.9434 0.99715519 -0.062980056 0.0019533634 0.031345055 0.001985102 0.031608712 0.99680334 -0.06178534
909660377.35849 0.99712294 -0.063687742 0.0019661877 0.031689771 0.0019788831 0.031937599 0.9969219 -0.06267646
919656603.77358 0.99721748 -0.064400464 0.0020114742 0.032056428 0.0020061852 0.032323416 0.99695241 -0.063628495
929652830.18868 0.99721134 -0.065131396 0.002059768 0.032368533 0.0020778636 0.032624546 0.9968093 -0.064537048
939649056.60377 0.99744648 -0.065765619 0.0020737713 0.032724287 0.0020541465 0.032974791 0.99661267 -0.065271169
949645283.01887 0.99734026 -0.066573724 0.002047847 0.033063926 0.0020847325 0.033320632 0.99641621 -0.065854043
959641509.43396 0.99725997 -0.06731534 0.0020880606 0.033464685 0.0021289047 0.033706419 0.99627805 -0.066302955
969637735.84906 0.99713516 -0.068044573 0.0021382095 0.033814657 0.0021954784 0.03410415 0.99636465 -0.066735297
979633962.26415 0.99694574 -0.068740398 0.0022356142 0.034119807 0.0022357423 0.034397755 0.99635547 -0.067436554
989630188.67925 0.99697417 -0.069413602 0.0022691684 0.034461174 0.0022767438 0.034768354 0.99655938 -0.068067819
999626415.09434 0.99706376 -0.070007503 0.0022902004 0.034837119 0.0022996608 0.035116486 0.99642479 -0.068940163
1009622641.5094 0.99702239 -0.070704252 0.0023135571 0.035187673 0.0023596417 0.035461202 0.99619287 -0.069803506
1019618867.9245 0.99710822 -0.071627557 0.0023591453 0.035545703 0.0024210331 0.035809383 0.9960019 -0.07066077
1029615094.3396 0.99713576 -0.072594792 0.0024622753 0.035886839 0.0024902932 0.036140952 0.99557227 -0.071268022
1039611320.7547 0.99714577 -0.073474139 0.0025061648 0.036184341 0.0025109574 0.036460046 0.99555647 -0.071940035
1049607547.1698 0.99694669 -0.074370891 0.0025239452 0.036494486 0.0025620812 0.036780771 0.99548972 -0.072560504
1059603773.5849 0.99683213 -0.075064331 0.0025646631 0.036816183 0.0025740126 0.037104122 0.99554467 -0.073149532
1069600000 0.9965778 -0.075730979 0.0025691818 0.037140265 0.0026228335 0.037461985 0.9956544 -0.073836714
1079596226.4151 0.99655092 -0.076409653 0.0025785733 0.037498131 0.0026372289 0.037772391 0.99567914 -0.074657194
1089592452.8302 0.99648708 -0.077086449 0.0026161876 0.037824996 0.0027025575 0.038159497 0.99557054 -0.075402737
1099588679.2453 0.99654078 -0.07771346 0.0026100483 0.038207233 0.0027097575 0.03852284 0.99523497 -0.076056004
1109584905.6604 0.9967249 -0.078543529 0.0027017612 0.03854385 0.0027368916 0.03885724 0.99498063 -0.076699317
1119581132.0755 0.99668735 -0.079507045 0.002679009 0.038909663 0.0027541821 0.039247837 0.99478102 -0.077104762
1129577358.4906 0.99643254 -0.080466777 0.0027210359 0.039273474 0.0027988311 0.039607756 0.9946897 -0.077583551
1139573584.9057 0.99619573 -0.08137849 0.0027839458 0.039632153 0.0028335731 0.039951697 0.99477684 -0.078222871
1149569811.3208 0.99605298 -0.082307816 0.0028407706 0.039985504 0.0029267285 0.040312063 0.99489683 -0.07900469
1159566037.7358 0.99579281 -0.082988173 0.0029032808 0.040298056 0.0029836688 0.040604632 0.99498165 -0.080078125
1169562264.1509 0.99563587 -0.083549887 0.0029113982 0.040607642 0.0029901527 0.04094813 0.99477762 -0.080901474
1179558490.566 0.9956677 -0.084304094 0.0029053143 0.041027352 0.0030306983 0.041352388 0.99460942 -0.081619151
1189554716.9811 0.99567056 -0.084976137 0.002970784 0.041377619 0.0030908883 0.041688833 0.99431664 -0.082129151
1199550943.3962 0.99553961 -0.085956782 0.0030121543 0.041748006 0.0031622052 0.042047389 0.99416924 -0.082592577
1209547169.8113 0.9953984 -0.086843088 0.0030795773 0.042065714 0.0031892769 0.042398591 0.99409556 -0.082929641
1219543396.2264 0.99513251 -0.087715633 0.0031259404 0.042467397 0.0032254523 0.042781178 0.99418163 -0.083358511
1229539622.6415 0.99482495 -0.088542253 0.0032365657 0.042804807 0.0033014715 0.04315386 0.99432313 -0.084082842
1239535849.0566 0.99466383 -0.089287877 0.0032751337 0.043128878 0.0033863969 0.04345455 0.99433899 -0.085078388
1249532075.4717 0.99429154 -0.089941248 0.0033185759 0.043484706 0.0034688199 0.043780364 0.99417722 -0.0858858
1259528301.8868 0.99406308 -0.090464354 0.0033991095 0.043846939 0.0035423599 0.044136848 0.9939363 -0.086819738
1269524528.3019 0.99388117 -0.091239572 0.0034791809 0.044157635 0.0036172792 0.044439562 0.99364167 -0.087560445
1279520754.717 0.99352968 -0.09195298 0.0035398307 0.044444226 0.0036316223 0.044736728 0.99340963 -0.088145286
1289516981.1321 0.99347585 -0.092809796 0.0035457015 0.044768993 0.003654521 0.045048665 0.9934721 -0.088567555
1299513207.5472 0.99307418 -0.093678862 0.0035229102 0.04509946 0.0036563929 0.045372296 0.99356836 -0.088952065
1309509433.9623 0.99265057 -0.094380185 0.00360029 0.045449812 0.0037281848 0.045693815 0.99369931 -0.089688718
1319505660.3774 0.99218136 -0.095169872 0.0035904981 0.045787826 0.003726487 0.046061791 0.99368483 -0.090386644
1329501886.7925 0.99185324 -0.095780641 0.0036134329 0.046154939 0.003730081 0.04637856 0.99368888 -0.091330081
1339498113.2075 0.99157512 -0.09638235 0.0036445595 0.046449505 0.0038126102 0.046729762 0.99327987 -0.092072994
1349494339.6226 0.99132425 -0.096906468 0.003603904 0.046815086 0.0037496346 0.0470866 0.99285609 -0.092663385
1359490566.0377 0.99132478 -0.097572714 0.0036595762 0.047173627 0.0037738271 0.047456782 0.99263293 -0.093263686
1369486792.4528 0.9911533 -0.098072141 0.0036466196 0.047560249 0.0037856717 0.047818854 0.99249774 -0.093735546
1379483018.8679 0.99082464 -0.098714486 0.0036831475 0.047978651 0.0037857681 0.048171423 0.99248689 -0.094045818
1389479245.283 0.99051845 -0.099285066 0.0037379842 0.048366331 0.0038343593 0.048550434 0.99247545 -0.094818801
1399475471.6981 0.98999941 -0.099728435 0.0037754141 0.048725929 0.0038360488 0.048975457 0.99267685 -0.095528483
1409471698.1132 0.98969054 -0.099987261 0.0038155133 0.049093898 0.0038964045 0.049369957 0.99263108 -0.096384846
1419467924.5283 0.98945343 -0.1002728 0.0038380818 0.049525827 0.003927255 0.049761683 0.99249011 -0.097053766
1429464150.9434 0.98936772 -0.10077289 0.0039001778 0.049933545 0.004005665 0.05018536 0.9923315 -0.097639114
1439460377.3585 0.9895947 -0.10118745 0.0039621266 0.050453592 0.0040303972 0.05066403 0.99215084 -0.097979471
1449456603.7736 0.98960775 -0.10181862 0.0040702811 0.050832052 0.0041710818 0.051029298 0.99188352 -0.098364785
1459452830.1887 0.98958308 -0.10259467 0.0042244047 0.051264592 0.0042766333 0.05147855 0.99206173 -0.098747998
1469449056.6038 0.98964524 -0.10322541 0.00441535 0.051615465 0.0044259913 0.051822614 0.99227327 -0.099334508
1479445283.0189 0.989416 -0.10390235 0.0045004645 0.051900867 0.0045732576 0.052147221 0.9923082 -0.10037898
1489441509.434 0.98927283 -0.10440749 0.0046770014 0.052204557 0.0047152229 0.052479327 0.99214643 -0.10122523
1499437735.8491 0.98914009 -0.10474747 0.0048105419 0.052510388 0.0048124325 0.052774884 0.99205846 -0.10208154
1509433962.2642 0.98907584 -0.10533336 0.0049068984 0.052821647 0.0049328664 0.05307696 0.99183738 -0.10284767
1519430188.6792 0.98921543 -0.10578138 0.0049679819 0.053130351 0.0049739778 0.053369515 0.99163491 -0.10338673
1529426415.0943 0.98922712 -0.10650441 0.005024856 0.053410094 0.0050157197 0.053632721 0.99160457 -0.10383672
1539422641.5094 0.98917997 -0.10727172 0.0050546597 0.053753432 0.005094097 0.054019187 0.99175602 -0.10433614
1549418867.9245 0.98907769 -0.10821243 0.0051733674 0.054021355 0.0051697195 0.054264504 0.99189764 -0.10506566
1559415094.3396 0.98889279 -0.10882759 0.0052290671 0.054326512 0.0052239988 0.054609321 0.99208248 -0.10575625
1569411320.7547 0.98876333 -0.10963511 0.0052779084 0.054597992 0.0052702595 0.054926246 0.99188447 -0.10660627
1579407547.1698 0.98858857 -0.11027704 0.0052779168 0.054927971 0.0053146584 0.055215765 0.99162853 -0.10739505
1589403773.5849 0.98862547 -0.11078525 0.0052939635 0.055192038 0.0053216051 0.055516623 0.99130595 -0.10815617
1599400000 0.98853749 -0.1112479 0.0052929446 0.055554762 0.0053137243 0.055824529 0.99087524 -0.10872594
1609396226.4151 0.98853546 -0.11196092 0.0053228503 0.055896014 0.0052745161 0.056226365 0.99075222 -0.10917197
1619392452.8302 0.9885242 -0.11254016 0.0053494871 0.056206342 0.0052584279 0.056557164 0.99068737 -0.1096282
1629388679.2453 0.98825443 -0.11328316 0.0053077079 0.056550317 0.0052928589 0.05693569 0.99092472 -0.11017841
1639384905.6604 0.98798662 -0.11400372 0.0053732772 0.056967229 0.0053252322 0.057308111 0.99123418 -0.1110553
1649381132.0755 0.98786896 -0.11471102 0.0053964574 0.057323169 0.0053498708 0.057742737 0.9911263 -0.11199158
1659377358.4906 0.98760623 -0.11557847 0.0054273177 0.057755645 0.0054022558 0.058094069 0.99104118 -0.1129601
1669373584.9057 0.98754466 -0.11588895 0.0054524466 0.058134094 0.0054388354 0.05851911 0.99080187 -0.11363816
1679369811.3208 0.9876371 -0.11663008 0.0055083837 0.058524523 0.0054843668 0.058895465 0.99051142 -0.11402038
1689366037.7358 0.98755717 -0.11733267 0.0055491664 0.058930494 0.0055522155 0.059333675 0.99035656 -0.11449015
1699362264.1509 0.9878031 -0.11791767 0.0056425733 0.059308369 0.0056042494 0.059724163 0.99057329 -0.11495195
1709358490.566 0.98759943 -0.11861722 0.005660506 0.059702616 0.0056566466 0.060146254 0.99057096 -0.11549443
1719354716.9811 0.9872576 -0.11912557 0.005756719 0.060115561 0.0057469252 0.060506321 0.9906528 -0.11618707
1729350943.3962 0.98703295 -0.11984301 0.0059074815 0.060483448 0.0058296993 0.060934335 0.99065441 -0.1170963
