!Keysight Technologies,N5222B,MY61253708,A.15.00.15
!Date: Wednesday, June 19, 2024 09:53:52
!Correction: S11(C  2-Port  ) 
!S21(C  2-Port  ) 
!S12(C  2-Port  ) 
!S22(C  2-Port  ) 
!S2P File: Measurements: S11, S21, S12, S22:
# Hz S  RI   R 50
10000000 0.99858123 -0.0028018653 -1.4723089e-005 0.00016712029 -3.105792e-005 0.00052597607 0.99860787 -0.0011301935
19996226.415094 0.9997685 -0.0035189092 -7.218594e-005 0.00072934292 6.6514564e-005 0.00072383822 1.0004101 -0.0033228695
29992452.830189 0.99964786 -0.0024487376 -4.5922963e-005 0.0010508045 -3.1072763e-005 0.0010195086 0.99953061 -0.0027462542
39988679.245283 1.0000621 -0.0029966235 4.6029818e-005 0.0013183872 6.7383808e-006 0.0013437576 0.99971277 -0.0031168163
49984905.660377 1.0001411 -0.003663063 -1.819554e-005 0.0016656662 8.2114711e-006 0.001684055 0.99989378 -0.003646791
59981132.075472 1.0003896 -0.0045351386 -3.3851655e-005 0.0019483499 1.4004414e-005 0.0020461024 0.99988127 -0.0041917264
69977358.490566 1.0001321 -0.0051417425 -2.4878271e-005 0.0022589208 -6.0888124e-007 0.0023099214 0.99973732 -0.0046994537
79973584.90566 0.999883 -0.0057455301 -2.128561e-005 0.0026179291 1.2301723e-005 0.0026389782 0.99941802 -0.0052033067
89969811.320755 0.99997175 -0.005857408 1.9739848e-005 0.0029455135 2.1058717e-005 0.0029815098 0.99963099 -0.0054374039
99966037.735849 1.0001653 -0.0066451877 3.8812053e-005 0.0032984281 2.054678e-005 0.0032960146 0.99973124 -0.0062570572
109962264.15094 1.0001609 -0.0075070411 2.1564949e-005 0.0036470622 3.8052152e-005 0.0036479104 0.99972391 -0.0070497841
119958490.56604 1.0001712 -0.0083711445 4.6653673e-005 0.0039720517 4.3019652e-005 0.0039720619 0.99973774 -0.0078807175
129954716.98113 1.0000982 -0.00933671 3.6673155e-005 0.0042862822 6.7018205e-005 0.0043120603 0.99975026 -0.0087720454
139950943.39623 1.0000514 -0.010123121 4.3875771e-005 0.0046001128 2.9661431e-005 0.0046400772 0.9996435 -0.0094680153
149947169.81132 0.9999333 -0.010837615 6.2828185e-005 0.0049595204 5.6371326e-005 0.0049796724 0.9996199 -0.010112852
159943396.22642 0.99992448 -0.011361927 6.6571403e-005 0.0052846395 5.8996491e-005 0.0053171995 0.99971581 -0.010560691
169939622.64151 0.99985117 -0.011787504 5.9055223e-005 0.0056076501 6.8030204e-005 0.0056557641 0.99974692 -0.010999583
179935849.0566 0.99991226 -0.012067318 9.9097611e-005 0.0059544863 9.0728281e-005 0.0059928913 0.99965429 -0.011368811
189932075.4717 1.0000199 -0.012827277 9.1759488e-005 0.0062681697 8.1712846e-005 0.0062959809 0.99983233 -0.011943549
199928301.88679 0.99999332 -0.013672173 8.7366439e-005 0.0066023413 9.9989935e-005 0.0066341609 0.9997533 -0.012777686
209924528.30189 0.99974453 -0.014149278 8.087582e-005 0.0069261263 8.1283855e-005 0.0069821947 0.99953461 -0.013459429
219920754.71698 0.99985611 -0.014975995 0.00012273085 0.0072859731 0.00011824491 0.0072847642 0.99943125 -0.014105678
229916981.13208 0.99968046 -0.015862733 0.00010534213 0.0075891851 0.00011536223 0.0076297335 0.99941814 -0.014887482
239913207.54717 0.99955118 -0.016578874 0.00013010205 0.0079126805 0.00014356842 0.0079606604 0.99939388 -0.015598329
249909433.96226 0.99956834 -0.017185092 0.00015299045 0.0082275728 0.00012332038 0.0083022276 0.9994725 -0.016210526
259905660.37736 0.99963683 -0.017762989 0.00013247086 0.0085740369 0.00010498241 0.0085665016 0.99964201 -0.016786456
269901886.79245 0.99977303 -0.018444493 0.00017179747 0.0089207198 0.00018189743 0.008965102 0.99988818 -0.017448515
279898113.20755 0.99993181 -0.019092634 9.5464755e-005 0.0092359865 0.00019173045 0.0092808455 0.99981034 -0.018184602
289894339.62264 0.99979496 -0.019840658 0.0001863935 0.0095707309 0.00018448243 0.0096036699 0.99968225 -0.018830836
299890566.03774 0.99974978 -0.020371348 0.00020378432 0.0098998183 0.00017423742 0.0099321371 0.99949551 -0.019355714
309886792.45283 0.99957609 -0.020927176 0.00020472903 0.010225415 0.00019922166 0.010268335 0.99941039 -0.019805446
319883018.86792 0.99962926 -0.021547407 0.00025162147 0.010589128 0.00023308583 0.010614516 0.99960017 -0.020265043
329879245.28302 0.99960434 -0.02226004 0.0002374365 0.010872907 0.00024172291 0.010934566 0.99961156 -0.021055758
339875471.69811 0.99949783 -0.023040161 0.00027186307 0.011207758 0.00025466457 0.011259335 0.99957532 -0.021926008
349871698.11321 0.99964529 -0.023898393 0.00029702066 0.011558644 0.00024504727 0.011626591 0.99960786 -0.022788852
359867924.5283 0.99946779 -0.024611801 0.00031040283 0.011874728 0.00028930558 0.011952137 0.99955356 -0.023740828
369864150.9434 0.99965966 -0.02543664 0.00031422731 0.012241629 0.00029901741 0.012237069 0.99948877 -0.024377316
379860377.35849 0.99946308 -0.026147529 0.00030153943 0.012519037 0.00035687094 0.012608214 0.99945843 -0.025095746
389856603.77358 0.99934947 -0.026548773 0.00035104482 0.01285943 0.00032313168 0.012944538 0.99939895 -0.025608629
399852830.18868 0.99927318 -0.027275264 0.00036911713 0.013197689 0.00035839668 0.013284476 0.99942905 -0.026097894
409849056.60377 0.99921399 -0.027709387 0.0003618004 0.013488491 0.00038363907 0.013595855 0.99940747 -0.026616801
419845283.01887 0.99923277 -0.028128862 0.00037436001 0.013830128 0.00041261967 0.013921868 0.99938381 -0.027089506
429841509.43396 0.99925804 -0.028842062 0.00039082859 0.014169609 0.00038086297 0.014230251 0.99954724 -0.027872473
439837735.84906 0.99913764 -0.029746383 0.00042465958 0.01451335 0.00045466481 0.0145898 0.99928647 -0.028848112
449833962.26415 0.9990406 -0.030547291 0.00046529295 0.014794291 0.00047621923 0.014888706 0.99888366 -0.029635578
459830188.67925 0.99896407 -0.031210303 0.00045825727 0.015126438 0.00042709615 0.015213225 0.99859047 -0.030304015
469826415.09434 0.99896055 -0.031969279 0.00046291295 0.015496861 0.00043416535 0.015593139 0.99836302 -0.03080529
479822641.50943 0.99874848 -0.032583386 0.00048688008 0.015822018 0.00047174282 0.015933443 0.99846506 -0.031193867
489818867.92453 0.99893475 -0.033038199 0.00052016741 0.016145134 0.0005163746 0.01623534 0.99867213 -0.031696886
499815094.33962 0.99905926 -0.033711642 0.00052227406 0.016459636 0.00053677475 0.016575113 0.99894857 -0.032268226
509811320.75472 0.99903387 -0.034137689 0.00062418618 0.016795382 0.00058618537 0.016914491 0.99911255 -0.033076473
519807547.16981 0.9989934 -0.034691632 0.00061579794 0.017102264 0.00057759229 0.017223019 0.99907541 -0.03374505
529803773.58491 0.99897397 -0.035278678 0.00060176756 0.01741913 0.00057147257 0.01754453 0.99884009 -0.034314036
539800000 0.99903077 -0.035972625 0.00060349097 0.017752379 0.00060372613 0.017882895 0.99874473 -0.034976199
549796226.41509 0.99897021 -0.036819398 0.00060555106 0.018088028 0.00062928395 0.018225146 0.9986288 -0.035354644
559792452.83019 0.99866349 -0.037408412 0.00062773004 0.018454351 0.00068193488 0.01858337 0.99853587 -0.035907
569788679.24528 0.99859327 -0.038177788 0.00068539148 0.018769797 0.00069955923 0.018838514 0.99871904 -0.036669195
579784905.66038 0.99855703 -0.0386969 0.00073300442 0.019121759 0.00068160542 0.019203773 0.99885017 -0.037315242
589781132.07547 0.99862969 -0.039335549 0.00075154006 0.019450163 0.00074165221 0.019528748 0.99892318 -0.038209021
599777358.49057 0.99879974 -0.040062815 0.00074719917 0.019749667 0.00075167138 0.019884858 0.99889767 -0.038948715
609773584.90566 0.99884051 -0.040755026 0.00081850647 0.020127464 0.00077804853 0.020205606 0.99877191 -0.039806679
619769811.32075 0.99894702 -0.041460693 0.0008428311 0.020429349 0.00085888105 0.020477137 0.99883115 -0.040404618
629766037.73585 0.99881953 -0.04208374 0.00089950394 0.020720953 0.00089157373 0.020847892 0.99863619 -0.040860713
639762264.15094 0.99867219 -0.042807251 0.00090721133 0.021034986 0.00086325081 0.021155721 0.99850065 -0.041398957
649758490.56604 0.99853915 -0.043383017 0.00089229038 0.021344557 0.00088867079 0.021490974 0.99864185 -0.041880935
659754716.98113 0.99837494 -0.043831348 0.00088539533 0.021697771 0.00088488031 0.021800453 0.9986912 -0.042367429
669750943.39623 0.99843085 -0.044319808 0.00092593906 0.022031428 0.0009074132 0.022151342 0.99871057 -0.04315573
679747169.81132 0.99837816 -0.045085907 0.00096248731 0.022388319 0.00097121787 0.022528453 0.9987281 -0.044103637
689743396.22642 0.99854684 -0.045883536 0.0010318225 0.022697736 0.00099963322 0.022847518 0.99853635 -0.044995576
699739622.64151 0.99861753 -0.046639025 0.0010625916 0.023037048 0.0010637213 0.02314654 0.9984898 -0.045659512
709735849.0566 0.99857974 -0.047510616 0.0010880035 0.023360562 0.0011008747 0.023469506 0.99818677 -0.046367168
719732075.4717 0.99846625 -0.048215657 0.0011225389 0.023652505 0.001121643 0.023780778 0.99831903 -0.047000229
729728301.88679 0.99838185 -0.048802853 0.001161783 0.023978136 0.0011500809 0.024092685 0.99836314 -0.04737559
739724528.30189 0.99827939 -0.049466372 0.001194858 0.024292378 0.0011868929 0.024452345 0.99854267 -0.048135474
749720754.71698 0.9982028 -0.049982384 0.0012448006 0.024621177 0.0012304252 0.024778198 0.99853748 -0.04878436
759716981.13208 0.99826145 -0.050519794 0.001246837 0.024937846 0.0012387168 0.025083741 0.99846089 -0.049613118
769713207.54717 0.99822885 -0.051187247 0.0012587421 0.025268042 0.0012689941 0.02539932 0.99823475 -0.050275117
779709433.96226 0.9984082 -0.051781099 0.0012759059 0.025597805 0.0013059104 0.025759334 0.99800098 -0.050936174
789705660.37736 0.99828529 -0.05266428 0.0013152035 0.025890797 0.0013129972 0.026038662 0.99773192 -0.051634103
799701886.79245 0.99821448 -0.053491712 0.0013725897 0.026219582 0.0013665333 0.026362747 0.99762166 -0.052176982
809698113.20755 0.99813002 -0.05401969 0.0014179936 0.026528714 0.0013815698 0.026712712 0.99762118 -0.052619249
819694339.62264 0.99798608 -0.054697961 0.001411662 0.026835905 0.0014277189 0.02701111 0.9977361 -0.05326423
829690566.03774 0.99792826 -0.055343091 0.0014373604 0.027168818 0.0014471477 0.027380925 0.99794447 -0.05412823
839686792.45283 0.99804872 -0.05586949 0.0014940607 0.027492899 0.0014799358 0.027654124 0.99804902 -0.054915994
849683018.86792 0.99810004 -0.056369573 0.0015211711 0.027806738 0.0014949921 0.028005263 0.99792731 -0.055653259
859679245.28302 0.99812508 -0.057145238 0.0015531406 0.02812789 0.0015395572 0.028342687 0.99757004 -0.05626753
869675471.69811 0.99806345 -0.057923019 0.0015856093 0.028460532 0.0015958156 0.028630234 0.99727917 -0.056778401
879671698.11321 0.99802369 -0.058531173 0.0016289067 0.028757755 0.0016381302 0.028952129 0.99723542 -0.057227138
889667924.5283 0.9977963 -0.059361488 0.0016593216 0.029067155 0.0016790591 0.029268585 0.99716073 -0.057695717
899664150.9434 0.99764973 -0.060062438 0.0016706781 0.029400282 0.0016454859 0.029592127 0.99707854 -0.058287472
909660377.35849 0.99761987 -0.060710549 0.0016805618 0.029733263 0.001710562 0.029904688 0.99729878 -0.059162453
919656603.77358 0.99768031 -0.061385438 0.0017172094 0.030047698 0.0017444105 0.030221881 0.99733144 -0.059982866
929652830.18868 0.99769574 -0.062088341 0.0017571365 0.030342992 0.0017623119 0.030549787 0.99712586 -0.060851336
939649056.60377 0.99789971 -0.06269595 0.0017523952 0.030651834 0.0017551556 0.030863289 0.99699116 -0.061571091
949645283.01887 0.99780393 -0.063486196 0.0017305815 0.031012978 0.0017662642 0.031202961 0.99679941 -0.062095959
959641509.43396 0.99769396 -0.064215124 0.0017848983 0.031364366 0.001806478 0.03156488 0.99667126 -0.062606007
969637735.84906 0.99767876 -0.064883202 0.0018504793 0.03168292 0.0018676063 0.031907268 0.99673647 -0.0629628
979633962.26415 0.99751127 -0.065642238 0.0019083987 0.031996064 0.0019205813 0.032203175 0.99675763 -0.06364093
989630188.67925 0.99757528 -0.066210628 0.0019304389 0.032321997 0.0019401209 0.032557324 0.99697167 -0.064200908
999626415.09434 0.99764967 -0.066816807 0.0019693589 0.032663323 0.0019789785 0.032882452 0.99687862 -0.065004915
1009622641.5094 0.99764234 -0.067414969 0.0019923076 0.032989684 0.0019899765 0.033198781 0.99674946 -0.065825105
1019618867.9245 0.99768382 -0.068179622 0.0020691897 0.033325393 0.0020698593 0.033535711 0.99651688 -0.066615641
1029615094.3396 0.99769223 -0.069127411 0.0020957207 0.03360375 0.0021329103 0.033824641 0.99613953 -0.067168325
1039611320.7547 0.99771988 -0.06998238 0.0021286793 0.033894554 0.0021302514 0.034109604 0.99610674 -0.067826748
1049607547.1698 0.99757504 -0.070899487 0.0021704757 0.034209356 0.0021984128 0.034462906 0.99615055 -0.068446927
1059603773.5849 0.99743533 -0.071617484 0.0021890868 0.034475327 0.0022125151 0.034754183 0.9961226 -0.069047898
1069600000 0.99723148 -0.072244376 0.0021670964 0.034815274 0.0022387849 0.035085164 0.99626964 -0.069721431
1079596226.4151 0.99728101 -0.072908886 0.0021934952 0.035167418 0.0022564568 0.035389721 0.99626017 -0.070495434
1089592452.8302 0.99725044 -0.073516577 0.0022468287 0.035488129 0.0022787135 0.035742771 0.99625272 -0.071194351
1099588679.2453 0.99739122 -0.074175507 0.0022309944 0.035810389 0.0022896715 0.036045309 0.99591714 -0.07183674
1109584905.6604 0.99747437 -0.074970514 0.0022549201 0.036161698 0.0023219576 0.036399979 0.99568969 -0.072393239
1119581132.0755 0.99738985 -0.0759397 0.0022696001 0.036469426 0.0023510274 0.036753602 0.9955225 -0.072752327
1129577358.4906 0.99723446 -0.076718509 0.0022954401 0.036846638 0.0023633242 0.037077256 0.99538517 -0.073183596
1139573584.9057 0.99695182 -0.077604324 0.0023552375 0.037164532 0.0024234969 0.037430245 0.99549752 -0.073946327
1149569811.3208 0.9968493 -0.078409135 0.0024153984 0.037501663 0.0024844608 0.03772315 0.9955653 -0.074605316
1159566037.7358 0.99666238 -0.079089493 0.0024367701 0.037812922 0.0024987534 0.038035482 0.99570024 -0.07560432
1169562264.1509 0.99645805 -0.079795271 0.0024505071 0.038105655 0.0025310237 0.038363013 0.99559426 -0.076391906
1179558490.566 0.99647558 -0.080543503 0.0024493961 0.038493898 0.0025868716 0.038737118 0.99546522 -0.077129856
1189554716.9811 0.99651051 -0.081302881 0.0024932781 0.038795665 0.0026230412 0.039069057 0.99516755 -0.077627301
1199550943.3962 0.99639022 -0.082055539 0.0025496297 0.039148949 0.0026631616 0.039399803 0.99491906 -0.078076482
1209547169.8113 0.99622017 -0.083001673 0.0025899149 0.039483797 0.0027039759 0.039723992 0.99491465 -0.078422636
1219543396.2264 0.99602216 -0.083765209 0.0026402539 0.039851647 0.0027691592 0.040095996 0.99497688 -0.078843966
1229539622.6415 0.99579585 -0.084584802 0.0027173683 0.040156353 0.0028040782 0.040419057 0.99510598 -0.079516798
1239535849.0566 0.99557096 -0.085232645 0.0027477853 0.040484227 0.0028850241 0.040723048 0.99521625 -0.080374897
1249532075.4717 0.99528891 -0.085883923 0.0028120123 0.040809233 0.0029549066 0.0410496 0.99502397 -0.081162833
1259528301.8868 0.99504745 -0.086320549 0.0028756224 0.041148819 0.0029960852 0.041370705 0.99483889 -0.082021862
1269524528.3019 0.99491709 -0.087086976 0.0029346775 0.041417152 0.0030610766 0.041667216 0.99460566 -0.082725912
1279520754.717 0.99452776 -0.087866537 0.0029958077 0.041712403 0.0031050898 0.041923828 0.9943825 -0.083269507
1289516981.1321 0.99441552 -0.08871004 0.0029956605 0.042014901 0.0031365147 0.042222656 0.99434555 -0.083729386
1299513207.5472 0.99410123 -0.089503437 0.0030317102 0.042319715 0.0031412989 0.042538352 0.99454308 -0.084069014
1309509433.9623 0.99365997 -0.090230748 0.0030316515 0.042652637 0.0031683818 0.042838186 0.99461633 -0.084830925
1319505660.3774 0.99335021 -0.090946779 0.0030108569 0.04296511 0.003143589 0.043141108 0.99466091 -0.085436076
1329501886.7925 0.99308658 -0.091628522 0.0030594133 0.043293208 0.0031983722 0.043487042 0.99467039 -0.086379558
1339498113.2075 0.99281639 -0.092099816 0.0030922918 0.043593142 0.003220642 0.043797877 0.99425757 -0.087029815
1349494339.6226 0.99258316 -0.092650034 0.0030776113 0.043929275 0.0031617288 0.044141185 0.99393517 -0.08770027
1359490566.0377 0.99250305 -0.093251914 0.0030770581 0.044302642 0.0031405799 0.044487745 0.99372137 -0.088199437
1369486792.4528 0.99233067 -0.093698651 0.0030984106 0.044697911 0.0032072784 0.04485178 0.99361008 -0.088649333
1379483018.8679 0.99202895 -0.094284751 0.0031025542 0.045014136 0.0032018975 0.04516232 0.99355638 -0.089000762
1389479245.283 0.9917109 -0.094860971 0.0031714756 0.045384191 0.0032616723 0.04555558 0.99348712 -0.089644551
1399475471.6981 0.99125028 -0.095260292 0.0031868853 0.045732319 0.0032502022 0.045916304 0.99371803 -0.090337485
1409471698.1132 0.99095351 -0.095674366 0.003220764 0.046108164 0.0032995895 0.046290688 0.99375796 -0.091131203
1419467924.5283 0.99082208 -0.095830381 0.0032171123 0.046467897 0.003297789 0.046640728 0.99352783 -0.091828197
1429464150.9434 0.99062324 -0.096465439 0.0032731481 0.046916515 0.003372781 0.047062829 0.99342698 -0.0924775
1439460377.3585 0.99078459 -0.0968467 0.0033549285 0.047314722 0.0034195948 0.047504798 0.99325216 -0.092716679
1449456603.7736 0.99082595 -0.097381666 0.0034580184 0.047724094 0.0035221158 0.047864918 0.99311161 -0.093153358
1459452830.1887 0.99081481 -0.098060369 0.0035819691 0.048154712 0.0036114305 0.048262939 0.99323428 -0.093374074
1469449056.6038 0.99090803 -0.098765105 0.0037385095 0.048458546 0.0037879599 0.048617434 0.99347478 -0.094055444
1479445283.0189 0.99065787 -0.099322133 0.003858641 0.048761599 0.003910088 0.048912272 0.99355328 -0.094934516
1489441509.434 0.99059653 -0.099829704 0.0039793272 0.049020894 0.0040535908 0.04921031 0.9934538 -0.095726728
1499437735.8491 0.99045825 -0.10024682 0.0041208956 0.049329098 0.0041479804 0.049512871 0.99330169 -0.09655261
1509433962.2642 0.99042618 -0.10069853 0.0041785315 0.049590055 0.0041921777 0.049792819 0.99315244 -0.097311512
1519430188.6792 0.99059707 -0.10127485 0.0042707901 0.049860436 0.0042553581 0.050063834 0.99305212 -0.097874731
1529426415.0943 0.99046665 -0.1019848 0.0043056253 0.050117657 0.0043401066 0.050365232 0.99297673 -0.098321438
1539422641.5094 0.99055362 -0.10280941 0.0043698922 0.050436962 0.0043583196 0.050621562 0.99305069 -0.098810039
1549418867.9245 0.99039102 -0.10352397 0.004440465 0.05073195 0.0044226339 0.050934114 0.99322391 -0.099542767
1559415094.3396 0.99024212 -0.10414535 0.0044623967 0.051026382 0.0044884831 0.051219903 0.99333692 -0.10023266
1569411320.7547 0.9901588 -0.1048843 0.004527689 0.051269878 0.0045031132 0.051499277 0.99331248 -0.10102126
1579407547.1698 0.9900524 -0.10539202 0.0045409747 0.051554665 0.0045107496 0.051772244 0.9929868 -0.10176876
1589403773.5849 0.99000138 -0.10587472 0.0045352336 0.051819038 0.0045235511 0.05208037 0.99277604 -0.10250852
1599400000 0.98997557 -0.10645601 0.0045157736 0.052151319 0.0045190118 0.052388355 0.99248248 -0.10292163
1609396226.4151 0.98996419 -0.10700513 0.0045043966 0.052473105 0.004516677 0.052693721 0.99221963 -0.10348848
1619392452.8302 0.98989105 -0.10768619 0.004541656 0.052820824 0.0045167692 0.053016819 0.99219573 -0.10401136
1629388679.2453 0.98967266 -0.10828033 0.0045413729 0.053153716 0.0044941362 0.053413101 0.99242377 -0.10447475
1639384905.6604 0.98953098 -0.10899988 0.0045586028 0.053485934 0.0045508947 0.053764988 0.99265832 -0.10523219
1649381132.0755 0.98928994 -0.1097213 0.0045656972 0.053845525 0.0045416076 0.054158125 0.99259478 -0.1061196
1659377358.4906 0.98906398 -0.11044914 0.0045921449 0.054224174 0.0045797843 0.054522987 0.99259132 -0.10703468
1669373584.9057 0.98911297 -0.11094915 0.0046390374 0.054598652 0.0046239938 0.054862913 0.99227548 -0.10770323
1679369811.3208 0.98912758 -0.11159429 0.004684316 0.054981932 0.0046464354 0.05525732 0.99210447 -0.10828537
1689366037.7358 0.989061 -0.11223647 0.0047321022 0.055348508 0.0046956725 0.055616826 0.99195552 -0.10856578
1699362264.1509 0.9891842 -0.11273852 0.0047723744 0.055730436 0.0047250725 0.056037854 0.99209225 -0.10895246
1709358490.566 0.98913974 -0.11345974 0.0048316317 0.056054704 0.0047841063 0.056423407 0.99213731 -0.10949785
1719354716.9811 0.98882794 -0.11402437 0.0048352722 0.056458414 0.0048507471 0.056746043 0.99216044 -0.11019352
