!Keysight Technologies,N5222B,MY61253708,A.15.00.15
!Date: Wednesday, June 19, 2024 10:05:57
!Correction: S11(C  2-Port  ) 
!S21(C  2-Port  ) 
!S12(C  2-Port  ) 
!S22(C  2-Port  ) 
!S2P File: Measurements: S11, S21, S12, S22:
# Hz S  RI   R 50
10000000 0.99823523 -0.00330019 2.912269e-005 0.00035529269 0.00011647861 0.00068396545 0.9985922 -0.0014055967
19996226.415094 1.0001678 -0.002762109 8.6074404e-005 0.00073498185 0.00012032643 0.00059628207 1.0004612 -0.0025066435
29992452.830189 0.99969381 -0.0024293363 2.5310525e-005 0.00099686347 -6.9294183e-006 0.0009582208 0.99955779 -0.002677381
39988679.245283 1.000042 -0.0030175298 -2.6761438e-005 0.001328436 -2.1848973e-006 0.0013244323 0.99971712 -0.0030841976
49984905.660377 1.0002685 -0.0036708117 -2.2300927e-005 0.0015655844 3.6811805e-005 0.0016485425 0.99990118 -0.003560245
59981132.075472 1.0003713 -0.0045096576 -3.138202e-005 0.0019621605 3.4115626e-005 0.0019808703 0.99989498 -0.0041496754
69977358.490566 1.0002294 -0.0051351115 8.896277e-006 0.0022775589 -1.5278169e-005 0.0022861345 0.99973071 -0.0047289189
79973584.90566 0.99997836 -0.0057564378 6.0027232e-006 0.0025888369 5.21607e-005 0.0026216286 0.99943888 -0.0051774979
89969811.320755 1.0000212 -0.0058173239 1.4735968e-005 0.0029398073 2.4895184e-005 0.0029771102 0.9996829 -0.0053877532
99966037.735849 1.0001985 -0.0065644681 2.809643e-005 0.0032989215 2.268824e-005 0.0032873577 0.99976015 -0.0061744601
109962264.15094 1.0002074 -0.0074568987 2.8830138e-005 0.0036177922 1.6639009e-005 0.0036275485 0.99973309 -0.006977722
119958490.56604 1.0002373 -0.0083246827 2.2839522e-005 0.0039295461 4.0859915e-005 0.0039584669 0.99976623 -0.0077843964
129954716.98113 1.0002105 -0.0092765391 4.7829817e-005 0.0042653806 3.8936501e-005 0.0042706481 0.99976742 -0.008662492
139950943.39623 1.0001302 -0.010084018 5.5269295e-005 0.0045863697 3.8972663e-005 0.004596632 0.99969393 -0.0093836226
149947169.81132 0.99998337 -0.010723054 5.4374337e-005 0.0049272403 4.7401059e-005 0.0049481909 0.99967206 -0.0099914372
159943396.22642 0.99995983 -0.011343181 3.6634272e-005 0.0052449419 4.1481107e-005 0.0052698078 0.99972427 -0.010457724
169939622.64151 0.99987769 -0.011709474 6.7838351e-005 0.0055725127 4.3461332e-005 0.005610087 0.99973708 -0.010919183
179935849.0566 0.99998713 -0.011988252 8.2800747e-005 0.005906479 9.802822e-005 0.0059353905 0.99966419 -0.011284411
189932075.4717 1.0000457 -0.012754411 8.674222e-005 0.006225422 7.0548384e-005 0.006235661 0.9998548 -0.011822522
199928301.88679 0.99996829 -0.013573825 8.1838458e-005 0.0065333429 9.9677593e-005 0.0065877042 0.99977291 -0.012689561
209924528.30189 0.99977034 -0.01402314 0.00010286621 0.0068589379 0.00010598951 0.0069167875 0.99951035 -0.013358027
219920754.71698 0.99994791 -0.01482299 0.00011787028 0.0072184196 0.00010173046 0.0072441041 0.99945259 -0.013905078
229916981.13208 0.99975562 -0.015761405 0.00011886144 0.0075308629 0.00010599219 0.0075716414 0.99943519 -0.014751047
239913207.54717 0.99962747 -0.016423827 0.00014064563 0.007870065 0.00011932773 0.0079000834 0.99939793 -0.015452795
249909433.96226 0.99960184 -0.017013729 0.00014526281 0.0081895366 0.00014812313 0.0082397982 0.99950182 -0.016056865
259905660.37736 0.99974191 -0.017616093 0.00013747066 0.008535143 0.00018445868 0.0085564591 0.99968177 -0.016629845
269901886.79245 0.99989969 -0.018296883 0.00013839314 0.0088183768 0.00018137833 0.008888674 1.0000076 -0.017343655
279898113.20755 0.99995035 -0.018934369 0.00017657736 0.0091560241 0.00018779561 0.0092401737 0.99977612 -0.018046245
289894339.62264 0.99984825 -0.019690633 0.00019528298 0.0095167505 0.00018977327 0.0095450077 0.99972707 -0.01871112
299890566.03774 0.99976248 -0.020270586 0.00019563641 0.0098094745 0.00021163956 0.0098689282 0.9995566 -0.019122273
309886792.45283 0.99961084 -0.020710453 0.00021301623 0.010184377 0.00022239564 0.010183445 0.99942267 -0.019610502
319883018.86792 0.99976081 -0.021401405 0.00024286192 0.01044335 0.00022851676 0.010528965 0.99959636 -0.020188808
329879245.28302 0.99959397 -0.02218768 0.00021825312 0.010777407 0.00021115132 0.010850783 0.99972081 -0.020935446
339875471.69811 0.99959809 -0.022851638 0.00023024646 0.011135368 0.00020821358 0.011175796 0.99958766 -0.021735735
349871698.11321 0.99969554 -0.023706406 0.00026457105 0.011494212 0.00024854788 0.01153273 0.99961573 -0.022648841
359867924.5283 0.99947476 -0.024487793 0.00029846653 0.011769337 0.00028490135 0.01186378 0.99957275 -0.023523778
369864150.9434 0.99973208 -0.025272131 0.00028738915 0.012110163 0.00029713986 0.01219 0.9995783 -0.024224699
379860377.35849 0.99954242 -0.025887072 0.00032901927 0.01244042 0.00032820553 0.012487791 0.99952197 -0.024923906
389856603.77358 0.99955773 -0.026508898 0.00032229582 0.012780435 0.00030425331 0.012809698 0.99944496 -0.025386691
399852830.18868 0.99924207 -0.027174413 0.00034644781 0.013091545 0.00034355652 0.013131915 0.99950922 -0.025877982
409849056.60377 0.99933869 -0.027627677 0.00034168272 0.013391371 0.00038690964 0.01350383 0.99944443 -0.026515003
419845283.01887 0.99936044 -0.028059453 0.00040300097 0.013751763 0.00042027468 0.013775775 0.9993512 -0.02693662
429841509.43396 0.99940532 -0.028617591 0.00038109068 0.014083989 0.00039788987 0.014141347 0.99958313 -0.027685523
439837735.84906 0.99923337 -0.029644042 0.00040884898 0.014381765 0.00044510304 0.014454168 0.99931926 -0.028694272
449833962.26415 0.99916327 -0.030391812 0.00043314695 0.014685537 0.00045267539 0.014747408 0.9988758 -0.02943942
459830188.67925 0.998945 -0.030993104 0.00041304482 0.015010903 0.00046535581 0.015075983 0.99858832 -0.030152678
469826415.09434 0.99891925 -0.031803012 0.00043150922 0.015378676 0.00043666363 0.015432837 0.99834144 -0.030649334
479822641.50943 0.99886179 -0.032311626 0.0004871143 0.015685823 0.00048008864 0.015793644 0.99834424 -0.030981265
489818867.92453 0.99895048 -0.032822251 0.00049106777 0.016018322 0.0004942161 0.01610104 0.99863148 -0.031454921
499815094.33962 0.99897802 -0.033438504 0.00053125853 0.016330477 0.00054955482 0.016389897 0.99884474 -0.032021046
509811320.75472 0.9990167 -0.033945762 0.00053636689 0.016671449 0.00054999418 0.01671405 0.99905461 -0.032772366
519807547.16981 0.99896228 -0.034434825 0.00057505351 0.016987309 0.00053140521 0.017053178 0.99901712 -0.033450246
529803773.58491 0.99894273 -0.035035968 0.00056032185 0.01730244 0.00058342423 0.017375659 0.99877656 -0.033979386
539800000 0.99903083 -0.035718471 0.00058094598 0.017614763 0.00057527772 0.01775719 0.99868178 -0.034651086
549796226.41509 0.99891269 -0.036504328 0.000635406 0.017966392 0.00060638366 0.018080011 0.99860454 -0.035025775
559792452.83019 0.99874842 -0.037226558 0.00064415392 0.018316574 0.00062848441 0.018397301 0.99855185 -0.035557449
569788679.24528 0.99866641 -0.037825495 0.00069836201 0.018624684 0.00067400513 0.018706298 0.99868774 -0.036289334
579784905.66038 0.998555 -0.038506716 0.00071508007 0.018948706 0.0007102422 0.019025819 0.99884945 -0.037019894
589781132.07547 0.99876666 -0.039115638 0.00071382709 0.019275047 0.00072177127 0.019381421 0.99894893 -0.037862003
599777358.49057 0.99878341 -0.039762348 0.00074745994 0.019627396 0.00076648034 0.01968901 0.99892342 -0.038659453
609773584.90566 0.99892247 -0.040392682 0.00079467532 0.019937042 0.00075782347 0.020025903 0.998788 -0.03946311
619769811.32075 0.99893457 -0.041179925 0.00080421474 0.020273345 0.00084260292 0.020335721 0.99876904 -0.039978027
629766037.73585 0.99890882 -0.041781962 0.0008816598 0.020562675 0.00087266881 0.020657919 0.99859071 -0.04050529
639762264.15094 0.99873996 -0.0424712 0.00087338546 0.020864246 0.00086956657 0.020992313 0.99849856 -0.040986985
649758490.56604 0.99857032 -0.043052107 0.00088242581 0.021192009 0.00088741397 0.021300517 0.99866205 -0.041459218
659754716.98113 0.99859446 -0.043523103 0.00088678207 0.021503627 0.00088007189 0.021643057 0.99871606 -0.042003393
669750943.39623 0.99854863 -0.044065952 0.00090300152 0.021875525 0.00090907468 0.021949906 0.9988054 -0.042751193
679747169.81132 0.99846566 -0.044787645 0.00095006672 0.022234417 0.0009541281 0.022317896 0.99873859 -0.043688394
689743396.22642 0.99868107 -0.045557678 0.0010203682 0.022559291 0.0010096217 0.022653213 0.998613 -0.044640213
699739622.64151 0.9987309 -0.04636696 0.0010433793 0.022875495 0.0010304386 0.022977043 0.99853694 -0.045265853
709735849.0566 0.99871534 -0.047161467 0.0010737698 0.023176182 0.0010543031 0.023289988 0.99825776 -0.045930341
719732075.4717 0.99855316 -0.047824621 0.0011247834 0.023488119 0.0011340706 0.023592019 0.99836373 -0.046524048
729728301.88679 0.998564 -0.048493147 0.0011019902 0.023782626 0.0011412213 0.023924574 0.99842298 -0.047042876
739724528.30189 0.99840933 -0.049096242 0.0011688573 0.024122726 0.0011805948 0.0242525 0.99854499 -0.047750488
749720754.71698 0.99830872 -0.049691468 0.0012027998 0.024399994 0.0012102318 0.024523476 0.99858904 -0.048423424
759716981.13208 0.99840403 -0.050191283 0.0012328634 0.024746332 0.0012432048 0.024876118 0.99851948 -0.049224019
769713207.54717 0.99831599 -0.050858855 0.0012465371 0.025054291 0.0012240391 0.025191845 0.99824238 -0.0498918
779709433.96226 0.99841368 -0.05147903 0.0012810744 0.025364848 0.001286572 0.025532855 0.99804485 -0.050598267
789705660.37736 0.99820244 -0.052260727 0.0013010036 0.02573489 0.0013270816 0.025846589 0.99777943 -0.051228106
799701886.79245 0.9982639 -0.053099215 0.0013502436 0.02602531 0.001333598 0.026137099 0.99766517 -0.051747829
809698113.20755 0.99818987 -0.053702369 0.0013791334 0.0262869 0.0013537509 0.026458006 0.99766475 -0.052224845
819694339.62264 0.99799258 -0.054409176 0.0013898658 0.02665131 0.0013924781 0.026801698 0.99771518 -0.05283919
829690566.03774 0.99803281 -0.054972857 0.0014295857 0.026923185 0.0014461484 0.027098138 0.99793661 -0.053736836
839686792.45283 0.99805075 -0.055390775 0.0014618943 0.027281728 0.0014740662 0.027413778 0.99793041 -0.054455459
849683018.86792 0.99812877 -0.056065887 0.0015049265 0.027623614 0.0014796557 0.027739083 0.99788225 -0.055244833
859679245.28302 0.99817646 -0.056799024 0.0015270356 0.02794864 0.00150597 0.028073329 0.9976083 -0.055827945
869675471.69811 0.99810213 -0.057579666 0.0015641777 0.028245533 0.0015560649 0.028393056 0.99726582 -0.056302249
879671698.11321 0.99799156 -0.05816583 0.0015871522 0.028562626 0.0016168475 0.028710948 0.99722314 -0.056784317
889667924.5283 0.99782407 -0.058955848 0.0016283281 0.028845482 0.0016118726 0.029005071 0.99711251 -0.057226032
899664150.9434 0.99770296 -0.059585929 0.0016483385 0.029164789 0.0016339831 0.029325204 0.99719191 -0.057861507
909660377.35849 0.99767077 -0.060217723 0.0016791229 0.029493518 0.0016912571 0.029627159 0.99734354 -0.058675855
919656603.77358 0.99774218 -0.060924828 0.0016886867 0.029801464 0.0016708141 0.029956471 0.99732345 -0.059541389
929652830.18868 0.99779165 -0.061678112 0.0016981512 0.03012969 0.001746634 0.030262772 0.99714905 -0.060335368
939649056.60377 0.99791789 -0.062228948 0.001729669 0.030415764 0.0017609671 0.030571485 0.99698651 -0.061093867
949645283.01887 0.99784917 -0.063076906 0.0017321197 0.030769888 0.0017362969 0.030929875 0.99679011 -0.061586507
959641509.43396 0.99781489 -0.063813776 0.001766827 0.031124536 0.0017674156 0.031293303 0.99673128 -0.062120646
969637735.84906 0.99770826 -0.064479142 0.0018004579 0.031469561 0.0018264344 0.031623118 0.99674338 -0.062424541
979633962.26415 0.99757528 -0.065277457 0.0018616549 0.031764556 0.0018793389 0.031921536 0.99683368 -0.06309697
989630188.67925 0.99764544 -0.065768242 0.0019107051 0.032053825 0.0018929895 0.032272853 0.99704659 -0.063660711
999626415.09434 0.99771285 -0.066331089 0.0019639609 0.032394726 0.0019337926 0.032588005 0.99700332 -0.06449011
1009622641.5094 0.99773854 -0.067029163 0.001949932 0.032726392 0.0019797161 0.032927655 0.99678701 -0.065342784
1019618867.9245 0.99776024 -0.067782328 0.0020027836 0.03307103 0.0020346441 0.033239074 0.99659461 -0.066098705
1029615094.3396 0.99776292 -0.068650723 0.0020674942 0.033354193 0.0020942064 0.033510238 0.99625063 -0.066654086
1039611320.7547 0.99782789 -0.069536656 0.0020979038 0.033651836 0.0021100184 0.033832546 0.99620986 -0.067330867
1049607547.1698 0.99773335 -0.070415229 0.002121265 0.033950072 0.002141726 0.034153096 0.99617922 -0.067845821
1059603773.5849 0.9974851 -0.071105897 0.0021406496 0.034252837 0.0021466417 0.034437243 0.9961313 -0.068412542
1069600000 0.99738592 -0.071791708 0.0021393709 0.034580961 0.0021880679 0.034752898 0.99635184 -0.069104433
1079596226.4151 0.9972474 -0.072422527 0.0021567773 0.034893669 0.0022073202 0.035079561 0.99630153 -0.069947161
1089592452.8302 0.99741423 -0.073067963 0.0021957895 0.035228964 0.0022263806 0.035413586 0.99629468 -0.070686936
1099588679.2453 0.99742925 -0.073751599 0.0021892823 0.035556603 0.0022498481 0.035744064 0.99595964 -0.071255684
1109584905.6604 0.99754262 -0.074550211 0.0022168728 0.035886083 0.0022598822 0.036084745 0.99574924 -0.071832404
1119581132.0755 0.99751753 -0.07542637 0.0022310182 0.036204804 0.0022725831 0.036464699 0.99557734 -0.072234705
1129577358.4906 0.99728692 -0.076146632 0.0022454876 0.03659112 0.002336612 0.036791697 0.99551111 -0.072622895
1139573584.9057 0.99705464 -0.077084005 0.0023250747 0.036900502 0.0023823213 0.037111234 0.99557638 -0.07330355
1149569811.3208 0.99703604 -0.077918597 0.0023664718 0.037212595 0.0024506932 0.037419748 0.99566883 -0.07400582
1159566037.7358 0.99678093 -0.078605473 0.0024021426 0.037505187 0.0024528224 0.037725501 0.99580997 -0.075015843
1169562264.1509 0.99658883 -0.079250187 0.0024164636 0.037805561 0.0024616774 0.03805232 0.99565804 -0.075762868
1179558490.566 0.99661219 -0.080028877 0.0024080737 0.038194217 0.002500199 0.03841899 0.99551219 -0.076538622
1189554716.9811 0.99656057 -0.080756426 0.0024461616 0.038507856 0.002580516 0.038729824 0.99521768 -0.077100426
1199550943.3962 0.99654764 -0.081598639 0.0025028102 0.038863987 0.0026059411 0.039077714 0.99503994 -0.077473611
1209547169.8113 0.99640459 -0.08243151 0.0025441097 0.039214175 0.0026588067 0.03938932 0.99500334 -0.077823505
1219543396.2264 0.99625474 -0.083240256 0.0025978871 0.039550945 0.0026881448 0.03975857 0.9949941 -0.078156561
1229539622.6415 0.9959172 -0.083968878 0.0026676022 0.03986245 0.0027505588 0.040094197 0.99522638 -0.078895271
1239535849.0566 0.99568105 -0.084666997 0.0027098572 0.040175319 0.002806671 0.040404625 0.99528992 -0.07976827
1249532075.4717 0.99537396 -0.085332334 0.0027615968 0.040481731 0.0028975061 0.040660206 0.99511606 -0.080565423
1259528301.8868 0.99516279 -0.08582899 0.0028324481 0.040816247 0.0029387753 0.040994748 0.9949311 -0.081382662
1269524528.3019 0.9950406 -0.086549848 0.0029062517 0.041115202 0.0030166712 0.04130606 0.99468994 -0.082077295
1279520754.717 0.99468482 -0.08728075 0.002940777 0.041410159 0.0030545779 0.041575905 0.99442965 -0.082624823
1289516981.1321 0.99452507 -0.088111818 0.0029251566 0.041696716 0.0030592689 0.04187708 0.99452353 -0.083070368
1299513207.5472 0.9942435 -0.088976473 0.0029700939 0.04198616 0.0030687936 0.042186346 0.99455392 -0.083478123
1309509433.9623 0.99384326 -0.089738563 0.0029729363 0.042323522 0.0031222329 0.042495027 0.99472123 -0.084227547
1319505660.3774 0.99351275 -0.090419322 0.0029616198 0.042651154 0.0030880002 0.042815078 0.99480528 -0.084858879
1329501886.7925 0.9932189 -0.091065347 0.0029915087 0.042965665 0.0031072032 0.043127574 0.99473989 -0.085766554
1339498113.2075 0.99296272 -0.09152171 0.0030334331 0.043263428 0.0031431383 0.043455474 0.99437279 -0.086465299
1349494339.6226 0.99283284 -0.092066653 0.003000929 0.043597184 0.0031041782 0.04374449 0.99407911 -0.087031357
1359490566.0377 0.99272192 -0.092613786 0.0030032005 0.043998659 0.0031312741 0.044112973 0.99387205 -0.087531149
1369486792.4528 0.99246073 -0.093102157 0.0030432213 0.044331685 0.0031125629 0.044455957 0.99373198 -0.087963611
1379483018.8679 0.99215519 -0.093746975 0.0030465447 0.044701241 0.0031285181 0.044816688 0.99365306 -0.08829096
1389479245.283 0.99186516 -0.094248772 0.0030692313 0.04505853 0.0032003336 0.04518754 0.99364865 -0.088982075
1399475471.6981 0.99148035 -0.094631225 0.0031086169 0.045402657 0.003192421 0.045528188 0.9937883 -0.089726388
1409471698.1132 0.99121636 -0.095094211 0.0031599987 0.045795307 0.0032224678 0.045927491 0.99385804 -0.090499185
1419467924.5283 0.99092174 -0.095433116 0.0031415336 0.046141826 0.0032415856 0.046280712 0.99368429 -0.091166854
1429464150.9434 0.99091971 -0.095819592 0.0032152757 0.046550095 0.0032960679 0.046672586 0.99362922 -0.09177202
1439460377.3585 0.99101007 -0.096299067 0.0032928176 0.047016632 0.0033309041 0.047074493 0.9933387 -0.092085868
1449456603.7736 0.99099267 -0.096830294 0.0033900728 0.047339343 0.0034492211 0.04747105 0.99322659 -0.092452884
1459452830.1887 0.99099076 -0.097445339 0.0035230424 0.047791131 0.0035350136 0.047876604 0.99335659 -0.092771143
1469449056.6038 0.99111724 -0.098138213 0.0036780396 0.048108011 0.003679933 0.048255205 0.99357599 -0.093402267
1479445283.0189 0.99090505 -0.0986389 0.0037652797 0.048344806 0.0038286936 0.048523676 0.99370325 -0.094246581
1489441509.434 0.99084347 -0.099190533 0.0039346553 0.048686512 0.0039394088 0.048846267 0.99353802 -0.095067203
1499437735.8491 0.99064136 -0.099511713 0.0040505622 0.048971578 0.0040715411 0.049073409 0.99358606 -0.095941782
1509433962.2642 0.99068898 -0.10005395 0.0041392827 0.049222253 0.0041507231 0.049357288 0.99332136 -0.096596316
1519430188.6792 0.99076384 -0.10072052 0.0041994136 0.049524937 0.0041744616 0.04963522 0.99311471 -0.097157359
1529426415.0943 0.990749 -0.10129261 0.0042275321 0.049791101 0.0042339675 0.049930744 0.99302351 -0.097682714
1539422641.5094 0.99075836 -0.10217278 0.0043095388 0.050063547 0.0042687003 0.050212607 0.99315 -0.098148592
1549418867.9245 0.99062198 -0.10296229 0.0043620151 0.050380141 0.0043404698 0.050503042 0.99334395 -0.098873124
1559415094.3396 0.9905138 -0.10359272 0.0044267885 0.050666213 0.004388025 0.050780602 0.99349725 -0.099541306
1569411320.7547 0.99037713 -0.10434805 0.0044355411 0.050921027 0.0044200663 0.051080786 0.99353546 -0.1001738
1579407547.1698 0.99029547 -0.10476664 0.0044337306 0.051168986 0.0044365851 0.051353443 0.99310464 -0.10105373
1589403773.5849 0.99030864 -0.10535467 0.0044799838 0.051482517 0.0044612475 0.051636167 0.99291277 -0.10171342
1599400000 0.99020725 -0.10581684 0.0044516744 0.051796716 0.0044242581 0.051972695 0.99254525 -0.10220435
1609396226.4151 0.99019361 -0.10648456 0.004450914 0.05208236 0.0044429097 0.052242704 0.99232543 -0.10278363
1619392452.8302 0.99015355 -0.10700947 0.0044531822 0.052415878 0.0044180527 0.052614376 0.992383 -0.10314056
1629388679.2453 0.98987699 -0.10769409 0.0044606812 0.052779816 0.0044243187 0.052957129 0.99253088 -0.103782
1639384905.6604 0.98969632 -0.10841311 0.0044715209 0.053106423 0.0044265669 0.05332258 0.99272311 -0.10445511
1649381132.0755 0.98960888 -0.10902655 0.0044873487 0.053459618 0.0044512078 0.05369699 0.99278897 -0.10547599
1659377358.4906 0.98934686 -0.10981196 0.0045091026 0.053830862 0.0044797026 0.054100923 0.99271274 -0.10629389
1669373584.9057 0.98928678 -0.11033064 0.0045131505 0.054206055 0.004510948 0.054413736 0.99250847 -0.10697704
1679369811.3208 0.98931456 -0.1109691 0.004539826 0.05456952 0.0045402804 0.054792296 0.99219435 -0.10751382
1689366037.7358 0.9892571 -0.11158484 0.0046263151 0.054920852 0.0045737904 0.05518049 0.99208856 -0.10783008
1699362264.1509 0.98955446 -0.11212581 0.0046730945 0.055315141 0.0046330225 0.055545695 0.99227095 -0.1082768
1709358490.566 0.98931217 -0.11278468 0.0047331648 0.055676028 0.0046991045 0.055923015 0.99235475 -0.10887113
1719354716.9811 0.98904896 -0.11341083 0.0047685523 0.056046061 0.0047740266 0.05629487 0.99238402 -0.10940742
1729350943.3962 0.98873055 -0.11393395 0.0048585869 0.056433581 0.0048207045 0.056687098 0.99238139 -0.1102699
