!Keysight Technologies,N5222B,MY61253708,A.15.00.15
!Date: Wednesday, June 19, 2024 09:49:52
!Correction: S11(C  2-Port  ) 
!S21(C  2-Port  ) 
!S12(C  2-Port  ) 
!S22(C  2-Port  ) 
!S2P File: Measurements: S11, S21, S12, S22:
# Hz S  RI   R 50
10000000 0.99852872 -0.0029014051 4.9028255e-005 0.00050733949 0.00020254927 0.00070300698 0.99859893 -0.0014921427
19996226.415094 0.9993751 -0.003500849 6.1078317e-005 0.00074162381 1.7461716e-005 0.0007557869 0.9998852 -0.0035027564
29992452.830189 0.9998033 -0.002414465 -3.2294774e-006 0.00096111168 4.0293671e-006 0.00091751647 0.99954534 -0.0027188957
39988679.245283 1.0000669 -0.0030494928 3.5285047e-006 0.001329456 6.3237821e-006 0.00135923 0.99969047 -0.0030944794
49984905.660377 1.0002159 -0.0036944747 5.8819656e-005 0.0016798729 2.1710701e-005 0.0016655066 0.99982256 -0.0036205947
59981132.075472 1.0004197 -0.0045823753 1.4442485e-006 0.0019936739 1.4461111e-006 0.0020074793 0.99981016 -0.0041449368
69977358.490566 1.000226 -0.0050982069 1.7032729e-005 0.0022923886 3.0283936e-005 0.0023380863 0.99966192 -0.0047025047
79973584.90566 0.99996924 -0.0057331026 7.0107635e-006 0.0026437319 2.0428328e-005 0.0026314165 0.99933958 -0.0052050054
89969811.320755 0.99994874 -0.0058133304 -8.6339423e-006 0.0029755333 9.9834288e-006 0.0029887999 0.99961483 -0.0054462254
99966037.735849 1.0001681 -0.0065613389 4.7217298e-005 0.0033106054 3.2541458e-005 0.0033147605 0.99969923 -0.0062586963
109962264.15094 1.0001729 -0.0074441582 3.4392928e-005 0.0036321073 2.8994633e-005 0.0036894809 0.99964952 -0.0070227087
119958490.56604 1.0002095 -0.0084035397 1.3631186e-005 0.0039753928 2.4436391e-005 0.0040019695 0.99970102 -0.0079061985
129954716.98113 1.0001738 -0.0093612075 5.1015988e-005 0.004290489 4.7567999e-005 0.0043393564 0.99969947 -0.0087405145
139950943.39623 1.0001017 -0.010154216 5.2112809e-005 0.0046333126 4.8980364e-005 0.0046558334 0.99959326 -0.0094999969
149947169.81132 0.99998784 -0.010856867 4.4802204e-005 0.0049579623 4.0817074e-005 0.0049914545 0.99958378 -0.010089755
159943396.22642 0.99996948 -0.011401147 6.3192798e-005 0.0052988371 4.3555629e-005 0.0053215055 0.99964583 -0.010562688
169939622.64151 0.99993712 -0.011768028 6.41761e-005 0.0056269486 6.2872015e-005 0.0056538805 0.99968028 -0.011016093
179935849.0566 0.99999881 -0.011993229 8.2590384e-005 0.0059375688 9.5296651e-005 0.0059809294 0.99957895 -0.011371911
189932075.4717 1.0000219 -0.012858599 7.6027121e-005 0.0062968759 7.2510913e-005 0.0062967497 0.99982893 -0.011894286
199928301.88679 1.0000207 -0.01361081 7.5967866e-005 0.006625005 0.00010561058 0.0066793351 0.99974471 -0.01282233
209924528.30189 0.99981588 -0.014212906 0.00011540041 0.0069582495 0.00010598032 0.0069773397 0.99950206 -0.013511419
219920754.71698 0.99992186 -0.015004069 0.00011668936 0.0072976463 0.00011337525 0.0073203589 0.99930763 -0.014119893
229916981.13208 0.99969655 -0.015914321 0.00011169515 0.007609617 0.00013310811 0.007656402 0.99934232 -0.01490128
239913207.54717 0.99954194 -0.016531633 0.00013785411 0.0079292199 0.00012738827 0.0080027822 0.99929911 -0.015606973
249909433.96226 0.99956363 -0.017197341 0.00012649596 0.0082879718 0.00014404603 0.0083132582 0.99938953 -0.0162763
259905660.37736 0.99966478 -0.017813683 0.00013151392 0.008585602 0.00015304005 0.0086781243 0.999457 -0.016749769
269901886.79245 0.99976116 -0.018442854 0.0001319811 0.0089345817 0.00019519147 0.0089348154 0.99986088 -0.017557055
279898113.20755 0.99984378 -0.019179285 0.00012931554 0.0092277993 0.0001722239 0.0092877792 0.99973434 -0.018282577
289894339.62264 0.99976069 -0.019872248 0.00022243755 0.0095999893 0.00018034549 0.0096310051 0.99963331 -0.018982261
299890566.03774 0.99976921 -0.020402491 0.00019982201 0.0099313874 0.00019683992 0.010021975 0.99942589 -0.019373864
309886792.45283 0.99954778 -0.020911641 0.00020409073 0.010249791 0.00020684081 0.010303866 0.99940437 -0.019816257
319883018.86792 0.99957287 -0.021518141 0.00020209979 0.010612383 0.00020654686 0.010665072 0.99948257 -0.020428747
329879245.28302 0.99969435 -0.022315502 0.00024172291 0.010890725 0.00025678473 0.010967154 0.99954587 -0.021127969
339875471.69811 0.99950361 -0.023006424 0.0002595142 0.011257254 0.00025513815 0.011287378 0.99948102 -0.021928288
349871698.11321 0.99967563 -0.023846298 0.00028368598 0.011552116 0.00027518021 0.011654589 0.99958116 -0.022837043
359867924.5283 0.99945331 -0.024623573 0.00028826017 0.011911195 0.00029588956 0.011951707 0.99947858 -0.023794562
369864150.9434 0.9996506 -0.025396734 0.00031381357 0.01221822 0.0003204213 0.012307176 0.99947166 -0.024472862
379860377.35849 0.99953562 -0.026088521 0.00031713792 0.012585207 0.00033786986 0.012622576 0.99939555 -0.025194019
389856603.77358 0.99949312 -0.026744068 0.0003821468 0.012900413 0.0003106161 0.012983052 0.99933505 -0.02559787
399852830.18868 0.99925858 -0.027342379 0.00036714738 0.013174186 0.00034030713 0.013283785 0.99940205 -0.026084661
409849056.60377 0.99927467 -0.027785905 0.00037892335 0.013575852 0.0003655472 0.013609441 0.99932528 -0.026693581
419845283.01887 0.99931562 -0.028269798 0.0003746911 0.013886841 0.0004066946 0.013955883 0.99930561 -0.027122915
429841509.43396 0.99934596 -0.028917909 0.00041271932 0.01420758 0.00041489163 0.01429291 0.99944001 -0.027919531
439837735.84906 0.99915075 -0.029822558 0.00042531674 0.014504399 0.00045091251 0.01461779 0.99925196 -0.028863981
449833962.26415 0.99918145 -0.030609697 0.00047342991 0.01481227 0.00046806643 0.014877355 0.99882799 -0.029641896
459830188.67925 0.99897218 -0.031287402 0.00043698214 0.015163029 0.00043899938 0.01526078 0.99859589 -0.030387551
469826415.09434 0.99896479 -0.032058805 0.00047795847 0.015519637 0.00045133941 0.015611206 0.99839091 -0.030837983
479822641.50943 0.99887526 -0.032590546 0.00050088041 0.015845707 0.00046446337 0.015983554 0.99843359 -0.031307347
489818867.92453 0.99898279 -0.033041894 0.00054009538 0.016190071 0.00050344924 0.01627383 0.99867165 -0.031738639
499815094.33962 0.998936 -0.033820957 0.00055906083 0.016527386 0.00057611708 0.01659948 0.998941 -0.032340944
509811320.75472 0.99909729 -0.034189783 0.00061063387 0.016856618 0.00058562146 0.016933016 0.9990471 -0.033149447
519807547.16981 0.99901557 -0.034791559 0.00057066046 0.017177887 0.00057685003 0.017260663 0.99907672 -0.033848882
529803773.58491 0.99903023 -0.035331339 0.00059686042 0.01745468 0.00060909148 0.017570317 0.99891621 -0.034413785
539800000 0.99910051 -0.03602691 0.00064579491 0.017822338 0.00065309345 0.017950827 0.99865425 -0.034997389
549796226.41509 0.99895841 -0.03693521 0.0006313445 0.018159347 0.00065049343 0.01829982 0.99855042 -0.035489112
559792452.83019 0.99870932 -0.037626565 0.00064471364 0.018497653 0.00067272689 0.018582523 0.99851799 -0.0360201
569788679.24528 0.99863881 -0.038295448 0.00071597053 0.018838925 0.00068510044 0.018903866 0.99867171 -0.036733776
579784905.66038 0.9985655 -0.038892999 0.00073732494 0.01915827 0.00070199522 0.019232757 0.99881184 -0.037496537
589781132.07547 0.99871266 -0.03949222 0.00079355389 0.019492142 0.00072787888 0.019584015 0.99893177 -0.038309246
599777358.49057 0.99870968 -0.04008311 0.00079718232 0.019800784 0.00077161193 0.01994345 0.99893332 -0.039120704
609773584.90566 0.99892199 -0.040826455 0.00079841958 0.020147095 0.00081914163 0.020276386 0.99886197 -0.039927538
619769811.32075 0.99901313 -0.041506261 0.00083786482 0.020463629 0.00085658627 0.020584036 0.998806 -0.040437609
629766037.73585 0.99887598 -0.042175978 0.0009117499 0.020777732 0.00083578657 0.020883977 0.99858713 -0.040969878
639762264.15094 0.99864906 -0.042845875 0.00089822034 0.021081146 0.00089956401 0.021226773 0.99849248 -0.041437954
649758490.56604 0.99858129 -0.04338643 0.00090218754 0.021395804 0.00085903844 0.021544183 0.99857199 -0.04186818
659754716.98113 0.99842483 -0.043927342 0.00088014454 0.021749064 0.00088637695 0.021853229 0.99860477 -0.04246065
669750943.39623 0.99842 -0.044461548 0.00093883928 0.022080738 0.00094875926 0.022207957 0.99870944 -0.043276072
679747169.81132 0.99843889 -0.045254521 0.0009821828 0.022434318 0.00092610053 0.022580698 0.99866438 -0.044174887
689743396.22642 0.99861109 -0.045988292 0.0010362491 0.022775799 0.0010231342 0.022912733 0.99847245 -0.045137614
699739622.64151 0.99872017 -0.04672423 0.0010267878 0.023089183 0.0010580849 0.023253882 0.99845147 -0.045829266
709735849.0566 0.99861985 -0.047524892 0.0011064024 0.023368262 0.0010894386 0.023530301 0.99819404 -0.046454109
719732075.4717 0.99851507 -0.048330903 0.0011413409 0.023728104 0.0011388725 0.023839809 0.99826783 -0.047088176
729728301.88679 0.99847758 -0.048957944 0.0011528721 0.024047766 0.0011412269 0.024182014 0.99826503 -0.047516137
739724528.30189 0.9983027 -0.049526051 0.0011929339 0.024390737 0.0011820951 0.024513425 0.99843985 -0.04822199
749720754.71698 0.99829102 -0.050110474 0.0012225336 0.024665726 0.0012367144 0.024810173 0.99845684 -0.048856705
759716981.13208 0.99835598 -0.050599277 0.0012204191 0.024991065 0.001238402 0.025146645 0.99845564 -0.04964295
769713207.54717 0.99824297 -0.051271409 0.0012798756 0.025335699 0.0012973016 0.025482602 0.9981764 -0.050379425
779709433.96226 0.99835938 -0.051828165 0.0012851739 0.025654599 0.0013244124 0.025785901 0.99789166 -0.05104294
789705660.37736 0.99823797 -0.052843124 0.0013404731 0.025971573 0.0013415143 0.026117558 0.99766165 -0.051696092
799701886.79245 0.9982149 -0.053552419 0.0013578478 0.02626875 0.0013857987 0.026438078 0.99753535 -0.052327693
809698113.20755 0.99817514 -0.054143697 0.0013973457 0.026594553 0.0013681906 0.026785428 0.99758208 -0.052722409
819694339.62264 0.99800491 -0.054924309 0.0014263541 0.026916321 0.0014187689 0.027107753 0.99766082 -0.053371012
829690566.03774 0.99793136 -0.055488318 0.0014418224 0.027258338 0.0014701476 0.027410595 0.99791646 -0.05424124
839686792.45283 0.9980287 -0.055929661 0.0014997167 0.027553655 0.0014849394 0.027756758 0.99798071 -0.055010527
849683018.86792 0.99802297 -0.056479439 0.0015090834 0.027901692 0.0015350902 0.02806133 0.99781364 -0.055735916
859679245.28302 0.99818516 -0.057291329 0.0015376871 0.028226923 0.0015629428 0.028398724 0.99755174 -0.056414455
869675471.69811 0.998074 -0.057909161 0.0015837066 0.028535504 0.0016075838 0.028714903 0.99727076 -0.056866288
879671698.11321 0.99799597 -0.058691375 0.0016448491 0.028826019 0.0016386166 0.029024795 0.99724233 -0.057336874
889667924.5283 0.99778348 -0.05943498 0.0016519381 0.029145282 0.0016651293 0.029354423 0.9970752 -0.057783455
899664150.9434 0.99758893 -0.060149342 0.0016601207 0.029482871 0.0016956097 0.029638723 0.99712336 -0.058359861
909660377.35849 0.99762744 -0.060806111 0.0017123856 0.029783187 0.0017002556 0.029977476 0.99725491 -0.059257969
919656603.77358 0.99771249 -0.061434612 0.001732938 0.03010335 0.0017405725 0.030313153 0.99724078 -0.060104519
929652830.18868 0.99768186 -0.062212199 0.0017677331 0.03043532 0.0017621797 0.030625023 0.99709785 -0.061017573
939649056.60377 0.99784619 -0.062894076 0.0017619319 0.030705923 0.0017961627 0.030955425 0.99695873 -0.06170398
949645283.01887 0.99784863 -0.063696757 0.0017507328 0.031090708 0.0017780366 0.031293552 0.99670058 -0.062252171
959641509.43396 0.99783051 -0.064319283 0.0017990135 0.03141002 0.0017939536 0.031638354 0.99663305 -0.062741578
969637735.84906 0.99772286 -0.065082788 0.0018617548 0.031784464 0.0018653134 0.031998973 0.99671912 -0.06308499
979633962.26415 0.99753278 -0.065810986 0.0018992194 0.032081619 0.0019247537 0.032273658 0.99672127 -0.063750163
989630188.67925 0.99758303 -0.066306591 0.0019463114 0.032403938 0.0019621737 0.032634184 0.99690247 -0.064409673
999626415.09434 0.99766767 -0.067007482 0.0019930899 0.032734282 0.0020268252 0.032967333 0.99684221 -0.065144509
1009622641.5094 0.99771422 -0.067556143 0.0019861627 0.033057295 0.0020206422 0.033277933 0.99672633 -0.065927222
1019618867.9245 0.99776638 -0.068438202 0.0020579342 0.033379406 0.0020938041 0.033589769 0.99644387 -0.066738799
1029615094.3396 0.99768972 -0.069288254 0.0021047601 0.033700846 0.0021598879 0.03388482 0.99611771 -0.06734857
1039611320.7547 0.99774736 -0.070163608 0.0021358971 0.034001704 0.0021612747 0.034217879 0.99607641 -0.068001062
1049607547.1698 0.99759281 -0.071054824 0.002154812 0.034304217 0.0021802525 0.034543309 0.99605012 -0.06861186
1059603773.5849 0.99752593 -0.071724564 0.0021964014 0.034585249 0.00220678 0.034856789 0.99607402 -0.069134742
1069600000 0.99723196 -0.072430104 0.0021815207 0.034915768 0.0022267178 0.035185218 0.99621642 -0.069846839
1079596226.4151 0.99731338 -0.073117062 0.0022142925 0.035221741 0.0022717342 0.035491854 0.99622458 -0.070574574
1089592452.8302 0.99727654 -0.073686391 0.0022197701 0.035567146 0.0022774665 0.035816669 0.99624586 -0.071359336
1099588679.2453 0.99735332 -0.074344605 0.0022472646 0.03590348 0.0022929907 0.036141396 0.99590194 -0.071946651
1109584905.6604 0.99733925 -0.075123817 0.0022683553 0.036210433 0.0023389608 0.036477931 0.99566555 -0.072548956
1119581132.0755 0.99734443 -0.07613647 0.0022886684 0.036586583 0.002347019 0.036820762 0.9954412 -0.072939694
1129577358.4906 0.99719012 -0.076804787 0.0023300685 0.036930338 0.0023774989 0.037210748 0.9953177 -0.073370606
1139573584.9057 0.99696815 -0.077763557 0.0023720302 0.037276924 0.0024282867 0.037555568 0.99543035 -0.074036539
1149569811.3208 0.99688524 -0.078560479 0.0024333398 0.037568394 0.0025075544 0.037840571 0.99557561 -0.074807785
1159566037.7358 0.99670649 -0.079259783 0.0024519525 0.037885718 0.0025407383 0.038124133 0.99564123 -0.07582289
1169562264.1509 0.99650723 -0.079984605 0.0024491344 0.038200762 0.0025442857 0.038500555 0.99553031 -0.076589644
1179558490.566 0.99648058 -0.080715865 0.0024894793 0.038554315 0.0025695753 0.03884295 0.99534106 -0.077277005
1189554716.9811 0.99649638 -0.081416041 0.0025301594 0.038895614 0.0026336079 0.039170325 0.99508506 -0.077843666
1199550943.3962 0.99643773 -0.082312495 0.0025390908 0.039261125 0.0026933048 0.039511934 0.99488068 -0.078263193
1209547169.8113 0.99627012 -0.083140343 0.0025985241 0.039573513 0.0027110446 0.03981274 0.99484324 -0.078658924
1219543396.2264 0.99603951 -0.083948672 0.0026370403 0.039937407 0.002755797 0.040194601 0.9949013 -0.078983694
1229539622.6415 0.99578142 -0.084850758 0.0027125087 0.040242966 0.0028121173 0.040516615 0.99501407 -0.079685092
1239535849.0566 0.99561834 -0.085381806 0.0027484223 0.040572912 0.0028929189 0.040864743 0.99511933 -0.080500185
1249532075.4717 0.99529672 -0.086063728 0.0028376379 0.040897805 0.0029754986 0.041147348 0.99493045 -0.08137165
1259528301.8868 0.99501884 -0.086522639 0.0029049609 0.041233718 0.0030135047 0.041485213 0.99475932 -0.082145691
1269524528.3019 0.99486446 -0.087291718 0.0029480364 0.041529346 0.0030772388 0.041782938 0.99447024 -0.082879424
1279520754.717 0.99452567 -0.088007674 0.0030035153 0.041828692 0.0031116337 0.042021878 0.99421817 -0.083411984
1289516981.1321 0.9943651 -0.088821441 0.0030291053 0.042116638 0.0031136153 0.042342473 0.99433267 -0.08381474
1299513207.5472 0.99403453 -0.089691818 0.0030437559 0.042423945 0.0031557549 0.042656146 0.99447453 -0.084288597
1309509433.9623 0.99359149 -0.090413719 0.0030290913 0.042731501 0.0031835213 0.042955305 0.99453491 -0.085052297
1319505660.3774 0.99334693 -0.091183171 0.0030638613 0.043098707 0.0031819986 0.043265086 0.99457246 -0.085673138
1329501886.7925 0.99297303 -0.091746181 0.0030779354 0.043383062 0.0031949747 0.043571867 0.99461484 -0.086636692
1339498113.2075 0.99277055 -0.092328876 0.003092573 0.043712355 0.0032334216 0.043913983 0.9941234 -0.087323964
1349494339.6226 0.99255741 -0.092851877 0.0030497988 0.04403723 0.0032019285 0.044259802 0.99387079 -0.087869413
1359490566.0377 0.99247754 -0.09338519 0.0031017549 0.044398714 0.0032230765 0.044621281 0.99369848 -0.088362306
1369486792.4528 0.99221224 -0.093984365 0.0030928375 0.044770136 0.0032141833 0.044932157 0.99349803 -0.088805199
1379483018.8679 0.9919787 -0.094495282 0.0031203472 0.045136206 0.0032393595 0.045302968 0.99345499 -0.08920946
1389479245.283 0.991651 -0.094988108 0.0031816401 0.045545802 0.0032576919 0.045699932 0.99350667 -0.089874327
1399475471.6981 0.99119627 -0.095452219 0.0031717215 0.045848042 0.0032976642 0.046051882 0.99363828 -0.090478331
1409471698.1132 0.99098951 -0.095624223 0.0032093206 0.046030466 0.0032807232 0.046349589 0.99368453 -0.091227867
1419467924.5283 0.99081528 -0.095984399 0.0032288609 0.046406146 0.0033303024 0.046684608 0.99341929 -0.091943324
1429464150.9434 0.99066144 -0.09635365 0.0032795891 0.046838909 0.003346011 0.04709287 0.99336857 -0.092528045
1439460377.3585 0.9908036 -0.096849978 0.0033642827 0.047244307 0.0033848528 0.047490843 0.99311584 -0.092839763
1449456603.7736 0.99083626 -0.097325623 0.0034375889 0.047660023 0.0035082689 0.047922362 0.99304587 -0.093166083
1459452830.1887 0.9908191 -0.098045021 0.0035797935 0.048012864 0.0036312621 0.048281014 0.99311709 -0.093507349
1469449056.6038 0.99081445 -0.098763525 0.0036979821 0.048393741 0.0037791459 0.048655882 0.9933989 -0.094145477
1479445283.0189 0.9906714 -0.09928821 0.0038346644 0.048628666 0.0038897926 0.048956174 0.99340773 -0.09504547
1489441509.434 0.99057853 -0.099855781 0.0039866567 0.048974857 0.0040352326 0.049261581 0.99336618 -0.095918477
1499437735.8491 0.99048102 -0.10010692 0.0041297283 0.049237899 0.0041325167 0.04950624 0.99324 -0.096630692
1509433962.2642 0.99047494 -0.10077517 0.0041622128 0.049509995 0.0042232317 0.049805451 0.9929933 -0.097426705
1519430188.6792 0.99056435 -0.10124713 0.0042097289 0.049802922 0.0042573698 0.050090395 0.9929657 -0.097995013
1529426415.0943 0.99050701 -0.10188246 0.0043402333 0.050033148 0.0043391567 0.05036949 0.99283028 -0.098453224
1539422641.5094 0.99054837 -0.10267956 0.004377218 0.050363038 0.0043739229 0.050697796 0.99291873 -0.098952934
1549418867.9245 0.99040192 -0.10350661 0.0044299429 0.050651982 0.0044128709 0.050965145 0.99316692 -0.099610686
1559415094.3396 0.99021435 -0.10415989 0.0044870488 0.050924562 0.0044606049 0.051250324 0.99333066 -0.10020769
1569411320.7547 0.99015826 -0.10485291 0.004536815 0.051187117 0.0044989735 0.051537633 0.99324328 -0.10108072
1579407547.1698 0.99013853 -0.10538548 0.0045172949 0.051476263 0.0045185173 0.051814824 0.9929136 -0.10188137
1589403773.5849 0.99008036 -0.10586709 0.0044985227 0.051760375 0.0045597013 0.05212307 0.99266636 -0.10255012
1599400000 0.9900344 -0.10635945 0.0044980561 0.052066609 0.0045050625 0.05242116 0.99228549 -0.10299584
1609396226.4151 0.9899686 -0.10704362 0.0045200712 0.052418862 0.0045492779 0.052752275 0.99212915 -0.10355107
1619392452.8302 0.98999149 -0.10758829 0.00453908 0.052703012 0.0044956487 0.053106807 0.99203801 -0.10401884
1629388679.2453 0.98971915 -0.10839772 0.0045444258 0.053079341 0.0045667086 0.053435728 0.99226105 -0.10450619
1639384905.6604 0.9894917 -0.10902958 0.0045484346 0.053420451 0.0044961502 0.053817566 0.99251586 -0.10539551
1649381132.0755 0.98940092 -0.10971057 0.0045403857 0.053793751 0.0045376383 0.054182407 0.99255955 -0.10622621
1659377358.4906 0.98912227 -0.11042821 0.0045383889 0.054158594 0.004619427 0.054582085 0.99248815 -0.10711244
1669373584.9057 0.98911595 -0.11093585 0.0045932992 0.054515038 0.0046157409 0.05489295 0.99227703 -0.1078101
1679369811.3208 0.98909605 -0.11153454 0.0046470081 0.054859962 0.00466148 0.055292409 0.99203962 -0.10830441
1689366037.7358 0.98921835 -0.11216503 0.004720157 0.055250447 0.0046902988 0.05567386 0.99174595 -0.10870829
1699362264.1509 0.98920369 -0.11275612 0.0047766631 0.055614334 0.0047408473 0.056030978 0.99198169 -0.10907207
1709358490.566 0.98914313 -0.11339767 0.0048127184 0.055974506 0.0048120841 0.056427889 0.99204934 -0.10966001
1719354716.9811 0.98882991 -0.11398962 0.004841337 0.056370147 0.0048494618 0.056816559 0.99207234 -0.11028093
1729350943.3962 0.98858261 -0.11455753 0.0049270429 0.056751031 0.0049583875 0.057181295 0.99213183 -0.1111685
