!Keysight Technologies,N5222B,MY61253708,A.15.00.15
!Date: Wednesday, June 19, 2024 10:25:24
!Correction: S11(C  2-Port  ) 
!S21(C  2-Port  ) 
!S12(C  2-Port  ) 
!S22(C  2-Port  ) 
!S2P File: Measurements: S11, S21, S12, S22:
# Hz S  RI   R 50
10000000 0.99888659 -0.0029284656 -8.5711741e-005 0.00050455576 0.00020884677 0.00026406377 0.9984464 -0.00202021
19996226.415094 1.0000858 -0.0023613572 -8.8027038e-005 0.00069546985 -0.00011717287 0.00067346828 1.0000445 -0.0021836162
29992452.830189 0.99974501 -0.002500385 5.2144809e-005 0.00099727418 1.4054793e-005 0.00098046358 0.99928844 -0.0026532412
39988679.245283 1.000079 -0.0029952079 3.4778655e-005 0.0012962704 -9.54594e-006 0.001313515 0.99966478 -0.0030241013
49984905.660377 1.0003116 -0.0036594272 2.757879e-005 0.001628902 1.6278238e-005 0.0016360907 0.99986839 -0.0036384761
59981132.075472 1.0003896 -0.0044582784 3.2500713e-005 0.0019544235 1.4807563e-005 0.0019811098 0.99988401 -0.0041751266
69977358.490566 1.0002273 -0.0050474405 2.3010391e-005 0.0022815871 8.764091e-006 0.0023102963 0.99970984 -0.0047111884
79973584.90566 0.9999342 -0.0056124926 2.3162575e-005 0.0026023148 2.0109699e-005 0.0025855228 0.99933815 -0.005173862
89969811.320755 0.99999601 -0.0056315958 -3.6937883e-005 0.0029223245 -1.1315569e-006 0.0029534264 0.99959445 -0.0053828657
99966037.735849 1.0002481 -0.0063336343 1.0982447e-005 0.003271162 9.7464654e-006 0.0032454804 0.99969876 -0.0061567277
109962264.15094 1.0002828 -0.0072446615 2.4024514e-005 0.0035967112 2.697634e-005 0.0035626101 0.99970305 -0.0069309771
119958490.56604 1.0002507 -0.0081435442 2.2141496e-005 0.003879634 3.1012227e-005 0.003911959 0.99975222 -0.0077877343
129954716.98113 1.0002499 -0.0091322958 4.0087616e-005 0.0042127795 4.1477731e-005 0.0042288709 0.99975592 -0.0086446106
139950943.39623 1.0001402 -0.0099384151 2.8619412e-005 0.0045312773 4.5845503e-005 0.0045431531 0.99967694 -0.0094234459
149947169.81132 1.0000256 -0.010593683 4.2512314e-005 0.0048386534 5.4407399e-005 0.0048802649 0.99959594 -0.0099996924
159943396.22642 0.99995857 -0.011114538 6.4096879e-005 0.0051816124 5.0986186e-005 0.0052326713 0.99964654 -0.010423422
169939622.64151 0.99994868 -0.011479817 5.004782e-005 0.005537929 5.0096132e-005 0.0055437852 0.99969661 -0.010875881
179935849.0566 1.000003 -0.011700183 6.0004881e-005 0.0058617108 6.3231098e-005 0.0058651259 0.9995628 -0.011244714
189932075.4717 1.000139 -0.012478471 7.2645023e-005 0.006150641 8.092355e-005 0.0061918832 0.99979329 -0.01175487
199928301.88679 1.0000795 -0.013312489 7.5096032e-005 0.006495818 0.00010091404 0.0065226392 0.99967551 -0.012655586
209924528.30189 0.99986005 -0.0138814 9.1298716e-005 0.00683273 8.546107e-005 0.0068230974 0.99947101 -0.013285771
219920754.71698 1.0000089 -0.014692128 0.00011844374 0.0071586259 0.00010872213 0.0071497243 0.99939132 -0.013911486
229916981.13208 0.99971598 -0.015563697 0.00012183306 0.0074575343 0.00010201964 0.0074848975 0.99938017 -0.014691293
239913207.54717 0.9996016 -0.016131636 0.00014549065 0.0077834059 0.00012086831 0.0078196023 0.99930429 -0.01546406
249909433.96226 0.99965882 -0.01676175 0.00012429687 0.0081087444 0.00014635245 0.0081237508 0.99937367 -0.015972853
259905660.37736 0.99976826 -0.01734063 0.00015200768 0.0084475344 0.00017753756 0.0084551591 0.99961507 -0.016522676
269901886.79245 0.99986875 -0.017983153 0.00014702894 0.0087506045 0.00020545325 0.0088166362 0.99996376 -0.017140105
279898113.20755 0.99994695 -0.01862298 0.00020688283 0.0091008767 0.00014602975 0.0090967966 0.99989867 -0.018045858
289894339.62264 0.99990344 -0.01941365 0.00016725576 0.0093763247 0.00019649183 0.0094753867 0.9998138 -0.018754154
299890566.03774 0.99990219 -0.019924432 0.00018536928 0.0096904943 0.00020364951 0.0097434502 0.99955308 -0.019265056
309886792.45283 0.99964345 -0.020441532 0.00016165024 0.01002061 0.00021257834 0.010086649 0.99936318 -0.019605309
319883018.86792 0.99967623 -0.020973653 0.00021497626 0.010400029 0.00021387823 0.010466853 0.9994998 -0.020114183
329879245.28302 0.99964327 -0.021868378 0.00020421855 0.010699989 0.0002496643 0.010702668 0.99952203 -0.02082178
339875471.69811 0.9995774 -0.02255857 0.00024351454 0.011025396 0.0002434199 0.011079727 0.99949294 -0.021627478
349871698.11321 0.99982375 -0.02339223 0.00026569795 0.011321299 0.00026099267 0.011380078 0.99953651 -0.022571057
359867924.5283 0.99968618 -0.024187416 0.00024739048 0.011678624 0.00029191328 0.011720675 0.99952066 -0.023441255
369864150.9434 0.99982107 -0.024922729 0.00024021743 0.012029543 0.00031996821 0.012021068 0.99949753 -0.024129242
379860377.35849 0.99971402 -0.025742188 0.00029044272 0.012334864 0.00030957069 0.012329428 0.99935722 -0.024770603
389856603.77358 0.9996165 -0.026331872 0.00034630066 0.012658644 0.00034362124 0.012668819 0.99935746 -0.025245696
399852830.18868 0.9993363 -0.026894182 0.00036208471 0.012973823 0.00034349505 0.01299986 0.99940056 -0.025707424
409849056.60377 0.99935549 -0.027394481 0.00038235309 0.013319803 0.00034525854 0.013308052 0.99939203 -0.026188133
419845283.01887 0.99930084 -0.027831614 0.00035944255 0.01359076 0.00037811557 0.013638509 0.9994356 -0.026784241
429841509.43396 0.99932641 -0.028439373 0.00040730555 0.013926229 0.00039606262 0.013980372 0.99954408 -0.027510703
439837735.84906 0.99917555 -0.02941142 0.000418877 0.014248658 0.00041599281 0.014287075 0.99930698 -0.028482184
449833962.26415 0.99894351 -0.030062914 0.00042804051 0.014585668 0.00042091217 0.01461872 0.99884981 -0.029316932
459830188.67925 0.99872762 -0.030755818 0.00044733519 0.01489772 0.00045396341 0.014946449 0.99866909 -0.030003816
469826415.09434 0.99871153 -0.031515002 0.00046728691 0.015243774 0.00043201959 0.015253916 0.99842238 -0.03050065
479822641.50943 0.99855089 -0.031965166 0.00048634736 0.01556668 0.00046714465 0.015585479 0.99852759 -0.030875832
489818867.92453 0.99856228 -0.032469571 0.00050496869 0.015858304 0.00047310488 0.015893718 0.99883223 -0.031362146
499815094.33962 0.99865592 -0.032918066 0.00051497947 0.016201671 0.00053898664 0.016217679 0.99902737 -0.031956077
509811320.75472 0.9987675 -0.033394158 0.00055430114 0.016538473 0.00056412711 0.01652142 0.99914688 -0.032736864
519807547.16981 0.99877083 -0.033793002 0.00057318015 0.016857339 0.00058008684 0.016836926 0.99914038 -0.033433288
529803773.58491 0.99876606 -0.03438884 0.00061570341 0.017190563 0.00054491311 0.017208211 0.99897188 -0.033998579
539800000 0.99883664 -0.035101175 0.00060484488 0.017470893 0.00058470597 0.017544961 0.99875599 -0.034635529
549796226.41509 0.99866045 -0.035879374 0.00061806012 0.017825155 0.00061477115 0.017836081 0.99862224 -0.035106987
559792452.83019 0.99845719 -0.036548197 0.00066196918 0.018125391 0.00062621478 0.018183537 0.99858737 -0.035601944
569788679.24528 0.99836367 -0.037149549 0.00066054845 0.018438755 0.0006682002 0.018471098 0.99880427 -0.036276489
579784905.66038 0.99837202 -0.037743144 0.00066469924 0.018766867 0.0006800947 0.018834494 0.99890006 -0.037044689
589781132.07547 0.99864948 -0.03832823 0.00071323849 0.019096613 0.00068407319 0.019163935 0.99895686 -0.03782317
599777358.49057 0.99872625 -0.038924307 0.0007465193 0.019409049 0.00075781345 0.01943407 0.99903125 -0.038578689
609773584.90566 0.99887812 -0.039760925 0.00079884136 0.019766573 0.00074718962 0.0198006 0.99888158 -0.039443433
619769811.32075 0.99896103 -0.040428877 0.0008234391 0.02006493 0.00081621995 0.020139724 0.9988665 -0.040035129
629766037.73585 0.99879658 -0.041046858 0.00085871108 0.020382095 0.00081187766 0.020413384 0.998658 -0.040463507
639762264.15094 0.99866092 -0.041676685 0.00086616469 0.020695234 0.00085832179 0.020757772 0.9985218 -0.041035846
649758490.56604 0.99858046 -0.042209059 0.00088901678 0.020961801 0.00087314704 0.021065388 0.99864149 -0.041450351
659754716.98113 0.99848235 -0.042771578 0.00085831992 0.021326222 0.000838181 0.021404572 0.99866122 -0.041986227
669750943.39623 0.99841058 -0.043240368 0.00088252453 0.02166554 0.0008825562 0.021745108 0.99877203 -0.042753518
679747169.81132 0.99847567 -0.043968461 0.0009553124 0.022020862 0.00093133142 0.022065246 0.99874532 -0.043697812
689743396.22642 0.99868619 -0.044807792 0.00097673759 0.022341536 0.00098062865 0.022418201 0.99858534 -0.044628292
699739622.64151 0.99883127 -0.045636386 0.0010319827 0.022656176 0.0010226052 0.022704314 0.99848616 -0.045332462
709735849.0566 0.99870121 -0.046439767 0.0010776969 0.022964602 0.001059121 0.023013597 0.99820602 -0.045969173
719732075.4717 0.99856687 -0.047149748 0.001091043 0.023288349 0.0010619811 0.023311259 0.99830866 -0.046522319
729728301.88679 0.99858522 -0.047829181 0.0011266582 0.023604143 0.0011113584 0.023624901 0.99838018 -0.046894521
739724528.30189 0.9983694 -0.048418671 0.0011613686 0.023909701 0.0011271834 0.023988074 0.99857491 -0.047638044
749720754.71698 0.99832642 -0.04885444 0.0011700578 0.024237538 0.0011625015 0.024260947 0.99857932 -0.048358873
759716981.13208 0.99836522 -0.049415618 0.001209789 0.024531567 0.0011947285 0.02458201 0.99856532 -0.049099594
769713207.54717 0.99829024 -0.050139785 0.0012456141 0.024850363 0.0012236238 0.024907162 0.99825257 -0.049760789
779709433.96226 0.99851882 -0.050735146 0.0012496767 0.02519487 0.0012695792 0.025247606 0.99793792 -0.050451536
789705660.37736 0.99828094 -0.051675141 0.0012818342 0.02548491 0.0012882948 0.025507262 0.99779272 -0.051133245
799701886.79245 0.99821281 -0.052427381 0.0013354244 0.025785703 0.0013311235 0.025817309 0.99762034 -0.051696181
809698113.20755 0.99817407 -0.053067744 0.0013529467 0.026136747 0.0013246061 0.026157623 0.99760735 -0.052129015
819694339.62264 0.99793345 -0.053717434 0.0013523963 0.026421074 0.0013568187 0.026475336 0.99778783 -0.052681535
829690566.03774 0.99792683 -0.054225475 0.001405769 0.026724823 0.0014120257 0.026804635 0.99798667 -0.053592592
839686792.45283 0.99785912 -0.054617852 0.0014095749 0.027053433 0.0014339648 0.027111765 0.99809688 -0.054391146
849683018.86792 0.99799758 -0.05536411 0.0014444799 0.027392821 0.0014676934 0.027424883 0.99795896 -0.055078633
859679245.28302 0.99804115 -0.055991709 0.0015064655 0.027721105 0.0014998876 0.027740411 0.99768233 -0.055745631
869675471.69811 0.9979949 -0.05676055 0.0015478972 0.028002795 0.0015545636 0.028080881 0.99731934 -0.056203097
879671698.11321 0.99789178 -0.057382125 0.0015850066 0.028292263 0.0015988783 0.028365886 0.99728006 -0.056616493
889667924.5283 0.99774325 -0.058198363 0.0016026888 0.028583497 0.0015890067 0.028676212 0.99714214 -0.057120234
899664150.9434 0.99755073 -0.058829814 0.0016067801 0.028909091 0.0016049845 0.029003555 0.99724144 -0.057767183
909660377.35849 0.99754286 -0.059504256 0.0016076989 0.029219251 0.0016344725 0.029313339 0.99741644 -0.058512658
919656603.77358 0.99757642 -0.060118124 0.0016483795 0.029565958 0.0016617361 0.029632306 0.99734634 -0.059433848
929652830.18868 0.99763179 -0.060779691 0.0016694628 0.029844457 0.001680756 0.02993761 0.99727154 -0.060308695
939649056.60377 0.99783385 -0.061399758 0.0016732132 0.030149983 0.0016874382 0.030259131 0.99707067 -0.061000049
949645283.01887 0.99769402 -0.062161256 0.0016980359 0.030502221 0.0017099192 0.030586755 0.99684757 -0.061543882
959641509.43396 0.99763817 -0.062865168 0.0017325133 0.03086197 0.0017396528 0.030926017 0.99684286 -0.062020242
969637735.84906 0.99757576 -0.063603699 0.0017722361 0.031182699 0.0017709397 0.031240035 0.99679792 -0.062273175
979633962.26415 0.99737817 -0.064240791 0.0018261224 0.031465884 0.0018284561 0.03155439 0.99688786 -0.062944591
989630188.67925 0.99740356 -0.064725935 0.0018782485 0.031795334 0.0018720133 0.031894792 0.99712479 -0.063599855
999626415.09434 0.99746978 -0.065348595 0.0018925695 0.032117181 0.0018856972 0.032212604 0.99700642 -0.064373732
1009622641.5094 0.99757898 -0.066066936 0.0019083158 0.032434821 0.001956007 0.032573197 0.99687749 -0.065148681
1019618867.9245 0.99761397 -0.066831484 0.0019774837 0.032757752 0.0020007598 0.032850042 0.99660254 -0.066052094
1029615094.3396 0.99761772 -0.067697167 0.0020195907 0.033078764 0.0020568836 0.033163939 0.99625087 -0.066615492
1039611320.7547 0.99769181 -0.068569779 0.0020757541 0.033401523 0.0020670667 0.033446297 0.99622488 -0.067232132
1049607547.1698 0.99759847 -0.06938044 0.0020906976 0.033645865 0.0021012835 0.033759929 0.99624085 -0.067808092
1059603773.5849 0.99737841 -0.07012412 0.0020997385 0.033939902 0.002120276 0.034055609 0.99623138 -0.068341404
1069600000 0.99722242 -0.070687294 0.0021210033 0.034231439 0.0021402128 0.034370288 0.99640691 -0.069004178
1079596226.4151 0.99719232 -0.071371838 0.0021201558 0.034577094 0.00216944 0.034707751 0.99643177 -0.069814667
1089592452.8302 0.99720919 -0.071981847 0.0021407455 0.034904703 0.002162206 0.035041567 0.9963451 -0.070464611
1099588679.2453 0.99730897 -0.07260862 0.0021571796 0.035245821 0.0021605752 0.035346776 0.99601287 -0.071114868
1109584905.6604 0.99736619 -0.073456421 0.0021906802 0.035543755 0.0022110073 0.035650369 0.9957971 -0.071696594
1119581132.0755 0.9973833 -0.074312299 0.0022028238 0.035888352 0.0022255699 0.036015008 0.99561352 -0.072104231
1129577358.4906 0.99724191 -0.075096667 0.002241021 0.036269397 0.0022927895 0.036358148 0.99549019 -0.072538614
1139573584.9057 0.99699026 -0.076062441 0.002249822 0.036565393 0.0023363065 0.036681045 0.99562597 -0.073193222
1149569811.3208 0.99690574 -0.076825134 0.0023323956 0.036882211 0.0023726716 0.036973733 0.99573135 -0.073927686
1159566037.7358 0.99663866 -0.077512741 0.0023632869 0.03717934 0.0023820344 0.037281413 0.99587899 -0.074894667
1169562264.1509 0.99654865 -0.078160167 0.0023637041 0.037482142 0.0024190042 0.03760349 0.99569207 -0.07562837
1179558490.566 0.99650544 -0.078897446 0.0023485716 0.037824456 0.0024222927 0.038009044 0.99555278 -0.076333493
1189554716.9811 0.99650347 -0.079614192 0.0024168482 0.03817853 0.0024880832 0.038311552 0.99529529 -0.076856792
1199550943.3962 0.99643898 -0.080407947 0.0024539623 0.038517527 0.0025269147 0.038625956 0.99508715 -0.077292472
1209547169.8113 0.99628806 -0.081265986 0.0025096983 0.038839065 0.0025900733 0.038932692 0.99502909 -0.077647746
1219543396.2264 0.99606943 -0.082094818 0.0025357604 0.039190363 0.0026210211 0.039274622 0.99511915 -0.078017056
1229539622.6415 0.995857 -0.082909316 0.002622867 0.039502926 0.0026970636 0.039586674 0.99529028 -0.078714639
1239535849.0566 0.99557793 -0.083537906 0.0026588403 0.0398378 0.0027636858 0.039928071 0.99540043 -0.079617381
1249532075.4717 0.99534011 -0.084221512 0.0027073179 0.040155675 0.002796727 0.040252969 0.99520969 -0.08042179
1259528301.8868 0.99509674 -0.084731579 0.002748942 0.040429212 0.0028480683 0.040532939 0.99498761 -0.081304789
1269524528.3019 0.99496371 -0.085383922 0.0028184541 0.040771917 0.002957047 0.040813345 0.99473864 -0.081925094
1279520754.717 0.99466842 -0.086092688 0.0028657466 0.041054405 0.0029813363 0.041096713 0.99456704 -0.082484894
1289516981.1321 0.99460888 -0.086987913 0.0029059788 0.041317061 0.0029831398 0.041369714 0.99456674 -0.082879394
1299513207.5472 0.99419522 -0.08782658 0.0028983317 0.0416186 0.003016606 0.041686103 0.99474466 -0.083305925
1309509433.9623 0.99380368 -0.088466346 0.0028901184 0.041942149 0.0030029258 0.041982133 0.99483675 -0.083984941
1319505660.3774 0.99347156 -0.089159355 0.0028958414 0.042262968 0.0029947264 0.042307533 0.99486208 -0.08466284
1329501886.7925 0.99318004 -0.089858353 0.0029224735 0.042569418 0.003028661 0.042618319 0.99484241 -0.085577786
1339498113.2075 0.99293911 -0.090348959 0.0029456746 0.042867787 0.0030287085 0.042912714 0.99440527 -0.086287081
1349494339.6226 0.99277437 -0.090822056 0.0029525436 0.043211792 0.0030195736 0.04327824 0.99408406 -0.086855158
1359490566.0377 0.99268806 -0.091533512 0.002963759 0.043580286 0.0030143559 0.043581195 0.99392569 -0.087380141
1369486792.4528 0.99246502 -0.092015505 0.0029654363 0.043938067 0.0030340729 0.043947805 0.99375749 -0.087875277
1379483018.8679 0.99223709 -0.092591174 0.0029770751 0.044279262 0.003076551 0.044320073 0.99385458 -0.088175386
1389479245.283 0.99187452 -0.09314692 0.0030193757 0.044639945 0.0030888859 0.044688873 0.99377698 -0.088880926
1399475471.6981 0.99151361 -0.093458533 0.0030453783 0.045010611 0.0030914359 0.045019265 0.99394631 -0.089551151
1409471698.1132 0.99115646 -0.09383373 0.003046653 0.045385875 0.0031372271 0.04538621 0.99399066 -0.090352654
1419467924.5283 0.99094385 -0.094122261 0.0030555837 0.045728244 0.0031326925 0.045765731 0.9937833 -0.0910106
1429464150.9434 0.99087042 -0.09463048 0.0031249449 0.046146948 0.0031938367 0.046149969 0.99369657 -0.091552734
1439460377.3585 0.99104947 -0.095039591 0.0032033771 0.046571974 0.0032288404 0.046518665 0.99342978 -0.091968387
1449456603.7736 0.99101776 -0.09566839 0.0033011362 0.046965931 0.0033412781 0.046976034 0.99336982 -0.09226501
1459452830.1887 0.99103123 -0.096304774 0.0034366995 0.047353469 0.0034439508 0.047356945 0.99349391 -0.092630088
1469449056.6038 0.99105841 -0.096978545 0.0036098352 0.047683001 0.0036000125 0.047667358 0.99367625 -0.093228728
1479445283.0189 0.99092823 -0.097620249 0.0037244721 0.047943443 0.0037368434 0.047990385 0.9937855 -0.094139025
1489441509.434 0.99083322 -0.098102123 0.0038697626 0.048308361 0.0038451329 0.048304603 0.99365079 -0.095036238
1499437735.8491 0.99067342 -0.098461777 0.0039750673 0.048531231 0.003927147 0.048552364 0.9935984 -0.095818937
1509433962.2642 0.99066973 -0.098881274 0.0040308861 0.048803568 0.0040183789 0.048794746 0.99336177 -0.096537873
1519430188.6792 0.99079794 -0.099464327 0.0041101389 0.049066395 0.0040998831 0.049056184 0.99323696 -0.097091913
1529426415.0943 0.99079645 -0.10013434 0.0041644145 0.049336441 0.0041266736 0.049350597 0.99318087 -0.097464353
1539422641.5094 0.990798 -0.100879 0.0041821403 0.049633928 0.0041964487 0.049656961 0.99321401 -0.097909488
1549418867.9245 0.99060178 -0.10172415 0.0042687031 0.049920943 0.0042288713 0.049929742 0.993402 -0.098677024
1559415094.3396 0.99051011 -0.10243243 0.0043251924 0.050238933 0.0042709839 0.050235823 0.99356562 -0.099294573
1569411320.7547 0.99042171 -0.10314959 0.0043515274 0.050462447 0.0043128487 0.050478257 0.99351007 -0.10011861
1579407547.1698 0.99026895 -0.10357095 0.0043646065 0.050721467 0.0043311161 0.050790258 0.99319375 -0.10092422
1589403773.5849 0.99023569 -0.1042006 0.0043736827 0.05102019 0.0043152459 0.051049128 0.99291945 -0.10168308
1599400000 0.99024117 -0.10463148 0.0043569226 0.051290527 0.0043109749 0.051368587 0.9924975 -0.10206577
1609396226.4151 0.99023956 -0.10529522 0.0043501519 0.051617272 0.0042890566 0.051694654 0.99231023 -0.10257566
1619392452.8302 0.9902072 -0.10587507 0.0043761171 0.051968001 0.0042930264 0.052006591 0.99234372 -0.10298085
1629388679.2453 0.98997563 -0.10656184 0.0043706931 0.052307133 0.0042970944 0.052356184 0.99258965 -0.10352796
1639384905.6604 0.98972034 -0.10716749 0.0043551023 0.052610617 0.0043295398 0.052731171 0.99277043 -0.10439343
1649381132.0755 0.98954606 -0.10789731 0.0044102296 0.05295125 0.004330676 0.05306042 0.99275637 -0.10525566
1659377358.4906 0.98933768 -0.108632 0.0043884031 0.053336523 0.0043683294 0.053469144 0.99276292 -0.1061686
1669373584.9057 0.98934907 -0.10903609 0.0043981909 0.053704422 0.0043929103 0.053815328 0.99245346 -0.10682268
1679369811.3208 0.98942852 -0.10979491 0.004480537 0.054112632 0.0044113677 0.05416156 0.99221933 -0.10734668
1689366037.7358 0.989375 -0.1103842 0.0045222435 0.054462165 0.004462691 0.054539151 0.99198949 -0.10759389
1699362264.1509 0.98960608 -0.1109443 0.0045930473 0.054818284 0.0044821808 0.054919709 0.9922635 -0.10798483
1709358490.566 0.98939759 -0.11161582 0.0046297545 0.055200331 0.0045474274 0.055295881 0.99228603 -0.10856353
1719354716.9811 0.98909485 -0.1121788 0.0046635885 0.05555255 0.0045951307 0.05563958 0.99232233 -0.10923988
1729350943.3962 0.98889524 -0.11282319 0.0047203042 0.055942744 0.0046333764 0.056038383 0.99229872 -0.11011854
