!Keysight Technologies,N5222B,MY61253708,A.15.00.15
!Date: Wednesday, June 19, 2024 08:59:44
!Correction: S11(C  2-Port  ) 
!S21(C  2-Port  ) 
!S12(C  2-Port  ) 
!S22(C  2-Port  ) 
!S2P File: Measurements: S11, S21, S12, S22:
# Hz S  RI   R 50
10000000 0.99850893 -0.0023747385 -0.00054185273 0.00048371975 2.3482324e-005 0.00047402439 0.99885702 -0.0010856986
19996226.415094 0.99914563 -0.0020981729 1.5856436e-005 0.00058394764 -1.8971536e-005 0.00082293141 0.99921632 -0.0021095276
29992452.830189 0.99992347 -0.0024208724 2.0007428e-005 0.0010839456 7.4587238e-005 0.0010812794 0.99941587 -0.0027101636
39988679.245283 1.0001258 -0.0031456202 2.6791386e-005 0.0014028633 -1.3709054e-005 0.0014363049 0.9996084 -0.0032730401
49984905.660377 1.0002176 -0.0038667321 2.5982503e-005 0.0018210924 2.078485e-005 0.0017975192 0.99981564 -0.0038532913
59981132.075472 1.0003247 -0.0046910644 -4.4788467e-006 0.0021151616 -1.0374875e-005 0.002144054 0.99972409 -0.0044027567
69977358.490566 1.0000565 -0.0052876733 1.4029454e-005 0.0024772456 -2.5450754e-006 0.0025066731 0.99962145 -0.0049234442
79973584.90566 0.99983501 -0.0058690906 4.4977642e-005 0.0028301019 -2.2025779e-006 0.0028550145 0.99935168 -0.0054750144
89969811.320755 0.99983144 -0.0060285628 -4.3734908e-006 0.0031762812 4.0077954e-005 0.0032237773 0.99949992 -0.0057957768
99966037.735849 1.0000801 -0.006782949 5.1537238e-005 0.0035626029 1.1368829e-005 0.0035715287 0.99952638 -0.0065518767
109962264.15094 1.0001013 -0.0078099966 3.2197102e-005 0.0039126924 1.8915511e-005 0.0039410447 0.99953532 -0.0074404031
119958490.56604 1.0001284 -0.0088281035 3.9307633e-005 0.004249128 2.6474241e-005 0.0042911032 0.99958408 -0.0083850324
129954716.98113 1.0000644 -0.009863317 3.5427744e-005 0.0046308385 2.808508e-005 0.0046526203 0.99955338 -0.0093449354
139950943.39623 0.99997318 -0.010741334 3.9772276e-005 0.0049756053 4.4594228e-005 0.0049936115 0.999488 -0.010134012
149947169.81132 0.99983901 -0.011382759 5.9886137e-005 0.005344131 6.6556735e-005 0.0053630178 0.99939299 -0.010738164
159943396.22642 0.99978375 -0.011913389 6.9045462e-005 0.005677273 8.4856991e-005 0.0057265414 0.99946582 -0.011230081
169939622.64151 0.99980426 -0.012285486 9.9819445e-005 0.0060438709 7.1900955e-005 0.0060762055 0.9995594 -0.011664644
179935849.0566 0.99985355 -0.012598515 6.2940759e-005 0.0063775578 8.1276405e-005 0.006456723 0.99955034 -0.012084335
189932075.4717 1.000056 -0.013420641 9.150058e-005 0.0067487326 8.6800661e-005 0.0068155751 0.99968457 -0.012674868
199928301.88679 0.99997336 -0.014278173 9.3473122e-005 0.0071200388 0.00010893261 0.0071641118 0.99960983 -0.013616472
209924528.30189 0.99966866 -0.015055388 0.00013853051 0.0074764462 0.00014629785 0.0075234007 0.99935973 -0.014351815
219920754.71698 0.99974203 -0.015930176 0.00015790295 0.0078297993 0.00014259084 0.0078718178 0.99922478 -0.015134245
229916981.13208 0.99939138 -0.016852319 0.00016446621 0.0081592482 0.00012532505 0.0082233408 0.99908543 -0.015907049
239913207.54717 0.99928844 -0.017488271 0.00017994149 0.0085407309 0.00016071009 0.008598662 0.99909067 -0.016630523
249909433.96226 0.99934137 -0.018095642 0.00016510254 0.0088915052 0.00017883303 0.0089253243 0.9991926 -0.017271847
259905660.37736 0.99951196 -0.018673658 0.00015748525 0.0092493659 0.00015973812 0.0092686387 0.99932557 -0.017871708
269901886.79245 0.99965465 -0.019477323 0.00019377517 0.0095839128 0.00024897116 0.0096390443 0.99978513 -0.018639863
279898113.20755 0.99972224 -0.02015388 0.00018814206 0.0099969395 0.00019867043 0.010062834 0.99953634 -0.019407421
289894339.62264 0.9996506 -0.020893455 0.00018195668 0.010258727 0.00023504347 0.010296604 0.99946761 -0.020194829
299890566.03774 0.99964744 -0.021399409 0.00023022061 0.010628611 0.00024857372 0.010773504 0.99923694 -0.020699441
309886792.45283 0.99934947 -0.022061422 0.00024505414 0.011039766 0.00023585686 0.011096013 0.99906588 -0.021176599
319883018.86792 0.99927533 -0.02273488 0.00026984792 0.011365961 0.00030244887 0.011459867 0.99915922 -0.021623075
329879245.28302 0.9993484 -0.023308605 0.00027074618 0.011706794 0.00030718045 0.011850765 0.99917114 -0.022428811
339875471.69811 0.99908215 -0.024182737 0.0003036916 0.012141425 0.00027443888 0.012159424 0.999066 -0.023297928
349871698.11321 0.99939585 -0.025058895 0.00031472952 0.012400621 0.00031616865 0.012508406 0.99916035 -0.024156541
359867924.5283 0.99927121 -0.025874615 0.0003488753 0.012795941 0.00029810099 0.012824848 0.99914771 -0.025087148
369864150.9434 0.99930477 -0.026721686 0.00038345018 0.013131991 0.00035800878 0.013239631 0.99913239 -0.025867105
379860377.35849 0.99937278 -0.027472138 0.00039222836 0.013464175 0.00036896416 0.013588248 0.99908996 -0.026544362
389856603.77358 0.99927592 -0.028069228 0.00041580806 0.013834646 0.00042121531 0.013923459 0.99904042 -0.027082086
399852830.18868 0.99905574 -0.02860415 0.00040487619 0.01415437 0.00043521309 0.01426306 0.99911201 -0.027590364
409849056.60377 0.99902368 -0.029077485 0.00042683847 0.014548467 0.00043386547 0.014646919 0.99915028 -0.027980126
419845283.01887 0.99903315 -0.029573083 0.00046916632 0.014875013 0.00044397172 0.014991893 0.99924356 -0.028611213
429841509.43396 0.99915349 -0.030196309 0.00049220165 0.015260061 0.00049167965 0.015358666 0.99936265 -0.029358983
439837735.84906 0.99906945 -0.031232983 0.00047981902 0.015603547 0.00051828357 0.015749795 0.99914891 -0.03041333
449833962.26415 0.99886227 -0.032024384 0.00052318163 0.015919203 0.00050805649 0.016046179 0.9988721 -0.03126505
459830188.67925 0.99879223 -0.032865733 0.00053386483 0.016281717 0.00053602923 0.016391132 0.99863487 -0.032028407
469826415.09434 0.99871832 -0.033652008 0.00053694192 0.016665706 0.00056975009 0.016770788 0.99845695 -0.032685697
479822641.50943 0.99861616 -0.034326188 0.00055276044 0.017050762 0.00057686167 0.017148811 0.99840671 -0.033177257
489818867.92453 0.99876273 -0.034850121 0.00062815566 0.017366922 0.00064229313 0.017476235 0.99876487 -0.033715874
499815094.33962 0.99879962 -0.035460413 0.00064112246 0.017729638 0.00063703163 0.017852448 0.99902737 -0.034394354
509811320.75472 0.99902987 -0.035898734 0.00064900448 0.018077087 0.0006284347 0.01819638 0.99919176 -0.035280954
519807547.16981 0.99897015 -0.036533117 0.00074600335 0.018383216 0.00067646615 0.018558346 0.99913144 -0.036050439
529803773.58491 0.99879003 -0.037161857 0.00067207124 0.018794036 0.00067165401 0.018932391 0.99887502 -0.036687016
539800000 0.99872625 -0.037985936 0.00071937311 0.019164879 0.00070730224 0.019267349 0.99871939 -0.037332818
549796226.41509 0.99861085 -0.03881225 0.00072152866 0.019493425 0.00077230856 0.019680545 0.99845195 -0.037982047
559792452.83019 0.99836075 -0.039592087 0.00074478425 0.019844558 0.00080344826 0.019974347 0.99835289 -0.038463056
569788679.24528 0.99821347 -0.04030934 0.00079668593 0.020182123 0.00080401544 0.020355223 0.99851692 -0.039216012
579784905.66038 0.99814701 -0.040860534 0.00082992227 0.020527873 0.00083337398 0.020699777 0.99858254 -0.040001109
589781132.07547 0.99837339 -0.041498572 0.00089615025 0.020931 0.00084757525 0.021055065 0.99879223 -0.040899098
599777358.49057 0.99853468 -0.042231143 0.00092286337 0.021241257 0.00091024488 0.021424815 0.99877465 -0.041741818
609773584.90566 0.99867016 -0.043006189 0.00092089054 0.02164859 0.00096410367 0.021813238 0.99862254 -0.042667978
619769811.32075 0.9987579 -0.043849796 0.0010342407 0.021951022 0.0010453295 0.02205308 0.99853504 -0.043261558
629766037.73585 0.99851096 -0.044379026 0.0010480406 0.02225646 0.0010632873 0.022450212 0.99829829 -0.043718517
639762264.15094 0.99827117 -0.04508172 0.0010735374 0.02262711 0.0010797812 0.02276242 0.998119 -0.044170126
649758490.56604 0.99809057 -0.045728505 0.0010678074 0.022928677 0.0010702843 0.023104962 0.99826622 -0.044606999
659754716.98113 0.99796653 -0.046189129 0.0010972861 0.023328196 0.0010463065 0.02351271 0.99822485 -0.045230001
669750943.39623 0.99804461 -0.046707511 0.001080174 0.023695564 0.0011171326 0.023868976 0.99834138 -0.046123385
679747169.81132 0.99802339 -0.047427565 0.0011479155 0.024081325 0.0011364905 0.024255497 0.9982509 -0.047109868
689743396.22642 0.99824899 -0.048330933 0.0012160875 0.024412131 0.0012106095 0.024606433 0.99814427 -0.047974408
699739622.64151 0.99830574 -0.049300641 0.0012712618 0.02477028 0.0012496216 0.024953984 0.99801868 -0.048771858
709735849.0566 0.99822617 -0.050093926 0.0012914097 0.025086736 0.0012764516 0.025285229 0.99776226 -0.049386427
719732075.4717 0.99806648 -0.050804049 0.0013020374 0.025444057 0.0013327477 0.025637915 0.99784803 -0.05005762
729728301.88679 0.99800467 -0.051401913 0.0013547093 0.025839673 0.0013461113 0.025951229 0.99786162 -0.050404996
739724528.30189 0.99787712 -0.052021176 0.0013772254 0.026150569 0.0013828273 0.026300095 0.99802166 -0.051152319
749720754.71698 0.99781233 -0.05254367 0.0014248407 0.026462201 0.0014620181 0.026644133 0.9981333 -0.051872134
759716981.13208 0.99791491 -0.053142786 0.0014597597 0.026810788 0.0014599543 0.026993014 0.99806929 -0.052660644
769713207.54717 0.99785703 -0.053902864 0.0015018061 0.027138762 0.0015283963 0.027354592 0.99774659 -0.053405106
779709433.96226 0.99792302 -0.054490998 0.001539937 0.027505819 0.0015411389 0.027716344 0.99754733 -0.054149665
789705660.37736 0.9978255 -0.055453509 0.0015599942 0.027856646 0.0015787845 0.02802214 0.99730217 -0.054825783
799701886.79245 0.99777913 -0.056298137 0.0016097976 0.028176326 0.001584339 0.028382886 0.99716103 -0.055425137
809698113.20755 0.99771845 -0.057028234 0.0016272762 0.028522512 0.0016339999 0.028712295 0.99724615 -0.055943221
819694339.62264 0.99746656 -0.057686448 0.0016941493 0.028873587 0.0016763471 0.029064909 0.99733102 -0.056641698
829690566.03774 0.99754083 -0.058282077 0.0016899891 0.029213652 0.0017045671 0.0294347 0.9976393 -0.057520747
839686792.45283 0.99752462 -0.058824867 0.0017500101 0.029585522 0.0017414913 0.029790465 0.99764073 -0.058404446
849683018.86792 0.9976421 -0.059430532 0.0017976335 0.029928561 0.0017658458 0.030149078 0.99751681 -0.059150971
859679245.28302 0.99768174 -0.060124934 0.00182606 0.030270677 0.001829952 0.030492336 0.99722874 -0.059819549
869675471.69811 0.99757409 -0.06094563 0.0018626777 0.030612893 0.0018546842 0.030801771 0.99687219 -0.060412914
879671698.11321 0.99749291 -0.061624028 0.0018973474 0.030951452 0.001913916 0.031178754 0.99691093 -0.060825422
889667924.5283 0.99725986 -0.062609226 0.0019440129 0.031242454 0.0019771028 0.031515677 0.99669492 -0.061365694
899664150.9434 0.99713582 -0.063314706 0.0019918354 0.031596605 0.0019834377 0.031805985 0.99671668 -0.062029302
909660377.35849 0.99701715 -0.063972905 0.0020154095 0.031942945 0.0020148261 0.032198399 0.99685729 -0.062912449
919656603.77358 0.99711025 -0.06471701 0.0020396491 0.032321423 0.002087893 0.032546256 0.99688101 -0.063910186
929652830.18868 0.99713546 -0.065410793 0.002071023 0.032629363 0.0020738067 0.032885328 0.99670446 -0.064809471
939649056.60377 0.99733782 -0.066038519 0.0020839451 0.032981467 0.0020730887 0.033186637 0.99653608 -0.0655379
949645283.01887 0.99730039 -0.06692332 0.0020770789 0.033343829 0.0021162857 0.033567388 0.99633926 -0.066121459
959641509.43396 0.99724984 -0.067626446 0.0021404643 0.033695057 0.0021731565 0.033983588 0.99623185 -0.06663689
969637735.84906 0.99715233 -0.068484992 0.0022213412 0.034094568 0.00219467 0.034332 0.99624407 -0.0670183
979633962.26415 0.99689037 -0.069178991 0.0022568065 0.034415126 0.0022535438 0.034676034 0.99622649 -0.067595847
989630188.67925 0.99690294 -0.06969738 0.0022609951 0.034753885 0.0022982061 0.035025392 0.99640536 -0.068306625
999626415.09434 0.99691767 -0.07025069 0.002317531 0.035099536 0.0023454484 0.035371073 0.99634647 -0.069147378
1009622641.5094 0.99694389 -0.070972845 0.0023581181 0.035474617 0.0023660082 0.035732064 0.99620932 -0.070093721
1019618867.9245 0.99708647 -0.071938843 0.0024276031 0.035801392 0.0024850671 0.036087036 0.99588698 -0.071028233
1029615094.3396 0.99706042 -0.072857469 0.002493212 0.036167834 0.0024937131 0.036418688 0.9955371 -0.071599454
1039611320.7547 0.99707597 -0.073772311 0.0025395295 0.036471218 0.002538369 0.036746375 0.99546403 -0.07228142
1049607547.1698 0.99679935 -0.074731827 0.0025756853 0.036782175 0.0025722622 0.037082274 0.99544561 -0.072870165
1059603773.5849 0.99675506 -0.075431645 0.0026102317 0.037109647 0.0026385933 0.037399374 0.99545723 -0.073441565
1069600000 0.99649227 -0.076116025 0.0025960598 0.037432596 0.0026541632 0.037726894 0.99564779 -0.074210316
1079596226.4151 0.99637717 -0.076677881 0.0026140963 0.037776656 0.0026892312 0.038072605 0.99561423 -0.074958779
1089592452.8302 0.99643004 -0.077379107 0.0026561692 0.038132627 0.0027095303 0.038406115 0.99551332 -0.075770974
1099588679.2453 0.99649572 -0.078072906 0.0026751626 0.038489293 0.0027360003 0.038821563 0.99518794 -0.076345801
1109584905.6604 0.99662882 -0.078856066 0.0027307635 0.038851306 0.0028006276 0.039150827 0.99491358 -0.076950759
1119581132.0755 0.99654382 -0.079916939 0.0027263882 0.039213702 0.0027809292 0.039530773 0.99472189 -0.077433966
1129577358.4906 0.99641103 -0.08079347 0.0027702898 0.039625868 0.0028443336 0.03991833 0.99448895 -0.07786265
1139573584.9057 0.99609423 -0.081692338 0.0028373161 0.039955325 0.0029008687 0.040247276 0.99471343 -0.078628302
1149569811.3208 0.99594253 -0.082580447 0.0029089611 0.040300746 0.0029632766 0.040614314 0.99474502 -0.079397477
1159566037.7358 0.99572432 -0.08331421 0.0029559471 0.040620744 0.0030267965 0.040931717 0.99485904 -0.080397338
1169562264.1509 0.99556947 -0.083876252 0.0029300842 0.040930416 0.0030558575 0.04127346 0.9947381 -0.081236422
1179558490.566 0.99553388 -0.084657758 0.0029599839 0.041340109 0.0030817045 0.041663002 0.99463189 -0.082016796
1189554716.9811 0.99555635 -0.085473061 0.0030220551 0.041709445 0.0031138277 0.042009328 0.99425352 -0.082534403
1199550943.3962 0.99546766 -0.086266279 0.0030707307 0.042055931 0.0031851511 0.042392336 0.99413913 -0.08290568
1209547169.8113 0.99530226 -0.087212279 0.0031272182 0.042430956 0.0032426827 0.042719867 0.99398267 -0.083332986
1219543396.2264 0.99509579 -0.08802148 0.0031428467 0.042794868 0.0032725413 0.043120079 0.99407846 -0.083689183
1229539622.6415 0.99473274 -0.089012176 0.0032419544 0.043156669 0.0033468287 0.043482002 0.99421018 -0.084479928
1239535849.0566 0.99443024 -0.089597017 0.0032997709 0.043483362 0.0034480663 0.04378929 0.9942596 -0.085400581
1249532075.4717 0.99415737 -0.090361483 0.0033824891 0.043835819 0.0035058444 0.044125121 0.99409956 -0.086232066
1259528301.8868 0.99393582 -0.090859771 0.0034277868 0.044167988 0.0035789795 0.044435807 0.99383593 -0.087126017
1269524528.3019 0.99379236 -0.091624409 0.0034904256 0.044518515 0.0036525223 0.044781461 0.99354631 -0.087852418
1279520754.717 0.99347043 -0.09234643 0.0035893267 0.044807587 0.003696243 0.04507383 0.99330634 -0.088488385
1289516981.1321 0.99333328 -0.093196034 0.0035999259 0.045113035 0.0037347889 0.045370612 0.99338615 -0.088882744
1299513207.5472 0.99298877 -0.094057173 0.0036071986 0.045450844 0.003754748 0.045763135 0.99356663 -0.089331329
1309509433.9623 0.99245268 -0.09474656 0.0036397958 0.045779217 0.0038028732 0.046035841 0.99366796 -0.09004207
1319505660.3774 0.99207413 -0.095487446 0.0036330381 0.046154775 0.0038278047 0.046419635 0.99364138 -0.090780362
1329501886.7925 0.99176687 -0.096236646 0.0036659501 0.046496809 0.0038083419 0.046740286 0.99357659 -0.091754526
1339498113.2075 0.99150145 -0.096764475 0.003678157 0.046830289 0.0038425392 0.047093879 0.99316841 -0.092442185
1349494339.6226 0.99125201 -0.097295068 0.0037081325 0.047201023 0.0038432642 0.047402263 0.99284792 -0.093098961
1359490566.0377 0.99121702 -0.097955734 0.0036982782 0.047552191 0.0038418546 0.047825806 0.99251103 -0.09366855
1369486792.4528 0.99102408 -0.098497093 0.0037578121 0.047995605 0.0038475636 0.048203461 0.99240673 -0.094066888
1379483018.8679 0.99067086 -0.099189863 0.0037510714 0.048356641 0.0038752772 0.048538771 0.99240679 -0.094505414
1389479245.283 0.99024701 -0.099604815 0.0038066618 0.048706606 0.0039057508 0.048969559 0.99243098 -0.095222414
1399475471.6981 0.98992741 -0.10005897 0.0038254745 0.049137861 0.0039241314 0.049349442 0.99249673 -0.095926225
1409471698.1132 0.98960215 -0.10047881 0.0038552156 0.049529329 0.0039857579 0.049728841 0.99260128 -0.096764989
1419467924.5283 0.98937643 -0.10072836 0.0038682669 0.049906697 0.0039877137 0.050136067 0.9923889 -0.09750548
1429464150.9434 0.98926222 -0.10122797 0.0039621424 0.050318539 0.004072234 0.050531946 0.9921788 -0.097974569
1439460377.3585 0.98944378 -0.10162076 0.0040764138 0.050800141 0.0040845135 0.050981063 0.99199307 -0.098368868
1449456603.7736 0.98937178 -0.10221078 0.0041412562 0.051259004 0.0042547239 0.0514252 0.99182099 -0.09879154
1459452830.1887 0.98941886 -0.10291108 0.0043182448 0.051643681 0.0043235831 0.05185429 0.99199378 -0.099086165
1469449056.6038 0.98937988 -0.10376441 0.0045139361 0.052000821 0.0045012981 0.052246939 0.99215025 -0.099723548
1479445283.0189 0.98926967 -0.10440259 0.0046097138 0.052275341 0.0046297549 0.052517883 0.99230647 -0.10077079
1489441509.434 0.98913705 -0.10485712 0.0047598798 0.052622907 0.0048109144 0.052885067 0.99212593 -0.10161799
1499437735.8491 0.98890901 -0.1052604 0.0048554372 0.05292587 0.0048801191 0.05316541 0.99194545 -0.10250759
1509433962.2642 0.98899901 -0.10571422 0.0049654753 0.053205103 0.0049734707 0.053470716 0.99182934 -0.10325594
1519430188.6792 0.98897493 -0.10626724 0.0050393268 0.053507537 0.0050439797 0.053748976 0.99161768 -0.10375068
1529426415.0943 0.98897493 -0.10695705 0.0050970968 0.053803384 0.0050939005 0.054036744 0.99147511 -0.1042574
1539422641.5094 0.98901653 -0.10782024 0.0051911841 0.054139048 0.0051770718 0.054393426 0.99163866 -0.10474969
1549418867.9245 0.98887384 -0.10870059 0.0052505508 0.054424636 0.0052230973 0.054710776 0.99183655 -0.10545541
1559415094.3396 0.98879278 -0.10940087 0.0052704774 0.054753572 0.0052670836 0.055006616 0.99194002 -0.10618794
1569411320.7547 0.98862743 -0.1101553 0.0053820265 0.055013727 0.0053273775 0.055321041 0.99178743 -0.10702033
1579407547.1698 0.98848003 -0.11070707 0.0053898217 0.055309262 0.0053856494 0.055631597 0.99141008 -0.10793972
1589403773.5849 0.98837829 -0.1112687 0.0053830333 0.055612091 0.0054132696 0.055930719 0.99121976 -0.10863209
1599400000 0.98836643 -0.11168772 0.0053753331 0.055964999 0.0053805914 0.056291975 0.99084628 -0.10902292
1609396226.4151 0.98842412 -0.11244567 0.0053887507 0.056314513 0.0053593228 0.05662204 0.99061984 -0.10964145
1619392452.8302 0.98835433 -0.11299595 0.0053970907 0.056673013 0.0053620152 0.056966573 0.99056053 -0.11003166
1629388679.2453 0.98811197 -0.11374998 0.0054443404 0.057033427 0.0053898748 0.057370365 0.99084252 -0.11065921
1639384905.6604 0.98783159 -0.11443976 0.005402403 0.057447195 0.0053906366 0.057766575 0.99101454 -0.11155193
1649381132.0755 0.98762071 -0.11515129 0.0054405276 0.057782635 0.005431354 0.058128137 0.99104708 -0.11250514
1659377358.4906 0.98742837 -0.11598834 0.0055275988 0.058179632 0.0055036806 0.058541439 0.99101537 -0.11341739
1669373584.9057 0.9873361 -0.11637807 0.0055373018 0.058592446 0.0055178911 0.058952484 0.99061334 -0.11401897
1679369811.3208 0.98746693 -0.11714858 0.0056340601 0.05900339 0.0055606384 0.059324913 0.99041575 -0.11455256
1689366037.7358 0.98744047 -0.11793435 0.0056905597 0.059343912 0.0056483801 0.059760112 0.99016136 -0.11485663
1699362264.1509 0.98759776 -0.1183503 0.0057183551 0.059779216 0.0057104938 0.060189601 0.99040169 -0.11538523
1709358490.566 0.98740292 -0.11912873 0.0057987748 0.060165312 0.005812115 0.0605487 0.9904561 -0.11594024
1719354716.9811 0.98709834 -0.1197063 0.0058703311 0.060545936 0.0058401898 0.060991842 0.99039912 -0.11669499
1729350943.3962 0.98679006 -0.12029839 0.005974913 0.060929164 0.0059356149 0.061383054 0.99044788 -0.11769283
