!Keysight Technologies,N5222B,MY61253708,A.15.00.15
!Date: Wednesday, June 19, 2024 09:25:01
!Correction: S11(C  2-Port  ) 
!S21(C  2-Port  ) 
!S12(C  2-Port  ) 
!S22(C  2-Port  ) 
!S2P File: Measurements: S11, S21, S12, S22:
# Hz S  RI   R 50
10000000 0.99883533 -0.0022395849 -0.00018093412 0.00039293294 0.00016951622 0.00037088947 0.99853361 -0.00098484755
19996226.415094 0.99894094 -0.0021439493 0.00015068025 0.00076789444 2.3103523e-005 0.00075932359 0.99901772 -0.0023441613
29992452.830189 0.9997173 -0.0024772286 7.4895506e-006 0.0010517997 -6.587962e-005 0.00097737089 0.99954146 -0.0026108921
39988679.245283 1.0000432 -0.0030377358 -1.9565312e-005 0.0013647991 1.2467979e-005 0.0013886899 0.99963856 -0.0030791014
49984905.660377 1.0001799 -0.0037798285 1.3533398e-005 0.001654895 4.6390924e-006 0.0017065634 0.99980587 -0.0036800802
59981132.075472 1.0003189 -0.0046526194 -6.6847424e-006 0.0020002043 3.4054508e-005 0.0020579486 0.99983597 -0.0042822361
69977358.490566 1.000141 -0.0052546561 4.0981577e-006 0.0023696856 3.4738758e-005 0.0023966788 0.99970251 -0.0048131812
79973584.90566 0.9997921 -0.005828023 -6.0343882e-006 0.002672052 3.9554434e-005 0.0027396604 0.99933672 -0.0052998662
89969811.320755 0.99985069 -0.0059652627 1.2033619e-005 0.0030285046 3.1574862e-005 0.0030633183 0.99955058 -0.005563736
99966037.735849 1.0000963 -0.0067721009 2.0987412e-005 0.0033511994 3.8580736e-005 0.0034260578 0.99969256 -0.0063210726
109962264.15094 1.0000957 -0.007625863 4.6937028e-005 0.0036983707 1.1970697e-005 0.0037381325 0.99965608 -0.0071871579
119958490.56604 1.0000926 -0.0086056292 4.3814769e-005 0.0039923056 1.5425729e-005 0.0040792716 0.99966663 -0.0080474317
129954716.98113 1.0000789 -0.0095566213 3.53785e-005 0.0043662162 4.1743391e-005 0.0044309949 0.99964714 -0.0089661479
139950943.39623 0.99998164 -0.010371545 5.2563046e-005 0.0046927631 3.7306032e-005 0.0047355047 0.99957985 -0.0097341016
149947169.81132 0.99986839 -0.011034727 5.3522177e-005 0.0050566858 7.1790535e-005 0.0050677243 0.99951398 -0.010347575
159943396.22642 0.9997834 -0.011594951 6.8313209e-005 0.0053687096 7.8188721e-005 0.0054144152 0.99960226 -0.010778755
169939622.64151 0.99985182 -0.011970274 6.8861351e-005 0.0057041869 6.1357277e-005 0.0057641068 0.99965465 -0.011229299
179935849.0566 0.99987334 -0.012232482 7.8889425e-005 0.0060576927 4.9490947e-005 0.006087603 0.9996146 -0.011631429
189932075.4717 1.0000093 -0.013051629 7.4521638e-005 0.0063717025 9.7341835e-005 0.0064716162 0.99984264 -0.012180924
199928301.88679 0.99984461 -0.013872027 9.189616e-005 0.0067193056 9.6063362e-005 0.0067618778 0.99968123 -0.013049513
209924528.30189 0.99968386 -0.014536068 9.8149525e-005 0.0070351618 0.00011419307 0.007134791 0.99948239 -0.013830081
219920754.71698 0.99973202 -0.015409738 0.00010558334 0.0073823924 0.0001169194 0.0074622473 0.99929643 -0.014472306
229916981.13208 0.99952608 -0.01627177 0.00013468112 0.0077415174 0.00013350323 0.0077701923 0.9992795 -0.015256971
239913207.54717 0.99932355 -0.016939318 0.00013030856 0.0080623347 0.00011563272 0.0081324046 0.99925387 -0.015946286
249909433.96226 0.99938041 -0.017520607 0.00013751234 0.0083920509 0.00013902318 0.008472411 0.99929827 -0.016593426
259905660.37736 0.99945617 -0.018164128 0.00020130305 0.0087269582 0.00015528454 0.0087557659 0.9995141 -0.017158985
269901886.79245 0.99963939 -0.018810779 0.00014201191 0.0090333326 0.00016625447 0.0091324858 0.99982202 -0.017894909
279898113.20755 0.99988121 -0.019454449 0.00020187977 0.0093731852 0.00019045779 0.0095054917 0.99970299 -0.018621683
289894339.62264 0.99970508 -0.020238072 0.00022633746 0.0097196475 0.00016200216 0.0098013431 0.99961972 -0.019388705
299890566.03774 0.99967539 -0.020720154 0.00018082256 0.010048469 0.00021109404 0.010157684 0.99936134 -0.019834638
309886792.45283 0.99943 -0.021299742 0.0002180984 0.010391617 0.00021276483 0.01048764 0.99925458 -0.020256184
319883018.86792 0.99931824 -0.021891296 0.00028384943 0.010752008 0.00026301248 0.010803403 0.99944198 -0.020767957
329879245.28302 0.99932861 -0.022640526 0.00027146144 0.011037871 0.00024408521 0.01114857 0.9994325 -0.021493733
339875471.69811 0.99928588 -0.023390628 0.000282589 0.011373391 0.00026362576 0.011516152 0.99936384 -0.022331141
349871698.11321 0.9993732 -0.024284154 0.00027750549 0.011746739 0.0002806196 0.011866787 0.99940193 -0.023241609
359867924.5283 0.99936402 -0.025148809 0.0002807728 0.012110636 0.00031838892 0.012169279 0.99933898 -0.024157405
369864150.9434 0.99949718 -0.025829256 0.00027495553 0.012413042 0.000280465 0.012487936 0.9993856 -0.024944544
379860377.35849 0.99934369 -0.026612699 0.00035477965 0.012750336 0.00035721832 0.012848881 0.99928683 -0.025577769
389856603.77358 0.99935663 -0.027110696 0.00037838286 0.013075903 0.0003515943 0.013161174 0.99928999 -0.026035219
399852830.18868 0.99909306 -0.027742624 0.00034651393 0.013417829 0.00037716469 0.013492953 0.99935257 -0.026561141
409849056.60377 0.99918026 -0.02813112 0.0003791691 0.013736003 0.00037880155 0.013862329 0.99931192 -0.027037242
419845283.01887 0.99921256 -0.028648049 0.0003965795 0.014085852 0.00042138435 0.014197592 0.99935508 -0.027621984
429841509.43396 0.99914032 -0.029261112 0.00042880559 0.01442058 0.00044171326 0.01453675 0.99941897 -0.028342009
439837735.84906 0.99903482 -0.030201077 0.00046791427 0.014742445 0.00047652074 0.014843909 0.99924654 -0.029324278
449833962.26415 0.99899501 -0.031106532 0.00045800209 0.015044399 0.00048283394 0.015132943 0.99882263 -0.030091107
459830188.67925 0.99890852 -0.031766444 0.00047530513 0.015361292 0.00048199343 0.015505459 0.99868524 -0.030786127
469826415.09434 0.99885142 -0.032594651 0.00048337039 0.015766274 0.00045127701 0.015865294 0.99844015 -0.031414479
479822641.50943 0.99880898 -0.033141173 0.00053761201 0.016114082 0.00052561262 0.016216312 0.998505 -0.031887077
489818867.92453 0.99884188 -0.033625036 0.00054590032 0.016433904 0.00054614479 0.016544688 0.99873984 -0.032376975
499815094.33962 0.99893248 -0.03432256 0.00055419188 0.01671355 0.00056105433 0.016890056 0.99904084 -0.032911807
509811320.75472 0.99899703 -0.034767374 0.00055111735 0.0171101 0.00057037576 0.017244766 0.99921209 -0.03382482
519807547.16981 0.9989264 -0.035339534 0.00058078114 0.017402072 0.00058567012 0.017524589 0.99918628 -0.034583509
529803773.58491 0.9988724 -0.035989702 0.00064083189 0.017737936 0.00063391589 0.017891213 0.9989475 -0.035130441
539800000 0.99890119 -0.036716744 0.00066207652 0.018073732 0.00061494135 0.018217813 0.99874967 -0.035816237
549796226.41509 0.99876755 -0.037513375 0.00067668315 0.018438902 0.00070396392 0.018574106 0.99850488 -0.036308736
559792452.83019 0.99853623 -0.038225979 0.0007455349 0.018759359 0.00068072416 0.018911725 0.99845743 -0.036723912
569788679.24528 0.99844146 -0.03897506 0.00070810877 0.01907818 0.00070635322 0.019222923 0.99862605 -0.037546635
579784905.66038 0.9984324 -0.039537296 0.00075154903 0.01942686 0.00070502725 0.019607605 0.9987781 -0.038285524
589781132.07547 0.99853516 -0.040152103 0.00074725971 0.019782577 0.00075956713 0.019941023 0.99891794 -0.039187431
599777358.49057 0.99863833 -0.040832698 0.00080779009 0.020084588 0.00082311593 0.020305976 0.99895698 -0.039995551
609773584.90566 0.99875844 -0.041625611 0.00086791482 0.020450076 0.0008816974 0.020562505 0.99879968 -0.040853769
619769811.32075 0.99889135 -0.042209446 0.00090047903 0.020711433 0.00091167353 0.020938022 0.998734 -0.04140678
629766037.73585 0.99871826 -0.042912453 0.00094606448 0.021060901 0.00093576964 0.021237299 0.99849302 -0.041815817
639762264.15094 0.99852473 -0.043614164 0.00093795499 0.021349959 0.0009530955 0.021571269 0.99837399 -0.042331353
649758490.56604 0.99832809 -0.044132367 0.00091409823 0.021733604 0.00094561139 0.021917559 0.99848002 -0.042775422
659754716.98113 0.99818212 -0.044645607 0.00094063953 0.0220403 0.00098393951 0.022246143 0.9984808 -0.043397516
669750943.39623 0.99824286 -0.045220554 0.00096327672 0.022430228 0.00099185528 0.022622395 0.99857461 -0.044214219
679747169.81132 0.99818391 -0.04597079 0.00099225994 0.022761498 0.0010355973 0.022942133 0.9985677 -0.045106255
689743396.22642 0.9983393 -0.046777725 0.0010451647 0.023076657 0.0010715341 0.023299409 0.99838758 -0.046032846
699739622.64151 0.99851084 -0.047524929 0.0010937909 0.023390392 0.0010902742 0.023611259 0.99829769 -0.046798468
709735849.0566 0.99836957 -0.04839398 0.0011327151 0.023721389 0.0011588526 0.02392423 0.99800873 -0.047438018
719732075.4717 0.99834394 -0.049150586 0.0011740006 0.02406957 0.0011713719 0.024249015 0.99815655 -0.047975719
729728301.88679 0.99826634 -0.049670815 0.0012360727 0.024409078 0.001202886 0.024576593 0.99814165 -0.048443407
739724528.30189 0.99809361 -0.050320238 0.0012467257 0.024692062 0.0012645163 0.024965821 0.99835813 -0.049097031
749720754.71698 0.99807131 -0.050888851 0.0012980783 0.024998445 0.0012800209 0.025225503 0.99836588 -0.049865723
759716981.13208 0.99812466 -0.051347226 0.001291031 0.025330316 0.0013162047 0.025578404 0.99833369 -0.050609738
769713207.54717 0.99801213 -0.052080661 0.0013411595 0.025652509 0.0013347091 0.025865201 0.99805212 -0.051305681
779709433.96226 0.99818838 -0.052790876 0.0013698888 0.026010657 0.0013963317 0.026253637 0.99784946 -0.051991466
789705660.37736 0.99805605 -0.053712726 0.0014502499 0.026341313 0.0014197659 0.0265496 0.99756336 -0.052707881
799701886.79245 0.99805641 -0.054464221 0.0014433777 0.026638705 0.0014453121 0.026884306 0.99744511 -0.05324623
809698113.20755 0.99796903 -0.055037349 0.0014555666 0.026953835 0.0014505938 0.027185332 0.99746162 -0.05374369
819694339.62264 0.9978385 -0.055701554 0.0014802068 0.027250681 0.001521416 0.027555972 0.99757743 -0.054364264
829690566.03774 0.99781018 -0.056350887 0.0015155552 0.02762172 0.0015506539 0.027857943 0.99785936 -0.055265993
839686792.45283 0.99779117 -0.056748509 0.0015128511 0.0279587 0.0015607034 0.028192986 0.9978807 -0.056042135
849683018.86792 0.99795955 -0.057445556 0.0015882226 0.028285589 0.0016038353 0.028541854 0.99779367 -0.056812108
859679245.28302 0.99796784 -0.058148414 0.0016240636 0.028626677 0.0016184505 0.028860964 0.99754971 -0.057454318
869675471.69811 0.99785352 -0.058892578 0.0016397666 0.028920949 0.0016703606 0.02918905 0.9971621 -0.057994336
879671698.11321 0.99779129 -0.059570964 0.001728649 0.029261541 0.0017077017 0.029506586 0.99716192 -0.058374014
889667924.5283 0.99757451 -0.060445279 0.001710834 0.029536553 0.0017461721 0.029821455 0.99703836 -0.058840096
899664150.9434 0.99741173 -0.061129749 0.0017427579 0.029898204 0.0017476836 0.030172937 0.99708694 -0.059524864
909660377.35849 0.99743849 -0.061858654 0.0017570574 0.030202568 0.0017930851 0.030498303 0.99717677 -0.060386986
919656603.77358 0.99747479 -0.062520102 0.0017818683 0.030523673 0.0018273671 0.030814903 0.99716747 -0.061299443
929652830.18868 0.99745083 -0.063292384 0.0018240567 0.030847741 0.0018509999 0.03114713 0.9970386 -0.062177479
939649056.60377 0.99773794 -0.06384626 0.0018412638 0.031168558 0.0018658116 0.031486396 0.9968822 -0.062884986
949645283.01887 0.99760926 -0.064748228 0.0018604671 0.031498116 0.0018552087 0.03176913 0.99664015 -0.063470915
959641509.43396 0.99757636 -0.06536606 0.0018866481 0.031899415 0.0019075014 0.032163955 0.99657261 -0.06397438
969637735.84906 0.99750865 -0.066055417 0.0019335588 0.032217413 0.0019380972 0.032537162 0.99664873 -0.064273834
979633962.26415 0.99732113 -0.06679596 0.0019713207 0.032511957 0.0020298027 0.032854021 0.99665838 -0.064934328
989630188.67925 0.99730092 -0.067287803 0.0020277612 0.032837313 0.0020321552 0.033182692 0.9968105 -0.065555245
999626415.09434 0.9973889 -0.067957073 0.0020426372 0.033187449 0.00208636 0.033495277 0.99676442 -0.066386521
1009622641.5094 0.99741375 -0.068657279 0.0020663347 0.033533107 0.002133105 0.033859581 0.99656773 -0.06726636
1019618867.9245 0.99742746 -0.069423303 0.0021242653 0.033885423 0.0022041555 0.034173757 0.99629182 -0.068181172
1029615094.3396 0.99744487 -0.070478648 0.002167007 0.034169126 0.0022317879 0.034472905 0.9960146 -0.068702757
1039611320.7547 0.99748266 -0.071337461 0.0022273259 0.034491733 0.0022607511 0.034797974 0.99595433 -0.069332659
1049607547.1698 0.99723256 -0.072192274 0.0022610934 0.034795672 0.002284863 0.035111796 0.99597323 -0.06991066
1059603773.5849 0.9971776 -0.072861463 0.0022961572 0.035076156 0.0023064986 0.035419695 0.99590325 -0.070413113
1069600000 0.99697804 -0.073529691 0.0022608563 0.035384368 0.002336232 0.035736047 0.99611306 -0.071137339
1079596226.4151 0.99693966 -0.074112684 0.0022951802 0.035732079 0.0023571136 0.036084853 0.99607044 -0.071917854
1089592452.8302 0.99692971 -0.0747464 0.0023228498 0.036046382 0.0024258876 0.036396831 0.99606991 -0.07271415
1099588679.2453 0.99705577 -0.075501859 0.0023336541 0.036398493 0.0023923405 0.036740348 0.99569106 -0.07331416
1109584905.6604 0.99716175 -0.076275647 0.0023743063 0.036737002 0.0024379781 0.03708145 0.99539608 -0.0738931
1119581132.0755 0.99709696 -0.077292182 0.0023734071 0.03708766 0.0024508112 0.037439588 0.99519664 -0.074294448
1129577358.4906 0.9968816 -0.078078836 0.002428595 0.037440695 0.0024887957 0.037805974 0.99515641 -0.074780524
1139573584.9057 0.99664986 -0.078994125 0.0024784617 0.037754685 0.0025402103 0.038135484 0.99524528 -0.07544741
1149569811.3208 0.99649525 -0.079827249 0.0025409351 0.038089775 0.0026395814 0.03848768 0.99531877 -0.076139085
1159566037.7358 0.99624598 -0.080547512 0.0025860667 0.038402312 0.0026818449 0.038789038 0.99546725 -0.077198744
1169562264.1509 0.99610996 -0.081166476 0.002543008 0.038713764 0.0026782285 0.039118208 0.99528146 -0.077988058
1179558490.566 0.99621797 -0.081930764 0.002596322 0.039107665 0.0026785396 0.039460927 0.99510092 -0.078696273
1189554716.9811 0.99611241 -0.082623929 0.0026232451 0.039439313 0.0027419068 0.039804567 0.99483627 -0.079306871
1199550943.3962 0.99602807 -0.083459139 0.0026529767 0.039785258 0.0027933568 0.040140055 0.99469304 -0.079642117
1209547169.8113 0.99587679 -0.084446877 0.0027298415 0.040117014 0.0028152419 0.040466886 0.99458444 -0.079980269
1219543396.2264 0.99568039 -0.085227951 0.0027898233 0.04047418 0.0028848182 0.040858071 0.99467158 -0.080375388
1229539622.6415 0.99533325 -0.086029768 0.0028327703 0.040803045 0.0029721037 0.041197207 0.99479514 -0.081096351
1239535849.0566 0.99510133 -0.086704254 0.0028788606 0.041164838 0.0030456232 0.041531574 0.99488181 -0.081928492
1249532075.4717 0.994753 -0.087402672 0.0029535401 0.041453049 0.0031233882 0.041793335 0.99467093 -0.082841814
1259528301.8868 0.9946425 -0.087832242 0.0030162614 0.041801065 0.0031389296 0.042149134 0.99443662 -0.083749831
1269524528.3019 0.99443072 -0.088603646 0.0030830558 0.042125802 0.0032448266 0.042440046 0.99431574 -0.084456205
1279520754.717 0.99404341 -0.089380123 0.0031282513 0.042404622 0.003291901 0.04272031 0.99394715 -0.084948398
1289516981.1321 0.99400198 -0.090198845 0.0031500431 0.042658158 0.0032982621 0.043008905 0.9940294 -0.0853917
1299513207.5472 0.99368513 -0.091081768 0.003158683 0.043017641 0.0033187643 0.043330535 0.99409521 -0.085802078
1309509433.9623 0.99312806 -0.091728061 0.0031572841 0.043351028 0.0032766201 0.043623917 0.99423122 -0.086492851
1319505660.3774 0.99280244 -0.092446297 0.0032007666 0.043683186 0.0033215685 0.044013306 0.99432236 -0.087129354
1329501886.7925 0.99256188 -0.093097597 0.0032280423 0.043985128 0.0033460576 0.044311456 0.9943192 -0.088113636
1339498113.2075 0.99230522 -0.093675673 0.0032152869 0.044311684 0.003354609 0.044629641 0.9938519 -0.088842392
1349494339.6226 0.99213576 -0.094179623 0.0032129036 0.044635918 0.00335208 0.044954639 0.99350917 -0.089441679
1359490566.0377 0.99192339 -0.094798535 0.0032627024 0.045035027 0.0033925734 0.045319397 0.99333465 -0.089936554
1369486792.4528 0.99177146 -0.095369637 0.0032228138 0.04538966 0.0033785142 0.045710281 0.99310106 -0.09039098
1379483018.8679 0.99147582 -0.095892876 0.0032795842 0.045773603 0.0033800926 0.046035752 0.99311811 -0.090777352
1389479245.283 0.99106824 -0.096426278 0.0033218283 0.046113931 0.0034291297 0.046428382 0.99309623 -0.091470212
1399475471.6981 0.99070328 -0.096778899 0.0033445861 0.046474252 0.0033979453 0.046762612 0.99336553 -0.092094213
1409471698.1132 0.99041039 -0.097174466 0.0033527534 0.046867099 0.003470429 0.047177874 0.99333364 -0.092888452
1419467924.5283 0.99029046 -0.097506821 0.0034203753 0.047210939 0.0034885779 0.04751429 0.99309993 -0.093704432
1429464150.9434 0.99006677 -0.09789148 0.0034073144 0.047649954 0.0035280026 0.047915839 0.99297738 -0.094219446
1439460377.3585 0.99020159 -0.098402306 0.0035089916 0.048090979 0.0035935873 0.04835631 0.99275684 -0.094621927
1449456603.7736 0.99029028 -0.098907098 0.0036358228 0.048455998 0.0036969101 0.048767831 0.99261719 -0.094888955
1459452830.1887 0.9902885 -0.099625498 0.0037873741 0.048890747 0.0038286801 0.049219407 0.9928124 -0.095166773
1469449056.6038 0.99023664 -0.10035741 0.0039223647 0.049253259 0.0039926814 0.049556352 0.99304074 -0.095850974
1479445283.0189 0.99005532 -0.10102595 0.0040405565 0.049519166 0.0040695239 0.049828943 0.99302948 -0.096770011
1489441509.434 0.99001467 -0.10140088 0.0041979924 0.049850628 0.0042375643 0.050176471 0.99297297 -0.097571611
1499437735.8491 0.98981494 -0.10182491 0.0043003969 0.050133009 0.0043580122 0.050404754 0.99285561 -0.098479897
1509433962.2642 0.98988271 -0.10234717 0.004385842 0.050383661 0.0044164881 0.050746303 0.99260682 -0.099171564
1519430188.6792 0.98995602 -0.10279191 0.0044462532 0.05069501 0.0044755377 0.051002067 0.99252594 -0.09969914
1529426415.0943 0.98987341 -0.10349473 0.0045054276 0.05094596 0.0045260917 0.051280886 0.99246931 -0.10017359
1539422641.5094 0.9899112 -0.1042943 0.0045496267 0.05125298 0.0046009445 0.051608089 0.99257314 -0.10060038
1549418867.9245 0.98974842 -0.10512395 0.0046231151 0.051538661 0.0046508182 0.051880468 0.99273449 -0.10133302
1559415094.3396 0.989658 -0.1058453 0.0046604294 0.051807653 0.0046544932 0.052176908 0.99288619 -0.10200018
1569411320.7547 0.98952985 -0.10658538 0.0047013527 0.052093614 0.0047039716 0.052484643 0.99280822 -0.10284701
1579407547.1698 0.9894563 -0.1070883 0.0047186348 0.052383743 0.004724836 0.052749772 0.99249709 -0.10364522
1589403773.5849 0.98937738 -0.10766295 0.0047531296 0.052705616 0.00474713 0.053029351 0.99224633 -0.1044274
1599400000 0.98938608 -0.10808676 0.0047484785 0.05298635 0.0047489926 0.053375382 0.99180841 -0.10486919
1609396226.4151 0.98925066 -0.10879178 0.0047554127 0.053309202 0.0047248416 0.053698674 0.99172634 -0.10535119
1619392452.8302 0.98929071 -0.10943508 0.0047230069 0.053653315 0.0047773179 0.054054618 0.99168682 -0.10571116
1629388679.2453 0.98909593 -0.11013275 0.0048208013 0.054008447 0.0047479086 0.054430343 0.99192405 -0.10639286
1639384905.6604 0.98883539 -0.11074062 0.0047766576 0.054361984 0.0047630114 0.054774497 0.9921726 -0.10722631
1649381132.0755 0.98848361 -0.11146942 0.0047825333 0.054710679 0.0047802143 0.055145986 0.99213433 -0.10815436
1659377358.4906 0.98835176 -0.11219719 0.00477832 0.055060484 0.0048052371 0.055549156 0.9921245 -0.10900834
1669373584.9057 0.98841995 -0.11258826 0.0048492746 0.055477649 0.0048628864 0.055918932 0.99174809 -0.10969899
1679369811.3208 0.988406 -0.11325207 0.0048707873 0.055849332 0.0049135722 0.056309056 0.99160719 -0.11013669
1689366037.7358 0.98846769 -0.113958 0.0049503557 0.056230769 0.0049398337 0.056700375 0.99134624 -0.11047149
1699362264.1509 0.9885605 -0.11461346 0.0050381692 0.056593463 0.0049794838 0.057057265 0.99160278 -0.11095166
1709358490.566 0.98848689 -0.11526337 0.0050552068 0.056989539 0.0050257044 0.057477292 0.99160618 -0.11158788
1719354716.9811 0.98816156 -0.11579183 0.0051552244 0.057367474 0.0051102247 0.057813555 0.99164605 -0.11222872
1729350943.3962 0.98784029 -0.11645317 0.0051799882 0.05772391 0.005169319 0.058254562 0.99175698 -0.1131151
