!Keysight Technologies,N5222B,MY61253708,A.15.00.15
!Date: Wednesday, June 19, 2024 09:23:47
!Correction: S11(C  2-Port  ) 
!S21(C  2-Port  ) 
!S12(C  2-Port  ) 
!S22(C  2-Port  ) 
!S2P File: Measurements: S11, S21, S12, S22:
# Hz S  RI   R 50
10000000 0.99863923 -0.0025342703 -0.00023669127 0.00030518678 -0.00038291304 0.00024336624 0.99887079 -0.0010223985
19996226.415094 0.99887931 -0.0022498965 6.6747598e-006 0.00063897663 0.0001258986 0.00075223204 0.99918497 -0.0021496117
29992452.830189 0.99969757 -0.0024980605 4.4905435e-005 0.0010172512 4.7947018e-005 0.00092693971 0.99945897 -0.0027347207
39988679.245283 1.0000656 -0.0030538738 -3.3337739e-005 0.0013316484 3.8056285e-005 0.0013934739 0.99973297 -0.0031439662
49984905.660377 1.0000906 -0.0037721992 2.113462e-005 0.001678845 4.6736619e-005 0.0017110701 0.99988037 -0.0036819875
59981132.075472 1.0002414 -0.0047072768 1.3768731e-005 0.0020068327 -1.0135758e-005 0.0020306627 0.99982291 -0.0042586029
69977358.490566 1.0001268 -0.0052438285 -1.3777597e-005 0.0023173275 1.8713847e-005 0.0023803369 0.9996925 -0.0047966596
79973584.90566 0.99981147 -0.0057699084 1.8696999e-005 0.0027009575 -3.1822128e-005 0.0026888186 0.99935794 -0.0052928329
89969811.320755 0.99983704 -0.00595662 1.3006967e-005 0.0030206728 2.1825312e-005 0.0030475911 0.9995836 -0.0055727661
99966037.735849 1.0000492 -0.0067074299 2.4251291e-005 0.0033654417 3.4885481e-005 0.0033702154 0.99964142 -0.0063970834
109962264.15094 1.0000672 -0.007669434 6.1572995e-005 0.0036962021 2.7124654e-005 0.0037307837 0.99965304 -0.007202059
119958490.56604 1.0000751 -0.0085758865 3.8405065e-005 0.0040184557 3.585848e-005 0.0040787985 0.99970162 -0.0080739558
129954716.98113 1.000033 -0.0095979869 5.1597017e-005 0.0043538245 5.1273499e-005 0.0043935231 0.99965513 -0.0090067387
139950943.39623 1.000002 -0.010397118 7.6436721e-005 0.0047054798 5.0577335e-005 0.0047526364 0.99957883 -0.0097593237
149947169.81132 0.9998672 -0.011067063 6.1240979e-005 0.0050692223 5.7702884e-005 0.0050793495 0.99953002 -0.010377228
159943396.22642 0.99979234 -0.01161316 6.9450587e-005 0.0053969487 5.6332676e-005 0.0054204608 0.99961269 -0.010796607
169939622.64151 0.9998101 -0.011993945 6.3766434e-005 0.0057315459 4.5390159e-005 0.0057580848 0.99968052 -0.011252433
179935849.0566 0.99981725 -0.012317806 7.5741904e-005 0.0060382118 6.0645165e-005 0.0061331838 0.99955034 -0.011627674
189932075.4717 0.99996746 -0.013018757 7.8199664e-005 0.0064095478 0.00011154334 0.0064382404 0.9998138 -0.012259871
199928301.88679 0.99988812 -0.013916373 0.00011945528 0.0067239772 0.00010883855 0.0067746104 0.99967527 -0.013134986
209924528.30189 0.99964672 -0.014551297 0.00011750252 0.0070663178 0.00010773586 0.0071079899 0.99942464 -0.01382339
219920754.71698 0.99971354 -0.015408903 0.00012098788 0.0073956177 0.00010794494 0.007452887 0.99929047 -0.014523804
229916981.13208 0.99945676 -0.016287714 0.0001317854 0.0077310293 0.00013703061 0.0077883452 0.99922824 -0.015313476
239913207.54717 0.99934685 -0.016908338 0.00013753967 0.0080688205 0.00013081537 0.0081367921 0.99920619 -0.015982686
249909433.96226 0.99939895 -0.01756984 0.00014618109 0.0083969925 0.00014568539 0.0084654829 0.99930847 -0.016627312
259905660.37736 0.9993937 -0.018123418 0.0001424877 0.0087450314 0.00017465511 0.0088676382 0.99952877 -0.017149866
269901886.79245 0.99959499 -0.018858433 0.00011406024 0.0090746898 0.00014629273 0.0091572218 0.99986374 -0.017939061
279898113.20755 0.99962324 -0.019389704 0.00014676154 0.0093924636 0.00023647328 0.0094249602 0.99963391 -0.018632099
289894339.62264 0.99966365 -0.020263314 0.000129533 0.0097149536 0.00021207845 0.0098247845 0.99956346 -0.019393265
299890566.03774 0.99963218 -0.020747006 0.00019984273 0.01007783 0.0001645342 0.010176376 0.99937713 -0.019833297
309886792.45283 0.99928814 -0.021369159 0.0002243222 0.010413394 0.00023480458 0.010548666 0.99931973 -0.020339847
319883018.86792 0.99931598 -0.02193442 0.00023474544 0.010773722 0.00027821679 0.010863166 0.99929261 -0.020811796
329879245.28302 0.999385 -0.022743791 0.00024769967 0.0110702 0.00024985615 0.011167403 0.99937797 -0.021607816
339875471.69811 0.99925369 -0.023497678 0.00029730634 0.011461901 0.00028353964 0.011517333 0.99937236 -0.02238775
349871698.11321 0.99941862 -0.024327695 0.00029596523 0.011804317 0.00028675329 0.01184712 0.99938828 -0.023298085
359867924.5283 0.99931514 -0.02512899 0.00030403631 0.012106467 0.00031159539 0.012185914 0.99934584 -0.024247587
369864150.9434 0.99953306 -0.025882304 0.00032933778 0.012465653 0.00030992017 0.012506529 0.99933314 -0.024888486
379860377.35849 0.99941343 -0.026503682 0.00035730912 0.012770509 0.00036890339 0.012863432 0.99927843 -0.025644735
389856603.77358 0.99940175 -0.02712974 0.00037329691 0.013090636 0.00037110085 0.013183121 0.99923968 -0.026084512
399852830.18868 0.99903226 -0.027769178 0.00043913163 0.013380848 0.00040059024 0.01354555 0.99924999 -0.026614845
409849056.60377 0.99908507 -0.028204083 0.00036439177 0.013733936 0.00039834355 0.013893569 0.99924195 -0.02709694
419845283.01887 0.99906802 -0.028596014 0.0004389463 0.014107255 0.00042359857 0.014225743 0.9992618 -0.027605355
429841509.43396 0.99913591 -0.029303044 0.00041122036 0.014471058 0.0004022615 0.014537962 0.9994247 -0.028389096
439837735.84906 0.99909616 -0.030177727 0.0004561774 0.014753574 0.00046427816 0.01489017 0.99923909 -0.029346004
449833962.26415 0.99903512 -0.031062782 0.00045608543 0.015102049 0.00047044223 0.015220185 0.99887556 -0.030158579
459830188.67925 0.99889702 -0.031741321 0.00049142214 0.015419244 0.00046681799 0.015527285 0.99864894 -0.030902058
469826415.09434 0.99886668 -0.032710463 0.00050612865 0.015773498 0.00048822165 0.015912626 0.99834657 -0.031442285
479822641.50943 0.99881399 -0.033248089 0.00052987761 0.016129114 0.00053149718 0.016265642 0.99851972 -0.031898536
489818867.92453 0.99894035 -0.033703417 0.00054037431 0.016448969 0.00053839153 0.016599756 0.99878705 -0.032496214
499815094.33962 0.99888706 -0.034299046 0.00057377387 0.016779102 0.00060136616 0.016899688 0.99906397 -0.03304708
509811320.75472 0.99886942 -0.034749221 0.00060589466 0.017099684 0.00059256254 0.017222857 0.9992193 -0.033830799
519807547.16981 0.99902874 -0.03537631 0.00062006013 0.017436847 0.00061732205 0.01756922 0.99919593 -0.034563452
529803773.58491 0.99892902 -0.035997033 0.00061580446 0.017788628 0.00065044314 0.017949773 0.99892873 -0.035210907
539800000 0.99889249 -0.036823675 0.00066209747 0.018083494 0.00064361212 0.018255772 0.9987523 -0.035872787
549796226.41509 0.99876088 -0.037716091 0.00064764405 0.018424556 0.00067446521 0.018616775 0.99849999 -0.036335379
559792452.83019 0.99850869 -0.038229555 0.000717788 0.018783556 0.00068341661 0.01896243 0.99847442 -0.036840528
569788679.24528 0.99838102 -0.039000303 0.00068547716 0.019101508 0.00071027549 0.019304128 0.99864519 -0.037618786
579784905.66038 0.99829918 -0.039533921 0.00072261365 0.019487619 0.00073510292 0.01962612 0.99877608 -0.0382673
589781132.07547 0.99848676 -0.040165693 0.00076769944 0.019791169 0.00079485308 0.019959994 0.99889123 -0.039240003
599777358.49057 0.99855405 -0.040811867 0.00079663936 0.020141324 0.00079505425 0.020268615 0.99887431 -0.040019095
609773584.90566 0.99875981 -0.041608609 0.00086196454 0.020468274 0.00084627396 0.02062425 0.99879974 -0.040901043
619769811.32075 0.99879026 -0.042294472 0.00087926304 0.020779256 0.00090131862 0.02096724 0.99872482 -0.041481376
629766037.73585 0.99865198 -0.042984486 0.00091592874 0.021096643 0.00093181059 0.021277659 0.99851489 -0.042007387
639762264.15094 0.99842429 -0.043574795 0.00095234672 0.021393759 0.00093849283 0.021586847 0.99831599 -0.042483523
649758490.56604 0.99830419 -0.044150472 0.00093870051 0.021723831 0.00096736476 0.021950977 0.99848485 -0.042886212
659754716.98113 0.9980886 -0.04468298 0.00096661132 0.02206926 0.00098536536 0.022293419 0.99849546 -0.043386012
669750943.39623 0.99818408 -0.045231014 0.00099665904 0.022467511 0.0009590257 0.022655858 0.99860346 -0.044227809
679747169.81132 0.99814802 -0.046037711 0.001051437 0.022766847 0.0010226371 0.022998607 0.9985078 -0.045212232
689743396.22642 0.99839127 -0.046807736 0.0011330033 0.02310021 0.0010581343 0.023353955 0.99830621 -0.046196222
699739622.64151 0.99846584 -0.047572941 0.0011031153 0.023469239 0.0011413312 0.023655467 0.99827242 -0.046856701
709735849.0566 0.99844146 -0.048369259 0.0011249499 0.023760762 0.0011533987 0.023982557 0.99800014 -0.047525436
719732075.4717 0.99842143 -0.049204558 0.0011946545 0.024105148 0.0011575283 0.024257293 0.99813074 -0.048072755
729728301.88679 0.99830937 -0.04969117 0.0011951234 0.024399415 0.0012325486 0.024638932 0.9981885 -0.048531264
739724528.30189 0.99817228 -0.050348923 0.0012700795 0.024735883 0.0012293337 0.024947714 0.99831331 -0.049190074
749720754.71698 0.99801171 -0.050901532 0.0012968951 0.025052724 0.0012671393 0.025279649 0.99827403 -0.049904391
759716981.13208 0.99813795 -0.05128336 0.0013029035 0.025382465 0.0013060169 0.025572125 0.99833417 -0.050647616
769713207.54717 0.99801397 -0.052105725 0.0013167607 0.025678776 0.0013429122 0.025959715 0.99802911 -0.051393628
779709433.96226 0.99816632 -0.052772276 0.0013676044 0.026062818 0.0013843954 0.026240919 0.99780583 -0.052023228
789705660.37736 0.99802363 -0.053655118 0.0014246106 0.026375785 0.0013960879 0.026594698 0.99750996 -0.052825034
799701886.79245 0.99805856 -0.054492116 0.0014269613 0.026677076 0.0014078291 0.026894834 0.99742138 -0.053364784
809698113.20755 0.99797791 -0.055068716 0.001457358 0.027014254 0.0014532148 0.027249711 0.99746698 -0.053823963
819694339.62264 0.99772704 -0.055780619 0.001468014 0.027332611 0.0014987309 0.02759207 0.9975816 -0.054419905
829690566.03774 0.99774861 -0.056377858 0.0015304871 0.027652044 0.0015249318 0.027911473 0.99781215 -0.055262655
839686792.45283 0.99785924 -0.056863219 0.0015494926 0.027967175 0.0015726704 0.028258694 0.99784833 -0.056144685
849683018.86792 0.9979127 -0.057456277 0.0015759468 0.028329166 0.0016247786 0.028621271 0.99777997 -0.056867212
859679245.28302 0.99792778 -0.058211863 0.0016249875 0.028667718 0.0016400954 0.028904587 0.99751633 -0.057519108
869675471.69811 0.99789131 -0.059030414 0.0016573649 0.028987417 0.0016981205 0.029219367 0.99709803 -0.058059126
879671698.11321 0.99769878 -0.059655331 0.0016959914 0.029300023 0.0016795071 0.029565763 0.99710011 -0.058498032
889667924.5283 0.99757779 -0.060530782 0.0017288635 0.029595558 0.0017476603 0.029874779 0.99699324 -0.058963865
899664150.9434 0.99735409 -0.061219931 0.0017572027 0.029944666 0.0017801421 0.030215908 0.99703503 -0.05957827
909660377.35849 0.99736392 -0.061919942 0.0017604842 0.030263048 0.0017955778 0.030561041 0.99714828 -0.06051302
919656603.77358 0.99748087 -0.06252256 0.0017923568 0.030587155 0.0018003937 0.030864879 0.99718291 -0.06132862
929652830.18868 0.99745214 -0.063249379 0.0018496243 0.030884085 0.0018586004 0.031186689 0.99698019 -0.062267154
939649056.60377 0.99757898 -0.063940108 0.001816405 0.031229917 0.0018585362 0.031508107 0.99681783 -0.06296131
949645283.01887 0.99759412 -0.064793631 0.0018304575 0.03158563 0.0018716499 0.031846091 0.99659306 -0.063519835
959641509.43396 0.99752593 -0.065467656 0.0018781405 0.031918265 0.0019254815 0.032205574 0.99657738 -0.064041257
969637735.84906 0.99738812 -0.066143245 0.0019354252 0.032292206 0.0019478751 0.032570604 0.9965812 -0.064391196
979633962.26415 0.99724007 -0.066909403 0.0019825224 0.032580659 0.0020119408 0.032885943 0.99662131 -0.065061733
989630188.67925 0.99726892 -0.067377716 0.0020401943 0.032916047 0.0020799013 0.033220943 0.99677515 -0.065698445
999626415.09434 0.99730659 -0.068031371 0.0020467183 0.033240192 0.0020909514 0.033564448 0.99669683 -0.066493452
1009622641.5094 0.99737275 -0.068685293 0.0020783367 0.03356377 0.0021452913 0.033910789 0.99653864 -0.067365348
1019618867.9245 0.99740666 -0.06955263 0.0021579475 0.033898905 0.0021750103 0.034263447 0.9963432 -0.068168357
1029615094.3396 0.99738443 -0.070494711 0.0022109207 0.034225665 0.0022264477 0.034513734 0.99593812 -0.06877932
1039611320.7547 0.99744415 -0.071332365 0.0022409372 0.034528285 0.0022709211 0.034829639 0.99586958 -0.069452345
1049607547.1698 0.99730116 -0.072331175 0.0022627937 0.034833159 0.0022913176 0.035177361 0.99592799 -0.070073701
1059603773.5849 0.99717098 -0.072961837 0.0023193499 0.035139743 0.002344734 0.035469051 0.99584401 -0.070522189
1069600000 0.99694121 -0.073617637 0.0022752769 0.035441972 0.0023436733 0.035811104 0.99601924 -0.071274728
1079596226.4151 0.99694353 -0.074286461 0.0023121512 0.035783939 0.0023741522 0.036173567 0.99610931 -0.072079375
1089592452.8302 0.99692738 -0.074909747 0.0023550671 0.03609689 0.0024061613 0.036488764 0.99596071 -0.0727745
1099588679.2453 0.99689734 -0.075563192 0.0023640692 0.036466159 0.0024226643 0.03680782 0.99566102 -0.073362201
1109584905.6604 0.997091 -0.076418504 0.0024124002 0.036777295 0.002460707 0.037142418 0.99538773 -0.073986426
1119581132.0755 0.99704099 -0.07729651 0.0024209945 0.037144847 0.0024394831 0.037496865 0.99527609 -0.074425295
1129577358.4906 0.99686879 -0.078142941 0.0024302397 0.037520181 0.0025175065 0.037852645 0.99513447 -0.07486549
1139573584.9057 0.99667656 -0.079143077 0.0024844976 0.037825629 0.0025541941 0.038177799 0.99521923 -0.075549036
1149569811.3208 0.99652064 -0.079947107 0.0025657995 0.038175255 0.0026490886 0.038518578 0.99526542 -0.076335147
1159566037.7358 0.99627411 -0.0806126 0.0025829021 0.038500171 0.0026600705 0.038863048 0.99542534 -0.077393323
1169562264.1509 0.99613392 -0.081270933 0.0025955364 0.038792457 0.0026949942 0.039166957 0.99524635 -0.078124106
1179558490.566 0.99611872 -0.082063429 0.0026084282 0.039160125 0.0027151627 0.039534219 0.99514359 -0.078808516
1189554716.9811 0.99610698 -0.082731932 0.002648158 0.039500538 0.0027728546 0.03986435 0.99479771 -0.079331428
1199550943.3962 0.99601573 -0.083594382 0.0027096681 0.039869122 0.0028323829 0.040219247 0.99461806 -0.079797924
1209547169.8113 0.99580306 -0.084486932 0.0027495688 0.040190004 0.0028748577 0.040516745 0.99454933 -0.080124125
1219543396.2264 0.99560326 -0.085373983 0.0028021033 0.040568873 0.0028887969 0.040931493 0.99466622 -0.080540225
1229539622.6415 0.9953723 -0.086137235 0.0028748251 0.040867142 0.0030009449 0.041263044 0.99481237 -0.081159085
1239535849.0566 0.99506009 -0.086866707 0.0029183552 0.041203991 0.003027318 0.041579135 0.99491239 -0.082158357
1249532075.4717 0.99481857 -0.087461591 0.0029776106 0.04152552 0.0031142081 0.041893218 0.99471259 -0.082984537
1259528301.8868 0.99460316 -0.088002652 0.0030187424 0.041844949 0.0031881612 0.042208344 0.99451721 -0.08379218
1269524528.3019 0.99444312 -0.088690132 0.0030948371 0.04216681 0.0032648239 0.042528953 0.99420393 -0.084502906
1279520754.717 0.99404734 -0.089385584 0.003156147 0.042456858 0.0032802033 0.042783588 0.99395746 -0.085008062
1289516981.1321 0.99392366 -0.090276688 0.0031443052 0.042779405 0.0032846602 0.043104056 0.99400461 -0.085529149
1299513207.5472 0.99360311 -0.091056973 0.0031610951 0.043087609 0.0033168085 0.043393824 0.99407077 -0.085901231
1309509433.9623 0.99316281 -0.091861621 0.0031867651 0.043387659 0.0033486718 0.043705195 0.99419862 -0.086612359
1319505660.3774 0.99270856 -0.092539594 0.0032089651 0.043701805 0.0033485387 0.044039194 0.99424851 -0.087251276
1329501886.7925 0.99250913 -0.093225241 0.0032026544 0.044038083 0.0033663921 0.044374898 0.99422336 -0.088215232
1339498113.2075 0.99222744 -0.093744963 0.0032127025 0.044377953 0.0033619907 0.044696975 0.99390966 -0.088933706
1349494339.6226 0.99207699 -0.094292052 0.003209291 0.044722147 0.0033667963 0.044998664 0.99346542 -0.089584127
1359490566.0377 0.99194527 -0.094906449 0.00323282 0.045079805 0.0033659879 0.045388184 0.99327672 -0.090067953
1369486792.4528 0.99168283 -0.095429182 0.0032736985 0.045474168 0.0033543082 0.045742709 0.9931286 -0.090562493
1379483018.8679 0.99139094 -0.096003897 0.0032918877 0.045816526 0.0034267744 0.046120267 0.99310416 -0.090855852
1389479245.283 0.99105674 -0.096556723 0.003326321 0.046193182 0.0034276154 0.046468139 0.99305654 -0.091627896
1399475471.6981 0.99065161 -0.096901 0.0033453759 0.046566091 0.003428353 0.046854161 0.99326181 -0.092276633
1409471698.1132 0.9902873 -0.097355478 0.0033826998 0.046893619 0.0035105338 0.047255922 0.99329644 -0.09313044
1419467924.5283 0.99011958 -0.09760946 0.003434998 0.047299717 0.0035376102 0.047598366 0.99299169 -0.093757123
1429464150.9434 0.98999941 -0.098009229 0.0034469422 0.04773926 0.0035692118 0.048017569 0.99298429 -0.094354987
1439460377.3585 0.99022627 -0.098492905 0.003542129 0.048161879 0.0036026277 0.048423193 0.99275094 -0.094692886
1449456603.7736 0.99019027 -0.099077985 0.0036574062 0.048552837 0.0037278207 0.048862197 0.99262375 -0.095017791
1459452830.1887 0.99015021 -0.099802196 0.0037837643 0.048974231 0.0038432591 0.049246684 0.99278319 -0.095314264
1469449056.6038 0.9902004 -0.10050368 0.0039457884 0.049348705 0.0039758375 0.049577471 0.99297768 -0.096075684
1479445283.0189 0.99014252 -0.10113632 0.0040708221 0.049603965 0.0040760376 0.049913708 0.99307948 -0.097009718
1489441509.434 0.98992372 -0.10160667 0.0041776188 0.049910858 0.0042751878 0.050252397 0.99300826 -0.097838819
1499437735.8491 0.9898389 -0.10187629 0.0043123718 0.050209828 0.0043479297 0.050486326 0.99284148 -0.098626435
1509433962.2642 0.98981357 -0.10238775 0.0044046687 0.05045354 0.0044063698 0.050777007 0.99260843 -0.099290818
1519430188.6792 0.98984444 -0.10296807 0.0044465344 0.050741006 0.0045138299 0.051028188 0.99255347 -0.099868119
1529426415.0943 0.98983598 -0.10360283 0.0045191869 0.051037841 0.0045533981 0.05132433 0.99244726 -0.10033011
1539422641.5094 0.98990566 -0.10443943 0.0045791198 0.051314931 0.0046062823 0.051659469 0.99250489 -0.10083914
1549418867.9245 0.9896704 -0.1052406 0.0046293009 0.051616125 0.0046603419 0.051989574 0.9926914 -0.10151169
1559415094.3396 0.98957717 -0.10593978 0.0047010258 0.051937982 0.0047002267 0.0522549 0.99281186 -0.10222372
1569411320.7547 0.9894281 -0.1067147 0.0047355238 0.052161202 0.0047618048 0.052543819 0.99279881 -0.10296489
1579407547.1698 0.98936403 -0.10722549 0.0047637154 0.052463923 0.0047713206 0.052834898 0.99241978 -0.10385354
1589403773.5849 0.98925298 -0.10779178 0.0047808606 0.052742109 0.0047921501 0.05315309 0.9921996 -0.10455781
1599400000 0.98931283 -0.10820773 0.0047867168 0.053053647 0.004767634 0.053426623 0.99176025 -0.1050435
1609396226.4151 0.98931068 -0.10885804 0.0047643483 0.053406715 0.0047625434 0.053745583 0.9915635 -0.10562812
1619392452.8302 0.98925787 -0.10952276 0.004784191 0.053715415 0.0047818646 0.054147139 0.99156797 -0.10590768
1629388679.2453 0.98898804 -0.11022273 0.0048071295 0.054065324 0.0047802869 0.054508686 0.99173498 -0.1065101
1639384905.6604 0.98876315 -0.11090869 0.0047922595 0.054431889 0.0047714091 0.054865964 0.99209517 -0.10736179
1649381132.0755 0.98850799 -0.11156034 0.0047958121 0.054835491 0.0048364215 0.055211253 0.9919939 -0.1083658
1659377358.4906 0.98836839 -0.11235768 0.0048286859 0.055179767 0.0048249345 0.055600766 0.99200463 -0.10913509
1669373584.9057 0.98836333 -0.11276703 0.0048991106 0.055538852 0.0048580794 0.05600816 0.99176252 -0.10979674
1679369811.3208 0.98844343 -0.11333677 0.0049037533 0.055950612 0.004900774 0.056413289 0.99151063 -0.11036128
1689366037.7358 0.98834693 -0.11401865 0.0049610194 0.056299008 0.0049639028 0.056717139 0.99133199 -0.11060357
1699362264.1509 0.98855603 -0.11468196 0.0050217118 0.056703717 0.0050044749 0.057143625 0.99151444 -0.11108917
1709358490.566 0.9884178 -0.11534323 0.0050654775 0.057078481 0.0050534541 0.057524424 0.99155152 -0.11163533
1719354716.9811 0.98813045 -0.11597636 0.005134711 0.057463743 0.0051133111 0.057912432 0.99160421 -0.11237079
1729350943.3962 0.98780942 -0.11654407 0.0052223988 0.057835482 0.0051965639 0.058335509 0.991575 -0.11333546
