!Keysight Technologies,N5222B,MY61253708,A.15.00.15
!Date: Wednesday, June 19, 2024 08:41:13
!Correction: S11(C  2-Port  ) 
!S21(C  2-Port  ) 
!S12(C  2-Port  ) 
!S22(C  2-Port  ) 
!S2P File: Measurements: S11, S21, S12, S22:
# Hz S  RI   R 50
10000000 0.99891919 -0.0020855367 0.00046190416 0.00025760726 -0.00012361971 0.00022155742 0.99867439 -0.0011627972
19996226.415094 0.99915701 -0.0021624565 8.3043415e-005 0.00098645524 -5.3657976e-005 0.00092409097 0.99932992 -0.0023053288
29992452.830189 0.99975514 -0.0027576685 8.4517262e-005 0.0014291683 7.5064454e-005 0.0013649859 0.99963021 -0.00304842
39988679.245283 1.000134 -0.0035663545 3.0728988e-006 0.0018084296 3.0962823e-005 0.0018378421 0.9996134 -0.0036195219
49984905.660377 1.0001553 -0.0043825805 3.4258002e-005 0.0023232889 7.3655974e-006 0.0022682529 0.99971771 -0.0043739676
59981132.075472 1.0002329 -0.0053443909 4.1145016e-005 0.0027102027 7.0499489e-005 0.0027456244 0.99976814 -0.0049557388
69977358.490566 1.0000036 -0.0059437752 3.5330457e-005 0.0031819087 3.9910723e-005 0.0031791057 0.99954104 -0.0055424701
79973584.90566 0.9997552 -0.0066100359 2.2304244e-005 0.0036722685 5.4153847e-005 0.0036108354 0.99932837 -0.0062079132
89969811.320755 0.99979776 -0.0070788562 3.6593061e-005 0.0041237595 3.545545e-005 0.0040616142 0.99944806 -0.0066540539
99966037.735849 0.99993467 -0.0078543127 6.0763792e-005 0.0045793797 4.7950307e-005 0.0045398353 0.99945921 -0.0074886829
109962264.15094 0.99998379 -0.0089543164 5.9276586e-005 0.0050155432 7.0931041e-005 0.004973595 0.99950087 -0.0084614754
119958490.56604 1.0000105 -0.010024786 8.3781779e-005 0.0055042049 8.5262582e-005 0.005432521 0.99950981 -0.0094945133
129954716.98113 0.99999094 -0.011219352 7.525715e-005 0.0059416904 0.00010662782 0.0058815582 0.99952775 -0.01057592
139950943.39623 0.99989396 -0.01218866 9.66917e-005 0.0063962271 0.00010788368 0.0063372813 0.99938959 -0.011421246
149947169.81132 0.99972779 -0.012944579 0.00012040627 0.006858252 0.00010930235 0.006790462 0.99934095 -0.012166113
159943396.22642 0.99974686 -0.013542205 0.0001189285 0.0073009739 0.00012440421 0.0072347326 0.99944997 -0.012690395
169939622.64151 0.99975282 -0.0140284 0.0001400428 0.0077489633 0.00011516555 0.0076884059 0.9995209 -0.0132199
179935849.0566 0.99977416 -0.014415413 0.00016296632 0.0082412902 0.00014649238 0.0081342226 0.99951494 -0.013703853
189932075.4717 0.99984539 -0.015284032 0.00016733259 0.0086775683 0.00017776014 0.0085822102 0.99964154 -0.014465004
199928301.88679 0.99972832 -0.016271412 0.00018260558 0.0091218026 0.0001802193 0.0090394318 0.99947131 -0.015490294
209924528.30189 0.99952841 -0.017159522 0.00022623548 0.0095942691 0.00021787558 0.0095143402 0.99928808 -0.016365141
219920754.71698 0.99937785 -0.018234938 0.00034560682 0.010008109 0.00032949494 0.009945754 0.99894893 -0.017234981
229916981.13208 0.99916059 -0.019108951 0.00025583571 0.010458796 0.00024123956 0.01037866 0.99891579 -0.018059582
239913207.54717 0.99908245 -0.019916616 0.00027834799 0.010910564 0.00027114357 0.010836356 0.99887258 -0.018853426
249909433.96226 0.99914533 -0.020633012 0.00029408606 0.011391114 0.00028770184 0.011293071 0.99906218 -0.019561797
259905660.37736 0.99923772 -0.021356851 0.00027544564 0.011831395 0.00031510415 0.011721665 0.99926472 -0.020301253
269901886.79245 0.99944371 -0.022142455 0.00035629142 0.012292666 0.00034789648 0.012193076 0.99953485 -0.021116316
279898113.20755 0.99962974 -0.023027554 0.00032721413 0.012735588 0.00037706504 0.012610768 0.99947327 -0.021954432
289894339.62264 0.99949098 -0.023814768 0.00038121874 0.013178112 0.00043900264 0.01310866 0.99937761 -0.022850603
299890566.03774 0.99935108 -0.024525821 0.00039562816 0.013710582 0.00040262565 0.013508983 0.99911982 -0.023516625
309886792.45283 0.99903715 -0.025198869 0.00041199324 0.014060341 0.00038271525 0.014000195 0.99880987 -0.024069518
319883018.86792 0.99894691 -0.026013821 0.0004497203 0.014545083 0.0004471913 0.01446902 0.99883795 -0.024682611
329879245.28302 0.99882698 -0.026787698 0.00047143595 0.014996306 0.00048132567 0.014874045 0.99892616 -0.02545011
339875471.69811 0.99873233 -0.027566507 0.00054020248 0.015477772 0.00052253495 0.01533845 0.99894291 -0.026423752
349871698.11321 0.99905717 -0.028610766 0.0005672765 0.015940923 0.00053986395 0.015806321 0.99898511 -0.027430832
359867924.5283 0.99889952 -0.029501259 0.00056862831 0.016382821 0.00056494493 0.016221074 0.99893475 -0.028499216
369864150.9434 0.9991169 -0.030575335 0.00062719453 0.016845465 0.00065402547 0.016686397 0.99894214 -0.029341161
379860377.35849 0.99903482 -0.031325012 0.0006883496 0.017273331 0.0006245824 0.017145365 0.9988817 -0.030123413
389856603.77358 0.99881577 -0.031991303 0.00072483253 0.017719187 0.00064879004 0.017598215 0.99880564 -0.030758023
399852830.18868 0.99868399 -0.032669485 0.00072844606 0.018175503 0.00069456501 0.018019956 0.99884123 -0.031243831
409849056.60377 0.99864066 -0.033176087 0.00071948604 0.018613083 0.00068874122 0.018502038 0.99886751 -0.031747766
419845283.01887 0.99858159 -0.033703297 0.00080549298 0.019114081 0.00080138678 0.018927857 0.99880838 -0.032480389
429841509.43396 0.99870181 -0.034581989 0.00083443057 0.019543635 0.00083439611 0.019375626 0.99893349 -0.033402473
439837735.84906 0.99853134 -0.03554891 0.00092922384 0.019983117 0.00091378903 0.019812198 0.99869388 -0.034446359
449833962.26415 0.99852401 -0.03644225 0.00092981197 0.02035425 0.00088603515 0.02021629 0.99843317 -0.035341948
459830188.67925 0.99833429 -0.037443101 0.0009018369 0.02080426 0.00088616461 0.020638404 0.99827886 -0.036246687
469826415.09434 0.99828547 -0.03845337 0.00097034592 0.021283286 0.00091564097 0.021102378 0.99803811 -0.037028611
479822641.50943 0.9982006 -0.039158635 0.00099559105 0.021766474 0.00097648287 0.021580324 0.9980498 -0.037555516
489818867.92453 0.99821925 -0.039718539 0.001026609 0.022227816 0.001047519 0.022052649 0.99833572 -0.038241804
499815094.33962 0.99835408 -0.040385962 0.0010743262 0.022660328 0.0010354416 0.022439936 0.99863547 -0.038930804
509811320.75472 0.99852794 -0.040986795 0.0010924609 0.023146447 0.0010706509 0.02293854 0.99884456 -0.039848361
519807547.16981 0.99836671 -0.041798532 0.0011938447 0.023504186 0.0011401279 0.023360681 0.99877661 -0.04077667
529803773.58491 0.99831712 -0.042511255 0.0011992445 0.023973983 0.0011488684 0.023852767 0.99845314 -0.04153353
539800000 0.99821013 -0.043302998 0.0012367934 0.024417579 0.0011719798 0.02428668 0.99818987 -0.042423874
549796226.41509 0.99801666 -0.044267148 0.0012800773 0.024899995 0.0012546191 0.024725577 0.99790013 -0.042966992
559792452.83019 0.99780071 -0.045165032 0.0013298048 0.025382601 0.0012458786 0.025163334 0.99773586 -0.043579668
569788679.24528 0.99756277 -0.04611209 0.0013451036 0.025826791 0.0012815292 0.025617313 0.99787879 -0.044402748
579784905.66038 0.99760133 -0.046781294 0.0014301972 0.026299478 0.0013724659 0.026114417 0.99805212 -0.04537639
589781132.07547 0.9976958 -0.047480226 0.0015111342 0.02678002 0.0014307052 0.026561111 0.99822819 -0.046317488
599777358.49057 0.9978056 -0.048292339 0.0015442707 0.027202025 0.0014934046 0.026955232 0.99816942 -0.047257602
609773584.90566 0.99802297 -0.049180791 0.0016320902 0.027632093 0.0015806181 0.027420428 0.99801373 -0.048310217
619769811.32075 0.99793088 -0.049955934 0.0017542839 0.028084615 0.0017246632 0.027888499 0.99779046 -0.048899293
629766037.73585 0.99767053 -0.050579756 0.001795169 0.02841175 0.0017639287 0.028231692 0.9975906 -0.049480826
639762264.15094 0.99750745 -0.05137144 0.0018240851 0.028882923 0.0017435844 0.028625797 0.99746823 -0.049979791
649758490.56604 0.99735451 -0.052058548 0.0018232996 0.029322876 0.0017575845 0.02907005 0.9974727 -0.050519198
659754716.98113 0.99706209 -0.05270347 0.0018260153 0.02977781 0.0018040473 0.029592682 0.997509 -0.051241428
669750943.39623 0.99713218 -0.053375751 0.0018916093 0.030267436 0.0018354356 0.030017629 0.99758303 -0.052176833
679747169.81132 0.99711049 -0.054251771 0.0019272466 0.030697038 0.0018651148 0.030460756 0.99752218 -0.053286273
689743396.22642 0.99730766 -0.05516398 0.0020037685 0.031155586 0.0019781254 0.030971285 0.99736154 -0.054341197
699739622.64151 0.99747443 -0.056189746 0.0020943284 0.03159146 0.0020083105 0.031369306 0.99728984 -0.055161446
709735849.0566 0.99735427 -0.05719623 0.0021648472 0.032022405 0.0020822783 0.031783435 0.99695498 -0.055891104
719732075.4717 0.99726498 -0.057946742 0.0022422802 0.032467682 0.0021590749 0.032237768 0.99697196 -0.056545019
729728301.88679 0.99703848 -0.058629513 0.0022763861 0.03289669 0.0022230884 0.032681368 0.99705398 -0.057039708
739724528.30189 0.99690211 -0.059357315 0.0023757322 0.033323932 0.0022557555 0.033103101 0.99723178 -0.057854354
749720754.71698 0.99679959 -0.059898689 0.0024192706 0.033789851 0.0023279828 0.033552639 0.99727178 -0.058640853
759716981.13208 0.99675101 -0.060496449 0.0024496801 0.034229647 0.0023653833 0.03399542 0.99712145 -0.059608728
769713207.54717 0.99676883 -0.061346829 0.0024798242 0.034661341 0.0024507698 0.034441367 0.99687433 -0.060389787
779709433.96226 0.99680656 -0.062140375 0.0025603799 0.035100143 0.0025206706 0.034844518 0.9965353 -0.061158031
789705660.37736 0.99665433 -0.063207865 0.0026791589 0.035542432 0.0025816895 0.035284497 0.99631166 -0.062013924
799701886.79245 0.99659604 -0.064158827 0.0027096979 0.035954349 0.0026145633 0.035714984 0.99615777 -0.06266138
809698113.20755 0.996494 -0.064973101 0.0027668467 0.036366411 0.0026359186 0.036149953 0.99622363 -0.063251749
819694339.62264 0.99633741 -0.065689504 0.0027759485 0.036790732 0.0026832214 0.036571819 0.99633807 -0.063980371
829690566.03774 0.99630475 -0.066474885 0.0028482173 0.037245646 0.0027552508 0.037012815 0.99660087 -0.065036684
839686792.45283 0.99633062 -0.066933393 0.0028846804 0.03770595 0.0028187921 0.037458688 0.99661124 -0.065924138
849683018.86792 0.99648231 -0.067672536 0.0029514343 0.038151026 0.002863928 0.037904333 0.99651301 -0.066816814
859679245.28302 0.99642754 -0.068562746 0.0030433666 0.038597658 0.0029686019 0.038346112 0.99613202 -0.067529887
869675471.69811 0.99624926 -0.069453746 0.0031212075 0.039032638 0.0030642441 0.038825735 0.9957341 -0.068187684
879671698.11321 0.99614954 -0.070349932 0.0031738663 0.039481744 0.0030904438 0.039236814 0.99568838 -0.068796895
889667924.5283 0.99584842 -0.071250349 0.0032784343 0.039918594 0.0031774975 0.039647665 0.99553204 -0.069414288
899664150.9434 0.99562883 -0.072155625 0.0033499319 0.040339179 0.0032584965 0.040116828 0.99548066 -0.070118695
909660377.35849 0.99561262 -0.072872579 0.0034694988 0.040740784 0.0033784425 0.040488239 0.99556673 -0.071159005
919656603.77358 0.99564916 -0.073691353 0.0034819059 0.04115719 0.0033893576 0.040899899 0.9956342 -0.072112456
929652830.18868 0.99559057 -0.074486524 0.0035462659 0.041544534 0.0034216717 0.041305151 0.99542975 -0.073167592
939649056.60377 0.99579728 -0.075189859 0.003583651 0.041975029 0.0034396769 0.041742191 0.99523664 -0.073957473
949645283.01887 0.99570173 -0.076150693 0.0035704761 0.04239272 0.0034960082 0.04217444 0.99500412 -0.074549034
959641509.43396 0.9956764 -0.076914787 0.0036466587 0.042880569 0.0035242159 0.042637784 0.99491608 -0.075179309
969637735.84906 0.99547517 -0.077724755 0.0036973953 0.043340944 0.0035966374 0.043119308 0.99486732 -0.075607926
979633962.26415 0.99525887 -0.078564733 0.0038052853 0.043770336 0.0036784266 0.043538198 0.99487853 -0.076393813
989630188.67925 0.995314 -0.079225272 0.0038491609 0.044192947 0.0037307432 0.044004161 0.99506795 -0.07717663
999626415.09434 0.9952926 -0.080000937 0.0039090887 0.044683039 0.0037971418 0.044453584 0.99492371 -0.078155965
1009622641.5094 0.99525106 -0.080795944 0.0039771087 0.045138899 0.0038803602 0.044888202 0.99465048 -0.079162762
1019618867.9245 0.99530578 -0.081759542 0.0040684137 0.045563851 0.0039619911 0.045333829 0.99438292 -0.080160424
1029615094.3396 0.99532789 -0.082987607 0.0041887909 0.046013579 0.0040987357 0.045750625 0.99398077 -0.080810338
1039611320.7547 0.99522918 -0.083916396 0.0042439289 0.046454348 0.0041393805 0.04620938 0.99390745 -0.081631511
1049607547.1698 0.99501562 -0.0849308 0.0043247901 0.046849638 0.0042575914 0.046613336 0.99391872 -0.082342327
1059603773.5849 0.99488574 -0.085776538 0.0044258684 0.047227219 0.004333755 0.047024742 0.99382532 -0.082828104
1069600000 0.99453712 -0.086434364 0.0044436585 0.04766427 0.0043829773 0.047440998 0.99389613 -0.083740532
1079596226.4151 0.99452734 -0.087111041 0.0044877524 0.048079561 0.0044704191 0.047860071 0.99383098 -0.084550671
1089592452.8302 0.99444538 -0.087787479 0.0045692036 0.048520885 0.0045279674 0.048274007 0.99377191 -0.085428357
1099588679.2453 0.99445844 -0.088608831 0.0046123881 0.048974656 0.0045397393 0.048745431 0.99336755 -0.08616215
1109584905.6604 0.99460673 -0.0895399 0.004644936 0.049426809 0.0045880284 0.04917036 0.9930827 -0.086808458
1119581132.0755 0.99450415 -0.090711623 0.0047071259 0.049878888 0.0046643722 0.04962381 0.99283367 -0.087345518
1129577358.4906 0.99425912 -0.091666549 0.0048211422 0.050358783 0.0047952924 0.050090838 0.99273008 -0.087866843
1139573584.9057 0.99391228 -0.092751205 0.0048798043 0.050785586 0.0048382077 0.050538622 0.99275076 -0.088698298
1149569811.3208 0.99376267 -0.093700945 0.0049968436 0.051233783 0.0049499627 0.050968811 0.9928683 -0.089628078
1159566037.7358 0.99353278 -0.09443298 0.0050694607 0.051606067 0.0050464924 0.051336687 0.99290919 -0.090681732
1169562264.1509 0.99327362 -0.095152676 0.0051243193 0.052026361 0.0051143449 0.051783338 0.9927032 -0.091619998
1179558490.566 0.99323106 -0.095974863 0.005160369 0.052509353 0.0051298412 0.052260645 0.9924925 -0.092453174
1189554716.9811 0.99314648 -0.096787423 0.0052471794 0.052951466 0.0052247355 0.052667357 0.99221998 -0.092995614
1199550943.3962 0.99305785 -0.097724795 0.0053218231 0.053427964 0.0052918047 0.053139769 0.99202335 -0.093455702
1209547169.8113 0.9928689 -0.098746344 0.0053845914 0.053857192 0.0054049306 0.053533204 0.99190998 -0.093862817
1219543396.2264 0.99262476 -0.099696897 0.0054802853 0.054308351 0.0054798396 0.054018646 0.99195641 -0.094449952
1229539622.6415 0.99226451 -0.10071269 0.0055901464 0.054768711 0.0055959504 0.054464407 0.99200583 -0.095215946
1239535849.0566 0.99191141 -0.1014522 0.0056837257 0.055190276 0.0056713317 0.054894701 0.99208629 -0.096323252
1249532075.4717 0.99165034 -0.10227056 0.0057979031 0.055621263 0.005821974 0.055279948 0.99188352 -0.097263232
1259528301.8868 0.99145627 -0.10293475 0.0058970693 0.056084588 0.0058892295 0.055739604 0.99151194 -0.098362148
1269524528.3019 0.99116236 -0.10372195 0.0059848689 0.056489524 0.0060011521 0.056115143 0.99132025 -0.099103689
1279520754.717 0.99082768 -0.10463208 0.0060928073 0.056867115 0.0060772207 0.056470085 0.99098939 -0.099719509
1289516981.1321 0.99062812 -0.105506 0.00616109 0.057239689 0.0061484464 0.056880161 0.9910289 -0.1002506
1299513207.5472 0.99028897 -0.10636553 0.0061953589 0.057705887 0.00619087 0.057280578 0.99109995 -0.1007351
1309509433.9623 0.98964924 -0.10719815 0.0062588099 0.058100428 0.0062375609 0.057692315 0.99120098 -0.10148251
1319505660.3774 0.98931634 -0.10800104 0.0063010165 0.05854534 0.0062752469 0.058118571 0.99116552 -0.10228394
1329501886.7925 0.98891449 -0.1087572 0.0063378662 0.058985278 0.0063372031 0.058542691 0.99109721 -0.10341382
1339498113.2075 0.98860896 -0.10948116 0.0064542051 0.059408154 0.0064308476 0.059000969 0.99062037 -0.10418227
1349494339.6226 0.98838484 -0.11015668 0.0064779823 0.059872601 0.006417756 0.059450254 0.99017423 -0.1049103
1359490566.0377 0.98830736 -0.11082643 0.0065315366 0.060336538 0.0064729396 0.05984563 0.98993534 -0.1055398
1369486792.4528 0.98800313 -0.11157653 0.0065898951 0.060789507 0.0065173022 0.060301885 0.98975325 -0.1061838
1379483018.8679 0.98765498 -0.11219539 0.00666284 0.061252631 0.006610157 0.060801763 0.98969203 -0.10664593
1389479245.283 0.98724604 -0.11285025 0.0067115556 0.061756052 0.006646065 0.061264187 0.9896161 -0.10738212
1399475471.6981 0.98682517 -0.11328176 0.0068229884 0.062214576 0.0066988599 0.061712004 0.98974121 -0.10812023
1409471698.1132 0.98643219 -0.11370514 0.006916482 0.062674925 0.0068008672 0.062202416 0.98973954 -0.1090568
1419467924.5283 0.98613715 -0.11408019 0.0070054624 0.063157775 0.0068582669 0.062686913 0.98949206 -0.10980609
1429464150.9434 0.98604387 -0.11458275 0.0070686452 0.063635632 0.0069334172 0.063167647 0.9893316 -0.11048496
1439460377.3585 0.98616397 -0.11512513 0.0071723135 0.064236045 0.0070374599 0.063672833 0.9890148 -0.11088021
1449456603.7736 0.9861539 -0.11579789 0.0073530711 0.064692885 0.007196134 0.064236142 0.98888397 -0.11139904
1459452830.1887 0.98609632 -0.11663446 0.0075398274 0.065229468 0.0073526669 0.064683549 0.98900533 -0.11177465
1469449056.6038 0.98604465 -0.11755502 0.0077529531 0.065670215 0.0075471979 0.065165505 0.98914766 -0.11265406
1479445283.0189 0.98579001 -0.11828738 0.0078888601 0.066014551 0.0077103423 0.065556169 0.98914438 -0.11367182
1489441509.434 0.98569226 -0.1188803 0.0080933534 0.066444121 0.0079212654 0.065969087 0.98896617 -0.11465794
1499437735.8491 0.98546726 -0.11928219 0.0081860162 0.066839315 0.0080182888 0.066351727 0.98890597 -0.11554655
1509433962.2642 0.98542422 -0.11986488 0.0083573218 0.067233317 0.0081760176 0.066702485 0.98863959 -0.11641237
1519430188.6792 0.98548746 -0.12048072 0.0084771104 0.067587227 0.0082891695 0.067068622 0.98845792 -0.11697313
1529426415.0943 0.98544604 -0.12121996 0.0085453354 0.067988984 0.0083079375 0.067469537 0.98833406 -0.11748496
1539422641.5094 0.98542547 -0.12213823 0.0087223239 0.068382464 0.0084726531 0.067905478 0.9883886 -0.11804885
1549418867.9245 0.98514301 -0.12314369 0.008806875 0.068746537 0.008514096 0.06826143 0.9885487 -0.11887379
1559415094.3396 0.98502743 -0.1238935 0.0089084655 0.069173753 0.0085966736 0.068699777 0.98861122 -0.11968243
1569411320.7547 0.98481482 -0.12481001 0.0089534465 0.069496676 0.0087160654 0.069061048 0.98850429 -0.120612
1579407547.1698 0.9847464 -0.12542242 0.0090480736 0.069907248 0.008779319 0.069427371 0.98807979 -0.12153842
1589403773.5849 0.98462915 -0.12608704 0.0090717711 0.070295617 0.0088473819 0.0698376 0.98774123 -0.12232995
1599400000 0.98455954 -0.12671402 0.0091080684 0.070682116 0.0088569298 0.070241056 0.98734468 -0.12293535
1609396226.4151 0.98447728 -0.1274811 0.0091684703 0.071162626 0.0088853808 0.070661716 0.9871797 -0.12347732
1619392452.8302 0.98435467 -0.12816325 0.0092253052 0.071631148 0.0089142956 0.071141951 0.98705363 -0.12408191
1629388679.2453 0.98405325 -0.12893403 0.0092988927 0.072038427 0.0089872032 0.071602926 0.98726583 -0.12480637
1639384905.6604 0.98379827 -0.12975048 0.0093380492 0.072483741 0.0090481844 0.072108604 0.98751557 -0.12570915
1649381132.0755 0.9836008 -0.13044447 0.0094262585 0.072990768 0.0091627035 0.072600842 0.98743272 -0.12678352
1659377358.4906 0.98325622 -0.13136464 0.009470541 0.073485665 0.0091983154 0.073056586 0.98734272 -0.12775174
1669373584.9057 0.98318684 -0.13199708 0.0095997639 0.073993191 0.0092850793 0.073565729 0.98692274 -0.12855431
1679369811.3208 0.98322725 -0.13267377 0.0096754599 0.074439287 0.0093851481 0.07397759 0.98657137 -0.12911636
1689366037.7358 0.98316139 -0.13351971 0.0097983256 0.074934214 0.0094967745 0.074512221 0.98639303 -0.12941366
1699362264.1509 0.98322862 -0.13421075 0.0099090366 0.075396858 0.0096341893 0.075002924 0.9865787 -0.13008344
1709358490.566 0.98304564 -0.13500248 0.010078302 0.075855531 0.0097703673 0.075500205 0.98648608 -0.13068306
1719354716.9811 0.9826529 -0.13575906 0.010223303 0.076337188 0.0099194422 0.075953819 0.98644263 -0.13155311
1729350943.3962 0.98226929 -0.13639152 0.010339633 0.076811329 0.010088265 0.076431088 0.98631084 -0.13256121
1739347169.8113 0.98201144 -0.13685158 0.010514126 0.077229239 0.010266973 0.076895341 0.9862783 -0.13364238
