!Keysight Technologies,N5222B,MY61253708,A.15.00.15
!Date: Wednesday, June 19, 2024 08:49:14
!Correction: S11(C  2-Port  ) 
!S21(C  2-Port  ) 
!S12(C  2-Port  ) 
!S22(C  2-Port  ) 
!S2P File: Measurements: S11, S21, S12, S22:
# Hz S  RI   R 50
10000000 0.99875796 -0.0025623441 0.00019446241 0.0006613009 6.5712899e-005 0.00077596388 0.99870992 -0.0010216832
19996226.415094 0.99914902 -0.0022001863 2.779215e-005 0.00078364142 5.647252e-005 0.00074013928 0.9992705 -0.0022040308
29992452.830189 0.99976927 -0.002543062 1.5722006e-005 0.0011722631 4.3458829e-005 0.0010803152 0.9994362 -0.0027526021
39988679.245283 1.0000899 -0.0032452941 0.00010505284 0.0014810178 3.1280753e-005 0.0015018297 0.99960357 -0.0032470375
49984905.660377 1.0001348 -0.0040285289 8.5092615e-006 0.0018304535 5.4668053e-006 0.0018952969 0.99973261 -0.0039040148
59981132.075472 1.0002792 -0.0048103034 4.3375185e-005 0.0022569015 1.3341021e-005 0.0022164371 0.99971217 -0.0044441819
69977358.490566 1.0000372 -0.0053404532 1.1025331e-005 0.0026165973 4.5198445e-005 0.0026270868 0.99960411 -0.0049733818
79973584.90566 0.99983811 -0.0059868693 1.6705366e-005 0.0029761693 2.8541544e-005 0.002992434 0.99933004 -0.0054606497
89969811.320755 0.99977577 -0.0062147975 4.0594023e-006 0.0033556116 2.4405192e-005 0.0033605872 0.99944472 -0.0059089661
99966037.735849 0.99998838 -0.0070051253 3.3271557e-005 0.0037224959 8.8342349e-006 0.00374131 0.99951077 -0.0066848397
109962264.15094 0.99999511 -0.0079493821 3.1093427e-005 0.0041002883 7.0374343e-005 0.0041089752 0.99952328 -0.0076153576
119958490.56604 1.000049 -0.0089982748 3.0775089e-005 0.0044617723 4.464807e-005 0.0044834069 0.99960113 -0.0085628629
129954716.98113 1.000008 -0.010073334 8.0526806e-005 0.0048443284 4.7234236e-005 0.0048391838 0.99955297 -0.0095443428
139950943.39623 0.99987751 -0.0109792 6.8124791e-005 0.0052125738 7.5257616e-005 0.0052435067 0.9994514 -0.010324353
149947169.81132 0.99978304 -0.011656314 4.2630592e-005 0.0055655409 6.9764443e-005 0.0056021893 0.99939758 -0.010976225
159943396.22642 0.99974418 -0.012213528 7.648929e-005 0.0059288614 7.1839662e-005 0.0059758746 0.99950856 -0.011416733
169939622.64151 0.99979085 -0.012598805 9.0198184e-005 0.0063241678 9.435945e-005 0.0063527031 0.99957645 -0.011910453
179935849.0566 0.99981689 -0.012904167 8.938252e-005 0.0066985255 0.00010322453 0.0067414036 0.99951929 -0.012358278
189932075.4717 0.99990195 -0.01369226 0.00012798421 0.0070681842 0.00011142646 0.0070957923 0.99964738 -0.012955874
199928301.88679 0.99987638 -0.014622301 0.00011924421 0.0074728709 0.00012180908 0.0074828314 0.99956536 -0.013913602
209924528.30189 0.99960399 -0.01537253 0.00013871398 0.0078105242 0.00014208152 0.0078643039 0.99937528 -0.014717236
219920754.71698 0.99955261 -0.016272306 0.00015269592 0.0081876032 0.0001548829 0.0082299085 0.99916357 -0.015480876
229916981.13208 0.999268 -0.017270744 0.0001589302 0.0085428739 0.00014397968 0.0085777836 0.99902201 -0.016259462
239913207.54717 0.99916458 -0.017883303 0.00016414438 0.0088834874 0.00019058232 0.0089561604 0.99906021 -0.016986649
249909433.96226 0.99924868 -0.018564612 0.00016847625 0.0092672128 0.00019486225 0.0093514631 0.99918413 -0.017648816
259905660.37736 0.99926031 -0.019183367 0.00022154441 0.0096331639 0.0002482445 0.0097096367 0.99937415 -0.018302143
269901886.79245 0.99954075 -0.019719481 0.00022895657 0.010052523 0.00024025724 0.01005489 0.99964714 -0.019023433
279898113.20755 0.99961329 -0.020545095 0.00025186781 0.010387165 0.00023184111 0.01046844 0.99955589 -0.019727275
289894339.62264 0.99961722 -0.021399677 0.00029462809 0.010847742 0.00022714771 0.01078444 0.99952352 -0.020612955
299890566.03774 0.99951947 -0.022013515 0.00026043109 0.011193914 0.0002915056 0.01118887 0.99921125 -0.021080256
309886792.45283 0.99927759 -0.022603244 0.00025183731 0.011539263 0.00025342614 0.011562595 0.99907422 -0.021687061
319883018.86792 0.99912453 -0.023274332 0.00030853786 0.011835599 0.00029262761 0.011942821 0.99902767 -0.022184074
329879245.28302 0.99913663 -0.024004698 0.00032692309 0.012257759 0.00032250304 0.012333321 0.99917454 -0.022940278
339875471.69811 0.99904633 -0.024780586 0.00033566623 0.012597308 0.00035719248 0.012681337 0.99913085 -0.023744851
349871698.11321 0.99931729 -0.025667995 0.00037284801 0.012975393 0.00036206236 0.013094817 0.9991796 -0.024698079
359867924.5283 0.99909693 -0.02650854 0.00034212647 0.013334051 0.00037341332 0.013453414 0.99918163 -0.025642663
369864150.9434 0.9993223 -0.027291536 0.00039814296 0.013704057 0.00043311645 0.013797116 0.99920607 -0.026482522
379860377.35849 0.99913919 -0.028011993 0.00039748335 0.014107447 0.000418521 0.014170808 0.99912667 -0.027218208
389856603.77358 0.99918199 -0.028820992 0.00044082804 0.014429554 0.00044232514 0.014547572 0.99904412 -0.027716637
399852830.18868 0.99890137 -0.029276937 0.00046325987 0.014814159 0.00047369162 0.014901325 0.99906063 -0.028159022
409849056.60377 0.99884617 -0.029847378 0.00046945876 0.015174001 0.00048078687 0.015283986 0.99910772 -0.028650237
419845283.01887 0.99892491 -0.030274093 0.00050954008 0.015562786 0.00050088204 0.015698861 0.99911416 -0.029237002
429841509.43396 0.9989289 -0.03098008 0.00058882451 0.015952602 0.00056345016 0.016031414 0.99922621 -0.030033052
439837735.84906 0.99893767 -0.031887844 0.00059237215 0.016287556 0.00058997842 0.01639569 0.99905312 -0.031027541
449833962.26415 0.9988535 -0.032742262 0.00059519988 0.01663544 0.00058985129 0.016753104 0.99875146 -0.031887501
459830188.67925 0.99870169 -0.033616871 0.00059094746 0.017045897 0.00057941116 0.017102862 0.99858761 -0.032776415
469826415.09434 0.99865168 -0.034546852 0.00057913456 0.017391592 0.00057362206 0.017473247 0.9982661 -0.033429831
479822641.50943 0.99851274 -0.035162471 0.00064059813 0.017752895 0.00060188002 0.017885933 0.99837047 -0.03388045
489818867.92453 0.99862337 -0.035713822 0.00068095792 0.018165123 0.00064885989 0.018251579 0.99863833 -0.034489036
499815094.33962 0.9986611 -0.036273122 0.00069084484 0.018521229 0.00069699669 0.018630344 0.99904287 -0.035046399
509811320.75472 0.99887317 -0.036853492 0.00075414812 0.018909691 0.00073043047 0.019006426 0.9991439 -0.035950553
519807547.16981 0.99881661 -0.037414908 0.00075306697 0.019223461 0.00073548825 0.019347578 0.99909413 -0.03679496
529803773.58491 0.99879193 -0.038080215 0.00077036116 0.01960551 0.00077249948 0.019679688 0.99878561 -0.037466586
539800000 0.99865139 -0.038889363 0.00078804884 0.020006798 0.0007773703 0.020125097 0.99862558 -0.038135767
549796226.41509 0.99850655 -0.039827883 0.00082254782 0.020371852 0.00078710495 0.020505538 0.99841446 -0.038781106
559792452.83019 0.9982385 -0.040520787 0.00085567962 0.020748125 0.00087292027 0.020831592 0.99825764 -0.039285243
569788679.24528 0.99810725 -0.041302234 0.00091517717 0.021149578 0.00091680558 0.021258086 0.99839944 -0.040041685
579784905.66038 0.99799997 -0.041934147 0.00093829003 0.02145768 0.00092811487 0.021629484 0.99852836 -0.040830895
589781132.07547 0.99818563 -0.042642474 0.00096080266 0.021848466 0.00093482807 0.021991251 0.99868739 -0.041785449
599777358.49057 0.998317 -0.043323159 0.00099756289 0.022256907 0.0010068892 0.022320228 0.99874848 -0.042596072
609773584.90566 0.99858135 -0.044089012 0.0010651078 0.022583203 0.0010699583 0.022768764 0.99847072 -0.043544672
619769811.32075 0.99854404 -0.044837505 0.0010982221 0.02296764 0.0011403831 0.023127928 0.9983899 -0.044102192
629766037.73585 0.99840719 -0.045471549 0.0011762083 0.023286872 0.0011716615 0.023413964 0.99814725 -0.044594228
639762264.15094 0.99814785 -0.046169236 0.0011752893 0.023639051 0.0011917891 0.023751963 0.99805355 -0.045115039
649758490.56604 0.99800825 -0.0468629 0.001177283 0.024020353 0.0011790581 0.024133677 0.99814141 -0.0455641
659754716.98113 0.99774241 -0.047301382 0.0012182901 0.024389405 0.0011968948 0.024536336 0.99817157 -0.04621014
669750943.39623 0.99776971 -0.047949314 0.0012035291 0.024746779 0.0012346981 0.024943728 0.99816436 -0.047019422
679747169.81132 0.99781978 -0.048738007 0.0012868498 0.025133496 0.0012137142 0.025324842 0.9981938 -0.048053555
689743396.22642 0.99802315 -0.049631596 0.001341817 0.02549348 0.0012695147 0.025657197 0.99798703 -0.049074084
699739622.64151 0.99808681 -0.050463647 0.0013627978 0.025882719 0.0013705064 0.026008818 0.99791884 -0.049806714
709735849.0566 0.99807292 -0.051361471 0.0014313506 0.026223358 0.0014151181 0.026423773 0.99759001 -0.050492145
719732075.4717 0.99791616 -0.052063048 0.0014481852 0.02656357 0.0014609508 0.026733637 0.99769133 -0.051100165
729728301.88679 0.99782801 -0.052720249 0.0015061954 0.026978087 0.0014652461 0.02710158 0.99779785 -0.05160439
739724528.30189 0.99778199 -0.05327481 0.0015138658 0.027290042 0.001490816 0.02744559 0.9979701 -0.052234158
749720754.71698 0.99760681 -0.053831562 0.0015690341 0.027648389 0.0015575141 0.027834307 0.99801755 -0.052934632
759716981.13208 0.99767673 -0.054348171 0.0016053664 0.028018452 0.0015798984 0.028211057 0.99792475 -0.053796321
769713207.54717 0.99758339 -0.055160463 0.0016554939 0.02836512 0.0016287621 0.028551657 0.9976474 -0.054555178
779709433.96226 0.99773949 -0.055882979 0.0017068615 0.02876514 0.0016716549 0.028945949 0.99734986 -0.055238266
789705660.37736 0.99761862 -0.056835562 0.0017682714 0.029123712 0.0017462764 0.029286165 0.99709547 -0.056024224
799701886.79245 0.99749112 -0.057723314 0.0018042224 0.029452015 0.0017723385 0.029663784 0.99692011 -0.056615531
809698113.20755 0.99745715 -0.058375105 0.0017765658 0.029766573 0.0017678402 0.030003048 0.99705821 -0.057127297
819694339.62264 0.99730599 -0.059044689 0.0018385011 0.030178813 0.0018348498 0.030360224 0.99725872 -0.057764351
829690566.03774 0.9972629 -0.059741288 0.0018671146 0.03051726 0.0018919492 0.030715264 0.99746066 -0.058710486
839686792.45283 0.99730557 -0.06013903 0.0018925304 0.030879213 0.0018851543 0.031086531 0.99756104 -0.059557468
849683018.86792 0.99746615 -0.060832672 0.0019361388 0.031262003 0.0019198747 0.031433947 0.99728727 -0.060465373
859679245.28302 0.99747407 -0.061562032 0.0019817706 0.031622797 0.0019886261 0.03182834 0.99711347 -0.061060607
869675471.69811 0.9973588 -0.062463492 0.0020463653 0.031973083 0.0020426018 0.032176122 0.99668038 -0.061586857
879671698.11321 0.99728703 -0.06318479 0.0020957259 0.032346204 0.0020876834 0.032539673 0.99670446 -0.062131371
889667924.5283 0.99705273 -0.064122587 0.0021381369 0.032652576 0.0021304237 0.032908313 0.99650526 -0.062662035
899664150.9434 0.99679059 -0.06480512 0.002148563 0.033042908 0.002170084 0.033257522 0.99656069 -0.063334852
909660377.35849 0.99682832 -0.065548986 0.0022115228 0.033398017 0.0022272128 0.03360134 0.99669123 -0.064352825
919656603.77358 0.99691147 -0.06617178 0.0022451733 0.033765089 0.002225813 0.033976458 0.99673957 -0.065249577
929652830.18868 0.99690866 -0.066973925 0.0022976249 0.03407485 0.0022721719 0.034348041 0.99653119 -0.066172838
939649056.60377 0.99713618 -0.067691803 0.0022911392 0.034463003 0.0023131287 0.034668978 0.99635428 -0.066894114
949645283.01887 0.99709386 -0.06852144 0.002296221 0.034818586 0.0023213236 0.035039172 0.99608165 -0.067465059
959641509.43396 0.99696779 -0.069335401 0.0023080688 0.035205022 0.0023411466 0.035443254 0.9960826 -0.067987859
969637735.84906 0.99680471 -0.069993973 0.0023723608 0.035590075 0.0023899842 0.035832137 0.99610472 -0.068332165
979633962.26415 0.99661303 -0.070755251 0.0024858078 0.035948813 0.0024891801 0.036169611 0.99605256 -0.069088645
989630188.67925 0.99657273 -0.071281046 0.0024780044 0.036296759 0.0025165379 0.036561515 0.99621469 -0.06972301
999626415.09434 0.99662942 -0.072036833 0.0025513023 0.036661077 0.0025589354 0.036949895 0.9961139 -0.070566386
1009622641.5094 0.99669826 -0.072691888 0.00256362 0.037052944 0.0026187198 0.037341699 0.99588931 -0.071554646
1019618867.9245 0.9967463 -0.073590994 0.0026611113 0.037395597 0.0026951549 0.037675746 0.99564898 -0.072438002
1029615094.3396 0.99675333 -0.074670523 0.0027243104 0.037747744 0.0027557071 0.038007595 0.99531496 -0.073084265
1039611320.7547 0.99681175 -0.075628102 0.0027563702 0.038081512 0.0027695792 0.038341239 0.99523532 -0.073798358
1049607547.1698 0.99659359 -0.076553874 0.0028384624 0.038426939 0.0028585354 0.038720611 0.99521524 -0.07436762
1059603773.5849 0.99635059 -0.077280551 0.0028594071 0.038745094 0.0029203156 0.03905629 0.99519753 -0.074971616
1069600000 0.99624044 -0.077857405 0.0028650146 0.039110359 0.0029180497 0.039424255 0.99540961 -0.075724512
1079596226.4151 0.99607331 -0.078539066 0.0029045274 0.039459527 0.0029806271 0.039784253 0.99531156 -0.076494835
1089592452.8302 0.99609166 -0.079167366 0.00292781 0.03980707 0.0030099219 0.040133115 0.99525815 -0.077242792
1099588679.2453 0.99618912 -0.079885334 0.0029419549 0.04021991 0.0029817447 0.040483098 0.99485588 -0.077953517
1109584905.6604 0.99632037 -0.080706924 0.0029902318 0.040570918 0.0030517699 0.040860027 0.99462557 -0.07852304
1119581132.0755 0.9962908 -0.081734158 0.0030155238 0.040951777 0.0030767657 0.041235778 0.9943924 -0.078949548
1129577358.4906 0.99609435 -0.082617939 0.0030613784 0.041341633 0.0031293482 0.041671209 0.99426705 -0.079498023
1139573584.9057 0.99576604 -0.08366406 0.0031425375 0.041713569 0.0032125022 0.042017579 0.99437624 -0.080258876
1149569811.3208 0.99561709 -0.084505647 0.0031952267 0.042067621 0.0033045257 0.042392336 0.9945116 -0.08102937
1159566037.7358 0.99535942 -0.08525759 0.0032453034 0.042395763 0.0033433679 0.042713895 0.99454367 -0.082094193
1169562264.1509 0.99521804 -0.085926622 0.0032190196 0.042739362 0.0033360366 0.043107938 0.99436986 -0.082906246
1179558490.566 0.99520397 -0.08671131 0.0032577605 0.043163635 0.0033742231 0.043501068 0.99427557 -0.083686233
1189554716.9811 0.99522167 -0.08739689 0.0033401288 0.043519609 0.0034375852 0.043856688 0.99394047 -0.084193319
1199550943.3962 0.99508739 -0.088235945 0.003375832 0.043935113 0.0035288297 0.044215154 0.99371725 -0.084673375
1209547169.8113 0.99491304 -0.089193091 0.0034437384 0.044281732 0.0035574324 0.044588927 0.99368632 -0.084984034
1219543396.2264 0.99467522 -0.090075694 0.0035035214 0.044683337 0.0036195973 0.044983756 0.9937554 -0.085434526
1229539622.6415 0.99433517 -0.090991288 0.00359069 0.045024917 0.0036994405 0.045362111 0.99393237 -0.086153299
1239535849.0566 0.99410713 -0.091751605 0.0036425963 0.045391098 0.0037910417 0.04571094 0.99396354 -0.087141305
1249532075.4717 0.99376106 -0.092510894 0.0037261695 0.045774411 0.0038528033 0.046040252 0.99377775 -0.087987512
1259528301.8868 0.99359083 -0.092945814 0.0037867092 0.046101082 0.0039343201 0.046381135 0.99346405 -0.088980585
1269524528.3019 0.99345064 -0.093706757 0.0038699638 0.046462402 0.0040087402 0.046717443 0.99327058 -0.089728713
1279520754.717 0.99306381 -0.094482996 0.0039257859 0.046771046 0.0040411297 0.047007311 0.99289155 -0.090248391
1289516981.1321 0.99287212 -0.095320582 0.0039394153 0.047133304 0.0040821331 0.047347315 0.99300241 -0.090714097
1299513207.5472 0.99249929 -0.096171677 0.0039602872 0.047444634 0.0041237138 0.047713846 0.99308145 -0.091153294
1309509433.9623 0.99207753 -0.096949518 0.0040286658 0.047805738 0.0041387063 0.048027802 0.99324292 -0.09190312
1319505660.3774 0.99162155 -0.097722784 0.0040223701 0.048139933 0.0041297218 0.048386347 0.99326247 -0.092613861
1329501886.7925 0.99134684 -0.098356605 0.0040496346 0.048551735 0.0042127259 0.048777565 0.99319255 -0.093548805
1339498113.2075 0.99102849 -0.098978966 0.0040924987 0.048890688 0.0042297235 0.049115513 0.99275112 -0.094363332
1349494339.6226 0.9909057 -0.099564031 0.0040894276 0.049278516 0.004219871 0.049466103 0.99240863 -0.095018774
1359490566.0377 0.99076343 -0.10024372 0.0041107982 0.049663022 0.0042664334 0.049908705 0.99218976 -0.095572919
1369486792.4528 0.99055117 -0.10086992 0.0041238852 0.050078914 0.0042748377 0.050251827 0.99197239 -0.096108407
1379483018.8679 0.99026394 -0.10147154 0.0041487734 0.050452795 0.0043131844 0.050652642 0.99199671 -0.096473791
1389479245.283 0.98992336 -0.10204089 0.0042209998 0.050893061 0.0043150745 0.051077731 0.99193811 -0.097186327
1399475471.6981 0.98936725 -0.10235581 0.004271958 0.051234625 0.0043582767 0.051469643 0.99211496 -0.09787479
1409471698.1132 0.98913175 -0.10276347 0.0043512317 0.051646102 0.0044335425 0.051872171 0.99206352 -0.098785825
1419467924.5283 0.98891938 -0.10297188 0.0043317545 0.05207397 0.0044439733 0.052299332 0.99187553 -0.099520773
1429464150.9434 0.98879194 -0.10349241 0.0044015571 0.052514862 0.0044742953 0.052701388 0.99177647 -0.10008043
1439460377.3585 0.98895729 -0.10399613 0.0044980459 0.053006142 0.0045606922 0.05317146 0.99151534 -0.1004162
1449456603.7736 0.98885679 -0.10468337 0.0046464633 0.053424653 0.0046615507 0.053625461 0.99136281 -0.10079218
1459452830.1887 0.98894227 -0.10541937 0.0047600623 0.053836472 0.0047809538 0.054053172 0.99146914 -0.10117519
1469449056.6038 0.98893732 -0.10611868 0.0049380008 0.054273318 0.0049421471 0.054455467 0.99173141 -0.10186231
1479445283.0189 0.98872209 -0.10681146 0.0050720787 0.054529127 0.0050998116 0.054765329 0.99172747 -0.10284735
1489441509.434 0.98858857 -0.10735935 0.0052420516 0.054886308 0.0052420106 0.055126883 0.99150133 -0.10376483
1499437735.8491 0.98842269 -0.1076622 0.005364133 0.055188324 0.0053391401 0.055430163 0.99140847 -0.10458624
1509433962.2642 0.98838377 -0.10819786 0.0054520266 0.055509713 0.0054776114 0.055740893 0.99127322 -0.10533139
1519430188.6792 0.98859388 -0.10867628 0.0055321939 0.055797651 0.0055154543 0.056029238 0.99113309 -0.10598096
1529426415.0943 0.98841894 -0.10944813 0.0055687651 0.056139253 0.0055808257 0.056391969 0.99106544 -0.10630408
1539422641.5094 0.98855495 -0.11033034 0.0056731598 0.056480508 0.0056749857 0.056698617 0.99115247 -0.10689808
1549418867.9245 0.98835152 -0.11119711 0.0057719247 0.056800388 0.0057207514 0.057051968 0.99140203 -0.10772158
1559415094.3396 0.98816454 -0.11192033 0.0058224797 0.057119198 0.0057394058 0.05738011 0.99145889 -0.10839319
1569411320.7547 0.98797703 -0.11281523 0.0058638696 0.057438038 0.0058365585 0.057722379 0.99135303 -0.10925192
1579407547.1698 0.98795199 -0.11328401 0.0059306603 0.057724893 0.0058787689 0.058024753 0.99094081 -0.11008835
1589403773.5849 0.98789883 -0.11384255 0.0058985725 0.058063813 0.0058745351 0.058335625 0.99065757 -0.110791
1599400000 0.98786426 -0.11436173 0.0059129484 0.058384009 0.0059133768 0.058689006 0.99027544 -0.11138117
1609396226.4151 0.9878239 -0.11503312 0.0059190225 0.058774225 0.0058782306 0.059023228 0.9901039 -0.11187435
1619392452.8302 0.98777199 -0.11571333 0.0059286878 0.059144102 0.0059222225 0.059435487 0.99014586 -0.11230773
1629388679.2453 0.98750865 -0.1165159 0.0060000438 0.059515979 0.0059425887 0.059845373 0.99026829 -0.11299425
1639384905.6604 0.98732561 -0.11712868 0.0059860218 0.05985919 0.0059449142 0.060248084 0.99052715 -0.11386028
1649381132.0755 0.98702121 -0.11793509 0.006014308 0.060315184 0.0060127266 0.060698934 0.99054605 -0.11487326
1659377358.4906 0.98681366 -0.11868235 0.0061071031 0.060710777 0.0060423724 0.061096042 0.99049467 -0.11579055
1669373584.9057 0.98679274 -0.11915481 0.0060836454 0.061115582 0.0061122999 0.061472934 0.99011207 -0.11641426
1679369811.3208 0.98681575 -0.11985087 0.0061954167 0.061500762 0.0061512385 0.061906271 0.98980731 -0.1169789
1689366037.7358 0.98673701 -0.12058246 0.0062393136 0.061935596 0.0061799493 0.06232518 0.98963863 -0.11735514
1699362264.1509 0.98693132 -0.12121826 0.006335265 0.062359713 0.0062902384 0.062789015 0.98982275 -0.11785027
1709358490.566 0.98677075 -0.12193061 0.006396181 0.062808812 0.0064088907 0.063192695 0.98980528 -0.11832665
1719354716.9811 0.98644841 -0.12261716 0.0065009464 0.06317509 0.0064660925 0.063578732 0.9899053 -0.11920139
1729350943.3962 0.98607898 -0.1232259 0.006588459 0.063601039 0.0066147167 0.064015858 0.98978907 -0.12005121
