!Keysight Technologies,N5222B,MY61253708,A.15.00.15
!Date: Wednesday, June 19, 2024 09:23:10
!Correction: S11(C  2-Port  ) 
!S21(C  2-Port  ) 
!S12(C  2-Port  ) 
!S22(C  2-Port  ) 
!S2P File: Measurements: S11, S21, S12, S22:
# Hz S  RI   R 50
10000000 0.99847269 -0.0023631454 -0.00013500455 0.00030271767 -7.8037934e-005 0.00037420125 0.99852824 -0.0009650588
19996226.415094 0.99898219 -0.0020890236 0.00012586699 0.00076238019 -3.0969648e-005 0.00072511489 0.99922097 -0.0023099184
29992452.830189 0.99976671 -0.0025060177 -2.1340966e-005 0.0010701821 -3.8661587e-005 0.0010223415 0.99941468 -0.002630353
39988679.245283 1.0000731 -0.0030576289 1.8881416e-005 0.001377599 3.9477003e-005 0.0013164678 0.99969864 -0.0031258464
49984905.660377 1.0001013 -0.0037887394 -4.760013e-005 0.0017151529 2.0578445e-005 0.0016819008 0.99980843 -0.0037212074
59981132.075472 1.0003213 -0.0046384037 1.9305793e-005 0.0020109944 -2.3431494e-005 0.0020414772 0.99982005 -0.0043298602
69977358.490566 1.0000888 -0.0052191131 4.848816e-005 0.0023208531 2.8598246e-005 0.0023882259 0.99958086 -0.0048676729
79973584.90566 0.99987972 -0.0057757497 2.7602888e-005 0.0027203399 2.0468724e-005 0.0027341163 0.99932349 -0.0053291321
89969811.320755 0.99984014 -0.0059373975 -1.5210826e-005 0.0030432045 -1.322641e-005 0.003027617 0.9995451 -0.0056630969
99966037.735849 1.0000445 -0.006759569 1.0533899e-005 0.0033702378 1.9754865e-005 0.003393884 0.99958003 -0.0064290464
109962264.15094 1.0000525 -0.007595405 3.7104415e-005 0.0036896912 3.4260564e-005 0.0037597287 0.99961108 -0.007282272
119958490.56604 1.0001413 -0.0085647106 6.0037477e-005 0.0040476751 4.4997083e-005 0.0040946398 0.9995991 -0.0081840158
129954716.98113 1.0000579 -0.0095684528 2.8689625e-005 0.0043760664 4.9015507e-005 0.0044289627 0.99961388 -0.0090911388
139950943.39623 1.0000055 -0.010386007 5.3148528e-005 0.0047230436 6.2581094e-005 0.0047754967 0.99954635 -0.0098393168
149947169.81132 0.99987942 -0.011073172 3.6653597e-005 0.0050467481 6.0635852e-005 0.0051051187 0.99947906 -0.01044938
159943396.22642 0.99985647 -0.011623055 7.8212935e-005 0.0054143681 6.252923e-005 0.0054352428 0.99955058 -0.010948628
169939622.64151 0.99981368 -0.012019016 7.2500785e-005 0.0057326267 7.662893e-005 0.005789279 0.99962664 -0.011361636
179935849.0566 0.99984485 -0.012277871 9.7231008e-005 0.0061008674 8.8775181e-005 0.0061303 0.99957335 -0.01176545
189932075.4717 0.99999744 -0.012988508 9.5108524e-005 0.0064091282 9.1909198e-005 0.0064614294 0.99974406 -0.012371302
199928301.88679 0.99991584 -0.013868332 0.00010468566 0.0067490055 0.0001046973 0.0067927609 0.99962342 -0.013255298
209924528.30189 0.99971604 -0.014483362 0.00011590612 0.0070712212 9.697082e-005 0.0071577551 0.99938041 -0.013980016
219920754.71698 0.99969494 -0.01538986 0.00011431496 0.007428647 0.00011057593 0.0074720019 0.99925518 -0.014647216
229916981.13208 0.99948883 -0.016236991 0.00015190942 0.0077577629 0.00012595789 0.0078215282 0.99919313 -0.015465498
239913207.54717 0.99938017 -0.016922733 0.00013995593 0.0080787921 0.00013108483 0.008161989 0.99914819 -0.016178628
249909433.96226 0.99945998 -0.017509103 0.00014261645 0.0084021725 0.00014431379 0.0084898639 0.99926645 -0.01676929
259905660.37736 0.99949819 -0.018176496 0.00018105796 0.0087326672 0.00014879555 0.0088262334 0.99950659 -0.017377615
269901886.79245 0.99965721 -0.018839613 0.00019378576 0.0091581708 0.00016751501 0.0091288397 0.99980152 -0.018054709
279898113.20755 0.99981213 -0.019474447 0.00020176475 0.0094406838 0.00019024173 0.0095189754 0.99964446 -0.018897012
289894339.62264 0.99961948 -0.020204902 0.00020893011 0.0098271612 0.00019320892 0.0098472182 0.99959111 -0.019670784
299890566.03774 0.99966484 -0.020711124 0.00025149132 0.010067265 0.00018126541 0.010167114 0.99925524 -0.020077348
309886792.45283 0.99944115 -0.021240324 0.00020693801 0.010419917 0.00022137247 0.010521368 0.99923313 -0.020610265
319883018.86792 0.99939859 -0.021970779 0.00025843875 0.01081248 0.0002340097 0.010870678 0.99925268 -0.020965695
329879245.28302 0.99936968 -0.022724777 0.00026604068 0.011087516 0.00027704472 0.011205067 0.99928153 -0.021726489
339875471.69811 0.99935645 -0.023422033 0.00030633085 0.011470674 0.00026042992 0.011519359 0.99928784 -0.022547387
349871698.11321 0.99944323 -0.024249613 0.00028721825 0.011834417 0.00028377376 0.011904664 0.99926257 -0.023528397
359867924.5283 0.99925995 -0.025045365 0.00028943643 0.012128088 0.00031435629 0.012263216 0.99925411 -0.024388343
369864150.9434 0.99949729 -0.025896549 0.00034945318 0.012420115 0.00033089425 0.012600701 0.99920899 -0.025141805
379860377.35849 0.99941736 -0.026605621 0.00031474675 0.012779551 0.00035541272 0.012897153 0.99916428 -0.025811866
389856603.77358 0.99937028 -0.027250111 0.00038928539 0.013117276 0.00034383312 0.013225522 0.99920273 -0.02632314
399852830.18868 0.99917603 -0.027768433 0.00036246749 0.0134584 0.00038881414 0.013571957 0.99926066 -0.026741177
409849056.60377 0.99916446 -0.028262105 0.00039848624 0.013780761 0.000392021 0.013922085 0.99931723 -0.027165215
419845283.01887 0.9990918 -0.028634101 0.00039124954 0.014143385 0.00043250713 0.014271301 0.99929357 -0.027765274
429841509.43396 0.99927342 -0.029352069 0.00041707186 0.014447218 0.00046803663 0.014567312 0.9994154 -0.02854526
439837735.84906 0.99911904 -0.030384734 0.00045145222 0.014841307 0.0004772963 0.014894372 0.99930716 -0.029519916
449833962.26415 0.99897528 -0.031080574 0.00046585547 0.015090801 0.0004765885 0.015241286 0.99893898 -0.03040275
459830188.67925 0.99885923 -0.031874776 0.00046184845 0.015448811 0.00047715893 0.015581859 0.99879318 -0.03116107
469826415.09434 0.99878824 -0.032633305 0.00048442278 0.015798014 0.00048902864 0.015945025 0.99851227 -0.031744003
479822641.50943 0.99869335 -0.033162527 0.00049312483 0.016151769 0.00048392615 0.016280094 0.99853581 -0.032212704
489818867.92453 0.99881852 -0.033737898 0.00055397907 0.016487215 0.00053290976 0.016628571 0.99888873 -0.032766104
499815094.33962 0.998959 -0.034259498 0.00056097936 0.016829146 0.00058017345 0.016939081 0.99915051 -0.033400416
509811320.75472 0.99894613 -0.034719098 0.00061237847 0.017125174 0.00058439159 0.017258797 0.99929667 -0.034203719
519807547.16981 0.99895322 -0.035289526 0.00061761634 0.017479321 0.00060042925 0.017617013 0.99923885 -0.034986019
529803773.58491 0.99880958 -0.035915494 0.00066142436 0.017800566 0.00060766935 0.017945193 0.99893332 -0.035650283
539800000 0.9989121 -0.036631212 0.00062949862 0.018168624 0.00068166223 0.01832279 0.99880773 -0.036302164
549796226.41509 0.99877459 -0.037598282 0.00065045571 0.018492438 0.00068119541 0.018675178 0.99851322 -0.03676036
559792452.83019 0.99848795 -0.038184494 0.00070302747 0.018831957 0.00069997832 0.019011091 0.9984948 -0.037342519
569788679.24528 0.9983058 -0.038964748 0.00073267147 0.019173423 0.00075345114 0.01935149 0.99864256 -0.038112402
579784905.66038 0.99834472 -0.039467327 0.00075491832 0.019547824 0.00072208559 0.019689696 0.99880302 -0.038833417
589781132.07547 0.99849278 -0.040112793 0.0008106567 0.019823657 0.00078090839 0.020007875 0.99884915 -0.039649785
599777358.49057 0.99852842 -0.040750384 0.0008369321 0.020134039 0.0008123219 0.020362642 0.99894208 -0.040466458
609773584.90566 0.99874294 -0.041542932 0.00085501932 0.02052437 0.00084466394 0.020719102 0.99878162 -0.041372195
619769811.32075 0.99881774 -0.042264163 0.00087766582 0.020843362 0.00092106033 0.020995514 0.99859798 -0.041894704
629766037.73585 0.9986763 -0.042859405 0.00092066266 0.021129068 0.00095025636 0.021324869 0.99848676 -0.042434633
639762264.15094 0.99844152 -0.043596268 0.00095715467 0.021490309 0.00093962485 0.02164045 0.99833238 -0.042859748
649758490.56604 0.99836779 -0.044200063 0.00095421122 0.021839203 0.00094832201 0.021998575 0.9983474 -0.043335885
659754716.98113 0.99812722 -0.044673741 0.00099356379 0.022124898 0.00094162207 0.022366805 0.99837673 -0.04386878
669750943.39623 0.99821061 -0.045158416 0.00098858587 0.022527663 0.0010113483 0.02268365 0.99854273 -0.044704288
679747169.81132 0.99828488 -0.045947589 0.00099254819 0.022882394 0.0010537747 0.023034429 0.99846745 -0.045720018
689743396.22642 0.99835914 -0.046803892 0.0010762205 0.023156486 0.0010854946 0.023379624 0.99825388 -0.046544403
699739622.64151 0.9984715 -0.047571212 0.0011448869 0.023513488 0.0011150334 0.023728972 0.99822938 -0.047333658
709735849.0566 0.99840689 -0.048484683 0.0011957348 0.023794821 0.001192253 0.02404635 0.99796176 -0.047975808
719732075.4717 0.99829465 -0.049161345 0.0012105824 0.024162836 0.0012209122 0.024379935 0.99800748 -0.048566401
729728301.88679 0.99828005 -0.049725056 0.0012135822 0.024502542 0.0012248997 0.02470886 0.99802327 -0.048942685
739724528.30189 0.99811095 -0.050350443 0.0012597647 0.024776779 0.0012696316 0.025044063 0.99827576 -0.049690321
749720754.71698 0.99806726 -0.050842077 0.0012920089 0.025129531 0.0012929901 0.025359791 0.99830753 -0.050328597
759716981.13208 0.99809062 -0.051348507 0.0013469392 0.025464823 0.0013188971 0.025680933 0.99822581 -0.051084667
769713207.54717 0.99811971 -0.052127779 0.0013632607 0.025760081 0.0013642041 0.026011199 0.99798447 -0.051816553
779709433.96226 0.99819821 -0.052831862 0.001386261 0.026145799 0.0013793116 0.026343999 0.99772406 -0.052511785
789705660.37736 0.99802494 -0.053641051 0.0014210623 0.026454572 0.0014328305 0.026674805 0.99744225 -0.053272426
799701886.79245 0.99797142 -0.054495335 0.0014536912 0.026760176 0.0014336547 0.026993642 0.99740648 -0.053811073
809698113.20755 0.99791563 -0.05513671 0.0014738981 0.027082553 0.0014355027 0.027343258 0.99744546 -0.054284185
819694339.62264 0.99779212 -0.055765957 0.0014863014 0.027402999 0.0015086182 0.027664643 0.99763346 -0.054951996
829690566.03774 0.99776149 -0.056384563 0.0015358785 0.027742546 0.0015555378 0.027994927 0.99781084 -0.055791646
839686792.45283 0.99777943 -0.056866407 0.0015473352 0.028045312 0.0015774304 0.028310928 0.99784821 -0.056622237
849683018.86792 0.99790305 -0.057461813 0.0016280976 0.02842664 0.0016313505 0.028651183 0.99772584 -0.057397358
859679245.28302 0.99791539 -0.058177233 0.0016590934 0.028742477 0.0016596885 0.02896278 0.99750531 -0.058081359
869675471.69811 0.99784523 -0.05899936 0.0016918033 0.02908328 0.0017162589 0.02932575 0.99711633 -0.058581799
879671698.11321 0.99776769 -0.059609778 0.0017430787 0.029384915 0.0017459043 0.029665506 0.99713361 -0.059065718
889667924.5283 0.99762213 -0.060450107 0.0017563254 0.029678157 0.0017802585 0.029964738 0.99696076 -0.059557468
899664150.9434 0.99745089 -0.061193407 0.001741467 0.030045763 0.0017790198 0.030289687 0.99698293 -0.060221583
909660377.35849 0.99739116 -0.061891943 0.0017989557 0.030359738 0.0018063434 0.030621286 0.99723893 -0.061071128
919656603.77358 0.99739748 -0.062452734 0.0018029613 0.030685537 0.0018297429 0.030963961 0.99718994 -0.062004134
929652830.18868 0.99749428 -0.063278735 0.0018463042 0.030991256 0.0018636845 0.031278957 0.99698383 -0.062861919
939649056.60377 0.99767125 -0.06389156 0.0018492974 0.031280514 0.0018638428 0.031581409 0.99684864 -0.063598305
949645283.01887 0.99755943 -0.06473238 0.0018550262 0.031685106 0.001895304 0.031952914 0.99664569 -0.06417165
959641509.43396 0.99757713 -0.065468282 0.0018976834 0.032037266 0.0019258186 0.032298431 0.99652863 -0.064668149
969637735.84906 0.99742585 -0.066183776 0.0019565169 0.032393541 0.0019894391 0.03266307 0.99655765 -0.065017402
979633962.26415 0.99720114 -0.066887558 0.0020350763 0.032662898 0.0020348919 0.032974184 0.9966073 -0.065749884
989630188.67925 0.99723756 -0.067409128 0.0020216303 0.033056017 0.002068432 0.033306006 0.99679393 -0.066293001
999626415.09434 0.99728608 -0.068070173 0.0020726621 0.033329949 0.0020974893 0.033660453 0.99677622 -0.067080587
1009622641.5094 0.99735886 -0.068719357 0.0020898962 0.033692423 0.0021393811 0.034037709 0.99654943 -0.067943171
1019618867.9245 0.99740493 -0.069513336 0.0021462385 0.034022886 0.002215473 0.034341712 0.99628818 -0.068856895
1029615094.3396 0.99741673 -0.070423841 0.0022332678 0.034316488 0.0022539347 0.034604136 0.99588352 -0.069490552
1039611320.7547 0.99740636 -0.071378112 0.0022821873 0.03463079 0.0022911821 0.034946423 0.99586046 -0.070070326
1049607547.1698 0.99728209 -0.072263777 0.0022894954 0.034950603 0.0023331973 0.035254851 0.99583262 -0.070742406
1059603773.5849 0.997123 -0.072932035 0.0023196321 0.035252951 0.0023553483 0.035561211 0.99580067 -0.071260452
1069600000 0.9968822 -0.073595107 0.0023307502 0.035551257 0.0023586899 0.035880115 0.99596429 -0.072002769
1079596226.4151 0.99683887 -0.074237227 0.002331133 0.035859752 0.0024251495 0.03622232 0.99596775 -0.072769053
1089592452.8302 0.99687964 -0.07491079 0.0023593325 0.036243003 0.0024053976 0.036561355 0.99589592 -0.073514581
1099588679.2453 0.99697888 -0.075498849 0.0023847576 0.036558166 0.0024256371 0.036902048 0.99560356 -0.074160457
1109584905.6604 0.99703443 -0.076393902 0.0024124393 0.036918428 0.0024780594 0.037247326 0.9953208 -0.074647561
1119581132.0755 0.99699879 -0.077359602 0.0024422146 0.037252847 0.0025000903 0.037615988 0.99509239 -0.075137168
1129577358.4906 0.99682415 -0.078180492 0.0024424233 0.037601147 0.0025481172 0.037980463 0.99498045 -0.075566918
1139573584.9057 0.99658448 -0.079128355 0.0024986751 0.037955895 0.002577859 0.038313128 0.9950946 -0.076245934
1149569811.3208 0.99643338 -0.079899855 0.0025726082 0.038260251 0.0026766623 0.038634595 0.99526465 -0.077011496
1159566037.7358 0.99622655 -0.080621421 0.0026148614 0.038571581 0.002699662 0.038925484 0.99538565 -0.078083754
1169562264.1509 0.99608338 -0.081237882 0.0026333611 0.038903411 0.0027044676 0.039275028 0.9951607 -0.078835756
1179558490.566 0.99602968 -0.081971616 0.0026256514 0.039286219 0.0027280862 0.039656792 0.99501973 -0.079547197
1189554716.9811 0.99606371 -0.08269155 0.0026695682 0.039609611 0.0028081359 0.039978486 0.9947685 -0.079989046
1199550943.3962 0.99592817 -0.083544254 0.0027023684 0.039960746 0.0028527342 0.040332161 0.99459344 -0.080534756
1209547169.8113 0.99583149 -0.084495634 0.0027537672 0.040293325 0.0028792098 0.040675551 0.99443823 -0.080860913
1219543396.2264 0.99561429 -0.085295126 0.0028107651 0.040650286 0.0029573161 0.041054223 0.99458688 -0.081239045
1229539622.6415 0.99527144 -0.086176902 0.0028865077 0.04099118 0.0029878858 0.041359305 0.99466318 -0.081944406
1239535849.0566 0.9950791 -0.086918652 0.0029461086 0.041297942 0.0030766902 0.041697226 0.99476826 -0.082897365
1249532075.4717 0.99479353 -0.087494999 0.0029914607 0.041622538 0.0031392123 0.042024311 0.99463362 -0.083727486
1259528301.8868 0.99452019 -0.087878257 0.0030333251 0.04196303 0.0031947643 0.042324886 0.99430442 -0.084551245
1269524528.3019 0.9944244 -0.088715345 0.003133202 0.042304866 0.0032503307 0.042619221 0.99410576 -0.08525753
1279520754.717 0.99397224 -0.089454263 0.0031715368 0.042554002 0.0033189815 0.042873129 0.99385673 -0.085886046
1289516981.1321 0.9939065 -0.090262175 0.0031964369 0.04286949 0.0033462988 0.043197747 0.99387676 -0.08619523
1299513207.5472 0.99353701 -0.091100782 0.0031995457 0.043189067 0.0033635162 0.04352089 0.99403775 -0.086710244
1309509433.9623 0.99309039 -0.091859207 0.0032115644 0.043517441 0.0033480804 0.04383282 0.99412084 -0.087399468
1319505660.3774 0.9927696 -0.092588484 0.0032240236 0.043885618 0.0033546071 0.044146802 0.99416089 -0.088047192
1329501886.7925 0.99245399 -0.093192577 0.0032701846 0.044156544 0.0033771079 0.044485494 0.99418747 -0.088945031
1339498113.2075 0.9921912 -0.093745917 0.0032738289 0.044509046 0.0034491047 0.044800475 0.99374866 -0.089743823
1349494339.6226 0.99198753 -0.09430135 0.0032762126 0.044844955 0.003409287 0.045173779 0.99342602 -0.090325698
1359490566.0377 0.99196976 -0.0949229 0.0032732803 0.045186631 0.0034107883 0.045513563 0.99314862 -0.090895414
1369486792.4528 0.9916507 -0.095404923 0.0032847784 0.045597661 0.0034291735 0.045871716 0.99297225 -0.091388285
1379483018.8679 0.99140143 -0.096058682 0.0033323427 0.045925278 0.0034284226 0.046225939 0.9929778 -0.091694921
1389479245.283 0.9910211 -0.096502304 0.0033600852 0.046322674 0.0034759585 0.04662 0.99298757 -0.092453808
1399475471.6981 0.99064755 -0.096962541 0.0033813603 0.046695936 0.0034742486 0.046967816 0.99317968 -0.093026429
1409471698.1132 0.99034476 -0.097282827 0.0034255276 0.047048163 0.0035133522 0.047356613 0.99315345 -0.093917139
1419467924.5283 0.99015522 -0.097589582 0.0034514992 0.04743788 0.0035508089 0.047716487 0.9929983 -0.094617248
1429464150.9434 0.98997611 -0.098003179 0.0034561418 0.047857694 0.0035864506 0.048140705 0.99284434 -0.095180511
1439460377.3585 0.99015135 -0.09845297 0.0035812622 0.048313573 0.003648336 0.048565883 0.99258769 -0.095517635
1449456603.7736 0.9901545 -0.099041596 0.0036873017 0.048687726 0.0037861634 0.049020782 0.99250722 -0.09581688
1459452830.1887 0.99016309 -0.09976995 0.0038335528 0.049136858 0.0038599856 0.049418107 0.99258262 -0.096202821
1469449056.6038 0.99019134 -0.10046566 0.0039651319 0.049430121 0.0040430781 0.049762171 0.99278623 -0.096859634
1479445283.0189 0.99000043 -0.10101514 0.0041092439 0.049699441 0.0041553816 0.050045427 0.99288952 -0.097791716
1489441509.434 0.98984706 -0.10153893 0.0042336863 0.050050929 0.0042897202 0.050342724 0.99271691 -0.09864819
1499437735.8491 0.98978436 -0.10192141 0.0043561328 0.050299756 0.0044078827 0.0506301 0.99262595 -0.099530399
1509433962.2642 0.9898001 -0.10237116 0.0044220388 0.050605197 0.0044695302 0.050870314 0.99239874 -0.10027397
1519430188.6792 0.98987734 -0.10294145 0.0045064036 0.050874546 0.0045173727 0.051207539 0.99226308 -0.10074466
1529426415.0943 0.9897812 -0.10365397 0.0045687165 0.051165842 0.0045700055 0.051505849 0.99225438 -0.10120282
1539422641.5094 0.98982406 -0.1044272 0.0046125073 0.051494561 0.0046632402 0.051813599 0.99234265 -0.10163245
1549418867.9245 0.98968071 -0.10520373 0.0046922825 0.0517422 0.0047093816 0.052109864 0.99258578 -0.10238285
1559415094.3396 0.98955911 -0.1059103 0.0047354493 0.052027375 0.0047393236 0.052347086 0.99262846 -0.10307932
1569411320.7547 0.98947012 -0.10670459 0.0047829617 0.052317187 0.0047747903 0.052638218 0.99259907 -0.10391431
1579407547.1698 0.98945379 -0.10721044 0.0048490483 0.052619059 0.0047997604 0.052958325 0.99218333 -0.10474725
1589403773.5849 0.9893347 -0.1077345 0.0048101749 0.052944452 0.004851995 0.05325811 0.99188864 -0.10551319
1599400000 0.98922068 -0.10808909 0.0048379097 0.053226504 0.0048331413 0.053602897 0.99163973 -0.10588577
1609396226.4151 0.98924595 -0.10881454 0.0047471891 0.053542238 0.0048231576 0.053895596 0.99135131 -0.10640381
1619392452.8302 0.98925537 -0.10949907 0.0048390273 0.053882163 0.0048466399 0.05425027 0.99135947 -0.10686824
1629388679.2453 0.9890306 -0.11025593 0.0048259348 0.05424672 0.0048097465 0.054620851 0.99160731 -0.10740542
1639384905.6604 0.9888103 -0.11087961 0.0048102168 0.054578375 0.0048173126 0.055008061 0.99181354 -0.10830613
1649381132.0755 0.98849535 -0.11156178 0.0048411451 0.054919854 0.0048478171 0.055442125 0.99187672 -0.10921162
1659377358.4906 0.98850012 -0.11228338 0.0048663281 0.055350438 0.0048779137 0.055777662 0.99179494 -0.11008981
1669373584.9057 0.98829395 -0.11276324 0.0049361135 0.055721715 0.0048776953 0.056127004 0.99151278 -0.11063056
1679369811.3208 0.98847127 -0.11337048 0.0049658371 0.056105189 0.004958896 0.05652475 0.99130017 -0.11124161
1689366037.7358 0.98841345 -0.11403668 0.0049888529 0.056509666 0.0049891267 0.056935564 0.9911294 -0.11157072
1699362264.1509 0.98855019 -0.11469533 0.0050571868 0.056866251 0.0050129788 0.057289023 0.9913047 -0.11199959
1709358490.566 0.98844779 -0.11530836 0.0051001515 0.057240967 0.0051126853 0.057690494 0.99122775 -0.11250333
1719354716.9811 0.98806912 -0.11590564 0.0051838011 0.057619557 0.0051621888 0.058137253 0.99139261 -0.11315972
1729350943.3962 0.98783702 -0.11660749 0.0052736662 0.057984885 0.0052478798 0.058406357 0.99131215 -0.11408183
