!Keysight Technologies,N5222B,MY61253708,A.15.00.15
!Date: Wednesday, June 19, 2024 09:59:55
!Correction: S11(C  2-Port  ) 
!S21(C  2-Port  ) 
!S12(C  2-Port  ) 
!S22(C  2-Port  ) 
!S2P File: Measurements: S11, S21, S12, S22:
# Hz S  RI   R 50
10000000 0.99838585 -0.0028859377 0.0001027031 0.00021534068 -0.00021044735 0.00059302722 0.99838698 -0.0014097095
19996226.415094 1.0000259 -0.003310889 -2.2827619e-005 0.00064241444 0.00012360461 0.0006048595 1.0002866 -0.0029208362
29992452.830189 0.99976122 -0.0024773479 0.00011224183 0.00093419309 -2.7504284e-006 0.0010209186 0.99942392 -0.0027113259
39988679.245283 1.0000374 -0.0029695034 -1.8651932e-005 0.0013664243 -1.3151453e-005 0.0013562125 0.99965835 -0.0030320287
49984905.660377 1.000183 -0.0036578774 1.3738696e-005 0.0016420562 7.0579117e-006 0.0016613486 0.99986279 -0.003628552
59981132.075472 1.0003846 -0.0044956505 7.3159172e-005 0.0019917106 2.8546026e-005 0.0019218547 0.99985588 -0.0042751431
69977358.490566 1.0001873 -0.0050812401 9.4567476e-006 0.0023060837 1.3348093e-005 0.0023424244 0.99971497 -0.0047786962
79973584.90566 0.99992132 -0.0056691468 3.8041268e-005 0.0026212852 1.8542516e-005 0.002637086 0.99939108 -0.0052816272
89969811.320755 0.99997103 -0.0057868659 7.8196172e-006 0.0029441211 2.1901214e-006 0.0029679073 0.99961376 -0.0054862201
99966037.735849 1.0002275 -0.006512925 4.2883912e-005 0.003320907 8.9341775e-006 0.0032813647 0.9996956 -0.0062767714
109962264.15094 1.000187 -0.0074003935 5.7434663e-006 0.0036238232 5.5968994e-005 0.0036542069 0.99967158 -0.0070726275
119958490.56604 1.0001754 -0.0083115995 1.6008737e-005 0.0039362898 4.5449706e-005 0.0039760931 0.99970889 -0.0079288185
129954716.98113 1.0001823 -0.0092136562 3.7446269e-005 0.0042556236 1.9886647e-005 0.0043122591 0.99971223 -0.0087827444
139950943.39623 1.0000958 -0.0099947564 4.4962391e-005 0.0045938385 4.3635635e-005 0.0046509467 0.99964076 -0.0095400736
149947169.81132 0.99999177 -0.010668159 4.8406888e-005 0.0049393233 6.1642611e-005 0.0049522193 0.99957657 -0.010173917
159943396.22642 0.99993277 -0.011277586 6.1810715e-005 0.0052662985 5.2480726e-005 0.0052925879 0.99965191 -0.0106484
169939622.64151 0.99991459 -0.011625223 6.0475722e-005 0.005600682 6.6977984e-005 0.0056199422 0.99968559 -0.011103027
179935849.0566 0.9999516 -0.011876881 8.6746993e-005 0.0058988351 5.9678569e-005 0.005959922 0.99954021 -0.011485994
189932075.4717 1.0000848 -0.012700021 9.5396768e-005 0.0062459875 9.8839635e-005 0.0062931939 0.99978638 -0.011973619
199928301.88679 1.0000321 -0.013513684 9.338744e-005 0.0065903179 0.00010429125 0.0066022463 0.99968165 -0.012853771
209924528.30189 0.99982721 -0.014076412 0.00010082999 0.0069268811 8.10622e-005 0.0069421427 0.99945867 -0.013521209
219920754.71698 0.99989122 -0.014833957 0.00010654773 0.00722889 0.00012163981 0.0072775274 0.9994033 -0.014155567
229916981.13208 0.99967182 -0.015713245 0.00010417146 0.0075631514 0.00012187543 0.0076201442 0.99940425 -0.014964432
239913207.54717 0.99956429 -0.016367609 0.0001159056 0.0078915106 0.00014159553 0.0079320744 0.99933302 -0.015700072
249909433.96226 0.99960679 -0.017026961 0.00013753353 0.0082405861 0.0001455578 0.008269201 0.9993906 -0.016298264
259905660.37736 0.99961317 -0.017688364 0.00014590984 0.00855227 0.0001559509 0.0085739 0.99959338 -0.016876847
269901886.79245 0.9997564 -0.018322989 0.00016012229 0.0088746352 0.00012460956 0.0089072008 0.99992317 -0.017558128
279898113.20755 0.99990463 -0.018943623 0.00017169281 0.009212153 0.00017700111 0.0092334505 0.9998197 -0.018319055
289894339.62264 0.99982148 -0.019584656 0.00020553311 0.0095249899 0.00020237267 0.0095782652 0.99960601 -0.019082963
299890566.03774 0.99980813 -0.020169228 0.00021304796 0.0098787341 0.000187353 0.0099238167 0.99949509 -0.019565463
309886792.45283 0.99960953 -0.020689733 0.00018273608 0.010204513 0.00021164294 0.010230095 0.99936414 -0.019937672
319883018.86792 0.99968731 -0.02132225 0.00024048937 0.010515206 0.00019988185 0.01058488 0.99947995 -0.020397127
329879245.28302 0.9996953 -0.022182018 0.00027931994 0.010868747 0.00023957528 0.010902413 0.9994815 -0.021178573
339875471.69811 0.99957782 -0.022824012 0.00027523993 0.011164056 0.00024420815 0.011239311 0.99944621 -0.022015624
349871698.11321 0.99970788 -0.023688376 0.00029493636 0.011495719 0.00027512549 0.011546744 0.99950826 -0.022820562
359867924.5283 0.99946737 -0.024460822 0.00027325656 0.011836862 0.00032265065 0.011892976 0.99940157 -0.023789108
369864150.9434 0.99969321 -0.025215179 0.00032509468 0.012162298 0.00030585635 0.012244659 0.9993993 -0.024499625
379860377.35849 0.99960834 -0.025931597 0.00032311119 0.01249584 0.00034441589 0.012575597 0.9993549 -0.025120601
389856603.77358 0.999479 -0.026482999 0.00034144102 0.012834424 0.00034610974 0.012862861 0.9992919 -0.025548071
399852830.18868 0.9993577 -0.027175367 0.00036157854 0.013174946 0.00036364794 0.01322988 0.99941587 -0.026119947
409849056.60377 0.99928707 -0.02764607 0.0004105636 0.013491871 0.00035113137 0.013534103 0.99937797 -0.026637278
419845283.01887 0.99923611 -0.02808404 0.00040493347 0.013798922 0.00036961958 0.013882231 0.99937695 -0.027158141
429841509.43396 0.99922049 -0.028669238 0.00037596235 0.014117633 0.0004182863 0.014168041 0.99955815 -0.027854145
439837735.84906 0.99916124 -0.029636815 0.00042040995 0.01443664 0.00043840415 0.014529168 0.99938339 -0.028842062
449833962.26415 0.99902737 -0.030397952 0.00041433191 0.014753567 0.00044826698 0.014844335 0.9990049 -0.029582411
459830188.67925 0.99889123 -0.030996859 0.00045790244 0.01509675 0.00043077627 0.015194595 0.99880838 -0.03031227
469826415.09434 0.99875367 -0.031719446 0.00048041204 0.015421642 0.00047507649 0.015507964 0.99850589 -0.030869693
479822641.50943 0.99866062 -0.032257713 0.00048969872 0.015731961 0.00046989135 0.015844526 0.99859357 -0.03133861
489818867.92453 0.9987191 -0.032865584 0.00050125597 0.016099412 0.00049264636 0.016172448 0.99888289 -0.031900406
499815094.33962 0.99880421 -0.03345558 0.00054984353 0.016415145 0.00053450698 0.016512513 0.99913359 -0.032495528
509811320.75472 0.99895489 -0.03382621 0.00056142348 0.016738309 0.00054053852 0.016816454 0.99921995 -0.033270165
519807547.16981 0.99886048 -0.034394741 0.00063595828 0.017054273 0.00056309253 0.017149333 0.99927002 -0.034027487
529803773.58491 0.99885947 -0.034938812 0.000619445 0.017370753 0.00059959851 0.017472055 0.9989953 -0.034574509
539800000 0.99900693 -0.035633549 0.00059336866 0.017727241 0.00060140155 0.017839575 0.99891233 -0.035217181
549796226.41509 0.99878061 -0.0364061 0.00062033953 0.018042423 0.00060823234 0.01813996 0.99870032 -0.035654515
559792452.83019 0.9986918 -0.037142158 0.00063718762 0.018400611 0.00065773726 0.018466212 0.99861157 -0.036221147
569788679.24528 0.998559 -0.037768155 0.00066032726 0.01872427 0.00066782162 0.018799156 0.99877185 -0.037000746
579784905.66038 0.9985224 -0.038366303 0.00065924099 0.019033641 0.00066892174 0.019145587 0.99889791 -0.037696488
589781132.07547 0.99862897 -0.038989753 0.00076472573 0.019379936 0.00072343927 0.019451212 0.99897188 -0.038561851
599777358.49057 0.9987148 -0.039594799 0.00079274457 0.019717246 0.00077794492 0.019831853 0.99900579 -0.039346278
609773584.90566 0.99887836 -0.040313542 0.00081623555 0.020033669 0.00080804824 0.020147422 0.99879986 -0.040172473
619769811.32075 0.99896795 -0.041014254 0.000809405 0.020364981 0.00082455901 0.020470558 0.99884713 -0.040749699
629766037.73585 0.99880975 -0.04162994 0.00083446037 0.020649135 0.00088424049 0.020780824 0.99866378 -0.041214645
639762264.15094 0.99866283 -0.042357713 0.00089221308 0.020957369 0.00087112677 0.021101294 0.99850774 -0.041728497
649758490.56604 0.99864435 -0.042897925 0.00087327557 0.021280551 0.00089865923 0.021377116 0.99855423 -0.042142451
659754716.98113 0.9984358 -0.043426901 0.00089273974 0.021617107 0.00086359587 0.021725968 0.99864852 -0.042732328
669750943.39623 0.99851376 -0.043936104 0.00093522621 0.021950044 0.00093416683 0.0220987 0.99870539 -0.043508291
679747169.81132 0.9985106 -0.044641301 0.00096003944 0.022320282 0.00094061357 0.022427777 0.99865955 -0.044391058
689743396.22642 0.99863529 -0.045512855 0.00099489279 0.02263267 0.0010342347 0.022777472 0.99849319 -0.045351893
699739622.64151 0.99872273 -0.046271026 0.0010412848 0.022967914 0.0010641916 0.023083376 0.99845958 -0.045989543
709735849.0566 0.99874753 -0.047075525 0.0010975557 0.023266282 0.0010872639 0.023385908 0.99820149 -0.046642996
719732075.4717 0.99859291 -0.047850341 0.0011298247 0.023574162 0.0011123852 0.023717679 0.99823582 -0.04726544
729728301.88679 0.99852538 -0.048433006 0.0011273688 0.023910627 0.001124247 0.024000488 0.99829447 -0.047657549
739724528.30189 0.99843013 -0.049025699 0.0011854875 0.024249716 0.0012052013 0.024355695 0.99842751 -0.048358411
749720754.71698 0.99829125 -0.049608722 0.0012221313 0.024550062 0.0012065838 0.024696251 0.9984411 -0.049061835
759716981.13208 0.99837768 -0.050143629 0.0012171036 0.024842836 0.0012438493 0.024995459 0.99846292 -0.049893469
769713207.54717 0.99827784 -0.050811768 0.0012504002 0.025191223 0.001261537 0.025308199 0.99818945 -0.050483704
779709433.96226 0.99843484 -0.051363487 0.0012811661 0.025495321 0.0013283073 0.025642004 0.9979791 -0.051111132
789705660.37736 0.99827468 -0.052358568 0.0013063923 0.025832802 0.0013386533 0.025954254 0.99774075 -0.051824629
799701886.79245 0.99829173 -0.053078383 0.0013462128 0.026138602 0.0013588816 0.026243038 0.99753737 -0.052352369
809698113.20755 0.99812174 -0.053640485 0.0013829737 0.026448965 0.0013732503 0.026613185 0.99766493 -0.052874804
819694339.62264 0.99796474 -0.0543392 0.0014021345 0.026761243 0.0014265338 0.026958497 0.9977529 -0.053521454
829690566.03774 0.99795079 -0.054894894 0.0014602924 0.027097508 0.001428335 0.027254399 0.99805284 -0.054327428
839686792.45283 0.99800766 -0.055371493 0.0014913632 0.027416587 0.0014579203 0.027564207 0.99795979 -0.055146039
849683018.86792 0.99810237 -0.056034565 0.0015148367 0.027737379 0.0014739218 0.027903918 0.99791545 -0.05591362
859679245.28302 0.99805653 -0.056683779 0.0015264088 0.028081367 0.0015449412 0.028214151 0.99763525 -0.056507081
869675471.69811 0.99808514 -0.057467431 0.0015754635 0.028394453 0.0015994404 0.028532518 0.99731535 -0.057062894
879671698.11321 0.99797893 -0.058175921 0.0016357822 0.028709082 0.0016127846 0.028839702 0.99736398 -0.057429347
889667924.5283 0.99784327 -0.058859736 0.0016213683 0.028973943 0.0016587954 0.029172543 0.99721682 -0.057968557
899664150.9434 0.99761546 -0.059552997 0.0016654506 0.029296119 0.0016941074 0.029490545 0.99726534 -0.058630347
909660377.35849 0.99759352 -0.060217857 0.0016810386 0.029622849 0.0016938746 0.02981893 0.9973765 -0.059449598
919656603.77358 0.99768829 -0.060817972 0.001732232 0.029923651 0.0017070551 0.030135067 0.9974159 -0.06030944
929652830.18868 0.99761736 -0.061541647 0.001754323 0.030257484 0.0017364537 0.030428953 0.9971559 -0.061180741
939649056.60377 0.99787265 -0.062218577 0.001739271 0.030549638 0.0017425362 0.030765243 0.99706805 -0.061860263
949645283.01887 0.99776083 -0.063039862 0.0017352366 0.03093853 0.0017569932 0.031078486 0.99682432 -0.062422752
959641509.43396 0.99778712 -0.063664228 0.0017677313 0.031272974 0.0017805733 0.031437509 0.99683523 -0.062931716
969637735.84906 0.99765408 -0.064413965 0.0018506423 0.031604402 0.0018456886 0.031767167 0.99679238 -0.063328743
979633962.26415 0.99750435 -0.065231547 0.0018983043 0.031906243 0.0018993926 0.032088082 0.99683416 -0.063990757
989630188.67925 0.99756873 -0.065641075 0.0019314494 0.032230321 0.0019185776 0.032444689 0.99704194 -0.06450215
999626415.09434 0.9975881 -0.066278875 0.0019495357 0.032542035 0.001946575 0.03273996 0.99698579 -0.065351844
1009622641.5094 0.99756932 -0.066912934 0.0019718157 0.03289349 0.0020275051 0.033116169 0.99681342 -0.066203147
1019618867.9245 0.99768317 -0.067703038 0.0020236815 0.033202622 0.0020762668 0.0334002 0.9965567 -0.066958159
1029615094.3396 0.99769485 -0.068587571 0.0020994656 0.033506159 0.0021130377 0.033701207 0.99623871 -0.067566067
1039611320.7547 0.99769056 -0.069418997 0.0021245228 0.033815052 0.0021462459 0.034010369 0.99616921 -0.068255424
1049607547.1698 0.99763054 -0.070332296 0.0021133288 0.034087859 0.002165616 0.034308892 0.99622339 -0.068817899
1059603773.5849 0.9974848 -0.071049571 0.0021769926 0.034430932 0.0021815421 0.034627523 0.99616498 -0.069377542
1069600000 0.99727619 -0.071688116 0.0021566413 0.034710664 0.0022378629 0.034946684 0.99631798 -0.070094258
1079596226.4151 0.99728251 -0.072309494 0.0021815337 0.035057969 0.0022338061 0.035266086 0.99636275 -0.07086169
1089592452.8302 0.99729288 -0.073008358 0.0022155205 0.035371989 0.0022568088 0.035622664 0.99629903 -0.071598917
1099588679.2453 0.99732983 -0.073649764 0.0022234041 0.035709426 0.0022582877 0.035916332 0.99594015 -0.072148055
1109584905.6604 0.99745131 -0.074453831 0.0022523068 0.036028426 0.0023099435 0.036265727 0.99576139 -0.072745487
1119581132.0755 0.99739391 -0.075395256 0.0022718613 0.036392815 0.0023010946 0.036596864 0.99550426 -0.07318297
1129577358.4906 0.99719065 -0.076118886 0.0023041125 0.036737744 0.0023605358 0.036977991 0.99547803 -0.073572814
1139573584.9057 0.99696308 -0.077034473 0.0023156228 0.037053864 0.0023989398 0.037292033 0.99556434 -0.074225634
1149569811.3208 0.99688226 -0.077824503 0.0024034339 0.037394721 0.0024696386 0.037621535 0.9956367 -0.074927159
1159566037.7358 0.99668658 -0.078555048 0.0024272343 0.03766866 0.0024983557 0.037910432 0.99577236 -0.075950474
1169562264.1509 0.99656582 -0.079239011 0.0024431944 0.037974756 0.0025196299 0.038221523 0.99562681 -0.076713562
1179558490.566 0.99652505 -0.079983145 0.0024394412 0.038363941 0.002521124 0.038592137 0.99547696 -0.077447444
1189554716.9811 0.99651623 -0.080626637 0.002470037 0.038700581 0.0025749411 0.038897619 0.99517912 -0.078024894
1199550943.3962 0.99643064 -0.081524372 0.002544377 0.039056975 0.0026548225 0.039266907 0.99501902 -0.078456551
1209547169.8113 0.9962638 -0.082394734 0.0025700564 0.039361529 0.0026769768 0.039577994 0.99493098 -0.078827024
1219543396.2264 0.99603766 -0.083148241 0.0026506847 0.039749265 0.0027151611 0.039943226 0.9950093 -0.079192758
1229539622.6415 0.99580228 -0.084067553 0.0026946608 0.040033374 0.0027858466 0.040300708 0.99517596 -0.079862237
1239535849.0566 0.99555671 -0.084627777 0.0027453415 0.040337827 0.002823553 0.040584825 0.99529934 -0.080743045
1249532075.4717 0.9952665 -0.085232504 0.0027694199 0.040691528 0.0028763306 0.040898517 0.9950555 -0.081496924
1259528301.8868 0.99510425 -0.085783839 0.0028752349 0.041007899 0.0029781964 0.041218955 0.99480933 -0.082401395
1269524528.3019 0.99488306 -0.086520106 0.002904363 0.04131918 0.003081711 0.041506454 0.99466133 -0.083030522
1279520754.717 0.9945851 -0.08725667 0.0029517822 0.041600294 0.0030683372 0.041776404 0.99438852 -0.083636574
1289516981.1321 0.99447441 -0.088032097 0.0029634777 0.041899268 0.0030976003 0.042077251 0.99447453 -0.084060878
1299513207.5472 0.99409306 -0.088961899 0.0030004084 0.042223841 0.0031007249 0.042386461 0.99455458 -0.084517092
1309509433.9623 0.99370962 -0.08961308 0.003000957 0.042519134 0.0031515704 0.042707875 0.99467206 -0.085273474
1319505660.3774 0.99340045 -0.090362236 0.0030029742 0.042820759 0.0031432128 0.043016244 0.99478483 -0.085823566
1329501886.7925 0.99306774 -0.090964347 0.0030433051 0.043144755 0.0031508524 0.043312151 0.99473435 -0.086833328
1339498113.2075 0.9928624 -0.091510355 0.0030722125 0.043506581 0.0031697676 0.043676566 0.99432284 -0.087515622
1349494339.6226 0.99266964 -0.092032455 0.0030462528 0.04383032 0.0031459294 0.043972541 0.99398708 -0.088003367
1359490566.0377 0.99261951 -0.092619032 0.0030487236 0.044166327 0.0031664483 0.044310711 0.99381769 -0.088545382
1369486792.4528 0.99230963 -0.093113452 0.0030703917 0.044520702 0.0031512929 0.044680342 0.99367499 -0.089066267
1379483018.8679 0.9920454 -0.093675621 0.0030681721 0.044898752 0.0031872683 0.045027398 0.99357414 -0.089351378
1389479245.283 0.99171305 -0.094179153 0.0031275991 0.045276269 0.0031824 0.045412056 0.99354935 -0.090013057
1399475471.6981 0.99132001 -0.094629854 0.0031486526 0.045603085 0.0032191165 0.045781039 0.99377573 -0.090747237
1409471698.1132 0.99102432 -0.095024057 0.0031860103 0.046000727 0.0032336435 0.046139684 0.9937489 -0.091584869
1419467924.5283 0.99083865 -0.095366359 0.0032086065 0.046363745 0.0032538716 0.046520334 0.99362499 -0.092319399
1429464150.9434 0.99073493 -0.095785052 0.0032368116 0.04674983 0.003321398 0.0469051 0.99350691 -0.092876792
1439460377.3585 0.99091178 -0.09621793 0.0032980992 0.047174476 0.0033872398 0.04732535 0.99327385 -0.093231127
1449456603.7736 0.99085903 -0.096798599 0.0034662699 0.047578711 0.0035045929 0.047697112 0.99313605 -0.093554541
1459452830.1887 0.99089062 -0.097382039 0.0035812035 0.048000708 0.0036074072 0.048107762 0.99330235 -0.093815148
1469449056.6038 0.99094659 -0.098065287 0.0037505496 0.048345145 0.0037206849 0.048456017 0.99343872 -0.09445554
1479445283.0189 0.99079543 -0.098634481 0.0038441452 0.048609264 0.0038774684 0.048741005 0.99356866 -0.095324226
1489441509.434 0.99074399 -0.09920752 0.0039954633 0.048923701 0.0040069055 0.04904785 0.99351281 -0.096197516
1499437735.8491 0.99056995 -0.099465668 0.0041274391 0.049198132 0.0041312184 0.049339078 0.99338692 -0.096950799
1509433962.2642 0.9905988 -0.100046 0.0041598347 0.049447849 0.004180498 0.049619734 0.99320817 -0.097746611
1519430188.6792 0.99070299 -0.10057625 0.0042282008 0.049710095 0.0042320173 0.049893536 0.99304092 -0.098300874
1529426415.0943 0.99066567 -0.10126847 0.0042905305 0.049979355 0.0042491481 0.050170951 0.99292624 -0.098770648
1539422641.5094 0.99065793 -0.1020745 0.0043277564 0.050253782 0.0043421774 0.050447214 0.9929769 -0.099174224
1549418867.9245 0.99053222 -0.10279296 0.0043996722 0.050605722 0.0043815933 0.050737191 0.99327093 -0.099910185
1559415094.3396 0.99036235 -0.1034711 0.0044487081 0.050860252 0.0043976288 0.05104287 0.99346554 -0.10060689
1569411320.7547 0.99026936 -0.10425925 0.0045051146 0.051098749 0.0044666333 0.051328462 0.99329674 -0.1013941
1579407547.1698 0.99017572 -0.10469827 0.0045290128 0.051431246 0.0044865352 0.051600207 0.99300307 -0.10223469
1589403773.5849 0.99015552 -0.10538369 0.0045153368 0.051688045 0.0045223385 0.051884793 0.99282527 -0.10292304
1599400000 0.99012345 -0.10572341 0.0044534849 0.052011214 0.0044803508 0.052189935 0.99239337 -0.10330787
1609396226.4151 0.99000734 -0.10642946 0.0044896663 0.05232786 0.0044652866 0.052531492 0.99224216 -0.10392708
1619392452.8302 0.99000394 -0.10698038 0.0045098457 0.052641362 0.0044584963 0.052872412 0.99210864 -0.10438603
1629388679.2453 0.98982084 -0.10773218 0.0045323092 0.053001441 0.004463939 0.053204078 0.99237663 -0.10486412
1639384905.6604 0.98961937 -0.10837167 0.0045028329 0.053302839 0.0044839638 0.053600565 0.99259138 -0.10564322
1649381132.0755 0.98944861 -0.10905939 0.0045475848 0.053692427 0.0045091249 0.053925805 0.99255025 -0.10664478
1659377358.4906 0.98929834 -0.10982716 0.0045745298 0.054052047 0.0045534112 0.05433239 0.9924888 -0.10742837
1669373584.9057 0.98926234 -0.11022136 0.0045623607 0.054455847 0.0045468798 0.054685142 0.99226928 -0.10812528
1679369811.3208 0.98926568 -0.11094907 0.0046389475 0.054822765 0.004599046 0.055089422 0.99205053 -0.10861164
1689366037.7358 0.98923635 -0.11151114 0.0047040358 0.055220097 0.0046408288 0.055426035 0.99188107 -0.10893196
1699362264.1509 0.98936397 -0.11207986 0.0047325101 0.055532347 0.0046918467 0.055845566 0.99207985 -0.1094006
1709358490.566 0.98928589 -0.11277378 0.0047777016 0.055920478 0.0047110897 0.05619821 0.99206138 -0.1099222
1719354716.9811 0.98899263 -0.11335984 0.0048433505 0.056338381 0.0047894809 0.056551155 0.99208945 -0.11061013
1729350943.3962 0.98873049 -0.11399809 0.0049190279 0.056684453 0.0048757885 0.056961793 0.99211919 -0.11142498
