!Keysight Technologies,N5222B,MY61253708,A.15.00.15
!Date: Wednesday, June 19, 2024 08:56:38
!Correction: S11(C  2-Port  ) 
!S21(C  2-Port  ) 
!S12(C  2-Port  ) 
!S22(C  2-Port  ) 
!S2P File: Measurements: S11, S21, S12, S22:
# Hz S  RI   R 50
10000000 0.99869972 -0.0019704401 5.0831608e-005 0.00029251928 -5.0882987e-005 0.0001706219 0.99882752 -0.00063100457
19996226.415094 0.99908304 -0.0020708442 2.9309333e-005 0.00063656131 4.661773e-005 0.00075527257 0.99938023 -0.0020484924
29992452.830189 0.99984854 -0.002545923 4.1287829e-005 0.0010471941 2.7931033e-005 0.0010124857 0.99946487 -0.0028042495
39988679.245283 1.000008 -0.0031836629 -2.7787712e-005 0.0014585835 2.3731161e-005 0.0014718367 0.99969077 -0.0032426715
49984905.660377 1.0001452 -0.0039334297 6.4733322e-006 0.0017909217 -4.2183092e-006 0.0017685313 0.99981123 -0.0038432777
59981132.075472 1.0002823 -0.0047689676 1.4485384e-005 0.0021483144 2.3276603e-005 0.0021324393 0.99974275 -0.0043961108
69977358.490566 0.99998224 -0.0053557027 -3.3844946e-005 0.0025528583 3.2205935e-006 0.0025105875 0.99959499 -0.0049388818
79973584.90566 0.99978989 -0.0058671832 2.7919654e-005 0.002853137 4.4424203e-005 0.0028810045 0.99933648 -0.005468905
89969811.320755 0.99980605 -0.0061629713 2.0074192e-005 0.0032045483 4.6334811e-005 0.003231423 0.99952674 -0.0057986975
99966037.735849 1.0000099 -0.0068611801 2.5897636e-005 0.0035909682 4.8138027e-005 0.0036102771 0.99959302 -0.0066116303
109962264.15094 1.0000743 -0.0078294426 2.1525135e-005 0.0039605466 2.1883519e-005 0.0039804745 0.99959356 -0.0074455589
119958490.56604 1.0000969 -0.008865118 3.9202394e-005 0.0042950129 3.8502272e-005 0.0043172464 0.99960405 -0.0083809197
129954716.98113 1.0000079 -0.0099201202 3.9112987e-005 0.0046511665 5.43145e-005 0.0046677506 0.9995898 -0.0093153119
139950943.39623 0.99998701 -0.010770215 5.1967043e-005 0.005028062 5.5762037e-005 0.0050464142 0.99950427 -0.010122068
149947169.81132 0.99978584 -0.011444151 6.1407685e-005 0.005362886 6.0993014e-005 0.0054096095 0.99945605 -0.010723561
159943396.22642 0.9997685 -0.011986673 7.2958414e-005 0.0057100398 6.7423563e-005 0.0057716211 0.99953926 -0.011209846
169939622.64151 0.99977356 -0.012375623 6.0811348e-005 0.0060946089 8.2281302e-005 0.0061256941 0.99961054 -0.011640303
179935849.0566 0.99987316 -0.012676984 0.00011612405 0.0064458796 6.9001224e-005 0.006496367 0.9995293 -0.01208365
189932075.4717 0.99993664 -0.013412505 8.8852365e-005 0.0068074111 7.5241784e-005 0.0068277037 0.99976552 -0.012670457
199928301.88679 0.99992275 -0.014355451 0.00011783233 0.0071538808 0.00011907658 0.0072086086 0.99964398 -0.013617754
209924528.30189 0.99967873 -0.014987409 0.00010935694 0.0075119752 0.00013986568 0.0075524752 0.99937505 -0.014328569
219920754.71698 0.99957818 -0.015973061 0.00014607841 0.0078874808 0.00013582828 0.0079213483 0.99918139 -0.015120059
229916981.13208 0.99938154 -0.016944855 0.0001512724 0.008209886 0.00011667935 0.0082685556 0.99907404 -0.015884876
239913207.54717 0.9992345 -0.01756224 0.00017153117 0.0085780444 0.00014586738 0.0086687533 0.99912989 -0.016624903
249909433.96226 0.99931407 -0.018198758 0.00015967037 0.0089418534 0.00017183158 0.0090181511 0.99921274 -0.017303407
259905660.37736 0.99940526 -0.018783391 0.00015603658 0.0093044601 0.0001938846 0.0093476241 0.99947035 -0.017976493
269901886.79245 0.99956977 -0.019452408 0.00017651822 0.0096573262 0.0001827667 0.0096774483 0.99974835 -0.018469051
279898113.20755 0.99969214 -0.02019459 0.00023956201 0.010002267 0.00016312255 0.010108775 0.9996345 -0.019355774
289894339.62264 0.99966645 -0.021025628 0.00029648561 0.010361468 0.00024367915 0.010453513 0.99953908 -0.020157486
299890566.03774 0.99951828 -0.02161476 0.0002110377 0.010688305 0.00026763394 0.010779195 0.99933434 -0.020623386
309886792.45283 0.99922711 -0.022252768 0.00027238345 0.011051089 0.00024243491 0.011122464 0.99915636 -0.021141686
319883018.86792 0.99921554 -0.022829205 0.00030020811 0.011423569 0.00025501195 0.011500725 0.99918258 -0.021769077
329879245.28302 0.99917793 -0.023527354 0.00032468699 0.011818934 0.00027676346 0.011861322 0.9992466 -0.022479236
339875471.69811 0.99906194 -0.024321608 0.00029861124 0.012170001 0.00028734677 0.012245979 0.9991945 -0.023247324
349871698.11321 0.99931598 -0.025106788 0.0003105884 0.012466924 0.00030225376 0.012598444 0.99926442 -0.024238914
359867924.5283 0.999228 -0.025959671 0.00030410802 0.01286136 0.00033705728 0.012939151 0.99926054 -0.025158972
369864150.9434 0.99939311 -0.026907563 0.00035992451 0.013224642 0.0003429316 0.013319455 0.99922693 -0.025945663
379860377.35849 0.99924403 -0.027598485 0.00039106514 0.013582322 0.00036689336 0.013650334 0.99913245 -0.02663812
389856603.77358 0.99921227 -0.028128862 0.00042487821 0.013951218 0.00040998636 0.014018159 0.99917054 -0.027032286
399852830.18868 0.99897921 -0.028768301 0.00043252762 0.014283014 0.00043992652 0.014394872 0.99917889 -0.027537674
409849056.60377 0.99904835 -0.029196763 0.00044898709 0.014654091 0.00048008782 0.014720419 0.99921227 -0.028109608
419845283.01887 0.99897021 -0.029712737 0.00046486966 0.014993646 0.00047331676 0.015092737 0.99922466 -0.028629422
429841509.43396 0.99906528 -0.030351222 0.00049792277 0.015333323 0.00046751136 0.015450899 0.99938405 -0.029462725
439837735.84906 0.99893367 -0.031337082 0.00052570761 0.015723024 0.00055727246 0.015785223 0.99919236 -0.030415207
449833962.26415 0.99890357 -0.032147318 0.00054323208 0.016006192 0.00051549915 0.016151864 0.99883789 -0.031321764
459830188.67925 0.99885541 -0.033043534 0.0005327519 0.016392265 0.00054920185 0.01650624 0.99859095 -0.032140166
469826415.09434 0.99873948 -0.033860534 0.00056259986 0.016734345 0.00058094598 0.016859375 0.99841875 -0.032666445
479822641.50943 0.99867791 -0.034528829 0.00059053232 0.017154522 0.00058875419 0.017278207 0.99843186 -0.033183768
489818867.92453 0.99864769 -0.035018772 0.00060134474 0.017472895 0.00062747672 0.017622858 0.99875796 -0.033785462
499815094.33962 0.99887943 -0.035650522 0.00067451876 0.017835001 0.0006498429 0.017964974 0.99904823 -0.034364164
509811320.75472 0.99890536 -0.036129352 0.0006501124 0.018185705 0.00064172165 0.018294068 0.99916679 -0.035353143
519807547.16981 0.99884671 -0.0367046 0.00072175078 0.01854085 0.00069858041 0.018682599 0.99921912 -0.036039531
529803773.58491 0.99887902 -0.037370354 0.00074286759 0.018901061 0.00071926508 0.018981081 0.99889606 -0.036740422
539800000 0.99875987 -0.03817232 0.00074779894 0.019278262 0.00075241365 0.01940871 0.99867851 -0.037414655
549796226.41509 0.99860322 -0.039058387 0.00074571278 0.019586565 0.00070311222 0.019760111 0.99841541 -0.037953824
559792452.83019 0.99838364 -0.039752722 0.00078618061 0.019985327 0.00081664138 0.020080514 0.99839926 -0.038364977
569788679.24528 0.99823421 -0.040564328 0.00083051715 0.020322775 0.00079802284 0.020469451 0.99852347 -0.039197505
579784905.66038 0.9982267 -0.041098617 0.00084864884 0.020686209 0.00084615545 0.020837396 0.99866045 -0.039954863
589781132.07547 0.99838579 -0.041811496 0.000911301 0.021061501 0.00088184047 0.02119951 0.99878812 -0.040935129
599777358.49057 0.99850929 -0.04240483 0.00093159731 0.021439441 0.00088365562 0.021576313 0.9987697 -0.041731507
609773584.90566 0.99860692 -0.043316048 0.00097065134 0.021784827 0.00095661974 0.021932937 0.99855882 -0.042641301
619769811.32075 0.9985851 -0.043995261 0.0010390123 0.022092771 0.0010677101 0.02229996 0.99856031 -0.043165267
629766037.73585 0.99851692 -0.04463774 0.0010808017 0.022421099 0.0010842038 0.022581838 0.99833167 -0.043693364
639762264.15094 0.99824941 -0.045279056 0.001052863 0.022755129 0.0010937236 0.022938289 0.99818009 -0.044163659
649758490.56604 0.99809122 -0.0459425 0.0010700575 0.023120416 0.0010970016 0.023273498 0.9982639 -0.044605672
659754716.98113 0.99791586 -0.046436429 0.0010784362 0.023492828 0.0010912344 0.023620035 0.9982751 -0.04526034
669750943.39623 0.99795103 -0.046968251 0.0011322964 0.023871357 0.0011437954 0.02403 0.99836534 -0.046014607
679747169.81132 0.99796224 -0.047806635 0.0011873319 0.024249122 0.0011727666 0.024393156 0.99825448 -0.047119047
689743396.22642 0.99813998 -0.048612773 0.0012389403 0.024577446 0.0011782339 0.024747755 0.99808854 -0.048087358
699739622.64151 0.99831688 -0.049425364 0.001261347 0.0249271 0.0012376113 0.025083493 0.9980765 -0.048808694
709735849.0566 0.99829298 -0.050420016 0.001332332 0.025269497 0.0013445647 0.025449606 0.99771827 -0.049441278
719732075.4717 0.99804002 -0.05112797 0.0013306774 0.025631053 0.0013333494 0.025775017 0.99787217 -0.050021261
729728301.88679 0.99794972 -0.05166775 0.0013714014 0.025974005 0.0013672812 0.026096789 0.99785268 -0.050467342
739724528.30189 0.99784291 -0.052320644 0.0014143367 0.026333263 0.0014277371 0.026486484 0.99807554 -0.051185519
749720754.71698 0.99765599 -0.052846059 0.0014656596 0.026632801 0.0014537522 0.026830407 0.99809337 -0.051911801
759716981.13208 0.99778521 -0.053251207 0.0015071025 0.026998693 0.0015044268 0.027201807 0.9980737 -0.05272463
769713207.54717 0.99773991 -0.054085195 0.0015325714 0.027352966 0.0015249243 0.027530365 0.99779475 -0.053493559
779709433.96226 0.99791014 -0.054782711 0.0015571486 0.02765717 0.0015588088 0.027881349 0.99758399 -0.054156046
789705660.37736 0.99777889 -0.055767566 0.0015663905 0.028031405 0.0016219411 0.028249187 0.99732435 -0.054846287
799701886.79245 0.99769962 -0.056664884 0.0016503539 0.028351367 0.0016600806 0.028560106 0.99712586 -0.055529267
809698113.20755 0.9976452 -0.057271019 0.001687286 0.028710363 0.0016370686 0.028917512 0.99723381 -0.055963814
819694339.62264 0.99749279 -0.057934463 0.0016967468 0.029053293 0.0017076354 0.029271748 0.99740815 -0.05662933
829690566.03774 0.99747568 -0.058548987 0.0017228574 0.029401492 0.0017501451 0.029626755 0.99761188 -0.057545602
839686792.45283 0.99761343 -0.059055239 0.0017639641 0.029757045 0.0017730799 0.029961398 0.99772036 -0.058431625
849683018.86792 0.99761564 -0.059668139 0.0017856015 0.03010858 0.0018212029 0.030346148 0.99753529 -0.059212096
859679245.28302 0.99767864 -0.060418367 0.0018544858 0.030454185 0.0018374491 0.030699767 0.99724472 -0.059786141
869675471.69811 0.99750561 -0.061273187 0.0018763477 0.030789454 0.0019077295 0.030999696 0.99689758 -0.060386181
879671698.11321 0.99744588 -0.061971471 0.001935322 0.031131465 0.0019476523 0.031379446 0.99687141 -0.060811371
889667924.5283 0.99727327 -0.062832087 0.001970063 0.031475224 0.0019624764 0.031707581 0.99672741 -0.061365068
899664150.9434 0.99702227 -0.063549042 0.0020292457 0.031810131 0.0019938191 0.032053526 0.99678391 -0.061990261
909660377.35849 0.99708021 -0.064271241 0.0020141234 0.032152131 0.0020276965 0.032410078 0.99690914 -0.062981382
919656603.77358 0.99716181 -0.065004438 0.0020675273 0.032543592 0.0020577023 0.032788992 0.99689913 -0.063899994
929652830.18868 0.99711305 -0.065700412 0.0020767534 0.032839578 0.0021308726 0.033085898 0.99675488 -0.064863116
939649056.60377 0.99724346 -0.066417694 0.0021226238 0.033161748 0.002111488 0.033429421 0.99661779 -0.065628886
949645283.01887 0.99729389 -0.067215323 0.0021169155 0.033541147 0.0021672763 0.033791713 0.99634409 -0.066073649
959641509.43396 0.99715763 -0.068033725 0.0021656286 0.033924825 0.0021935115 0.034169048 0.99623144 -0.066594034
969637735.84906 0.99702209 -0.068751663 0.0022319583 0.034297802 0.0022533368 0.034535311 0.99625325 -0.067004383
979633962.26415 0.99685872 -0.06947656 0.0022775775 0.034622584 0.002300543 0.034912061 0.99632943 -0.0676952
989630188.67925 0.99678594 -0.069980353 0.0023008985 0.034971986 0.0023362851 0.035256069 0.9964276 -0.068308949
999626415.09434 0.99686027 -0.070726037 0.0023543686 0.035320342 0.0023820549 0.035618782 0.99638665 -0.069243431
1009622641.5094 0.99688756 -0.071372434 0.0023778072 0.035689343 0.0024221959 0.035972029 0.99620438 -0.070123553
1019618867.9245 0.99699694 -0.072234392 0.002437809 0.036058217 0.0024713888 0.036337476 0.99593824 -0.071031451
1029615094.3396 0.99697 -0.073237121 0.0024909209 0.036386527 0.0025227945 0.036658037 0.99555695 -0.071639091
1039611320.7547 0.99706441 -0.074171394 0.0025706729 0.03673102 0.0025916742 0.036999263 0.99552017 -0.072311401
1049607547.1698 0.99689448 -0.075030863 0.002627396 0.037034415 0.0025959755 0.0373175 0.99545342 -0.072909474
1059603773.5849 0.99665987 -0.075778335 0.0026459321 0.037364118 0.0026566908 0.037626907 0.99549824 -0.073474318
1069600000 0.99639869 -0.076454014 0.0026245434 0.037685357 0.0026780684 0.037984081 0.99563777 -0.074192435
1079596226.4151 0.99634153 -0.077104084 0.0026769284 0.038023338 0.0027561579 0.038351566 0.99559826 -0.074963078
1089592452.8302 0.99644929 -0.077762187 0.002694373 0.038381487 0.0027584564 0.038703263 0.99549091 -0.07577008
1099588679.2453 0.996472 -0.078403234 0.0027267691 0.038707733 0.0027902927 0.039030377 0.99512285 -0.076414555
1109584905.6604 0.99652499 -0.079313815 0.0027313232 0.039126519 0.0028269775 0.039416213 0.99489975 -0.076995656
1119581132.0755 0.9965204 -0.080416709 0.0027724765 0.039454717 0.0028328169 0.039781138 0.99471617 -0.077406392
1129577358.4906 0.99635875 -0.081258029 0.0028046016 0.039849743 0.0028962046 0.040178556 0.99458581 -0.077900976
1139573584.9057 0.99610382 -0.082128018 0.0028674863 0.04019409 0.002956504 0.040518388 0.99461687 -0.078625739
1149569811.3208 0.99591386 -0.082944371 0.0029595925 0.040540088 0.0030627456 0.040890891 0.99476367 -0.079377003
1159566037.7358 0.99568486 -0.083646715 0.0029936936 0.040869966 0.0030392483 0.041216742 0.99492896 -0.080462635
1169562264.1509 0.99549818 -0.08428371 0.0029880796 0.041194465 0.0030674562 0.041549988 0.99467832 -0.081292391
1179558490.566 0.99544257 -0.085045233 0.0030035351 0.041605275 0.0031190845 0.041972119 0.99453717 -0.081929624
1189554716.9811 0.99541873 -0.085835665 0.0030606184 0.041963205 0.003186048 0.042294901 0.99422681 -0.082534254
1199550943.3962 0.99543613 -0.086639971 0.0030781385 0.042335764 0.0032049101 0.042652287 0.9940908 -0.082941324
1209547169.8113 0.9952246 -0.087660953 0.0031779399 0.042662997 0.0032800343 0.042969517 0.99399561 -0.083286077
1219543396.2264 0.99504459 -0.08851251 0.0032131709 0.043089356 0.0033306321 0.043394081 0.99404424 -0.083772704
1229539622.6415 0.99468911 -0.089271247 0.0032742396 0.043413267 0.0034214854 0.043738462 0.99416083 -0.084417164
1239535849.0566 0.99444896 -0.090087414 0.0033465959 0.043749038 0.003491682 0.044085719 0.99427199 -0.08543691
1249532075.4717 0.99412757 -0.09077552 0.0034116113 0.044100571 0.0035461818 0.04443951 0.99410588 -0.08629024
1259528301.8868 0.99395907 -0.091322869 0.0034773313 0.04445219 0.0036352929 0.044770792 0.99376702 -0.08722803
1269524528.3019 0.99372357 -0.09209609 0.0035471506 0.044761427 0.0036800113 0.045081403 0.99364698 -0.087944746
1279520754.717 0.99336994 -0.092848696 0.0036216278 0.045084666 0.0037411682 0.045394618 0.99333304 -0.088498972
1289516981.1321 0.99325252 -0.093653917 0.0036351141 0.045414209 0.0037635192 0.045677964 0.99333704 -0.088902146
1299513207.5472 0.99295807 -0.094499111 0.0036561973 0.045762371 0.003797343 0.046015799 0.9935286 -0.089360416
1309509433.9623 0.99243689 -0.095211744 0.0036869496 0.046094563 0.0038367473 0.046342179 0.99363971 -0.090044722
1319505660.3774 0.9919976 -0.095989272 0.003656161 0.046459511 0.0038099363 0.046681866 0.99359542 -0.090766564
1329501886.7925 0.99171793 -0.09664613 0.0037045144 0.046809461 0.0038831849 0.047074869 0.99362934 -0.091749549
1339498113.2075 0.99146777 -0.097202331 0.0037290826 0.0471569 0.0038847113 0.04740506 0.99320036 -0.092419147
1349494339.6226 0.99120748 -0.097822458 0.0037512966 0.047486357 0.0038635675 0.04772744 0.99278092 -0.093165465
1359490566.0377 0.9912166 -0.098442614 0.0037635826 0.047878318 0.0039008912 0.048154082 0.99256498 -0.093686759
1369486792.4528 0.99093205 -0.099003583 0.0037799627 0.048276961 0.0039229337 0.048503812 0.99236578 -0.094158262
1379483018.8679 0.99069595 -0.099595338 0.0038230699 0.048653983 0.0039176843 0.048874423 0.99236172 -0.094528146
1389479245.283 0.99030703 -0.10013026 0.0038584396 0.049058307 0.0039566215 0.049253367 0.99228966 -0.095270127
1399475471.6981 0.98988259 -0.10053381 0.0039190277 0.049404457 0.0039999802 0.049648955 0.99254072 -0.09594968
1409471698.1132 0.98949361 -0.10088842 0.0039284178 0.049798321 0.0040330542 0.050072927 0.99251348 -0.096853808
1419467924.5283 0.98927397 -0.10123366 0.0039838161 0.050239228 0.0040753242 0.05049042 0.99235964 -0.097520739
1429464150.9434 0.98918402 -0.10163128 0.0040137842 0.050654463 0.0041022506 0.050876334 0.9922772 -0.098027021
1439460377.3585 0.98936069 -0.10215554 0.0041212952 0.051108483 0.0041777221 0.051349215 0.99200106 -0.098466888
1449456603.7736 0.98932052 -0.10275467 0.0042099599 0.051558495 0.0042724358 0.0517576 0.99181944 -0.098869354
1459452830.1887 0.98930973 -0.10355085 0.004382221 0.051935613 0.0043889973 0.052206144 0.99198782 -0.099208236
1469449056.6038 0.98933661 -0.10418212 0.0045336038 0.052345358 0.004588427 0.052554127 0.99216211 -0.099817932
1479445283.0189 0.98906863 -0.1048485 0.0046783914 0.052644674 0.0046880781 0.052886244 0.99222797 -0.10072525
1489441509.434 0.98911345 -0.10530233 0.0048244074 0.052965015 0.0048389938 0.053238109 0.99197209 -0.1016947
1499437735.8491 0.98885667 -0.10568836 0.0049518514 0.053266831 0.0049567074 0.053495515 0.99201137 -0.10257062
1509433962.2642 0.98890281 -0.10627881 0.0050306884 0.053577088 0.0050349543 0.053811792 0.99171376 -0.10328362
1519430188.6792 0.98902678 -0.10687023 0.005094219 0.053871244 0.0051238853 0.054125402 0.99160844 -0.10384986
1529426415.0943 0.98895466 -0.10748965 0.0051533468 0.054107256 0.0051473901 0.05442977 0.99155265 -0.10426927
1539422641.5094 0.98898494 -0.10830663 0.0052533634 0.054488592 0.0052116667 0.054753266 0.99162233 -0.10480952
1549418867.9245 0.9888941 -0.10913576 0.0053014858 0.054779988 0.0052969437 0.055056114 0.99187154 -0.10550408
1559415094.3396 0.98868036 -0.10993227 0.0053759962 0.055114832 0.0053542964 0.055395186 0.99194509 -0.10623312
1569411320.7547 0.98848641 -0.11073127 0.0054058237 0.05535442 0.0053814501 0.055702053 0.99191976 -0.10707071
1579407547.1698 0.98838341 -0.11119896 0.005440725 0.055657301 0.0054455101 0.056024224 0.9915871 -0.10786998
1589403773.5849 0.98839438 -0.11178958 0.0054165609 0.056026313 0.0054490231 0.056311697 0.99124473 -0.10868111
1599400000 0.98831403 -0.11223847 0.005440075 0.056316908 0.0054046921 0.056605898 0.99082118 -0.1091575
1609396226.4151 0.9883095 -0.11292565 0.0054635587 0.056662373 0.005411136 0.056996394 0.99066013 -0.10968482
1619392452.8302 0.98828208 -0.11365184 0.0054698288 0.057046123 0.0054854285 0.057355382 0.99058986 -0.11019763
1629388679.2453 0.98810649 -0.11436355 0.0055150762 0.057376325 0.005430175 0.057705946 0.99081856 -0.11075509
1639384905.6604 0.98773295 -0.1149509 0.0054708947 0.057770889 0.0054453849 0.05816061 0.99111271 -0.11157732
1649381132.0755 0.98753619 -0.11573356 0.005513927 0.058162767 0.0055333003 0.058553413 0.99102342 -0.11259261
1659377358.4906 0.98734093 -0.11650521 0.0055271797 0.058559142 0.0055649579 0.058943413 0.99102813 -0.11350152
1669373584.9057 0.98728222 -0.11698674 0.0055987793 0.058987342 0.005623661 0.059339393 0.99065405 -0.11413684
1679369811.3208 0.98732549 -0.11773019 0.0056900401 0.059360843 0.0056575686 0.059753496 0.99044138 -0.11466464
1689366037.7358 0.98733681 -0.11831093 0.0057478901 0.05978696 0.0057547651 0.060165554 0.99031889 -0.11504319
1699362264.1509 0.98742998 -0.1189947 0.0057898136 0.060187437 0.005818381 0.06055814 0.99040431 -0.1154725
1709358490.566 0.98736072 -0.11971009 0.0058675138 0.060526505 0.0058454815 0.061003797 0.99040908 -0.11611377
1719354716.9811 0.9869889 -0.12032422 0.0059369523 0.060934328 0.0059307609 0.06136205 0.99049002 -0.11680508
1729350943.3962 0.98666489 -0.12093356 0.0060760565 0.061352924 0.0060258638 0.061780129 0.99053204 -0.11767244
