!Keysight Technologies,N5222B,MY61253708,A.15.00.15
!Date: Wednesday, June 19, 2024 09:42:17
!Correction: S11(C  2-Port  ) 
!S21(C  2-Port  ) 
!S12(C  2-Port  ) 
!S22(C  2-Port  ) 
!S2P File: Measurements: S11, S21, S12, S22:
# Hz S  RI   R 50
10000000 0.99888933 -0.0027652383 0.00025414949 0.0002655698 -6.6947759e-005 0.00041252022 0.99896944 -0.0012944937
19996226.415094 0.99885893 -0.0029187799 -2.0707201e-005 0.00082037109 1.3725657e-006 0.00059782655 0.99902081 -0.0031295121
29992452.830189 0.99976927 -0.0024751723 1.9237719e-005 0.0010050753 -1.8915627e-005 0.0010138539 0.99949068 -0.0026376843
39988679.245283 1.0000329 -0.0030158758 -1.3395562e-005 0.0013550834 7.3488533e-005 0.0013076653 0.9997077 -0.0031161308
49984905.660377 1.0002027 -0.0037577152 5.0342176e-005 0.0016799228 -2.4870387e-006 0.0016719496 0.9998228 -0.0036434829
59981132.075472 1.0003918 -0.0046468079 1.2710574e-005 0.0019947791 6.4985186e-005 0.0020116158 0.99983007 -0.0042052865
69977358.490566 1.0002037 -0.0051436611 1.4866484e-005 0.0023498244 1.367303e-005 0.0023091137 0.99971569 -0.0046922285
79973584.90566 0.99989581 -0.0057234466 -4.0086452e-006 0.0026139079 -6.1923638e-006 0.0026733393 0.99935269 -0.005223155
89969811.320755 0.99996442 -0.0059057772 1.6482081e-005 0.0029727812 2.186466e-005 0.0030175908 0.99954194 -0.0054906607
99966037.735849 1.000156 -0.0066240728 3.3539254e-006 0.0033061465 1.4687888e-005 0.003336075 0.99965715 -0.0062735081
109962264.15094 1.0001394 -0.0075008422 4.0601823e-005 0.0036425609 1.2007775e-005 0.0036722813 0.99967778 -0.0070727915
119958490.56604 1.0001653 -0.0084424317 2.4812645e-005 0.0039684456 1.1689961e-005 0.0040079611 0.99967647 -0.0079448819
129954716.98113 1.0001493 -0.0094003975 3.2362179e-005 0.0042997664 4.1644322e-005 0.0043387194 0.99964708 -0.0088103712
139950943.39623 1.0000757 -0.010236723 3.0227864e-005 0.0046305377 4.9822454e-005 0.0047029844 0.99956685 -0.0095289461
149947169.81132 0.99992234 -0.010913193 4.4201268e-005 0.0049717035 4.4473913e-005 0.0049992795 0.99953234 -0.010173917
159943396.22642 0.99997556 -0.011473 5.9449347e-005 0.0052921115 5.304534e-005 0.0053377142 0.99962234 -0.010649234
169939622.64151 0.99989206 -0.011831373 7.4889977e-005 0.0056162192 5.4317585e-005 0.0056938096 0.99968559 -0.011071682
179935849.0566 0.99997854 -0.012127489 8.2527404e-005 0.0059425617 6.7227986e-005 0.0059877271 0.99959725 -0.011458576
189932075.4717 1.0000488 -0.012875676 8.7400666e-005 0.0062905648 0.00011186185 0.0063439747 0.99981642 -0.011979222
199928301.88679 1.0000007 -0.013706923 9.2431903e-005 0.0066239992 8.5255131e-005 0.006668509 0.99970609 -0.012902975
209924528.30189 0.9997229 -0.0142892 0.00012693857 0.0069506383 9.882974e-005 0.0070108292 0.99943155 -0.013616413
219920754.71698 0.9998709 -0.015093654 0.00011974922 0.0073075425 0.00012596208 0.0073172757 0.99934644 -0.014211178
229916981.13208 0.99964654 -0.015945047 0.00013491511 0.007608301 0.00011496432 0.0076862569 0.99931079 -0.014989525
239913207.54717 0.99952799 -0.016685745 0.00012404831 0.0079345154 0.00012584333 0.0080189873 0.99925888 -0.015692171
249909433.96226 0.99953204 -0.017280966 0.0001205313 0.0082533648 0.00014813337 0.008354676 0.99938554 -0.01632458
259905660.37736 0.99956262 -0.017903566 0.00014780229 0.0085889427 0.0001840638 0.0086356997 0.99952662 -0.016951948
269901886.79245 0.99971718 -0.01862365 0.00013887661 0.0089376718 0.00019817892 0.0089938575 0.99989915 -0.017601401
279898113.20755 0.99998003 -0.019198641 0.00022911024 0.0092626438 0.00016732584 0.0093355197 0.9996798 -0.018309757
289894339.62264 0.99980509 -0.020010144 0.00019215606 0.009544868 0.00019929418 0.0097234817 0.99970567 -0.01905933
299890566.03774 0.9997946 -0.020459026 0.00022484944 0.0098993396 0.00018113828 0.0099948542 0.99943447 -0.019442946
309886792.45283 0.99948996 -0.020958744 0.00017632393 0.010269506 0.00018099416 0.010324638 0.99936247 -0.019871294
319883018.86792 0.99958265 -0.02170223 0.00027010357 0.01056839 0.00023475382 0.010670949 0.9994297 -0.020389318
329879245.28302 0.99956053 -0.022330493 0.00022636587 0.010917304 0.00020870939 0.01098287 0.99951911 -0.021169424
339875471.69811 0.99951649 -0.023112267 0.00024553319 0.0112588 0.00022009085 0.011307159 0.99947113 -0.022043146
349871698.11321 0.99955451 -0.024094313 0.00027641258 0.011564976 0.00027487683 0.011633156 0.99940562 -0.022907764
359867924.5283 0.99938184 -0.024782747 0.00032954058 0.011871101 0.00026291376 0.011982827 0.9993214 -0.023815095
369864150.9434 0.99962544 -0.025574565 0.00031489343 0.01222323 0.00029088464 0.012331611 0.99947405 -0.024549156
379860377.35849 0.99948078 -0.02617237 0.00032141479 0.012595401 0.00033631804 0.012658536 0.99931979 -0.025262222
389856603.77358 0.9994626 -0.026782572 0.00039979955 0.012898546 0.00034643989 0.013042409 0.99925244 -0.025723994
399852830.18868 0.99916971 -0.027428478 0.00035584345 0.013224313 0.00037852908 0.013325334 0.99939728 -0.026248038
409849056.60377 0.99921882 -0.027896248 0.00037403754 0.013552652 0.00037601119 0.013627138 0.99925697 -0.026699543
419845283.01887 0.9991703 -0.028231442 0.00038832426 0.013862692 0.00036753993 0.013992918 0.99924308 -0.02717337
429841509.43396 0.99932814 -0.028878897 0.00038921973 0.014210049 0.00043748831 0.014349909 0.9994241 -0.027993232
439837735.84906 0.99915177 -0.029877335 0.00042984972 0.014509309 0.00041272526 0.014688291 0.99926829 -0.028967813
449833962.26415 0.99914432 -0.030579507 0.00042984355 0.014854846 0.00045702746 0.0149966 0.99883103 -0.029726118
459830188.67925 0.99910712 -0.031357706 0.00043025659 0.015204662 0.00044314098 0.015304097 0.9986465 -0.030448854
469826415.09434 0.99891746 -0.032171607 0.00049619982 0.015500958 0.00046572322 0.01563579 0.99844021 -0.030899733
479822641.50943 0.99891174 -0.032690324 0.00050096051 0.015855988 0.00049601961 0.015997889 0.99847776 -0.031354569
489818867.92453 0.9989779 -0.033222288 0.00056343153 0.016167585 0.0005455655 0.016325206 0.99869925 -0.031918764
499815094.33962 0.99905616 -0.033854812 0.0006059939 0.016506065 0.0005483483 0.016642576 0.99898875 -0.032461733
509811320.75472 0.99909532 -0.034325778 0.00058273261 0.016819859 0.00058205141 0.016954148 0.99913341 -0.033241984
519807547.16981 0.9990474 -0.034889311 0.00058038579 0.01720161 0.00055162702 0.017283158 0.99907178 -0.033964723
529803773.58491 0.99901259 -0.035435736 0.00061226171 0.017455399 0.00055794418 0.017654259 0.99886668 -0.034556091
539800000 0.99905777 -0.036089152 0.00059925858 0.017841082 0.00063224626 0.017986134 0.99866629 -0.035216182
549796226.41509 0.99886656 -0.037017345 0.00063538458 0.018153524 0.00065680454 0.018320372 0.99853808 -0.035694629
559792452.83019 0.9988147 -0.037813962 0.00065027922 0.018468205 0.00071185268 0.018644519 0.99854326 -0.036197841
569788679.24528 0.99858302 -0.038405865 0.00067962939 0.018794736 0.00070744846 0.018946338 0.99869758 -0.036949396
579784905.66038 0.998577 -0.039003529 0.0006831435 0.019162465 0.00069571449 0.019347016 0.99873519 -0.037582129
589781132.07547 0.99860704 -0.039628565 0.00069690309 0.01950885 0.00072635431 0.019668449 0.99888742 -0.038478792
599777358.49057 0.99886703 -0.04032734 0.0007942766 0.019816741 0.00081522577 0.0199864 0.99895793 -0.039333582
609773584.90566 0.99892652 -0.041012347 0.00078837562 0.02014857 0.00084111828 0.020330235 0.99882489 -0.040173478
619769811.32075 0.9989875 -0.041765034 0.00086321076 0.020446762 0.0008734446 0.020621764 0.99875951 -0.040742666
629766037.73585 0.99882424 -0.042368531 0.00087470841 0.020793492 0.00086591393 0.020941991 0.99853718 -0.041211247
639762264.15094 0.99870044 -0.042972714 0.00087536662 0.021092393 0.00088780164 0.02125312 0.99843246 -0.041616693
649758490.56604 0.99854112 -0.043612897 0.00089085242 0.021376841 0.00094446167 0.021575246 0.99854147 -0.042124301
659754716.98113 0.99838912 -0.044054627 0.00089379307 0.02173955 0.00090943556 0.021929465 0.9985432 -0.042625248
669750943.39623 0.9984073 -0.044570029 0.00094610639 0.022075891 0.00091178529 0.022298789 0.99869323 -0.043468535
679747169.81132 0.99830973 -0.045398563 0.0009537522 0.022428034 0.00098904909 0.022652691 0.99858874 -0.044456735
689743396.22642 0.99847424 -0.046180427 0.0010009827 0.022784177 0.0010263389 0.02299271 0.99852145 -0.045374393
699739622.64151 0.99865383 -0.046932667 0.0010709027 0.023070686 0.0010758946 0.023278944 0.9983809 -0.046089888
709735849.0566 0.99863154 -0.047762036 0.0011139716 0.023397103 0.0010934708 0.023615155 0.99808758 -0.046683148
719732075.4717 0.99852204 -0.048426181 0.0011051381 0.023707729 0.0011355355 0.023893364 0.99825549 -0.047346622
729728301.88679 0.99845314 -0.049019456 0.001181839 0.02403038 0.0011452176 0.024216108 0.99827564 -0.047726661
739724528.30189 0.99820369 -0.049746111 0.0011992096 0.024362843 0.0012052804 0.024609501 0.99845046 -0.048469886
749720754.71698 0.99825752 -0.050197542 0.0012523439 0.024672253 0.0012468086 0.024923373 0.99845421 -0.049094051
759716981.13208 0.99825335 -0.050754875 0.0012442339 0.024958283 0.0012484407 0.025229672 0.99839175 -0.049890965
769713207.54717 0.99824083 -0.051405936 0.0012698714 0.025313612 0.0012823613 0.025553128 0.9981252 -0.050575495
779709433.96226 0.99843568 -0.052028015 0.0013205692 0.025631858 0.0013614964 0.025881866 0.99791551 -0.051224567
789705660.37736 0.99818081 -0.052869439 0.001359283 0.025936978 0.0013757339 0.026200052 0.99765193 -0.051950186
799701886.79245 0.99818879 -0.053667694 0.0013919119 0.026292309 0.0013950504 0.026527088 0.99755752 -0.052496582
809698113.20755 0.99810904 -0.054324344 0.0014038084 0.026577065 0.0014123516 0.026867051 0.99756259 -0.05295527
819694339.62264 0.99794084 -0.054974645 0.0014446531 0.026922375 0.0014507789 0.02712903 0.99769592 -0.053549767
829690566.03774 0.99794233 -0.055703253 0.0014576092 0.027215349 0.0014239112 0.027472947 0.99792862 -0.054464489
839686792.45283 0.99803537 -0.056032121 0.0014577596 0.027574278 0.0015258957 0.027815297 0.99788439 -0.055249095
849683018.86792 0.99809563 -0.056728341 0.0015144958 0.027859766 0.0014918828 0.028161718 0.99787223 -0.055983327
859679245.28302 0.9981432 -0.057383746 0.0015640585 0.028226444 0.0015660729 0.028473908 0.99756181 -0.056610614
869675471.69811 0.9980374 -0.058217525 0.0016388372 0.028543096 0.0015999777 0.028812602 0.99725711 -0.057118982
879671698.11321 0.99793798 -0.05882233 0.001649576 0.028841078 0.0016371217 0.029091204 0.99723655 -0.057514932
889667924.5283 0.9978174 -0.059566915 0.0016562957 0.029137719 0.0016817059 0.029406387 0.99706405 -0.058065236
899664150.9434 0.99764293 -0.060321063 0.0016685193 0.029466368 0.0017100666 0.029752806 0.99711704 -0.058706552
909660377.35849 0.99766201 -0.061066732 0.0016778521 0.029771324 0.0017229607 0.0300852 0.99728769 -0.059480041
919656603.77358 0.99768621 -0.061662391 0.0017339699 0.030110816 0.0017641322 0.030398974 0.99729025 -0.060450733
929652830.18868 0.99769199 -0.062446862 0.001763518 0.03046355 0.0017954102 0.030690823 0.99707371 -0.061233312
939649056.60377 0.99786294 -0.063007325 0.0017842324 0.030734314 0.0018030433 0.031008206 0.9969582 -0.061991304
949645283.01887 0.99779242 -0.063937679 0.0017923983 0.031074638 0.0017983486 0.031379286 0.99671179 -0.062495589
959641509.43396 0.99775571 -0.064586729 0.0018063411 0.031425476 0.0018147081 0.031717852 0.99666166 -0.063044071
969637735.84906 0.99768412 -0.065254927 0.0018459093 0.03177581 0.0018774625 0.032062162 0.99674124 -0.063314468
979633962.26415 0.99759763 -0.066015705 0.0019367298 0.032078061 0.0019325593 0.032377101 0.99669659 -0.063989542
989630188.67925 0.99755234 -0.066460043 0.0019691782 0.03238206 0.0019708173 0.032746702 0.99689579 -0.064624876
999626415.09434 0.99761873 -0.067041427 0.0019830139 0.03272007 0.0019949758 0.033022054 0.99682957 -0.065444827
1009622641.5094 0.99762964 -0.067800432 0.0019895807 0.033063967 0.0020537302 0.033431932 0.99668622 -0.066239297
1019618867.9245 0.99773276 -0.068638429 0.0020605018 0.033404943 0.0021043415 0.033664558 0.99649489 -0.067111373
1029615094.3396 0.99768203 -0.069505334 0.0021182289 0.033704069 0.0021730196 0.034005437 0.99610889 -0.067664802
1039611320.7547 0.9976908 -0.070362866 0.0021647848 0.033998016 0.0021837605 0.03431147 0.99605548 -0.068336308
1049607547.1698 0.99755406 -0.071286477 0.0021971492 0.034305193 0.0022004161 0.034632117 0.9960323 -0.068860367
1059603773.5849 0.99743694 -0.071892321 0.0022132592 0.034594268 0.0022584535 0.034928747 0.99606884 -0.069402665
1069600000 0.99731159 -0.072668701 0.0021977881 0.034878992 0.0022536255 0.03526843 0.99620163 -0.070136815
1079596226.4151 0.9971897 -0.073205933 0.0022222749 0.035234045 0.0022614533 0.03559481 0.99620366 -0.070948213
1089592452.8302 0.99723041 -0.073898017 0.0022446103 0.035555825 0.0023210822 0.035914123 0.99623424 -0.071639121
1099588679.2453 0.99726009 -0.074547619 0.0022666007 0.035878524 0.0023170318 0.036217883 0.99582595 -0.072293073
1109584905.6604 0.99739856 -0.075397 0.0022783186 0.036222234 0.002366839 0.036559731 0.99560922 -0.0728724
1119581132.0755 0.99738377 -0.076344118 0.0023130192 0.036579184 0.0024226108 0.03692355 0.99538589 -0.073303133
1129577358.4906 0.99715865 -0.077025294 0.0023277942 0.036935143 0.0023851953 0.037320197 0.9952929 -0.073700994
1139573584.9057 0.99694365 -0.077958554 0.0023789816 0.037229031 0.0024758186 0.037612993 0.99536777 -0.074361712
1149569811.3208 0.99688774 -0.078827903 0.0024419178 0.037586551 0.0025289266 0.037954036 0.99547368 -0.075089149
1159566037.7358 0.99657774 -0.079504609 0.0024917778 0.037894357 0.0025611473 0.038285896 0.99561942 -0.076105177
1169562264.1509 0.99647737 -0.080208361 0.0024587195 0.038212515 0.0025708675 0.038573857 0.99547189 -0.076932549
1179558490.566 0.99637187 -0.080925927 0.0025031769 0.038584284 0.0026058843 0.038900375 0.9953298 -0.077582918
1189554716.9811 0.99640894 -0.081664354 0.0025269566 0.038900264 0.0026675845 0.039276384 0.99507773 -0.078104854
1199550943.3962 0.99637699 -0.082503319 0.0025527384 0.039274246 0.0027006101 0.039604668 0.99484533 -0.078522235
1209547169.8113 0.99622071 -0.083342418 0.0026427275 0.039574746 0.0027410109 0.039914537 0.99482048 -0.078886032
1219543396.2264 0.99591494 -0.084185436 0.0026599215 0.039947558 0.0028018099 0.04031172 0.99482363 -0.079307258
1229539622.6415 0.99578106 -0.084948212 0.0027470235 0.040280018 0.0028447267 0.040637143 0.9949742 -0.079928875
1239535849.0566 0.99545264 -0.085630238 0.002830415 0.040562317 0.0029245354 0.040972739 0.99505991 -0.080793947
1249532075.4717 0.99516195 -0.086305715 0.0028325943 0.040903471 0.0030010312 0.041238647 0.99497408 -0.081683964
1259528301.8868 0.99500096 -0.086857289 0.0029002205 0.041228786 0.0030302461 0.041580133 0.99469864 -0.082540095
1269524528.3019 0.99481624 -0.087582707 0.0029689725 0.041544877 0.0031166598 0.041898869 0.99450874 -0.083177507
1279520754.717 0.99437773 -0.088303462 0.0030111098 0.041826203 0.0031640942 0.04216579 0.99419606 -0.083719201
1289516981.1321 0.9943592 -0.089113265 0.0030272221 0.042113394 0.0031605298 0.042436071 0.99430925 -0.084190786
1299513207.5472 0.99397689 -0.089918584 0.0030348543 0.042433999 0.0031782929 0.042769317 0.99438095 -0.084607631
1309509433.9623 0.99358761 -0.090697035 0.0030775294 0.042748626 0.0031876033 0.043029029 0.99451822 -0.085328877
1319505660.3774 0.99323243 -0.091326714 0.0030514626 0.043061156 0.0032019885 0.043391936 0.99456859 -0.085950196
1329501886.7925 0.99293458 -0.09203741 0.0031041689 0.043429799 0.0032236222 0.043701008 0.9945358 -0.086917907
1339498113.2075 0.99269032 -0.092499435 0.0030899066 0.043724176 0.003262341 0.044046573 0.99415481 -0.087579906
1349494339.6226 0.99246794 -0.093099833 0.0031114728 0.044037849 0.0032383562 0.044331562 0.99379253 -0.088205948
1359490566.0377 0.99235207 -0.093641877 0.0031009931 0.044425875 0.0032332763 0.044739343 0.99356532 -0.088698655
1369486792.4528 0.9921546 -0.094240785 0.0030959519 0.044765674 0.0032587284 0.045073945 0.99341625 -0.089182436
1379483018.8679 0.99190742 -0.094783098 0.0031488668 0.045128047 0.0032500473 0.045412727 0.99345165 -0.089550182
1389479245.283 0.99160576 -0.095309198 0.0032062139 0.045511931 0.0032775607 0.045796148 0.99341279 -0.090210915
1399475471.6981 0.99115181 -0.09566319 0.0032053385 0.045826077 0.0033137556 0.046140812 0.99358439 -0.090858698
1409471698.1132 0.99083519 -0.09614864 0.0032519072 0.046262562 0.0033293734 0.046528082 0.99367499 -0.091694646
1419467924.5283 0.99061006 -0.096366704 0.0032657143 0.046615869 0.0033333711 0.046921436 0.99344146 -0.092406899
1429464150.9434 0.99053311 -0.096787453 0.0032974854 0.047020063 0.0034045 0.047311619 0.99336922 -0.092932373
1439460377.3585 0.9906497 -0.097296596 0.0033928053 0.047431018 0.0034760442 0.047725707 0.99310189 -0.093319073
1449456603.7736 0.99071461 -0.097832322 0.0035049058 0.047840528 0.0035751192 0.048137497 0.99299628 -0.093615085
1459452830.1887 0.99071395 -0.098513901 0.0036102869 0.048215006 0.0036508348 0.048546545 0.99313819 -0.093877733
1469449056.6038 0.99067706 -0.099163324 0.0037423456 0.0485566 0.0038416032 0.048862766 0.99336851 -0.094642967
1479445283.0189 0.99060649 -0.099725522 0.0038583791 0.048866943 0.0039384076 0.049156208 0.99337751 -0.095482647
1489441509.434 0.99047756 -0.10022861 0.0040265899 0.049210563 0.0040993262 0.049480401 0.99321175 -0.096292078
1499437735.8491 0.99032784 -0.10058096 0.0041467566 0.049439006 0.0042159893 0.049708463 0.99310637 -0.09709236
1509433962.2642 0.99031681 -0.10112111 0.0042148274 0.049723886 0.0042408183 0.050013039 0.99298286 -0.097862989
1519430188.6792 0.99045241 -0.10168856 0.0043211877 0.049995918 0.0043394659 0.050308526 0.99282485 -0.098418176
1529426415.0943 0.9903177 -0.10231352 0.0043025445 0.050278347 0.0043727513 0.05060618 0.99272096 -0.098866969
1539422641.5094 0.99035108 -0.10315736 0.0043882234 0.050568387 0.0043881917 0.050887004 0.99283642 -0.099312007
1549418867.9245 0.99019265 -0.10392521 0.004450405 0.050821137 0.0045117568 0.05118699 0.9931227 -0.10004145
1559415094.3396 0.9901228 -0.10468495 0.0045486204 0.05113034 0.0045287553 0.051505979 0.99321228 -0.10066992
1569411320.7547 0.98996949 -0.10534684 0.0045702811 0.051399305 0.0045716716 0.051769942 0.99313235 -0.10143763
1579407547.1698 0.9899531 -0.10583633 0.004551643 0.051656406 0.0046073757 0.052060049 0.99281496 -0.10233462
1589403773.5849 0.98991084 -0.1063799 0.0045467298 0.051959507 0.0046057161 0.05233264 0.99263287 -0.10306266
1599400000 0.98980755 -0.10685304 0.0045359982 0.052244935 0.0045452295 0.052667383 0.99218529 -0.10347161
1609396226.4151 0.98979342 -0.10753906 0.0045360406 0.052604735 0.0045419335 0.05299443 0.99195904 -0.10402846
1619392452.8302 0.98980063 -0.10815617 0.0045973249 0.052945666 0.0045532603 0.053300269 0.99195445 -0.10443062
1629388679.2453 0.98957431 -0.108852 0.0045922659 0.053253807 0.0045578759 0.053677127 0.99216628 -0.10493621
1639384905.6604 0.98930758 -0.10945225 0.0046091857 0.05363033 0.0045790016 0.054051239 0.99250728 -0.10586743
1649381132.0755 0.98915416 -0.11012894 0.0045725629 0.053967334 0.0046158247 0.05444121 0.99248499 -0.10670528
1659377358.4906 0.98898876 -0.11094594 0.004615007 0.054346368 0.0046548415 0.054804496 0.99252069 -0.10763323
1669373584.9057 0.98897409 -0.11135107 0.0046286862 0.054718748 0.0046759564 0.055197138 0.99213606 -0.1083157
1679369811.3208 0.98901987 -0.1120221 0.0047375048 0.055088416 0.0047362288 0.055533912 0.99194944 -0.10877827
1689366037.7358 0.98895663 -0.1126278 0.0048040878 0.055458743 0.0047574006 0.055918358 0.99180543 -0.10916418
1699362264.1509 0.98907912 -0.11316906 0.0048035942 0.055850416 0.0048182784 0.056310032 0.99205339 -0.10959342
1709358490.566 0.98898959 -0.113915 0.0048861923 0.05622457 0.0048669213 0.056672361 0.99194711 -0.11012112
1719354716.9811 0.98868364 -0.11450529 0.0049276967 0.056583744 0.0049494039 0.057058513 0.99204361 -0.11077148
