!Keysight Technologies,N5222B,MY61253708,A.15.00.15
!Date: Wednesday, June 19, 2024 09:16:23
!Correction: S11(C  2-Port  ) 
!S21(C  2-Port  ) 
!S12(C  2-Port  ) 
!S22(C  2-Port  ) 
!S2P File: Measurements: S11, S21, S12, S22:
# Hz S  RI   R 50
10000000 0.9986341 -0.0026528537 0.00017305864 0.00041899193 2.7587652e-005 0.00054391538 0.99838132 -0.0011504889
19996226.415094 0.99904704 -0.002173692 -5.3505064e-006 0.00075791148 -3.3344797e-005 0.00051123218 0.99915302 -0.0021617711
29992452.830189 0.99976212 -0.0023804605 -4.2773027e-006 0.0010193862 -2.9904768e-006 0.0010872034 0.99949455 -0.0026808381
39988679.245283 0.99999344 -0.0031098872 -5.5224373e-006 0.0013269238 -5.641341e-007 0.0014024785 0.99964589 -0.0031821579
49984905.660377 1.0001585 -0.0037535131 2.6374415e-005 0.0017296334 3.4906785e-005 0.0017516268 0.99982345 -0.0037355125
59981132.075472 1.0003209 -0.0046906471 3.9793842e-005 0.00203192 4.8564863e-005 0.0020505611 0.99979913 -0.0043432415
69977358.490566 1.0001414 -0.0052485056 2.3834182e-005 0.0023898042 4.3827109e-005 0.0024167602 0.99966991 -0.004885301
79973584.90566 0.99981493 -0.0058073103 -1.4036195e-005 0.0027371522 2.1323678e-005 0.0027510079 0.9993006 -0.0053647459
89969811.320755 0.99990976 -0.0060406029 -5.1649986e-006 0.0030343437 -1.6860431e-006 0.0031051151 0.99955237 -0.0056419969
99966037.735849 1.0000446 -0.0067464262 1.3905053e-005 0.0033779508 2.5474292e-005 0.0034255548 0.9995805 -0.006429866
109962264.15094 1.0000496 -0.0077105314 5.8721052e-006 0.0037426574 1.8703227e-005 0.0037599322 0.99960178 -0.0072618574
119958490.56604 1.0001576 -0.0086817741 5.0754752e-005 0.0040903073 2.3468165e-005 0.0041187298 0.99961901 -0.0081819594
129954716.98113 1.0000927 -0.0096766949 3.4235418e-005 0.0044149496 3.969227e-005 0.0044572079 0.99964249 -0.0091025829
139950943.39623 1.000002 -0.010471161 4.9735012e-005 0.0047593135 3.7916063e-005 0.0048078494 0.99953824 -0.0098577049
149947169.81132 0.99986535 -0.011171103 6.6773733e-005 0.0051153027 7.3356321e-005 0.0051417286 0.99947584 -0.010446429
159943396.22642 0.9997921 -0.011695713 7.1985414e-005 0.0054606306 5.8589503e-005 0.0054793223 0.99955153 -0.010909468
169939622.64151 0.99979818 -0.012112372 6.8999594e-005 0.0057798517 6.5427681e-005 0.0058190143 0.9996081 -0.011363186
179935849.0566 0.99987942 -0.012426853 6.9817412e-005 0.006125561 9.3437266e-005 0.0062123742 0.99957746 -0.011761606
189932075.4717 1.0000142 -0.013221085 6.3820975e-005 0.0064548301 8.0096535e-005 0.0065012798 0.99976325 -0.012357503
199928301.88679 0.99990749 -0.014054775 0.00011167326 0.006783057 0.00010562595 0.0068722023 0.99962169 -0.013288319
209924528.30189 0.99972212 -0.014662221 0.0001058901 0.0071379654 0.00011586305 0.0071992832 0.99942809 -0.013996318
219920754.71698 0.99979132 -0.015553445 0.00013756705 0.0074717579 0.00013370835 0.0075210771 0.9992584 -0.014680624
229916981.13208 0.999479 -0.016488224 0.0001312918 0.0078093358 0.00011372427 0.0078878216 0.99919814 -0.015470296
239913207.54717 0.99938679 -0.017127423 0.0001547978 0.0081436234 0.00013442436 0.0082199713 0.99917001 -0.016162556
249909433.96226 0.99936217 -0.017730713 0.00014679437 0.0084881634 0.00016677706 0.0085695777 0.99924994 -0.016756654
259905660.37736 0.99959576 -0.018287778 0.00015081419 0.0088393316 0.00010412093 0.0088967672 0.99945217 -0.017337352
269901886.79245 0.99961591 -0.018918693 0.00021038088 0.0091316942 0.00018898712 0.0092499135 0.99977309 -0.018040493
279898113.20755 0.99981183 -0.019587651 0.0001304762 0.009492835 0.00019477471 0.0096329022 0.99962944 -0.018817663
289894339.62264 0.99975479 -0.020439088 0.000238623 0.0098690484 0.0001561502 0.0098970793 0.99958056 -0.019600958
299890566.03774 0.99961525 -0.020855725 0.00024262397 0.010170974 0.00021427311 0.010232821 0.9993602 -0.020055324
309886792.45283 0.99942046 -0.021518305 0.00021695497 0.010494397 0.00026047888 0.010616109 0.99919534 -0.020531349
319883018.86792 0.99938369 -0.022199035 0.00022575771 0.010848388 0.00021078484 0.010986294 0.99930918 -0.02107352
329879245.28302 0.99936169 -0.022932172 0.00025276793 0.011205656 0.0002701818 0.011267671 0.99927747 -0.021799028
339875471.69811 0.99920416 -0.023613371 0.00031380984 0.011507124 0.00025507121 0.011618166 0.99935812 -0.022613488
349871698.11321 0.99938816 -0.024511904 0.00033783936 0.011892206 0.00030016084 0.011977037 0.99941707 -0.023561686
359867924.5283 0.99928552 -0.025367379 0.00030368008 0.012225167 0.00033120206 0.012300851 0.99927312 -0.024474829
369864150.9434 0.99946284 -0.026078373 0.00035158731 0.012565423 0.00032716431 0.012682671 0.99929076 -0.025143385
379860377.35849 0.99941415 -0.02686739 0.0003702424 0.012886576 0.00036014989 0.012995481 0.99926931 -0.025902286
389856603.77358 0.99941397 -0.027379841 0.00035819085 0.013227301 0.00039221579 0.013366467 0.99918437 -0.026321262
399852830.18868 0.99911463 -0.028058529 0.00040312903 0.013598248 0.00039263768 0.013680584 0.99924517 -0.026853889
409849056.60377 0.99913728 -0.028527172 0.00037480862 0.01389112 0.00038094912 0.014048459 0.99918514 -0.027278202
419845283.01887 0.99907261 -0.028824955 0.00042588357 0.014267541 0.00041666906 0.014356412 0.99924278 -0.027814925
429841509.43396 0.99922705 -0.029655248 0.00043335836 0.014580149 0.00045769103 0.014713224 0.99942541 -0.028640509
439837735.84906 0.99910778 -0.030432254 0.00047197391 0.014935805 0.00048015418 0.015040625 0.99922448 -0.029618293
449833962.26415 0.99908513 -0.03142795 0.00048598228 0.015245115 0.00047585089 0.015342923 0.99889636 -0.030463219
459830188.67925 0.99892914 -0.032109886 0.00050466741 0.015571909 0.00047788536 0.015682029 0.99860811 -0.031236053
469826415.09434 0.99894583 -0.032940835 0.00049158977 0.015924681 0.00049653137 0.016055085 0.9984324 -0.031777024
479822641.50943 0.99883389 -0.033547029 0.00055497745 0.016274875 0.00049658306 0.016426247 0.99844033 -0.032210059
489818867.92453 0.99888682 -0.034016788 0.00053768931 0.016621035 0.00055100117 0.016762175 0.99878371 -0.032684445
499815094.33962 0.99899077 -0.034518093 0.00059073837 0.01695318 0.00058984524 0.017105088 0.99900293 -0.03333649
509811320.75472 0.99902821 -0.035144009 0.00062601775 0.017293306 0.00060111645 0.017385023 0.99920654 -0.034196332
519807547.16981 0.99900073 -0.035689771 0.00065697357 0.017584482 0.0006385115 0.017748069 0.99917221 -0.034965694
529803773.58491 0.99887228 -0.036274552 0.00065991376 0.017974306 0.00065500196 0.018118985 0.99883115 -0.035593629
539800000 0.9989931 -0.037068769 0.00073136273 0.018261088 0.00069148187 0.018481521 0.99872053 -0.036213771
549796226.41509 0.99875849 -0.03794986 0.00067774486 0.018640488 0.00072382018 0.018819122 0.99849278 -0.036730766
559792452.83019 0.99857521 -0.038599342 0.00069106091 0.018974654 0.00073112547 0.01916999 0.99847591 -0.037263691
569788679.24528 0.99833888 -0.03933993 0.00071934378 0.019334713 0.00076014688 0.019491078 0.99858677 -0.038001686
579784905.66038 0.99833977 -0.03988234 0.00077985646 0.019671135 0.00080692407 0.019843221 0.99865305 -0.038664274
589781132.07547 0.99856341 -0.040598243 0.00076565053 0.020008147 0.00076891202 0.020203272 0.99878216 -0.039662927
599777358.49057 0.99857819 -0.041316628 0.00082508475 0.020402998 0.00083309319 0.020527545 0.99888825 -0.040442109
609773584.90566 0.99879825 -0.042078122 0.00086685352 0.020672109 0.00083447108 0.020847162 0.99869537 -0.041273952
619769811.32075 0.99888837 -0.042738527 0.00091032451 0.020999979 0.00092969788 0.021185189 0.9986186 -0.041875213
629766037.73585 0.99864018 -0.043399453 0.00093834288 0.021320539 0.00094575714 0.021476803 0.99847686 -0.042342961
639762264.15094 0.99841166 -0.044020578 0.00095761265 0.021626925 0.00093762483 0.021780588 0.99834597 -0.042828456
649758490.56604 0.99835348 -0.04466036 0.00095307082 0.021970021 0.00096974429 0.022156898 0.99838221 -0.043216273
659754716.98113 0.99815828 -0.0450975 0.00099275168 0.022325929 0.00099768583 0.022534652 0.99842024 -0.043849379
669750943.39623 0.99815136 -0.045639932 0.0010021143 0.022697257 0.0010172632 0.02288295 0.99857497 -0.044629395
679747169.81132 0.99822837 -0.046507336 0.0010616119 0.023028724 0.0010558355 0.023233851 0.99844575 -0.045639955
689743396.22642 0.99833286 -0.04733485 0.0010956768 0.023378145 0.0011244528 0.02357626 0.99829757 -0.046643436
699739622.64151 0.99841237 -0.04812035 0.001120056 0.023704736 0.0011543967 0.023894884 0.99816132 -0.047339052
709735849.0566 0.99843246 -0.048916608 0.001153264 0.024012228 0.0012150644 0.024248945 0.99799073 -0.047965698
719732075.4717 0.99830222 -0.049691319 0.0011820151 0.024319377 0.0012144544 0.024515832 0.99804735 -0.048486412
729728301.88679 0.99821854 -0.050164551 0.0012535267 0.02467078 0.0012518605 0.02489816 0.99809456 -0.048948973
739724528.30189 0.99806941 -0.050788522 0.0012949822 0.024966018 0.0012416467 0.025215486 0.99826992 -0.049636558
749720754.71698 0.99796695 -0.051381826 0.0013322681 0.025339136 0.0013133879 0.025566448 0.99832648 -0.050336674
759716981.13208 0.9980557 -0.051870555 0.0013518846 0.025656736 0.0013594357 0.025911864 0.99824929 -0.051181376
769713207.54717 0.99797124 -0.052668631 0.0013870811 0.025995951 0.0013415543 0.026234375 0.99800622 -0.051882327
779709433.96226 0.99811453 -0.053218871 0.0013963471 0.026333647 0.0013984162 0.02655758 0.9977318 -0.052597944
789705660.37736 0.9980377 -0.054120541 0.0014795493 0.026633263 0.0014046859 0.026850654 0.99744666 -0.05325073
799701886.79245 0.99797475 -0.055000007 0.0014812732 0.026976166 0.0014640745 0.02720974 0.99737018 -0.053821087
809698113.20755 0.99790871 -0.055616319 0.0014905506 0.027327275 0.0014929401 0.027572719 0.99739468 -0.054260358
819694339.62264 0.9976995 -0.05623275 0.0015231734 0.02763319 0.0015582414 0.027860377 0.99745655 -0.054949522
829690566.03774 0.99769628 -0.056871384 0.0015509678 0.027933855 0.0015810085 0.028221972 0.9977634 -0.055776894
839686792.45283 0.99781817 -0.057380259 0.0015941346 0.028289458 0.0016122339 0.028561957 0.99788731 -0.056621581
849683018.86792 0.99788964 -0.058021717 0.0016232971 0.028649332 0.0016590084 0.028881926 0.99771971 -0.057447359
859679245.28302 0.99784887 -0.058758348 0.0016792202 0.02896696 0.0016990509 0.029171541 0.99737465 -0.058116347
869675471.69811 0.99777174 -0.059509307 0.0017465195 0.029287742 0.0017050672 0.029562151 0.99704379 -0.058628798
879671698.11321 0.99772251 -0.060172666 0.0017445104 0.029594759 0.0017721902 0.02985163 0.99704331 -0.059050009
889667924.5283 0.99757636 -0.06096682 0.0017882986 0.029933181 0.001814967 0.030192368 0.9969269 -0.059537321
899664150.9434 0.99727273 -0.061741412 0.0017921776 0.030218761 0.0018025627 0.030538339 0.99691659 -0.060164571
909660377.35849 0.99728918 -0.062417865 0.0018206979 0.030561527 0.0018415083 0.030864688 0.99710131 -0.061083466
919656603.77358 0.99745119 -0.063095734 0.0018304447 0.03091388 0.0018509566 0.031194409 0.99711978 -0.062000841
929652830.18868 0.99741095 -0.063871711 0.0018930947 0.031245559 0.0019139089 0.031512063 0.99691164 -0.062833577
939649056.60377 0.99754608 -0.064463794 0.0018909704 0.031569667 0.0019038897 0.031834345 0.99678606 -0.063632905
949645283.01887 0.99754667 -0.065329731 0.0019066472 0.031901885 0.0019335273 0.032195341 0.99655807 -0.064131334
959641509.43396 0.99753356 -0.066019148 0.0019291425 0.03229491 0.0019353172 0.032565486 0.99641395 -0.064650029
969637735.84906 0.99738717 -0.066738844 0.0019841883 0.032595392 0.0020159325 0.032907601 0.99649459 -0.064978868
979633962.26415 0.99721742 -0.06746991 0.0020797513 0.032927241 0.0020524957 0.033235244 0.99649841 -0.065660819
989630188.67925 0.99720526 -0.067979604 0.0020979568 0.033262253 0.0021087667 0.033571534 0.99677366 -0.066269606
999626415.09434 0.99727786 -0.068586439 0.0020935778 0.033609405 0.0021610111 0.033904873 0.99667215 -0.067133099
1009622641.5094 0.99734789 -0.069354683 0.0021462711 0.033950057 0.0021669399 0.034263916 0.99645537 -0.068033591
1019618867.9245 0.99738634 -0.07018134 0.0022069174 0.034269582 0.0022607413 0.034583937 0.99624413 -0.068865076
1029615094.3396 0.99741614 -0.071205884 0.0022483058 0.034588911 0.0023046676 0.034904569 0.99584973 -0.069449067
1039611320.7547 0.99740767 -0.072069705 0.0023090281 0.034922015 0.0023380443 0.035210691 0.99579293 -0.07018587
1049607547.1698 0.99721235 -0.072937556 0.0023246498 0.035187628 0.0023385533 0.035559747 0.99582797 -0.070654556
1059603773.5849 0.99711192 -0.07357651 0.0023526652 0.035472911 0.0023952974 0.03582757 0.99579823 -0.071190894
1069600000 0.99687874 -0.074222237 0.0023574699 0.035826612 0.0024367999 0.036185674 0.99597788 -0.071956992
1079596226.4151 0.99684906 -0.074891366 0.0023830687 0.036151607 0.0024385387 0.036510222 0.99594688 -0.072725989
1089592452.8302 0.99680984 -0.075554907 0.0024069184 0.036488988 0.0024734074 0.0368727 0.99588531 -0.073519796
1099588679.2453 0.99692571 -0.076217234 0.0024020746 0.036832929 0.0024660397 0.037176736 0.99547464 -0.074135274
1109584905.6604 0.99702358 -0.077062488 0.0024608579 0.037191514 0.0025186436 0.037531063 0.99531651 -0.074688792
1119581132.0755 0.99694675 -0.078031614 0.0024651643 0.037539549 0.0025670049 0.037886798 0.99504101 -0.075166643
1129577358.4906 0.99680185 -0.078903735 0.0025089309 0.037897248 0.0025818963 0.038252868 0.9949683 -0.075586081
1139573584.9057 0.99654377 -0.079786688 0.0025767842 0.038223259 0.0026506335 0.038610339 0.99506694 -0.076265752
1149569811.3208 0.99637681 -0.080627918 0.0026268826 0.038561285 0.0026807587 0.03891762 0.99522382 -0.077018671
1159566037.7358 0.99618649 -0.08131367 0.0026621195 0.038906772 0.0027517527 0.039262854 0.99526149 -0.078053385
1169562264.1509 0.9960376 -0.082005382 0.0026689637 0.039184924 0.0027415231 0.039573938 0.99509287 -0.078838378
1179558490.566 0.99593765 -0.082677796 0.0026912862 0.039560053 0.0027983375 0.039962027 0.99501324 -0.079586148
1189554716.9811 0.99601316 -0.083494663 0.0027505849 0.039922066 0.0028595105 0.04027503 0.99472743 -0.08009696
1199550943.3962 0.99593699 -0.084251225 0.0027511567 0.040287815 0.0029092636 0.040625677 0.99443722 -0.080609828
1209547169.8113 0.99576247 -0.085208565 0.0028342288 0.040597264 0.0029560514 0.040947173 0.99437457 -0.080826819
1219543396.2264 0.99550176 -0.086011201 0.0028682332 0.040954936 0.0029848143 0.041327085 0.9944073 -0.081218749
1229539622.6415 0.99533951 -0.086881965 0.0029655788 0.041311376 0.0030450225 0.041684814 0.99458361 -0.081988752
1239535849.0566 0.99503869 -0.087614596 0.0030062608 0.041615143 0.0031511262 0.042003036 0.99474227 -0.082918227
1249532075.4717 0.99473298 -0.088202685 0.0030480986 0.041969478 0.0032044703 0.042329717 0.99459267 -0.083720542
1259528301.8868 0.99452883 -0.088796079 0.0030941609 0.042326272 0.0032714773 0.042624462 0.99432862 -0.084683836
1269524528.3019 0.9943471 -0.089505106 0.0032099225 0.042639136 0.0033107679 0.042924836 0.99405879 -0.085310102
1279520754.717 0.99393904 -0.090218186 0.0032383318 0.042898152 0.0033696173 0.043232042 0.99377942 -0.085868172
1289516981.1321 0.99382997 -0.091067165 0.0032399194 0.043200608 0.0034197504 0.043531042 0.99391031 -0.086295336
1299513207.5472 0.99344736 -0.091904223 0.0032539926 0.043521997 0.0033885278 0.04385639 0.99395716 -0.08669883
1309509433.9623 0.99307609 -0.092558041 0.0032822341 0.043831982 0.0034177369 0.044192143 0.99403316 -0.087464586
1319505660.3774 0.99268806 -0.093389213 0.003281136 0.044168249 0.0034509134 0.04449119 0.99413389 -0.088055611
1329501886.7925 0.99229765 -0.094006956 0.0033278577 0.044544797 0.0034640338 0.044813544 0.99406719 -0.089004934
1339498113.2075 0.99199468 -0.094474494 0.0033378983 0.044858914 0.0034777485 0.045150399 0.99363995 -0.089665383
1349494339.6226 0.99179775 -0.095030546 0.0033058678 0.045209564 0.0034316047 0.045493495 0.99330574 -0.090335369
1359490566.0377 0.9918015 -0.095747411 0.0033298079 0.045574546 0.0034857802 0.04588148 0.99306929 -0.09097901
1369486792.4528 0.99165332 -0.096300662 0.0033394713 0.045924887 0.0034725796 0.046225339 0.99286366 -0.091382414
1379483018.8679 0.9912321 -0.096842974 0.0033362042 0.046295714 0.00352398 0.046594452 0.99285883 -0.091747306
1389479245.283 0.99089503 -0.097376496 0.0034175236 0.046680003 0.0035512149 0.046964526 0.99290162 -0.092488378
1399475471.6981 0.99049938 -0.097728014 0.0034264028 0.047062472 0.0035587717 0.047339659 0.99309826 -0.093044698
1409471698.1132 0.99016756 -0.098119847 0.0034754786 0.047425665 0.0035823875 0.047707822 0.99308664 -0.093993537
1419467924.5283 0.99001533 -0.098473758 0.0035101473 0.047798991 0.0035973284 0.048092779 0.9929167 -0.094608933
1429464150.9434 0.98981559 -0.098849237 0.0035493951 0.04820117 0.0036627334 0.048466325 0.99279034 -0.095211685
1439460377.3585 0.98999262 -0.099362284 0.003645137 0.048690725 0.0037285173 0.048971053 0.99253571 -0.095561847
1449456603.7736 0.98999864 -0.099859685 0.003734204 0.049094103 0.0038266722 0.049337268 0.99242038 -0.095913604
1459452830.1887 0.99003416 -0.10062012 0.0039006937 0.049460046 0.0039707944 0.049779084 0.99253231 -0.096256673
1469449056.6038 0.99006951 -0.10131165 0.0040693702 0.049814962 0.0041083796 0.050122954 0.9928081 -0.096904844
1479445283.0189 0.98994952 -0.10189547 0.0042068502 0.050130203 0.0042066406 0.050425045 0.99286169 -0.097834945
1489441509.434 0.98981118 -0.10239285 0.0043370873 0.050413314 0.0043795537 0.050762177 0.9927159 -0.098657817
1499437735.8491 0.98964673 -0.10271975 0.0044085849 0.050686076 0.0044829715 0.051034875 0.99259937 -0.099444479
1509433962.2642 0.98970538 -0.10324422 0.0045360127 0.050985724 0.0045488272 0.051320978 0.99244434 -0.10016591
1519430188.6792 0.98975515 -0.10387161 0.0045515355 0.05123511 0.0046037305 0.051609427 0.99233127 -0.10079986
1529426415.0943 0.9896791 -0.10443723 0.004636813 0.051538326 0.00467843 0.051891319 0.99216783 -0.10121074
1539422641.5094 0.9897747 -0.1053047 0.0046654609 0.051875424 0.0047405162 0.052170563 0.9923296 -0.10172021
1549418867.9245 0.98949075 -0.10614119 0.0047542173 0.052149691 0.0047574891 0.05247755 0.99255139 -0.10243498
1559415094.3396 0.98944926 -0.10676289 0.0048418492 0.052444845 0.0048207529 0.052817453 0.99265337 -0.1031777
1569411320.7547 0.98928785 -0.10752696 0.0048663104 0.052668545 0.004870466 0.053124975 0.99248099 -0.10394262
1579407547.1698 0.98923028 -0.10799162 0.0048894859 0.053026382 0.0048928633 0.053380765 0.992203 -0.10468091
1589403773.5849 0.98912311 -0.10855034 0.004895566 0.05330218 0.0048791207 0.053707063 0.99191713 -0.10542569
1599400000 0.98914051 -0.10903457 0.0048414283 0.053611372 0.0048626661 0.053962991 0.99159211 -0.10593647
1609396226.4151 0.98910713 -0.10980114 0.0048926035 0.053924825 0.0048640594 0.054312717 0.99137896 -0.10652774
1619392452.8302 0.98906159 -0.11047694 0.0048775915 0.054259825 0.0048969928 0.054682966 0.99141318 -0.10692948
1629388679.2453 0.98877412 -0.11114827 0.0048734844 0.054623373 0.0049083941 0.055047531 0.99160647 -0.10748574
1639384905.6604 0.98865539 -0.11169918 0.0049194372 0.054971289 0.0049098269 0.055394951 0.99178755 -0.10834634
1649381132.0755 0.98823917 -0.11245486 0.0049101934 0.055346068 0.004938174 0.055812918 0.9918009 -0.10924864
1659377358.4906 0.98826528 -0.11318865 0.0049326904 0.055771008 0.0049626958 0.056173228 0.99179101 -0.11012763
1669373584.9057 0.98811328 -0.11367781 0.0049924464 0.056106966 0.0050243875 0.056572452 0.991436 -0.11071999
1679369811.3208 0.98813176 -0.1142996 0.0050406763 0.056494053 0.0050563328 0.056955494 0.99121553 -0.11130846
1689366037.7358 0.9881717 -0.11503613 0.0051178783 0.056900457 0.0050846562 0.057319622 0.99112344 -0.11157221
1699362264.1509 0.98831093 -0.11554174 0.0051529976 0.057273228 0.0051202318 0.057730488 0.99130642 -0.11207892
1709358490.566 0.98817724 -0.11628017 0.0052541569 0.057648994 0.0051891785 0.058125824 0.99133396 -0.11258999
1719354716.9811 0.9879356 -0.11690879 0.0053048581 0.058020614 0.0053033028 0.058518231 0.99135613 -0.11348355
