!Keysight Technologies,N5222B,MY61253708,A.15.00.15
!Date: Wednesday, June 19, 2024 09:20:42
!Correction: S11(C  2-Port  ) 
!S21(C  2-Port  ) 
!S12(C  2-Port  ) 
!S22(C  2-Port  ) 
!S2P File: Measurements: S11, S21, S12, S22:
# Hz S  RI   R 50
10000000 0.99868309 -0.0024920702 0.00015949461 0.00051627721 0.00024632181 0.00026695867 0.99840009 -0.00081771612
19996226.415094 0.99914432 -0.0021019876 0.0001417005 0.00072482286 2.9084069e-005 0.00068319112 0.9990111 -0.002355814
29992452.830189 0.99974102 -0.0024323761 -2.4197536e-005 0.0010634523 5.2145915e-005 0.0011063922 0.99946606 -0.0026632249
39988679.245283 0.99999458 -0.003056854 -6.2621257e-007 0.0013939774 -6.6215725e-006 0.0013722903 0.99958175 -0.0031462461
49984905.660377 1.0001229 -0.0037957132 2.2803084e-005 0.0016738795 -2.6551774e-005 0.0016984578 0.99971557 -0.0037620962
59981132.075472 1.0003165 -0.0047309995 3.8123166e-005 0.0020246631 4.2864121e-006 0.002055336 0.99968493 -0.0043730438
69977358.490566 1.0001009 -0.0052521937 4.1832682e-005 0.00237626 -3.6124897e-005 0.0024250117 0.99962044 -0.0048767868
79973584.90566 0.99986094 -0.0057956874 2.0052539e-005 0.0026946724 2.743525e-005 0.0027251816 0.99934363 -0.0054093599
89969811.320755 0.99984169 -0.0060231388 3.8467697e-005 0.0030718665 8.2016923e-006 0.0030567637 0.99949706 -0.0056971312
99966037.735849 1.000111 -0.0067500323 1.8224819e-005 0.0033832714 1.9879604e-005 0.0034308387 0.99950463 -0.0064684749
109962264.15094 1.0000927 -0.0076180547 5.1704992e-005 0.0037254756 2.1398126e-005 0.0037640356 0.99954617 -0.007291466
119958490.56604 1.0001417 -0.0085995197 3.9169099e-005 0.0040687853 3.2245414e-005 0.0040989849 0.99958032 -0.0082270205
129954716.98113 1.0000764 -0.0095976293 4.5466004e-005 0.0043955282 4.9083494e-005 0.0044373013 0.99953818 -0.0091364682
139950943.39623 0.99999857 -0.010431482 3.8066311e-005 0.0047286167 5.7495097e-005 0.0047932947 0.99947548 -0.0098903198
149947169.81132 0.99987113 -0.011104137 5.4242788e-005 0.0050826594 6.7598419e-005 0.0051204432 0.99941719 -0.010479808
159943396.22642 0.99981946 -0.011679709 6.2982086e-005 0.0054005962 5.7591591e-005 0.0054656817 0.99949569 -0.010938048
169939622.64151 0.99983269 -0.012016729 6.7589513e-005 0.0057657086 7.2489725e-005 0.0058076298 0.99957621 -0.011415444
179935849.0566 0.99984854 -0.012314022 0.00010080694 0.0060961568 9.7013661e-005 0.0061410572 0.9994722 -0.011815786
189932075.4717 1 -0.013090342 8.1254635e-005 0.0064194952 0.00011211284 0.0064945295 0.99964261 -0.012401819
199928301.88679 0.99995494 -0.01394406 9.0368791e-005 0.0067547066 9.3189534e-005 0.006835483 0.99955946 -0.013325393
209924528.30189 0.99963623 -0.014629826 0.00011732441 0.0071125682 0.00011579541 0.0071754665 0.99933982 -0.01402925
219920754.71698 0.99968719 -0.015466869 0.00012432854 0.0074489946 0.00014304672 0.0075041866 0.99923778 -0.014709681
229916981.13208 0.99946606 -0.016320348 0.00012220466 0.0077867839 0.00010270812 0.0078563876 0.99916261 -0.015493661
239913207.54717 0.99937356 -0.016995281 0.00013717517 0.0081141945 0.00012271678 0.0081699742 0.99909896 -0.016257927
249909433.96226 0.99943948 -0.017628193 0.00016818615 0.0084660277 0.00014454592 0.0085220402 0.99919772 -0.01682356
259905660.37736 0.99947816 -0.018176705 0.00017826771 0.0088087814 0.00021114806 0.0088642584 0.99935913 -0.017428726
269901886.79245 0.99963969 -0.018871814 0.00019837881 0.009135507 0.00018246111 0.009225456 0.99980724 -0.018108264
279898113.20755 0.99981815 -0.019449368 0.00021701888 0.0094602201 0.00016104826 0.0095454929 0.99966836 -0.018845811
289894339.62264 0.99961603 -0.020282835 0.00020559644 0.0097982753 0.00020355359 0.0098871645 0.99945849 -0.019681841
299890566.03774 0.99973708 -0.020836651 0.00020296872 0.010136161 0.00022811792 0.010222387 0.9991976 -0.020061374
309886792.45283 0.9993903 -0.021446899 0.00022862852 0.010466198 0.00022029469 0.010574708 0.99905849 -0.020523414
319883018.86792 0.9992885 -0.022120476 0.00026040664 0.010795083 0.00026486767 0.010912051 0.99916625 -0.021058321
329879245.28302 0.99931085 -0.022813857 0.00034343358 0.011149057 0.00026340177 0.011262907 0.99927449 -0.021823347
339875471.69811 0.99928337 -0.023485981 0.00025152846 0.011553817 0.0002859449 0.01159874 0.99919569 -0.022624113
349871698.11321 0.99938881 -0.02444604 0.00029360619 0.011815425 0.00027595228 0.011950385 0.99923539 -0.023582697
359867924.5283 0.99928069 -0.025249243 0.00030024536 0.01219825 0.00029747095 0.012288563 0.99920613 -0.024478525
369864150.9434 0.99951106 -0.026013345 0.00033056759 0.012521477 0.00035433564 0.012617325 0.99916995 -0.02527824
379860377.35849 0.99940181 -0.026648596 0.00034406409 0.012873464 0.00035626115 0.012913978 0.99911255 -0.025924534
389856603.77358 0.99936509 -0.027348101 0.00035748212 0.013227819 0.0004003006 0.013284685 0.99915278 -0.026346058
399852830.18868 0.99905407 -0.027938128 0.00040957378 0.013503775 0.00039363885 0.013618526 0.99913853 -0.026841879
409849056.60377 0.99911511 -0.028315643 0.00044191163 0.013851523 0.00043338721 0.013928685 0.99918872 -0.02730562
419845283.01887 0.99902165 -0.028832227 0.00039976183 0.014192068 0.00040993094 0.014329477 0.99922562 -0.027796745
429841509.43396 0.99916244 -0.029451907 0.00045106141 0.014528137 0.00048193149 0.014668919 0.99938571 -0.028560251
439837735.84906 0.99905521 -0.030375928 0.00045779499 0.014860588 0.00052277115 0.014972665 0.99922425 -0.029647022
449833962.26415 0.99891078 -0.031163663 0.0004491373 0.015156908 0.00045076711 0.015299168 0.99891782 -0.030507088
459830188.67925 0.99877906 -0.03194204 0.0004603425 0.015531114 0.00047238823 0.015632104 0.99868602 -0.031256318
469826415.09434 0.998752 -0.032772809 0.00050473493 0.015883662 0.00048070587 0.01595344 0.99846786 -0.031841666
479822641.50943 0.99866474 -0.033252321 0.00052785315 0.016191803 0.0005347745 0.016360726 0.99845576 -0.032339759
489818867.92453 0.99882329 -0.033909857 0.00055104401 0.016526423 0.00055161817 0.016674377 0.99880445 -0.032845348
499815094.33962 0.99881172 -0.034540474 0.00055949157 0.016855907 0.00061064074 0.01701748 0.99913704 -0.03353554
509811320.75472 0.99884802 -0.034856465 0.00056936458 0.017177338 0.00058080081 0.017324476 0.99921066 -0.034372207
519807547.16981 0.99888593 -0.035506278 0.00062894821 0.017574979 0.00062065618 0.017695151 0.9992218 -0.035101295
529803773.58491 0.99885666 -0.036055356 0.00064649526 0.017871531 0.00063792523 0.018018577 0.99888927 -0.035668254
539800000 0.99889749 -0.036765113 0.00060448539 0.01821262 0.00065958407 0.018422574 0.99873322 -0.036445901
549796226.41509 0.99871242 -0.037592649 0.00072625512 0.018567597 0.00071260054 0.01871497 0.99857116 -0.036914349
559792452.83019 0.99850643 -0.038418382 0.00066494197 0.018896963 0.00072462391 0.019090358 0.99848449 -0.037475497
569788679.24528 0.99839973 -0.039046824 0.00070828618 0.019227551 0.00074254675 0.019394452 0.99855578 -0.038170815
579784905.66038 0.99830014 -0.039694473 0.00076704251 0.019562919 0.00078426569 0.019745974 0.99877167 -0.038926743
589781132.07547 0.9984479 -0.04032883 0.00081897341 0.01992042 0.00080061425 0.020092497 0.9988519 -0.039794832
599777358.49057 0.99856615 -0.040907502 0.00083793607 0.020232812 0.00081273913 0.020445786 0.99885762 -0.040623993
609773584.90566 0.99875343 -0.041699499 0.00088334829 0.020583561 0.00091461214 0.020808442 0.9986884 -0.04147058
619769811.32075 0.99880731 -0.042434245 0.00089150993 0.020928152 0.00089269225 0.021085333 0.99863237 -0.042040944
629766037.73585 0.99864584 -0.043055952 0.00095395651 0.02126112 0.00093793217 0.021393187 0.99836946 -0.042552948
639762264.15094 0.99846029 -0.043690979 0.00094172941 0.021549331 0.00094737485 0.021724723 0.99830937 -0.043039337
649758490.56604 0.99833483 -0.04430972 0.0009383047 0.021881597 0.00097733643 0.022060044 0.99826747 -0.043437362
659754716.98113 0.99815989 -0.044843137 0.00095954724 0.022229947 0.00095857121 0.022420552 0.99840522 -0.044058263
669750943.39623 0.99819034 -0.045295089 0.0010251808 0.022585204 0.0010211412 0.022777043 0.99843496 -0.044899821
679747169.81132 0.99822664 -0.046060003 0.0010230199 0.02294099 0.0010459789 0.023133392 0.9984321 -0.045819417
689743396.22642 0.99836397 -0.0469428 0.0011123884 0.023247119 0.0010827519 0.023472691 0.99826753 -0.046748847
699739622.64151 0.9984436 -0.04774195 0.0011223331 0.023574576 0.0011250284 0.023792475 0.99812186 -0.047474235
709735849.0566 0.99841958 -0.048603915 0.0011682562 0.023900684 0.0011762984 0.02413193 0.99789852 -0.048012227
719732075.4717 0.99822867 -0.049340785 0.0012126341 0.024234654 0.0011792709 0.024448926 0.99793863 -0.048693776
729728301.88679 0.99822962 -0.049792677 0.0012455564 0.024588112 0.0012420956 0.024763066 0.99799597 -0.049096882
739724528.30189 0.9980886 -0.050489545 0.0012622187 0.024914181 0.0012719324 0.025114842 0.99819469 -0.049825877
749720754.71698 0.99796122 -0.05104515 0.0013339566 0.025233086 0.0013105161 0.025440736 0.9982149 -0.050578356
759716981.13208 0.99797559 -0.051551253 0.0013205139 0.025556255 0.0013055084 0.025788747 0.99813819 -0.051271528
769713207.54717 0.99795753 -0.05229792 0.0013603233 0.025886906 0.0013616532 0.026118558 0.99789339 -0.052005887
779709433.96226 0.99810141 -0.053017054 0.0014289714 0.026195753 0.0013765169 0.026417902 0.99770588 -0.052617092
789705660.37736 0.99805903 -0.053909242 0.0014172727 0.026557568 0.0014552111 0.026772771 0.99746221 -0.053377151
799701886.79245 0.99795985 -0.05470252 0.0014858423 0.02684202 0.0014916444 0.027067542 0.99728894 -0.05395025
809698113.20755 0.99787098 -0.055315107 0.0014896472 0.027182197 0.0014797235 0.027442444 0.99744958 -0.054494172
819694339.62264 0.99770755 -0.055993915 0.0015190491 0.027503317 0.0015123794 0.027790569 0.99749207 -0.055063844
829690566.03774 0.99766964 -0.056595206 0.0015565148 0.027815633 0.0015604245 0.02811547 0.99770021 -0.055940628
839686792.45283 0.9977442 -0.057059705 0.001577781 0.028176367 0.0015922906 0.028407646 0.99777442 -0.05683291
849683018.86792 0.99782902 -0.057633258 0.0016260995 0.028513474 0.0016141795 0.028747449 0.99771291 -0.057521015
859679245.28302 0.99791145 -0.058399409 0.0016490621 0.028851889 0.0016529663 0.029077221 0.99735636 -0.058252841
869675471.69811 0.9977451 -0.059151262 0.0017322805 0.029174661 0.0017112913 0.029410116 0.99709094 -0.058741122
879671698.11321 0.99766469 -0.059886061 0.0017617454 0.029464519 0.0017626893 0.029725483 0.99701595 -0.059179638
889667924.5283 0.9974364 -0.06069085 0.0017426442 0.029764274 0.0018018065 0.030084515 0.99691188 -0.059713423
899664150.9434 0.99728823 -0.061387509 0.0018012105 0.030111931 0.0018085735 0.030392285 0.99691343 -0.060376227
909660377.35849 0.99729836 -0.061994135 0.0018348852 0.030426025 0.0018310226 0.030728854 0.99713004 -0.061272562
919656603.77358 0.99736422 -0.062715277 0.0018299343 0.030757129 0.0018553562 0.031069176 0.99714708 -0.06214723
929652830.18868 0.99740791 -0.063502461 0.0018950952 0.031093273 0.0018824404 0.031386219 0.99693978 -0.063057691
939649056.60377 0.9975875 -0.064043045 0.0018700846 0.031423725 0.0018986361 0.031730171 0.99674702 -0.063815206
949645283.01887 0.997486 -0.064966828 0.0018815654 0.031766642 0.0018942626 0.032047782 0.99651629 -0.06431663
959641509.43396 0.99749869 -0.065629512 0.0019278144 0.032131776 0.0019581178 0.032447498 0.99650347 -0.064845234
969637735.84906 0.99738204 -0.066381574 0.0019820826 0.032481413 0.0020094151 0.032780264 0.9965055 -0.065235347
979633962.26415 0.99720627 -0.067112252 0.0020188093 0.032782093 0.0020668437 0.033076551 0.99651802 -0.065866686
989630188.67925 0.99720627 -0.067654043 0.0020634653 0.033113904 0.0020900518 0.033439051 0.99664569 -0.066498816
999626415.09434 0.99723935 -0.068258107 0.0021082815 0.033445559 0.0021161046 0.033765581 0.9966768 -0.067292094
1009622641.5094 0.99729335 -0.06888704 0.0021153288 0.033798628 0.0021610204 0.03411071 0.99641001 -0.068244785
1019618867.9245 0.99736321 -0.069763988 0.0021861354 0.034098942 0.0022366839 0.034447379 0.99619687 -0.069087237
1029615094.3396 0.99736333 -0.070746303 0.0022448339 0.034433644 0.0023028664 0.034776691 0.99584681 -0.069671571
1039611320.7547 0.99740958 -0.071597219 0.0022755433 0.034755379 0.0023251716 0.035079096 0.995776 -0.070366234
1049607547.1698 0.99720335 -0.072440527 0.0023183981 0.035032649 0.002341348 0.035386458 0.99575943 -0.070923835
1059603773.5849 0.99705827 -0.073259383 0.0023364816 0.035344481 0.0023738146 0.035677336 0.99579322 -0.07148084
1069600000 0.9968546 -0.073794186 0.0023423899 0.03568919 0.0024078339 0.036021039 0.99588305 -0.072236925
1079596226.4151 0.99680883 -0.074498944 0.0023790933 0.036018353 0.002440874 0.036358122 0.99589849 -0.072977014
1089592452.8302 0.99682868 -0.07511875 0.002398327 0.036345221 0.0024304138 0.036732383 0.99585754 -0.073707849
1099588679.2453 0.99689674 -0.075762302 0.0024247859 0.036668263 0.0024725217 0.037046298 0.9954533 -0.074300319
1109584905.6604 0.99704427 -0.076662645 0.0024334686 0.037032157 0.0024899114 0.037367277 0.99522984 -0.074871108
1119581132.0755 0.99699044 -0.077674404 0.0024408814 0.037379306 0.0025321892 0.037742563 0.99507982 -0.07535468
1129577358.4906 0.99675691 -0.078369796 0.0024894848 0.037740942 0.0025687069 0.038093008 0.99485803 -0.075798333
1139573584.9057 0.99650586 -0.079300851 0.0025162976 0.03805916 0.0026485911 0.03842992 0.99502885 -0.076448202
1149569811.3208 0.99640501 -0.080186963 0.0025939988 0.038416047 0.0027021591 0.038782645 0.99510235 -0.07733959
1159566037.7358 0.99616718 -0.080799043 0.0026566992 0.038739227 0.0027129194 0.039107513 0.99526155 -0.078314602
1169562264.1509 0.99603915 -0.081508666 0.0026213732 0.039025687 0.0027282126 0.03938945 0.9950754 -0.079049706
1179558490.566 0.99598074 -0.082318276 0.0026209531 0.039388929 0.0027447941 0.039778214 0.99494702 -0.079746515
1189554716.9811 0.99601066 -0.082926631 0.0026998604 0.039752789 0.0028047441 0.040091876 0.99466383 -0.080281466
1199550943.3962 0.99590313 -0.083868444 0.0027563367 0.040129162 0.0028619748 0.040473253 0.99448484 -0.080737948
1209547169.8113 0.99571979 -0.0847397 0.0027952762 0.040458564 0.0029114308 0.0408016 0.99440753 -0.08107169
1219543396.2264 0.99556726 -0.085617587 0.0028368239 0.040803201 0.0029504169 0.041185129 0.99444598 -0.081487238
1229539622.6415 0.99519992 -0.086422592 0.0029090066 0.041146852 0.0030136462 0.041527238 0.99454463 -0.08213523
1239535849.0566 0.99493825 -0.087062657 0.0029816069 0.041455224 0.0031259181 0.041786369 0.99475449 -0.083147734
1249532075.4717 0.99473679 -0.087781131 0.0030196407 0.041773923 0.0031707443 0.042115372 0.99452686 -0.083956406
1259528301.8868 0.9944517 -0.088268906 0.003068272 0.042116031 0.0032336228 0.042455867 0.99425423 -0.084874511
1269524528.3019 0.99430394 -0.089020818 0.0031709131 0.042430192 0.0033172593 0.042772576 0.99402976 -0.085553825
1279520754.717 0.99395233 -0.08972872 0.0031958499 0.042725198 0.003341283 0.043062821 0.99372548 -0.086088128
1289516981.1321 0.99378264 -0.090463638 0.0032014204 0.042974725 0.0033654552 0.043354627 0.99384815 -0.086505055
1299513207.5472 0.99344254 -0.091361672 0.003269868 0.043354467 0.0033630356 0.043664012 0.9939059 -0.08691749
1309509433.9623 0.99307179 -0.092094555 0.0032608276 0.043675717 0.0034256326 0.043981802 0.99406666 -0.087643921
1319505660.3774 0.99268883 -0.092855349 0.0032782555 0.044001024 0.0034212042 0.044335991 0.99408466 -0.088374004
1329501886.7925 0.99237239 -0.093527585 0.0032649245 0.044297591 0.003440626 0.044631734 0.99403387 -0.089317828
1339498113.2075 0.99208581 -0.094075888 0.0033040131 0.044683233 0.003458512 0.044950027 0.99356169 -0.089968055
1349494339.6226 0.99189115 -0.094591483 0.0032813358 0.045026567 0.0034206989 0.045306318 0.99324512 -0.090647243
1359490566.0377 0.99186265 -0.095265776 0.0033300482 0.045346223 0.0034625474 0.045687255 0.99304044 -0.091143131
1369486792.4528 0.99165708 -0.095711619 0.0033305669 0.045738563 0.0034643859 0.046036948 0.99282026 -0.091621488
1379483018.8679 0.99127561 -0.096308589 0.0033602337 0.046110954 0.0034569718 0.046386704 0.99285245 -0.091971628
1389479245.283 0.99102038 -0.096863896 0.0033775121 0.046504509 0.0035003703 0.046780683 0.99286091 -0.092645556
1399475471.6981 0.99052614 -0.097248435 0.0034254007 0.046853103 0.0035126116 0.047114108 0.99303567 -0.093348801
1409471698.1132 0.99021655 -0.097605847 0.0034837585 0.047243446 0.0035445651 0.047509797 0.99304855 -0.094228894
1419467924.5283 0.99002337 -0.09790659 0.0034395875 0.047574896 0.003597144 0.047908444 0.99290323 -0.094905287
1429464150.9434 0.98996466 -0.098316163 0.0035044663 0.048008777 0.0035989564 0.048291035 0.99270225 -0.095433831
1439460377.3585 0.99003565 -0.098827779 0.0036005126 0.048477788 0.0036733169 0.048700221 0.99248332 -0.095725998
1449456603.7736 0.99001843 -0.099330619 0.0037352806 0.048882447 0.0037971288 0.049168032 0.99232394 -0.096107066
1459452830.1887 0.99014866 -0.10003757 0.0038758162 0.049311072 0.003921276 0.049570221 0.99248761 -0.096447796
1469449056.6038 0.99011564 -0.10077763 0.0040462799 0.049597062 0.0040645553 0.049911272 0.99273127 -0.097112715
1479445283.0189 0.98999739 -0.1013801 0.0041355873 0.049920302 0.0041726585 0.050228972 0.99276096 -0.098036617
1489441509.434 0.98989093 -0.10193208 0.0042893309 0.0502005 0.0043152329 0.050548777 0.99252701 -0.098945051
1499437735.8491 0.9897393 -0.10222965 0.0043938104 0.050488196 0.0044374745 0.050801657 0.99251807 -0.099744707
1509433962.2642 0.9896841 -0.1027611 0.0045006792 0.050781168 0.0045116916 0.051096931 0.99229825 -0.10045975
1519430188.6792 0.98978055 -0.10325795 0.0045690611 0.05104807 0.0045745354 0.051389068 0.99217916 -0.10100123
1529426415.0943 0.98976374 -0.10390595 0.0046171229 0.051325537 0.0046305396 0.05167323 0.99216211 -0.10145405
1539422641.5094 0.9898231 -0.10468874 0.0046622125 0.05165612 0.0046772608 0.051968701 0.99221432 -0.1020045
1549418867.9245 0.98960471 -0.10552637 0.0047251685 0.051940896 0.0047423476 0.052261282 0.99239999 -0.10266469
1559415094.3396 0.98954386 -0.10624355 0.0048091672 0.052227125 0.0047526434 0.052555144 0.99253362 -0.10335648
1569411320.7547 0.98936814 -0.1070216 0.004819639 0.052492771 0.00481389 0.052833442 0.99249172 -0.10412283
1579407547.1698 0.98922491 -0.10754703 0.004835322 0.052786812 0.0048586135 0.053144518 0.99204969 -0.10501084
1589403773.5849 0.98912251 -0.10806957 0.0048599467 0.05311919 0.0048545543 0.053449079 0.99184936 -0.10580772
1599400000 0.98920691 -0.10857835 0.0048605911 0.053378038 0.0048799887 0.053776346 0.99144655 -0.10620257
1609396226.4151 0.98917127 -0.10924976 0.0048499322 0.053711478 0.004820209 0.054077409 0.99137574 -0.10664184
1619392452.8302 0.98911345 -0.10980311 0.00486237 0.054043595 0.0048453361 0.054454811 0.99129754 -0.10715008
1629388679.2453 0.98894954 -0.11048982 0.0048680697 0.05443237 0.0048179775 0.054787602 0.99155343 -0.10768467
1639384905.6604 0.98864722 -0.11129692 0.0048911772 0.054780465 0.0048685283 0.055212319 0.99173737 -0.10860772
1649381132.0755 0.98839027 -0.11186084 0.0048876461 0.055125803 0.0048993789 0.055572122 0.99170011 -0.10948876
1659377358.4906 0.98824966 -0.11260313 0.0049250219 0.055546343 0.0049359966 0.055910833 0.99162006 -0.1103856
1669373584.9057 0.98818833 -0.11309554 0.0049205353 0.055921517 0.0049511422 0.056336407 0.99132693 -0.11099824
1679369811.3208 0.98825049 -0.11381516 0.0049850866 0.056264732 0.0050108992 0.056699064 0.99106634 -0.1115233
1689366037.7358 0.98827535 -0.1144017 0.0050552692 0.056674384 0.005021235 0.057067275 0.99094641 -0.11194113
1699362264.1509 0.98835385 -0.11508393 0.0050814487 0.05706694 0.005099209 0.057509631 0.99109989 -0.11229248
1709358490.566 0.98830342 -0.11568233 0.0051847827 0.057396609 0.0051510641 0.057904046 0.99118024 -0.11285703
1719354716.9811 0.98801142 -0.11627132 0.0052388944 0.057796501 0.0052092914 0.058254562 0.99118459 -0.11355117
1729350943.3962 0.98771048 -0.11690781 0.0052905437 0.058181103 0.0053083785 0.058679912 0.99124444 -0.11445594
