!Keysight Technologies,N5222B,MY61253708,A.15.00.15
!Date: Wednesday, June 19, 2024 09:36:08
!Correction: S11(C  2-Port  ) 
!S21(C  2-Port  ) 
!S12(C  2-Port  ) 
!S22(C  2-Port  ) 
!S2P File: Measurements: S11, S21, S12, S22:
# Hz S  RI   R 50
10000000 0.99880743 -0.0026798844 -2.6515641e-005 0.00030373549 -0.00019801212 1.0238735e-005 0.99906248 -0.0011252463
19996226.415094 0.99879217 -0.0025325418 2.4275971e-005 0.00064941519 7.1557966e-005 0.00057415816 0.99896121 -0.0026829243
29992452.830189 0.99966329 -0.0024050474 1.1157128e-005 0.00098798412 1.6343809e-005 0.0010228811 0.9995507 -0.0026324987
39988679.245283 0.99996644 -0.0030705929 3.8272352e-005 0.0013611594 -2.6153371e-005 0.0014002053 0.99969095 -0.0030770451
49984905.660377 1.0001472 -0.0037095845 -6.1634346e-006 0.0016762622 2.9113144e-005 0.0016624827 0.99982941 -0.0036254823
59981132.075472 1.0003138 -0.0045581758 8.0770114e-006 0.0020086833 1.933967e-005 0.0020281577 0.99976349 -0.0042027235
69977358.490566 1.0001031 -0.0051701479 -5.4830052e-006 0.0023296622 4.971791e-005 0.0023636529 0.99971193 -0.004717486
79973584.90566 0.99984163 -0.0058101416 1.7632847e-005 0.0026758057 -4.8999209e-007 0.0026745261 0.99938375 -0.00524351
89969811.320755 0.99986863 -0.0059278905 -6.2680338e-006 0.0029751768 -5.0883973e-006 0.0030108448 0.99957287 -0.0054838359
99966037.735849 1.0000504 -0.0066572428 3.7080084e-005 0.0033007413 2.0302541e-005 0.0033437524 0.99966687 -0.0062910169
109962264.15094 1.0001152 -0.0075534582 5.7344791e-005 0.0036715383 3.1060656e-005 0.0036828024 0.99963665 -0.0070825368
119958490.56604 1.0001421 -0.0085068941 5.0141243e-005 0.0039739795 3.1953445e-005 0.0040086419 0.99967945 -0.0079343319
129954716.98113 1.0000482 -0.0094466209 5.0854287e-005 0.004317678 4.4830726e-005 0.0043619806 0.99965787 -0.0088527203
139950943.39623 1.0000196 -0.010280417 5.854074e-005 0.0046545682 4.3338907e-005 0.0046963124 0.9995963 -0.0095846374
149947169.81132 0.99991667 -0.010952413 4.3096486e-005 0.0050061229 3.6633806e-005 0.0050279032 0.99954724 -0.010210574
159943396.22642 0.99983996 -0.011474192 6.7210756e-005 0.0053135185 6.7565357e-005 0.0053572804 0.99962288 -0.01064232
169939622.64151 0.99981916 -0.01188489 8.6981745e-005 0.0056604017 6.3457352e-005 0.0057089911 0.99967045 -0.011096686
179935849.0566 0.99991101 -0.012097657 8.2845683e-005 0.0059548728 6.2665786e-005 0.0060230787 0.99955803 -0.011461914
189932075.4717 0.99999607 -0.012889564 6.0188584e-005 0.0063114329 7.1570277e-005 0.0063817818 0.99978149 -0.012016386
199928301.88679 0.99992228 -0.013755888 0.0001130189 0.0066434857 9.8877121e-005 0.0067037707 0.9997021 -0.01294741
209924528.30189 0.99964201 -0.014334902 8.3931605e-005 0.006954724 0.00011068629 0.0070350291 0.99944049 -0.013639301
219920754.71698 0.9997443 -0.015146285 8.8609522e-005 0.0073045697 0.00010361383 0.0073738685 0.99929988 -0.014270127
229916981.13208 0.99957263 -0.01596874 0.00012962241 0.0076234653 0.00012325589 0.0077204141 0.99924541 -0.015047133
239913207.54717 0.99944592 -0.016738186 0.00013845098 0.0079768412 0.00013048355 0.0080363434 0.99924701 -0.015752209
249909433.96226 0.99944425 -0.017334491 0.00013801455 0.0082914783 0.00015433878 0.0083713904 0.99935484 -0.016393811
259905660.37736 0.99955785 -0.017926484 0.00013900734 0.0086552827 0.00012018019 0.008748021 0.99958217 -0.016889602
269901886.79245 0.99967009 -0.018639907 0.00010556134 0.008963394 0.00013788301 0.0090207104 0.99985546 -0.017655507
279898113.20755 0.99976462 -0.019209996 0.00022531603 0.0093023833 0.0001815306 0.0093569076 0.99971759 -0.01843451
289894339.62264 0.99972296 -0.020104021 0.00020815758 0.0096465535 0.00017738761 0.0097381976 0.99960124 -0.019130886
299890566.03774 0.99967778 -0.020534039 0.00019608601 0.009962623 0.00020673242 0.010025227 0.99941319 -0.019554526
309886792.45283 0.99940687 -0.021019377 0.00021016039 0.010295241 0.00026327081 0.010373889 0.99931979 -0.020074084
319883018.86792 0.99953997 -0.021650314 0.00022339262 0.010639219 0.00024465984 0.010677921 0.99947864 -0.020507485
329879245.28302 0.99940884 -0.022408694 0.00025126897 0.010947428 0.00022794912 0.011029309 0.99949646 -0.021278113
339875471.69811 0.99933016 -0.023226731 0.00030251546 0.011276335 0.00027166051 0.011413346 0.99935871 -0.02209229
349871698.11321 0.99949336 -0.024127781 0.00028979685 0.011623421 0.00028251228 0.01172256 0.99939543 -0.022993296
359867924.5283 0.99934572 -0.024894804 0.00027139625 0.01192489 0.00030135224 0.012063579 0.99933529 -0.023926377
369864150.9434 0.99952817 -0.025595903 0.00028502243 0.012245207 0.00032372074 0.012385582 0.99940646 -0.024602264
379860377.35849 0.9994027 -0.026240066 0.0002995187 0.012615556 0.00032899389 0.012711682 0.99929988 -0.025296763
389856603.77358 0.99928272 -0.026768714 0.0003622896 0.012900566 0.00037729973 0.013052149 0.9992559 -0.025820732
399852830.18868 0.99913359 -0.027504921 0.00036451174 0.013254814 0.00036679627 0.013376429 0.99934959 -0.026316673
409849056.60377 0.99915314 -0.027973991 0.00043717321 0.013558229 0.00038964179 0.013688765 0.99933219 -0.02674745
419845283.01887 0.99906003 -0.028346866 0.00039058458 0.013919005 0.00038234564 0.013999909 0.99930513 -0.027231842
429841509.43396 0.99926698 -0.029046476 0.00042362185 0.014225849 0.00040969159 0.01437155 0.99941874 -0.028069526
439837735.84906 0.9991433 -0.029946506 0.00043495791 0.0145751 0.00046565384 0.014735844 0.99926424 -0.029013202
449833962.26415 0.99904507 -0.030754864 0.00043797167 0.014876818 0.00047572562 0.015043649 0.99878055 -0.029858798
459830188.67925 0.99886739 -0.031437576 0.00043749763 0.015220435 0.00046577165 0.015363561 0.99865443 -0.030548483
469826415.09434 0.99887866 -0.032316923 0.0005000052 0.01557728 0.0004674159 0.015733002 0.99837923 -0.031081915
479822641.50943 0.99880439 -0.032900363 0.00050885743 0.015898202 0.00051031029 0.016051607 0.99846953 -0.031462096
489818867.92453 0.99891454 -0.033347011 0.00052514812 0.016214848 0.00054319343 0.016427066 0.99876535 -0.032026261
499815094.33962 0.99904257 -0.033987015 0.00056781527 0.016558465 0.00057080295 0.016717553 0.99905527 -0.03258121
509811320.75472 0.99899256 -0.034443133 0.00059404183 0.016906796 0.0006056861 0.017056338 0.9992156 -0.033361942
519807547.16981 0.99900872 -0.035012603 0.0006113397 0.017180791 0.00056262501 0.017386511 0.99914593 -0.034152895
529803773.58491 0.99899888 -0.035576671 0.00056665391 0.01758052 0.00059452932 0.01769287 0.99888515 -0.034689605
539800000 0.99896735 -0.03627722 0.00059081474 0.017891571 0.00063210586 0.01802762 0.99879521 -0.035238937
549796226.41509 0.9988113 -0.037192017 0.00066313474 0.018204004 0.00064176554 0.018386725 0.9986223 -0.035846293
559792452.83019 0.99858379 -0.037793964 0.0006277971 0.01854079 0.00066120084 0.018711109 0.99852037 -0.03633374
569788679.24528 0.99845135 -0.038536042 0.00068428228 0.018855836 0.00071519241 0.019057445 0.99865997 -0.037047416
579784905.66038 0.99845773 -0.039139867 0.00068971794 0.019223748 0.00068735704 0.019375719 0.99878842 -0.037814327
589781132.07547 0.99850953 -0.039720654 0.00073148031 0.019502446 0.00073737558 0.019753868 0.99886453 -0.038719386
599777358.49057 0.99865586 -0.040441483 0.00077150483 0.019884355 0.0007937979 0.020032167 0.99894059 -0.039431274
609773584.90566 0.99886245 -0.041085504 0.0007916399 0.020248272 0.00083826063 0.020375915 0.99879539 -0.04037106
619769811.32075 0.99889618 -0.041894287 0.00084617781 0.020529198 0.0008754353 0.020701559 0.99884313 -0.040872157
629766037.73585 0.99872935 -0.042408198 0.00089855585 0.02079758 0.00089690648 0.021005716 0.99858117 -0.041431516
639762264.15094 0.99853492 -0.043146506 0.00088591571 0.021141021 0.00090663601 0.02134414 0.99843913 -0.041808754
649758490.56604 0.99842024 -0.043724358 0.00091513759 0.021461735 0.00092334813 0.021646462 0.99846572 -0.042263716
659754716.98113 0.99830854 -0.044136465 0.00097394735 0.021846127 0.00095079001 0.022003816 0.99857223 -0.042833656
669750943.39623 0.99823123 -0.044722617 0.00096001057 0.022195337 0.00091619696 0.022369089 0.99861526 -0.043647736
679747169.81132 0.9982633 -0.045541644 0.00097519846 0.0225056 0.00097268238 0.022710245 0.99862331 -0.044581495
689743396.22642 0.99841708 -0.046327591 0.00104261 0.02281991 0.0010235254 0.023064302 0.99839699 -0.045585066
699739622.64151 0.9985342 -0.047089517 0.001076676 0.023177985 0.001058816 0.023386249 0.99832416 -0.046242416
709735849.0566 0.99859577 -0.047924221 0.0011181585 0.023488905 0.0011536049 0.02367896 0.9981004 -0.046912245
719732075.4717 0.99836123 -0.048637033 0.0011369088 0.023805063 0.001141272 0.024022264 0.99811494 -0.047389269
729728301.88679 0.99834013 -0.049095124 0.0011508511 0.024091344 0.0012019249 0.024343438 0.99824643 -0.04791522
739724528.30189 0.99819529 -0.049829364 0.00119515 0.024456298 0.0012265746 0.024668273 0.99841505 -0.048615381
749720754.71698 0.99813169 -0.050327346 0.0012416379 0.024759794 0.0012675119 0.024960449 0.99841535 -0.049271032
759716981.13208 0.99820483 -0.050865948 0.001263096 0.02512289 0.0012839781 0.025307698 0.99842381 -0.050038457
769713207.54717 0.99808002 -0.051558137 0.0012868298 0.025415897 0.0013033887 0.025630396 0.99818039 -0.050780684
779709433.96226 0.9983415 -0.052205697 0.0013180084 0.025735758 0.0013359116 0.025980372 0.99790788 -0.051418819
789705660.37736 0.99811453 -0.053110659 0.00135577 0.026055992 0.0013678381 0.02627557 0.9976176 -0.052159429
799701886.79245 0.9981373 -0.053990275 0.0013734102 0.0263808 0.0013957405 0.026630979 0.99751115 -0.052714497
809698113.20755 0.99801797 -0.054482654 0.0014437886 0.026696041 0.0014384866 0.02694854 0.99758965 -0.053145573
819694339.62264 0.99783808 -0.055125356 0.0014273995 0.027005615 0.0014372547 0.027242303 0.99769169 -0.053740501
829690566.03774 0.99791449 -0.055719376 0.0014830651 0.027325649 0.0014750399 0.027608488 0.99793506 -0.054651976
839686792.45283 0.99790508 -0.056254178 0.0015044678 0.027649043 0.0015505501 0.027919639 0.99797189 -0.055488884
849683018.86792 0.9980185 -0.056877233 0.0015396313 0.027997378 0.0015517201 0.028251786 0.99785888 -0.056137398
859679245.28302 0.99795836 -0.05759728 0.0015797447 0.028280266 0.0015579555 0.028579779 0.99756211 -0.056826741
869675471.69811 0.99801093 -0.058462977 0.0015913993 0.028652569 0.0016048653 0.028880253 0.99722952 -0.057319969
879671698.11321 0.99785602 -0.058989741 0.0016297058 0.028935414 0.0016670264 0.029205978 0.99722236 -0.05773519
889667924.5283 0.99778914 -0.059820592 0.0016677435 0.029236712 0.0016984334 0.029539071 0.99706483 -0.058216035
899664150.9434 0.99760067 -0.060571671 0.0016929414 0.029578406 0.0016938793 0.029856354 0.9970541 -0.058862388
909660377.35849 0.99754155 -0.061100349 0.0016894075 0.029890573 0.0017409003 0.030169157 0.99728972 -0.05975315
919656603.77358 0.99760228 -0.061852694 0.0017743125 0.030225588 0.0017674612 0.030519249 0.99727827 -0.060623258
929652830.18868 0.99761516 -0.062561214 0.0017897235 0.030508889 0.0017862236 0.030794632 0.99707258 -0.061528474
939649056.60377 0.99778372 -0.063232064 0.0017784145 0.030851617 0.0017881431 0.031138612 0.99691981 -0.062235504
949645283.01887 0.99772066 -0.064072132 0.001796279 0.03117908 0.0018108049 0.031465933 0.99672973 -0.062679097
959641509.43396 0.99765795 -0.064741343 0.0018189754 0.03154644 0.0018385071 0.031840853 0.99663806 -0.063298047
969637735.84906 0.99759829 -0.065460682 0.0019056844 0.031892702 0.0019414173 0.032182299 0.99667019 -0.063544631
979633962.26415 0.99741602 -0.066184402 0.0019295355 0.032222468 0.0019317679 0.032499403 0.99670976 -0.064233668
989630188.67925 0.99746138 -0.066651583 0.0019675689 0.032529715 0.0020073215 0.032861292 0.99690819 -0.064834058
999626415.09434 0.99752784 -0.067364693 0.001993211 0.032853216 0.0020152032 0.03318993 0.99683756 -0.065666437
1009622641.5094 0.99741548 -0.067965135 0.0020251935 0.03319798 0.0020483145 0.033519864 0.99668717 -0.066534013
1019618867.9245 0.99757075 -0.068825975 0.0020575966 0.033516262 0.0021332721 0.033858586 0.996436 -0.067341432
1029615094.3396 0.99752569 -0.069758564 0.0021275925 0.033827327 0.0021773307 0.034115981 0.99605703 -0.067909837
1039611320.7547 0.99756384 -0.070599705 0.0021847263 0.034110133 0.0022140974 0.034430154 0.99600494 -0.068603486
1049607547.1698 0.99752164 -0.071528964 0.0021994184 0.034406945 0.0022329923 0.034766685 0.99602884 -0.069148839
1059603773.5849 0.99730015 -0.072160363 0.0022149179 0.034706257 0.0022539068 0.035067998 0.99605411 -0.0697276
1069600000 0.99713278 -0.07285893 0.0022205282 0.03501866 0.0022677854 0.035383265 0.99620825 -0.070343018
1079596226.4151 0.99707341 -0.073520042 0.0022325064 0.035328411 0.0022866037 0.03569277 0.99617672 -0.07118085
1089592452.8302 0.99714756 -0.074164093 0.0022722157 0.035670836 0.0023411205 0.036046464 0.99617177 -0.071855724
1099588679.2453 0.99707562 -0.074834287 0.0022909399 0.035994612 0.0023552123 0.036364693 0.99575257 -0.072527051
1109584905.6604 0.99731946 -0.075630322 0.00230553 0.036361653 0.0023742747 0.036685806 0.99550402 -0.07316637
1119581132.0755 0.99727488 -0.076575741 0.0023025456 0.03668623 0.0023910259 0.037067119 0.99536514 -0.073546976
1129577358.4906 0.99706453 -0.077434659 0.0023787525 0.037047938 0.0024437718 0.03740558 0.99516296 -0.073931783
1139573584.9057 0.99682975 -0.078261614 0.0024243193 0.037399769 0.0024621086 0.037757725 0.99541956 -0.074635476
1149569811.3208 0.99665326 -0.079147115 0.0024709657 0.037718222 0.0025527389 0.038083605 0.9954682 -0.075358175
1159566037.7358 0.99645925 -0.079769105 0.0024856525 0.037995972 0.0025928766 0.038366526 0.99558091 -0.076318145
1169562264.1509 0.99631834 -0.080400914 0.0024936367 0.038311623 0.0025878716 0.038692784 0.99542099 -0.077117443
1179558490.566 0.99639469 -0.081230663 0.0025433456 0.03869753 0.0026081395 0.039127845 0.99532586 -0.077936172
1189554716.9811 0.99627519 -0.081944317 0.002554697 0.039052971 0.0026712557 0.039415948 0.99502391 -0.078396082
1199550943.3962 0.99625105 -0.082783371 0.0025852825 0.039390121 0.0027408134 0.039728422 0.99483919 -0.07879889
1209547169.8113 0.99601895 -0.08360447 0.0026382282 0.039709121 0.0027621305 0.040065639 0.99473357 -0.079131767
1219543396.2264 0.99588042 -0.084432498 0.0027122144 0.040098809 0.0028011841 0.040436663 0.99474144 -0.079568222
1229539622.6415 0.99553895 -0.085271865 0.00279212 0.040415354 0.0028657466 0.040771782 0.99494666 -0.080236197
1239535849.0566 0.99533325 -0.085955024 0.0028190808 0.040729124 0.0029791081 0.04110105 0.99510217 -0.081107467
1249532075.4717 0.99509078 -0.08657939 0.002860853 0.041039839 0.0030249653 0.041390635 0.99493903 -0.08194159
1259528301.8868 0.99482989 -0.087090611 0.0029175524 0.041384514 0.0030574743 0.041686825 0.99466753 -0.082851559
1269524528.3019 0.99463725 -0.087877274 0.0029894169 0.041680679 0.0031323936 0.041982032 0.9944486 -0.083487183
1279520754.717 0.99433362 -0.088546857 0.00303512 0.04196604 0.0031872147 0.042288039 0.99415231 -0.084019877
1289516981.1321 0.99410629 -0.089429021 0.0030542882 0.042258918 0.003188163 0.042582609 0.99416494 -0.084494561
1299513207.5472 0.99383658 -0.090239793 0.0030862056 0.042576626 0.003222093 0.042916737 0.99438083 -0.084891498
1309509433.9623 0.99343145 -0.090854228 0.0030942056 0.04289519 0.0032428335 0.043200254 0.99445134 -0.085537896
1319505660.3774 0.99304932 -0.091665953 0.0030739745 0.043223917 0.0032244464 0.043542728 0.9944846 -0.086237088
1329501886.7925 0.99270952 -0.092273861 0.0030987021 0.043562666 0.0032573473 0.043841064 0.99443227 -0.087201595
1339498113.2075 0.99240935 -0.09289059 0.0031345049 0.043885462 0.0032758741 0.04417599 0.99412632 -0.087879628
1349494339.6226 0.99229139 -0.093390763 0.0031275633 0.044206709 0.0032551899 0.044525415 0.99376363 -0.088527709
1359490566.0377 0.99220473 -0.094023734 0.0031288136 0.044556696 0.003279727 0.044859715 0.99352318 -0.089018822
1369486792.4528 0.99203265 -0.094510257 0.0031605233 0.044891961 0.0032783439 0.045240276 0.99337703 -0.089522958
1379483018.8679 0.9916929 -0.095142469 0.0031901924 0.045275766 0.0032759295 0.04555149 0.9932822 -0.089830652
1389479245.283 0.99131256 -0.095613927 0.0032430124 0.045647882 0.0033374876 0.045962863 0.99336457 -0.090568095
1399475471.6981 0.99098808 -0.09598127 0.0032034591 0.046005514 0.003311811 0.046316944 0.99348217 -0.091173321
1409471698.1132 0.99064696 -0.096276864 0.0032462808 0.046394374 0.0034079358 0.04667734 0.99344891 -0.092051096
1419467924.5283 0.99039477 -0.09673509 0.003277286 0.046742309 0.003400417 0.047087774 0.99342537 -0.092663944
1429464150.9434 0.99029994 -0.097103417 0.0032832492 0.047156908 0.0034430828 0.047451757 0.99327362 -0.093205988
1439460377.3585 0.99046248 -0.097558036 0.0034421422 0.047630679 0.0035214266 0.047894366 0.99303156 -0.093595847
1449456603.7736 0.99045891 -0.098109975 0.0035415366 0.047987543 0.0036132131 0.048327286 0.99291086 -0.093963921
1459452830.1887 0.99049795 -0.098838657 0.0036614034 0.048398625 0.0037108529 0.048663978 0.99299771 -0.094209224
1469449056.6038 0.99050629 -0.099399894 0.0038013114 0.048759162 0.0038725454 0.049066443 0.99319398 -0.094923168
1479445283.0189 0.99031883 -0.10013908 0.0039570155 0.049033005 0.0040055132 0.049356688 0.99329025 -0.095823795
1489441509.434 0.99028319 -0.10054153 0.0040742289 0.049321398 0.0041340683 0.049670517 0.99323344 -0.09661901
1499437735.8491 0.99014401 -0.10091275 0.0041658692 0.049610507 0.0042579602 0.049957152 0.99308538 -0.097442299
1509433962.2642 0.99012262 -0.1014585 0.0042606858 0.049912181 0.0042929128 0.050189421 0.99286026 -0.098228835
1519430188.6792 0.99019992 -0.10202315 0.0043368526 0.050160225 0.0043586921 0.050453685 0.99280781 -0.098766118
1529426415.0943 0.99011219 -0.1026001 0.0043735188 0.050430913 0.0044025984 0.050765701 0.99270082 -0.099222988
1539422641.5094 0.99015909 -0.10347843 0.0044590686 0.050733373 0.0044667488 0.051068317 0.99273622 -0.099685729
1549418867.9245 0.99004126 -0.10427734 0.0045056995 0.051004078 0.0045116693 0.051360145 0.99296731 -0.10039319
1559415094.3396 0.98991215 -0.10492575 0.0045590568 0.051299982 0.0045817886 0.051650062 0.99317086 -0.10108781
1569411320.7547 0.98976111 -0.10562067 0.0045893965 0.051520847 0.0045468593 0.051954705 0.99304217 -0.10182394
1579407547.1698 0.98966384 -0.1061012 0.0045753648 0.051846661 0.0046148296 0.052241616 0.99269193 -0.10269175
1589403773.5849 0.98965353 -0.10680264 0.0046256986 0.052145883 0.0046398528 0.052562796 0.99251622 -0.1033729
1599400000 0.98966098 -0.10721168 0.0046103224 0.052424882 0.0046354057 0.05283444 0.99214339 -0.10380295
1609396226.4151 0.98956341 -0.10782363 0.0046004346 0.052783519 0.0045742653 0.053134769 0.99182862 -0.10436921
1619392452.8302 0.98953724 -0.10843045 0.0046322569 0.053064108 0.0046261474 0.053479102 0.99191248 -0.10474056
1629388679.2453 0.98936486 -0.10918999 0.0046758465 0.053452387 0.0045998711 0.053838361 0.99213147 -0.10533053
1639384905.6604 0.98912328 -0.10978297 0.0046337699 0.053797122 0.0046207532 0.054243259 0.99232543 -0.10617261
1649381132.0755 0.98889691 -0.11044094 0.0046516415 0.054177325 0.0046231933 0.054633841 0.99234807 -0.10703248
1659377358.4906 0.98879743 -0.11114207 0.0046915151 0.054554164 0.0046953261 0.055004429 0.99229395 -0.10797578
1669373584.9057 0.98872191 -0.11168001 0.004675264 0.054933537 0.0046940539 0.055341747 0.99206519 -0.10857368
1679369811.3208 0.98872691 -0.11234519 0.0047646519 0.055274058 0.0047433749 0.055724189 0.99185568 -0.10912776
1689366037.7358 0.98875439 -0.11295244 0.0047617164 0.055686735 0.0047859848 0.056118537 0.99162221 -0.10940498
1699362264.1509 0.98890865 -0.11354521 0.004878195 0.056045886 0.0048166309 0.056532655 0.99188673 -0.10991871
1709358490.566 0.98881441 -0.11426774 0.00490038 0.056419127 0.0049096653 0.056867998 0.99188262 -0.11038873
1719354716.9811 0.98851156 -0.11481971 0.0050003175 0.056760721 0.0050005727 0.057241499 0.99193239 -0.11117017
