!Keysight Technologies,N5222B,MY61253708,A.15.00.15
!Date: Wednesday, June 19, 2024 09:55:13
!Correction: S11(C  2-Port  ) 
!S21(C  2-Port  ) 
!S12(C  2-Port  ) 
!S22(C  2-Port  ) 
!S2P File: Measurements: S11, S21, S12, S22:
# Hz S  RI   R 50
10000000 0.99855602 -0.0024932623 0.00012209255 0.0006004101 0.00039176049 0.00066594075 0.99879777 -0.0012587011
19996226.415094 0.99977332 -0.0033946335 9.381678e-005 0.00071910722 7.3863572e-005 0.0006162608 1.0004361 -0.0031672716
29992452.830189 0.99970496 -0.0024922192 8.398114e-006 0.0010061094 7.9354679e-005 0.00096832193 0.99955219 -0.0025965571
39988679.245283 1.0000317 -0.0029890388 9.448966e-006 0.0013614981 1.2455115e-005 0.0013660593 0.9997502 -0.0030486882
49984905.660377 1.0001438 -0.003684938 2.0449515e-006 0.001686295 1.0410673e-005 0.0016591975 0.99987388 -0.003633678
59981132.075472 1.0003563 -0.0045208633 5.171349e-005 0.0020072004 1.3717916e-005 0.0020358132 0.99984187 -0.0041475892
69977358.490566 1.0001634 -0.0051541962 4.0348314e-005 0.0022902517 2.3491968e-005 0.0023377694 0.99976879 -0.0047133248
79973584.90566 0.99990571 -0.0057431757 1.8151593e-005 0.0026612107 -3.4965342e-006 0.0026182274 0.99942911 -0.0052108169
89969811.320755 0.99992353 -0.005871594 1.982809e-005 0.002959169 2.9460294e-005 0.0029894805 0.99962491 -0.0054067373
99966037.735849 1.0001473 -0.0065999478 4.5146502e-005 0.0032975534 4.7622598e-006 0.0033014477 0.99971646 -0.0062255859
109962264.15094 1.0001475 -0.0074842125 1.5877653e-005 0.0036228006 1.5105586e-005 0.0036587538 0.99972904 -0.0070439726
119958490.56604 1.0001808 -0.0083785951 2.1738582e-005 0.0039580958 3.7965016e-005 0.0039894264 0.99972332 -0.0078772902
129954716.98113 1.0001404 -0.0093355179 2.5152811e-005 0.0042889207 4.4194283e-005 0.0043182936 0.99973017 -0.0087642372
139950943.39623 1.0000826 -0.010080969 3.6912941e-005 0.0046228659 4.3203414e-005 0.0046437369 0.99966121 -0.0094779432
149947169.81132 0.99997652 -0.010778517 3.6244281e-005 0.0049482817 5.0409697e-005 0.0049721152 0.99961323 -0.010058582
159943396.22642 0.99988091 -0.011394948 5.6356657e-005 0.0052835564 6.6431938e-005 0.005299245 0.99968076 -0.010528505
169939622.64151 0.99984717 -0.011766613 3.5741192e-005 0.0056024729 5.9288868e-005 0.0056380373 0.99973315 -0.010986894
179935849.0566 0.99988317 -0.011983186 7.2794268e-005 0.0059021502 7.3139905e-005 0.005969814 0.99963957 -0.011373967
189932075.4717 1.0000668 -0.012803763 9.018858e-005 0.0062609129 7.5674383e-005 0.0063080764 0.99986774 -0.011896551
199928301.88679 0.99992639 -0.013561249 9.8366989e-005 0.006607594 0.00011219445 0.0066747246 0.99973023 -0.012834519
209924528.30189 0.99974459 -0.014131293 0.00013051904 0.006920374 8.0531812e-005 0.0069720373 0.99953258 -0.013467446
219920754.71698 0.99988639 -0.015005529 9.3576265e-005 0.0072429376 0.00011653244 0.0072822738 0.99943388 -0.014063269
229916981.13208 0.99965501 -0.015851587 0.0001196675 0.0076067843 9.244075e-005 0.0076451888 0.99943054 -0.014813721
239913207.54717 0.99954426 -0.01650943 0.00011399965 0.0079042837 0.00013064397 0.0079640262 0.99936545 -0.015569523
249909433.96226 0.99954081 -0.017188311 0.0001546843 0.0082253069 0.00013753748 0.0082843322 0.99944937 -0.016197681
259905660.37736 0.99957108 -0.017822176 0.00017594732 0.0086470535 0.00017512264 0.0085665546 0.99968791 -0.016756952
269901886.79245 0.99969512 -0.018400386 0.0001908436 0.008905801 0.00017171132 0.0089187967 0.99997157 -0.017391458
279898113.20755 0.99984407 -0.019148961 0.00016428321 0.0092280079 0.00018931599 0.0092634596 0.99979514 -0.01817672
289894339.62264 0.99974597 -0.01981315 0.00018974673 0.0095438762 0.00019444665 0.0096798949 0.99976933 -0.018938005
299890566.03774 0.99965382 -0.02039364 0.00020428235 0.0099210571 0.00018070475 0.0099520292 0.99949634 -0.019328088
309886792.45283 0.99954957 -0.020843722 0.0002370794 0.010191525 0.00015009439 0.010283363 0.99944156 -0.019803241
319883018.86792 0.99958825 -0.021481603 0.00022614747 0.010571521 0.00023712451 0.010627359 0.99961317 -0.0203453
329879245.28302 0.99963486 -0.022336334 0.00025473163 0.010894865 0.00023833103 0.010935757 0.99966085 -0.021059155
339875471.69811 0.99945503 -0.022991009 0.00025619671 0.011191778 0.00025721116 0.011288029 0.99959326 -0.021877937
349871698.11321 0.99962449 -0.023860306 0.00028463383 0.011509093 0.0002599915 0.011629714 0.99960482 -0.022765666
359867924.5283 0.99945855 -0.024610251 0.00029159151 0.011839762 0.00025504734 0.011958921 0.99953097 -0.023693264
369864150.9434 0.99957085 -0.025354981 0.00031046197 0.012153406 0.00030457252 0.012264684 0.9995504 -0.024356395
379860377.35849 0.99953651 -0.026054576 0.00031656888 0.01252669 0.00033421 0.01257931 0.9994719 -0.025075957
389856603.77358 0.99944383 -0.026638567 0.00035517756 0.012872974 0.00034823688 0.01291517 0.99947453 -0.025528878
399852830.18868 0.99922895 -0.027237833 0.00034417678 0.013207147 0.0003777137 0.013237164 0.99942011 -0.026048332
409849056.60377 0.99921483 -0.027767107 0.0003815605 0.013472613 0.00038158413 0.013536722 0.99942183 -0.026567841
419845283.01887 0.99922895 -0.02822578 0.00038820459 0.013834962 0.00039998908 0.0139265 0.99938786 -0.027080774
429841509.43396 0.99931747 -0.028853208 0.00041089021 0.014129395 0.00040639332 0.014215785 0.99955428 -0.027872384
439837735.84906 0.99914753 -0.02972737 0.00042999128 0.01448548 0.00044040009 0.014549886 0.99929738 -0.028792769
449833962.26415 0.99906963 -0.030464649 0.0004568384 0.014807619 0.00047151046 0.014864721 0.99891108 -0.029549479
459830188.67925 0.99889159 -0.031233996 0.00043522427 0.015132096 0.0004420504 0.015212663 0.99862814 -0.030292332
469826415.09434 0.998864 -0.031987906 0.00047216658 0.015502965 0.0004528542 0.015549424 0.99838066 -0.030771613
479822641.50943 0.9987458 -0.032494798 0.00048216945 0.015802031 0.00046812347 0.015898202 0.99845803 -0.031222634
489818867.92453 0.99882126 -0.033023119 0.00053768652 0.016104555 0.00052213157 0.016228262 0.99868852 -0.031697214
499815094.33962 0.99895877 -0.033656508 0.00054594316 0.016446743 0.00055931043 0.016520554 0.99895239 -0.032280892
509811320.75472 0.99893564 -0.034148239 0.00055118604 0.016785927 0.00056414027 0.016853658 0.9991017 -0.033010982
519807547.16981 0.99892604 -0.034721345 0.0005950043 0.017136242 0.00060746865 0.017170887 0.99905521 -0.033741504
529803773.58491 0.9988898 -0.035225034 0.0005924562 0.017439745 0.00059187878 0.017519422 0.99882412 -0.034261793
539800000 0.99901283 -0.035872206 0.0006037117 0.017791467 0.00058754859 0.017868146 0.99872702 -0.034885943
549796226.41509 0.99887705 -0.036803454 0.0006566667 0.018073481 0.00064808037 0.018174006 0.99863219 -0.035346955
559792452.83019 0.99874765 -0.037400275 0.00063073635 0.018421903 0.00065717939 0.018533777 0.99866515 -0.035873979
569788679.24528 0.9985221 -0.038132548 0.00068029342 0.018743554 0.00066995434 0.018842842 0.99873149 -0.036566317
579784905.66038 0.99849182 -0.03868781 0.00071096851 0.019058991 0.0007189305 0.019202985 0.99886513 -0.037390299
589781132.07547 0.99861538 -0.03937605 0.00075003877 0.019432349 0.00074020866 0.019549238 0.99890786 -0.038151532
599777358.49057 0.99869555 -0.039965987 0.00078908354 0.01974521 0.00078393333 0.019845694 0.99895072 -0.038948774
609773584.90566 0.99894369 -0.040746067 0.0007912782 0.020092977 0.0008094206 0.02016467 0.99885225 -0.039801493
619769811.32075 0.9989354 -0.041413695 0.0008524661 0.020391054 0.00084562972 0.020488489 0.99878132 -0.040339172
629766037.73585 0.99880707 -0.042055786 0.00090067461 0.020720512 0.00083414186 0.020820983 0.99865371 -0.040856481
639762264.15094 0.99867326 -0.042654201 0.000856434 0.021034684 0.00088307913 0.021133309 0.99850726 -0.0413104
649758490.56604 0.99860686 -0.043254435 0.00087748934 0.021290299 0.0009266939 0.021483909 0.9985646 -0.041814938
659754716.98113 0.99846017 -0.043839663 0.00086895749 0.021650556 0.0008996902 0.021798708 0.99870253 -0.042359143
669750943.39623 0.99847662 -0.044291824 0.00095625035 0.022009745 0.0009018681 0.022164125 0.99877083 -0.043074936
679747169.81132 0.99843287 -0.044992909 0.00098021596 0.022355866 0.00096483831 0.022501055 0.99874467 -0.044053704
689743396.22642 0.9985069 -0.045881659 0.0010048356 0.022690501 0.00099156145 0.022805382 0.99852014 -0.045007169
699739622.64151 0.99862611 -0.046583235 0.0010217698 0.023000579 0.0010684077 0.023137793 0.99850714 -0.045616359
709735849.0566 0.99855596 -0.047527261 0.0010686399 0.023291806 0.0010772861 0.023440106 0.99823713 -0.046320751
719732075.4717 0.9984833 -0.048196077 0.0011504265 0.023626763 0.001132736 0.023784876 0.99830556 -0.046916902
729728301.88679 0.99842715 -0.048752904 0.0011473987 0.02394592 0.0011525722 0.024118893 0.9982934 -0.047407299
739724528.30189 0.99833161 -0.049389184 0.0011891532 0.024261627 0.0011605881 0.024403868 0.99849647 -0.048107028
749720754.71698 0.9982214 -0.049972922 0.0012094392 0.02457796 0.00124443 0.024742579 0.99852526 -0.04878369
759716981.13208 0.99830031 -0.050468355 0.0012566736 0.024907582 0.001235133 0.025064055 0.99850774 -0.049553156
769713207.54717 0.99823719 -0.051195651 0.0012646923 0.025221348 0.0012790058 0.025400354 0.99824238 -0.05028525
779709433.96226 0.99832696 -0.051819235 0.0012856465 0.025580233 0.0012952549 0.025733974 0.99806964 -0.050863046
789705660.37736 0.99826288 -0.052626699 0.0013264995 0.025873298 0.0013479255 0.026019856 0.99776518 -0.051569968
799701886.79245 0.99820924 -0.053435892 0.0013883812 0.026177647 0.0013431683 0.026335813 0.99767995 -0.052181363
809698113.20755 0.99809766 -0.05404292 0.0013828182 0.026507255 0.0013827546 0.026662953 0.997639 -0.052622691
819694339.62264 0.99797457 -0.054653138 0.0014393614 0.026834778 0.0014237962 0.02702173 0.99772298 -0.053225696
829690566.03774 0.99788421 -0.055353701 0.0014671702 0.027135987 0.0014442122 0.027317811 0.99793971 -0.054131985
839686792.45283 0.99801016 -0.05567047 0.0014808532 0.027485831 0.0014668033 0.02762321 0.99799985 -0.054852396
849683018.86792 0.9980911 -0.056392476 0.0014907413 0.027801851 0.001522762 0.027985411 0.99791384 -0.055657297
859679245.28302 0.9981398 -0.057131827 0.0015552845 0.02811655 0.0015599355 0.028292585 0.99761343 -0.056265891
869675471.69811 0.99800074 -0.057853013 0.0015863487 0.02845883 0.0015946776 0.028585339 0.99723029 -0.056742638
879671698.11321 0.99797082 -0.058465008 0.0016350119 0.028788093 0.0016429528 0.028890109 0.99726021 -0.05709774
889667924.5283 0.99784219 -0.059281468 0.0016244641 0.029062919 0.0016787946 0.029228976 0.99712175 -0.05769515
899664150.9434 0.99760252 -0.059946597 0.0016915202 0.029391311 0.001671331 0.029554956 0.99718928 -0.058225572
909660377.35849 0.99761224 -0.060641289 0.0016765334 0.029715739 0.0016826675 0.0298749 0.99732053 -0.059097469
919656603.77358 0.99766105 -0.061298743 0.0017107967 0.030040143 0.0017339359 0.030210435 0.99731737 -0.059914529
929652830.18868 0.99766654 -0.062032282 0.0017652186 0.030329788 0.0017404817 0.030517865 0.99711561 -0.060773969
939649056.60377 0.99782497 -0.062676877 0.0017511575 0.030617772 0.0017792275 0.03082601 0.99708164 -0.061496377
949645283.01887 0.99783134 -0.063463777 0.0017414425 0.030963909 0.0017641166 0.031181093 0.99676627 -0.062100522
959641509.43396 0.99770582 -0.06416291 0.0017938036 0.031327631 0.0017996328 0.031540185 0.9966473 -0.062588394
969637735.84906 0.99765253 -0.064896524 0.0018452881 0.031676363 0.0018469719 0.031897269 0.99672067 -0.062904209
979633962.26415 0.99751878 -0.065607935 0.0018862339 0.031986311 0.0019020082 0.032162502 0.99682081 -0.063591123
989630188.67925 0.99757504 -0.066159129 0.0019457564 0.032312036 0.0019479152 0.032497831 0.9969877 -0.064097106
999626415.09434 0.99758929 -0.066685528 0.0019388665 0.032617435 0.0019926568 0.032829024 0.9969101 -0.064951152
1009622641.5094 0.9976365 -0.067375392 0.0019990765 0.032968726 0.0020021116 0.033188283 0.99677223 -0.065775901
1019618867.9245 0.99768764 -0.068214819 0.0020187027 0.033281937 0.002081037 0.033490982 0.99652803 -0.066582322
1029615094.3396 0.99762213 -0.069095463 0.0021039816 0.033587635 0.0021184208 0.033771351 0.99615932 -0.067167968
1039611320.7547 0.99767244 -0.069934756 0.0021417215 0.033895683 0.0021180958 0.034102727 0.9961347 -0.067798644
1049607547.1698 0.99754363 -0.070828758 0.0021406093 0.034200184 0.0021859827 0.03439448 0.99610573 -0.068367861
1059603773.5849 0.9974407 -0.071472585 0.0021721339 0.034495737 0.002226905 0.034719683 0.99615991 -0.068915188
1069600000 0.99721992 -0.072187006 0.0021759029 0.034796625 0.0022353018 0.035027958 0.99628866 -0.069687605
1079596226.4151 0.99725878 -0.072917648 0.0022084001 0.035131104 0.0022381111 0.035370667 0.99626833 -0.070426188
1089592452.8302 0.99725896 -0.073561013 0.0022166073 0.035481028 0.0022831084 0.035679229 0.99624509 -0.071156651
1099588679.2453 0.99732333 -0.074189544 0.0022220202 0.035789046 0.0022718348 0.036021426 0.99593061 -0.071795523
1109584905.6604 0.99748349 -0.074967101 0.0022674967 0.036132563 0.0022797985 0.036362864 0.99568754 -0.072338328
1119581132.0755 0.99740213 -0.075960815 0.0022620331 0.036455959 0.0023239125 0.036706615 0.99556577 -0.072703123
1129577358.4906 0.99721676 -0.076676995 0.0023026019 0.03682965 0.0023441743 0.037059344 0.99540991 -0.073168635
1139573584.9057 0.99696684 -0.077540785 0.0023556938 0.037115563 0.0024253577 0.037399743 0.99551529 -0.073840827
1149569811.3208 0.99689257 -0.078349866 0.002433077 0.037444524 0.0024780477 0.037705019 0.99558061 -0.074570887
1159566037.7358 0.99664104 -0.079020143 0.0024598055 0.037769284 0.002520266 0.038003527 0.99577075 -0.075548738
1169562264.1509 0.99647892 -0.079695821 0.0024506319 0.038068108 0.0025337357 0.038330153 0.99555659 -0.076322287
1179558490.566 0.99642336 -0.080479696 0.0024642926 0.038443498 0.0025403192 0.038698673 0.99548328 -0.077057645
1189554716.9811 0.99644518 -0.081213772 0.0025097197 0.038781442 0.0026252419 0.039028 0.99514574 -0.077615678
1199550943.3962 0.99646056 -0.082078606 0.0025359057 0.039149117 0.0026529357 0.039367277 0.99496156 -0.077994704
1209547169.8113 0.99627572 -0.082961142 0.0025954731 0.039462864 0.0026877895 0.039652459 0.99494636 -0.078377396
1219543396.2264 0.99607366 -0.083747268 0.002665326 0.03981116 0.0027462686 0.040040813 0.9949863 -0.078722849
1229539622.6415 0.99581152 -0.084591687 0.0027039237 0.040151302 0.0028101299 0.040383451 0.99515176 -0.079365909
1239535849.0566 0.99548268 -0.085188091 0.002761323 0.040445358 0.0028803032 0.040700577 0.9952693 -0.080310225
1249532075.4717 0.99525344 -0.085795127 0.0028172976 0.040771239 0.0029452969 0.041006297 0.99513716 -0.081084386
1259528301.8868 0.99502647 -0.086301774 0.0028556697 0.041088 0.0030044168 0.041327532 0.9948408 -0.081979334
1269524528.3019 0.99487644 -0.08706364 0.0029287133 0.041418284 0.0030660015 0.041623052 0.99464834 -0.082543314
1279520754.717 0.99455148 -0.08777754 0.0029710496 0.041691877 0.0030903365 0.04188225 0.99434012 -0.083165176
1289516981.1321 0.99442333 -0.088632077 0.0029849727 0.041982092 0.0031185802 0.042176738 0.99447602 -0.083623558
1299513207.5472 0.99405456 -0.089402288 0.0029983744 0.042294968 0.0031330436 0.042499103 0.99459642 -0.084023625
1309509433.9623 0.99366516 -0.090181902 0.0030113179 0.04260806 0.0031349408 0.042814568 0.99464887 -0.084760398
1319505660.3774 0.99333221 -0.090924904 0.0030161468 0.042940892 0.0031480761 0.043125857 0.99465787 -0.085403457
1329501886.7925 0.99305701 -0.091551065 0.0030427743 0.04327514 0.0031594224 0.043444797 0.99467385 -0.086309284
1339498113.2075 0.99285048 -0.092064202 0.0030712262 0.043586504 0.0032102447 0.043745648 0.99432147 -0.087056547
1349494339.6226 0.99258667 -0.092586227 0.0030579804 0.04394155 0.0031809988 0.044102099 0.99396551 -0.087595485
1359490566.0377 0.99247742 -0.093141735 0.0030609723 0.044290625 0.0031824112 0.044470809 0.9937349 -0.088112563
1369486792.4528 0.99233788 -0.09365797 0.0030965898 0.044637453 0.0032020528 0.044810027 0.99354756 -0.088595569
1379483018.8679 0.99202651 -0.094223976 0.0031001018 0.045016926 0.0031946863 0.045135025 0.9935835 -0.088969566
1389479245.283 0.99168414 -0.094727725 0.0031630918 0.045361709 0.0032376517 0.045531783 0.99359107 -0.089616507
1399475471.6981 0.99136102 -0.095240474 0.0031848494 0.045702495 0.0032615773 0.045858257 0.99381292 -0.090287924
1409471698.1132 0.99095857 -0.095616892 0.0031973151 0.046064634 0.0032452277 0.046255872 0.99377376 -0.091105893
1419467924.5283 0.99082792 -0.095899761 0.0032202024 0.04644778 0.0032983609 0.046628818 0.99360156 -0.091793269
1429464150.9434 0.99066192 -0.096357375 0.0032660607 0.0468712 0.0033153147 0.047004767 0.99356127 -0.092399389
1439460377.3585 0.99078268 -0.096858442 0.0033646561 0.047337316 0.0034307297 0.047467295 0.99326897 -0.092761725
1449456603.7736 0.99082214 -0.097341821 0.0034324555 0.047696725 0.0035005733 0.047849629 0.99313253 -0.093054265
1459452830.1887 0.99082935 -0.098010778 0.0035752524 0.048089601 0.0036168918 0.04823868 0.99329132 -0.093356788
1469449056.6038 0.99083942 -0.098730385 0.003727382 0.048415966 0.0037594959 0.048601162 0.99352229 -0.094011068
1479445283.0189 0.99068618 -0.099195965 0.0038693072 0.048706681 0.0039109169 0.048879065 0.99359453 -0.09489581
1489441509.434 0.99065316 -0.099715233 0.0039902423 0.049036499 0.0040089283 0.049183875 0.9934715 -0.095632493
1499437735.8491 0.99052233 -0.10011724 0.004105093 0.049292017 0.0041665547 0.049448386 0.99341512 -0.096492559
1509433962.2642 0.99051738 -0.10066505 0.0041704122 0.049581457 0.0041743712 0.049740337 0.99327856 -0.097278275
1519430188.6792 0.99059725 -0.10126495 0.0042412132 0.049826276 0.004259808 0.049995802 0.99310929 -0.097815394
1529426415.0943 0.99051195 -0.1018641 0.004320778 0.050122499 0.0043166708 0.050308276 0.99302781 -0.098247737
1539422641.5094 0.99057436 -0.10265037 0.0043413499 0.050402306 0.0043525668 0.050628576 0.99307227 -0.098726064
1549418867.9245 0.99042886 -0.10344549 0.0044437209 0.05069818 0.0044218572 0.050870761 0.99321473 -0.099480242
1559415094.3396 0.99030328 -0.10407284 0.0044666193 0.050944112 0.0044335183 0.051146347 0.99348974 -0.10014606
1569411320.7547 0.99017751 -0.1048978 0.0045007924 0.0512494 0.0044652531 0.051452901 0.99327022 -0.10092379
1579407547.1698 0.99005574 -0.10541318 0.0045546032 0.051534861 0.0045124544 0.051731076 0.99303085 -0.10166927
1589403773.5849 0.99007857 -0.10591668 0.0045390837 0.051798765 0.0045276303 0.052033983 0.9928124 -0.10246199
1599400000 0.9900136 -0.10636869 0.0045388788 0.052101184 0.0044958992 0.05231972 0.99248874 -0.10291412
1609396226.4151 0.989995 -0.10704362 0.0045396797 0.052424386 0.0045141773 0.052651007 0.99234831 -0.10344702
1619392452.8302 0.98987609 -0.10757938 0.0045233574 0.052778292 0.0044944007 0.053015426 0.99217236 -0.10383615
1629388679.2453 0.98976094 -0.10827428 0.0045490377 0.053129304 0.0044706035 0.053349309 0.99244547 -0.10435021
1639384905.6604 0.98950493 -0.1090243 0.0045194798 0.053479157 0.0044840281 0.053742986 0.99259096 -0.10523316
1649381132.0755 0.98929429 -0.10964924 0.0045706183 0.053845312 0.0045406055 0.054050244 0.99268275 -0.1060676
1659377358.4906 0.98913455 -0.11044234 0.004570201 0.054204166 0.0045614261 0.054445125 0.99262255 -0.10699457
1669373584.9057 0.98911077 -0.11085394 0.0046392423 0.05456768 0.0045855478 0.05479541 0.9924193 -0.10761125
1679369811.3208 0.9891932 -0.11153546 0.0046980772 0.054949649 0.0046359384 0.055201348 0.99205816 -0.10813794
1689366037.7358 0.98915005 -0.11214367 0.0047449712 0.055316664 0.004675433 0.055595521 0.99196321 -0.1084654
1699362264.1509 0.98931688 -0.11272889 0.0047723064 0.055708315 0.004734993 0.055941723 0.99217391 -0.10893485
1709358490.566 0.9891904 -0.11340167 0.0047909049 0.056086496 0.0047934521 0.05635383 0.99215508 -0.10951819
1719354716.9811 0.98882186 -0.11397827 0.0048379283 0.056400742 0.0048058294 0.056725748 0.99221927 -0.11013556
1729350943.3962 0.98857284 -0.11454666 0.0049413573 0.056793205 0.0049106516 0.057087526 0.99225909 -0.1110217
