!Keysight Technologies,N5222B,MY61253708,A.15.00.15
!Date: Wednesday, June 19, 2024 10:37:29
!Correction: S11(C  2-Port  ) 
!S21(C  2-Port  ) 
!S12(C  2-Port  ) 
!S22(C  2-Port  ) 
!S2P File: Measurements: S11, S21, S12, S22:
# Hz S  RI   R 50
10000000 0.99847013 -0.0031439364 -0.00012591359 0.00031789363 7.9654223e-005 0.00023095171 0.99840248 -0.0020653605
19996226.415094 0.99981415 -0.002396971 3.4077384e-006 0.00067661359 0.000102683 0.00064595701 0.99991083 -0.0022707283
29992452.830189 0.99968719 -0.0025433898 5.7648896e-005 0.00095117581 3.5494973e-005 0.00099370885 0.99928427 -0.002715528
39988679.245283 1.0001291 -0.003000617 2.7434362e-005 0.0013072159 -5.2391115e-006 0.0013037403 0.9997223 -0.0031096488
49984905.660377 1.0002218 -0.0037148297 -1.7207291e-005 0.0016493922 4.1225576e-005 0.0016296706 0.99988872 -0.0036474168
59981132.075472 1.0003989 -0.0045520663 -3.1106756e-006 0.0019154155 -6.2454492e-006 0.0019087364 0.99991024 -0.0041838586
69977358.490566 1.0002998 -0.0050674789 2.7152211e-005 0.0022280293 -1.7454044e-005 0.0022769165 0.99973238 -0.0047418997
79973584.90566 0.99992293 -0.0056041181 2.3781322e-005 0.0026002186 3.0938187e-005 0.0025864909 0.99935448 -0.0052143931
89969811.320755 0.99994147 -0.00568223 1.7826445e-005 0.0028893258 8.8324305e-006 0.0029265895 0.99957603 -0.0053924918
99966037.735849 1.0002009 -0.0064050406 2.0294683e-005 0.0032235733 2.3095636e-006 0.0032518476 0.99968648 -0.0061349571
109962264.15094 1.0002222 -0.0072637796 3.0128111e-005 0.0035316094 2.0461157e-005 0.0035776247 0.99969196 -0.0069195032
119958490.56604 1.0002668 -0.0081582665 3.3583259e-005 0.0038603148 3.4868601e-005 0.0038837329 0.99973792 -0.0077888668
129954716.98113 1.0001805 -0.0091617107 2.5299028e-005 0.0041949069 3.6388985e-005 0.0042034844 0.99972367 -0.0086921155
139950943.39623 1.0001109 -0.0099868421 3.6689118e-005 0.0045104232 4.9507784e-005 0.0045031658 0.99965352 -0.0094228536
149947169.81132 0.9999907 -0.010623038 4.1946303e-005 0.0048311655 3.2882206e-005 0.004831451 0.9995991 -0.0100151
159943396.22642 0.99997538 -0.011076868 6.8234745e-005 0.0051721344 6.7487126e-005 0.0051697791 0.99964333 -0.010451108
169939622.64151 0.99989039 -0.011431135 6.9457514e-005 0.005488879 6.0188642e-005 0.0055066692 0.99968785 -0.010845408
179935849.0566 1.000018 -0.011644006 6.8094931e-005 0.0058002328 4.8886053e-005 0.0058415993 0.99960327 -0.011215091
189932075.4717 1.0001168 -0.01244086 8.9646317e-005 0.0061292974 9.8776072e-005 0.0061336863 0.99982774 -0.011741966
199928301.88679 1.0000501 -0.013193488 7.53809e-005 0.0064500789 0.00010184129 0.0064472654 0.99972492 -0.01260078
209924528.30189 0.99979717 -0.013849571 8.1019825e-005 0.0067784376 0.00010434492 0.0067850221 0.99948269 -0.01322037
219920754.71698 0.99992824 -0.014626801 9.096344e-005 0.0071057361 9.9736964e-005 0.0071234293 0.99940073 -0.013862818
229916981.13208 0.9997161 -0.015489817 0.00013540732 0.0074285995 0.00011712383 0.007429163 0.99938947 -0.014681935
239913207.54717 0.99954396 -0.0161264 0.00013835037 0.0077198171 0.00012299072 0.0077713244 0.99929267 -0.015372794
249909433.96226 0.9995873 -0.016734719 0.00012211874 0.0080663115 0.00013347855 0.0080689751 0.99937868 -0.015898317
259905660.37736 0.99970603 -0.017267346 9.5969532e-005 0.0083299093 0.00013442943 0.0084585175 0.99969792 -0.016366214
269901886.79245 0.99986273 -0.017936066 0.00013230566 0.0087049631 0.0001408169 0.008722011 1.0000867 -0.017111853
279898113.20755 1.0000557 -0.018593088 0.00014031469 0.009036581 0.00013350276 0.0090509197 0.99997044 -0.017976716
289894339.62264 0.99987382 -0.019300193 0.00019922713 0.0093732933 0.00015071221 0.0093651945 0.9997744 -0.018766522
299890566.03774 0.99984086 -0.019818097 0.00019928766 0.0096771363 0.00016340031 0.0097075962 0.99939317 -0.019159406
309886792.45283 0.99963677 -0.020330094 0.0002193476 0.010010961 0.00023050141 0.0099948579 0.99936754 -0.019555226
319883018.86792 0.99968457 -0.020985514 0.00025230972 0.01033526 0.00023001758 0.010301121 0.99949944 -0.019997627
329879245.28302 0.99960983 -0.021757782 0.00024808804 0.010706143 0.00022896798 0.01065187 0.99957776 -0.020728558
339875471.69811 0.99958581 -0.022531725 0.00023236067 0.011023743 0.00025067397 0.010980893 0.99955666 -0.021528125
349871698.11321 0.99977899 -0.023300439 0.00029211584 0.011302552 0.00023536943 0.011306873 0.99957472 -0.022494376
359867924.5283 0.99965799 -0.02418083 0.00028391834 0.011595195 0.00027994718 0.011615099 0.99953777 -0.023449689
369864150.9434 0.99986923 -0.024977416 0.00029758923 0.011941473 0.00027729897 0.01196594 0.99953932 -0.02412492
379860377.35849 0.99970233 -0.025665119 0.00030423654 0.012233199 0.00032156194 0.012264886 0.99932599 -0.024701953
389856603.77358 0.99956119 -0.026231408 0.00036910595 0.012570202 0.00033764122 0.012599211 0.9993366 -0.025149465
399852830.18868 0.99932986 -0.026834279 0.00031505153 0.012936738 0.00034330459 0.01290537 0.99942511 -0.025663733
409849056.60377 0.99923527 -0.027386958 0.0003567145 0.013218766 0.00032573793 0.013209724 0.99939573 -0.026210397
419845283.01887 0.9991504 -0.027757704 0.00037706597 0.013526313 0.00038320851 0.013549836 0.99935329 -0.026639014
429841509.43396 0.99918735 -0.028356463 0.00038863625 0.013836738 0.00038024178 0.013887609 0.99953812 -0.027456909
439837735.84906 0.99906838 -0.029351577 0.00038454705 0.014195625 0.00041684986 0.014211297 0.99925584 -0.028440386
449833962.26415 0.99881321 -0.030185133 0.00042732991 0.014480377 0.00042943377 0.014495689 0.9988606 -0.029274046
459830188.67925 0.9985882 -0.03075999 0.00044176355 0.014828205 0.00042788824 0.014808062 0.99859321 -0.029886514
469826415.09434 0.99847806 -0.031498611 0.00044358708 0.015128104 0.00045011612 0.015175492 0.99832284 -0.030362308
479822641.50943 0.99836349 -0.031975403 0.00048574468 0.015453054 0.00044534146 0.015492714 0.99834335 -0.030779555
489818867.92453 0.99845982 -0.032306701 0.00047468254 0.015788106 0.0005393466 0.015825443 0.99868006 -0.031281978
499815094.33962 0.99851274 -0.03283155 0.00052728085 0.016072558 0.00054163719 0.016112091 0.99897307 -0.0317626
509811320.75472 0.99866033 -0.033221588 0.00054585183 0.016446481 0.00052293134 0.016469615 0.99913043 -0.032526873
519807547.16981 0.99860847 -0.033765405 0.00053760456 0.016750544 0.00056839781 0.016739424 0.99914819 -0.033256233
529803773.58491 0.99858874 -0.034258753 0.00057090446 0.017035743 0.00060349284 0.017087189 0.99885744 -0.033824056
539800000 0.99872458 -0.034941256 0.00060738786 0.017354505 0.00057969079 0.017414043 0.99875194 -0.034479469
549796226.41509 0.99849188 -0.035653532 0.00056931935 0.017754374 0.00056265108 0.01770789 0.99858183 -0.034877121
559792452.83019 0.99836212 -0.036383629 0.00061622355 0.018016446 0.00059957523 0.018059975 0.99852973 -0.035393447
569788679.24528 0.99831599 -0.036917657 0.0006763502 0.018355478 0.00066762231 0.018406522 0.99866223 -0.036090434
579784905.66038 0.99823207 -0.03750737 0.00065932795 0.018687321 0.00065327587 0.01870816 0.99882007 -0.036771491
589781132.07547 0.99843925 -0.038078934 0.00072412658 0.019025631 0.00068829674 0.019007271 0.99893981 -0.037653446
599777358.49057 0.99860466 -0.038674265 0.0007162476 0.019304872 0.00072310399 0.019392654 0.99902689 -0.038371503
609773584.90566 0.99877918 -0.039448559 0.00076837861 0.01963474 0.00080176495 0.019681098 0.99887502 -0.039292455
619769811.32075 0.99888492 -0.040135771 0.00079851598 0.019941391 0.00078798644 0.019938657 0.99890691 -0.039830655
629766037.73585 0.99868768 -0.040764034 0.00080858823 0.020252988 0.00082178973 0.020294599 0.99862874 -0.040363401
639762264.15094 0.99853766 -0.041431487 0.000864428 0.020574991 0.00085598836 0.020592814 0.99850863 -0.040677115
649758490.56604 0.99851042 -0.042085588 0.00087188417 0.020874878 0.00084535126 0.020904642 0.99853748 -0.041106343
659754716.98113 0.99836111 -0.042478681 0.0008405596 0.021228984 0.00082626846 0.021234997 0.99865586 -0.041715473
669750943.39623 0.99841726 -0.042919517 0.00089944992 0.021541579 0.00088078761 0.021603068 0.99880755 -0.042522341
679747169.81132 0.99840766 -0.04377576 0.00094116118 0.021914104 0.0009000008 0.021936046 0.99872923 -0.043449126
689743396.22642 0.99863243 -0.044608772 0.00094536133 0.022205211 0.00097126979 0.022252437 0.99857271 -0.044420719
699739622.64151 0.9987545 -0.045316726 0.0010210341 0.022523109 0.0010086838 0.022566961 0.99857879 -0.045115173
709735849.0566 0.9987576 -0.046215422 0.0010567355 0.022839583 0.0010329459 0.022866452 0.99827182 -0.045710437
719732075.4717 0.99864149 -0.046969086 0.0010728263 0.023122592 0.0010781661 0.023206491 0.9983297 -0.046314687
729728301.88679 0.99849582 -0.047547609 0.0010835202 0.023451699 0.0011350764 0.0234989 0.99843031 -0.046662301
739724528.30189 0.9983865 -0.04819423 0.001131257 0.023747638 0.0011193212 0.023812741 0.99861008 -0.0473952
749720754.71698 0.99827629 -0.048650235 0.0011639046 0.024116999 0.0011693495 0.024147362 0.99860084 -0.048028901
759716981.13208 0.9983331 -0.049203604 0.0011851117 0.02435467 0.0011679959 0.024432536 0.99855947 -0.048815012
769713207.54717 0.99824435 -0.050002903 0.0012506368 0.024684478 0.0012253765 0.024738008 0.99827915 -0.049543768
779709433.96226 0.99839675 -0.0505105 0.0012282872 0.025029724 0.0012332116 0.025051245 0.99797672 -0.050217472
789705660.37736 0.99828994 -0.051413625 0.0012730444 0.025340946 0.0012635486 0.025366511 0.99774045 -0.050885826
799701886.79245 0.99816424 -0.052279979 0.0012829937 0.02564675 0.0013099592 0.025680285 0.99760044 -0.051433027
809698113.20755 0.99811041 -0.0528 0.0013609196 0.025937269 0.0013289489 0.026001737 0.99767566 -0.051888153
819694339.62264 0.99793005 -0.053448886 0.0013630302 0.026227284 0.0013743527 0.0263202 0.99783814 -0.052494645
829690566.03774 0.99783921 -0.054029793 0.0013928842 0.026555255 0.0014142776 0.02662839 0.99798107 -0.053313464
839686792.45283 0.99788362 -0.054484397 0.0014178287 0.02688814 0.0014072596 0.026939474 0.99802184 -0.054106295
849683018.86792 0.99802136 -0.055048741 0.0014257813 0.027196679 0.0014143479 0.027257586 0.99792558 -0.05487743
859679245.28302 0.99796093 -0.055717289 0.0015011812 0.027520718 0.0014702743 0.02758266 0.99766517 -0.055461496
869675471.69811 0.99788803 -0.056518137 0.0015544724 0.027854577 0.0015365873 0.027895439 0.99734092 -0.055967748
879671698.11321 0.99778652 -0.057067417 0.0015835483 0.028155468 0.0015787575 0.028223904 0.99726617 -0.056362253
889667924.5283 0.99763566 -0.057861626 0.0016004229 0.028415006 0.0015757456 0.028495228 0.99718648 -0.056840658
899664150.9434 0.99736369 -0.058563203 0.0015834123 0.028720714 0.0016108314 0.028814256 0.99725395 -0.057444513
909660377.35849 0.99744666 -0.059139073 0.0016177199 0.029048368 0.0016096886 0.029131047 0.99737483 -0.05827415
919656603.77358 0.99751067 -0.05979681 0.0016288972 0.029376063 0.0016320376 0.029456098 0.99740523 -0.059158236
929652830.18868 0.99759299 -0.06056568 0.0016629128 0.029668383 0.0016704397 0.029744161 0.99722314 -0.060015976
939649056.60377 0.99766845 -0.061081469 0.0016731704 0.029964764 0.0016713999 0.030046917 0.9971031 -0.060725302
949645283.01887 0.99765736 -0.061904643 0.0016478782 0.030295212 0.0016749451 0.030391885 0.99684626 -0.061290547
959641509.43396 0.99758625 -0.062597662 0.0016794177 0.030658485 0.0017203027 0.030736823 0.99684018 -0.061719388
969637735.84906 0.99752676 -0.063246489 0.001755273 0.030988175 0.0017493628 0.031097544 0.99679232 -0.061958849
979633962.26415 0.99739522 -0.063908443 0.0018287017 0.031288456 0.0018079637 0.031380706 0.99687088 -0.062593848
989630188.67925 0.99734783 -0.064370722 0.0018413672 0.031615883 0.0018426087 0.031703144 0.99711454 -0.063234091
999626415.09434 0.99739897 -0.065029442 0.001875652 0.031915404 0.0018724296 0.031988949 0.99699098 -0.06407094
1009622641.5094 0.99753767 -0.065673217 0.0018820097 0.032262675 0.0019152304 0.032353044 0.99680859 -0.064921528
1019618867.9245 0.9976179 -0.066473186 0.0019289171 0.032567032 0.0019906899 0.032650054 0.99662703 -0.065703869
1029615094.3396 0.99759781 -0.067334533 0.0019919975 0.032863479 0.0020151362 0.032925606 0.99626595 -0.066298723
1039611320.7547 0.99765706 -0.068154275 0.0020203032 0.03315194 0.0020224955 0.03325811 0.99619895 -0.066928178
1049607547.1698 0.9974854 -0.06907963 0.0020753336 0.033436093 0.0020332781 0.033522692 0.99623692 -0.067431949
1059603773.5849 0.99734741 -0.069803357 0.0020756004 0.033730019 0.002104098 0.033847976 0.99625599 -0.067996919
1069600000 0.99716371 -0.070302308 0.0020691287 0.034037095 0.002121849 0.034143385 0.99642152 -0.068665355
1079596226.4151 0.99719226 -0.071038365 0.0020980965 0.034371842 0.0021257233 0.034474514 0.99642378 -0.069445439
1089592452.8302 0.99725252 -0.071559191 0.0021345001 0.034695897 0.0021464229 0.034809947 0.99633175 -0.070139647
1099588679.2453 0.99723518 -0.072262973 0.002129009 0.035021774 0.002131639 0.035111435 0.99600363 -0.07072857
1109584905.6604 0.99736977 -0.073052272 0.0021533519 0.035331093 0.0021972721 0.035453241 0.99585283 -0.071328521
1119581132.0755 0.99736202 -0.074012205 0.0021591377 0.035682797 0.0022023474 0.03578385 0.99563068 -0.071702018
1129577358.4906 0.99724543 -0.074808776 0.0022089407 0.036014516 0.0022327341 0.036116198 0.99553239 -0.072192997
1139573584.9057 0.99696994 -0.07569921 0.0022453498 0.036327787 0.0022928808 0.036466498 0.99566162 -0.072804481
1149569811.3208 0.99684435 -0.076508544 0.0023054064 0.036668863 0.0023549437 0.036775019 0.99585021 -0.073560148
1159566037.7358 0.99666572 -0.077188432 0.0023234151 0.036968641 0.0023879437 0.037062652 0.99591935 -0.074565023
1169562264.1509 0.99653697 -0.077755034 0.0023215357 0.03725202 0.0023880824 0.037359066 0.99579191 -0.075342387
1179558490.566 0.99647957 -0.078581028 0.0023504577 0.037615407 0.0024088772 0.037747212 0.99562335 -0.07608059
1189554716.9811 0.99642217 -0.079198241 0.0023809299 0.037937738 0.0024604145 0.038075309 0.99530387 -0.076532274
1199550943.3962 0.99646211 -0.080005974 0.0023970492 0.038313694 0.0025237184 0.038368758 0.99517828 -0.076899201
1209547169.8113 0.99627918 -0.080900177 0.0024617035 0.038614094 0.0025532655 0.038658138 0.99506694 -0.077194437
1219543396.2264 0.99606782 -0.081672519 0.0024980251 0.038964037 0.0025885394 0.039053727 0.99519223 -0.077631816
1229539622.6415 0.99573791 -0.08243522 0.0026047044 0.039265074 0.0026401095 0.039365746 0.99533111 -0.078297198
1239535849.0566 0.995507 -0.083218843 0.0026436197 0.039592024 0.0027109813 0.039715327 0.9954927 -0.079205751
1249532075.4717 0.99528712 -0.083827704 0.0026635274 0.039893057 0.002777966 0.039964356 0.99527425 -0.080002934
1259528301.8868 0.99512613 -0.084299058 0.0027168691 0.040204749 0.002846336 0.04029581 0.99510372 -0.080904961
1269524528.3019 0.9949919 -0.085089445 0.0027966378 0.040516891 0.0029088994 0.040589835 0.99481511 -0.081614614
1279520754.717 0.99466354 -0.085739851 0.0028337955 0.040802285 0.0029478814 0.04083864 0.99455482 -0.082135744
1289516981.1321 0.99453628 -0.086549699 0.0028648581 0.041102774 0.002937628 0.041099656 0.99466813 -0.082481652
1299513207.5472 0.99419081 -0.087461323 0.0029016677 0.041369725 0.0029692985 0.041410007 0.9947468 -0.082864761
1309509433.9623 0.99381101 -0.088002846 0.0028499058 0.041678745 0.0029730033 0.041712686 0.99487084 -0.08360599
1319505660.3774 0.99342638 -0.088837057 0.0028726486 0.042016331 0.0029666405 0.0420455 0.99492395 -0.084252536
1329501886.7925 0.99313998 -0.08944872 0.0028912444 0.042325146 0.0029894859 0.042332549 0.99492794 -0.085170001
1339498113.2075 0.99290317 -0.089931369 0.0029032705 0.042656969 0.0030142022 0.042654611 0.99455422 -0.085893631
1349494339.6226 0.99276817 -0.090548083 0.0028989119 0.042964265 0.0029786746 0.04299644 0.99419075 -0.086476952
1359490566.0377 0.99263167 -0.091133654 0.0028992854 0.04330802 0.0029979832 0.043333136 0.9940021 -0.08698532
1369486792.4528 0.99247181 -0.091644287 0.0029049525 0.04367128 0.0030092038 0.043710425 0.9938364 -0.087450534
1379483018.8679 0.99222273 -0.092162885 0.0029356699 0.044059183 0.002978856 0.043987408 0.99381858 -0.087736659
1389479245.283 0.99183106 -0.09270817 0.0029727519 0.044391796 0.0030200183 0.044377271 0.99384999 -0.088408381
1399475471.6981 0.99143982 -0.093040466 0.0029932074 0.04471793 0.0030194297 0.044716254 0.99402678 -0.089173168
1409471698.1132 0.99115938 -0.093461089 0.0030191611 0.0451058 0.0030792798 0.045102134 0.9940418 -0.089941487
1419467924.5283 0.99092859 -0.093742311 0.0030286266 0.045462988 0.0030935779 0.045445465 0.99387962 -0.090650588
1429464150.9434 0.99079978 -0.094183683 0.0030750651 0.045855884 0.003151929 0.045857877 0.99378669 -0.091173321
1439460377.3585 0.99100679 -0.094686955 0.0031589475 0.046345163 0.0031647645 0.046301436 0.99353451 -0.091563597
1449456603.7736 0.99107087 -0.095242381 0.0032718685 0.046714179 0.0033107316 0.04666125 0.99345249 -0.091871008
1459452830.1887 0.99102032 -0.095931113 0.0034184214 0.047080722 0.0033799559 0.047065854 0.99357092 -0.092172801
1469449056.6038 0.99107778 -0.096626908 0.0035317754 0.047419917 0.0035534808 0.047428068 0.99384224 -0.09280625
1479445283.0189 0.99091876 -0.097172767 0.0036636535 0.047695171 0.0036809328 0.047705371 0.99387848 -0.093708739
1489441509.434 0.99088883 -0.097717524 0.0038185585 0.048012037 0.0037932154 0.048001289 0.99378717 -0.094673067
1499437735.8491 0.99068123 -0.098077834 0.0039151479 0.048237406 0.0039192662 0.048253618 0.9936859 -0.095352501
1509433962.2642 0.99067694 -0.09853752 0.0040019127 0.048514809 0.0039863209 0.048518751 0.9935047 -0.096112318
1519430188.6792 0.99081987 -0.099046797 0.0040590819 0.048815444 0.0040479172 0.048793778 0.99330366 -0.096670389
1529426415.0943 0.99077982 -0.099704593 0.004111968 0.049079843 0.0040989183 0.049077261 0.99325955 -0.097043693
1539422641.5094 0.99082798 -0.10050981 0.0041509974 0.049358886 0.0041236607 0.049372535 0.99334252 -0.097486079
1549418867.9245 0.99069691 -0.10127603 0.0042065838 0.049641252 0.0041932259 0.049638439 0.99362707 -0.098219708
1559415094.3396 0.9906081 -0.10201517 0.0042653996 0.049918257 0.0042137895 0.049919359 0.99372077 -0.098888457
1569411320.7547 0.99037713 -0.10278074 0.0042940732 0.050155889 0.0042821048 0.050203204 0.99361527 -0.099730149
1579407547.1698 0.99027646 -0.10328187 0.0043198839 0.05042487 0.0042832214 0.050464895 0.99325073 -0.10051078
1589403773.5849 0.99019545 -0.10382408 0.0043401495 0.050727919 0.0042723399 0.050765574 0.99300647 -0.101293
1599400000 0.99017608 -0.10424307 0.0043044789 0.051003255 0.0042819101 0.051069845 0.99266648 -0.10168594
1609396226.4151 0.99023473 -0.10483931 0.004274752 0.051333275 0.0042471383 0.051356781 0.99245441 -0.10213192
1619392452.8302 0.99021304 -0.10547209 0.0043381229 0.05163607 0.004240362 0.051668175 0.9925009 -0.10260385
1629388679.2453 0.98999584 -0.10611585 0.0043092649 0.051968843 0.0042546578 0.052023407 0.99268746 -0.10310102
1639384905.6604 0.98976952 -0.10676782 0.0042942902 0.052333672 0.0042457837 0.052376051 0.99299353 -0.10398003
1649381132.0755 0.9895637 -0.1074518 0.0043309443 0.052655324 0.0042632949 0.052753568 0.99295962 -0.10484383
1659377358.4906 0.9893626 -0.10827008 0.0043277238 0.053019941 0.0042926781 0.053136311 0.99287748 -0.10565242
1669373584.9057 0.9892711 -0.10869846 0.0043722005 0.053409435 0.0043207952 0.053473216 0.99257636 -0.10634138
1679369811.3208 0.98927712 -0.10933501 0.004431162 0.053778119 0.0043418054 0.053843051 0.99233419 -0.10685605
1689366037.7358 0.98938668 -0.11001274 0.004495997 0.054131549 0.0044192206 0.054195613 0.99215329 -0.10717943
1699362264.1509 0.98951876 -0.11050269 0.0045337565 0.054461576 0.0044500176 0.05461381 0.99234766 -0.10760768
1709358490.566 0.98945481 -0.11113602 0.0045582922 0.054836273 0.0044758813 0.05497279 0.99237609 -0.10807665
1719354716.9811 0.98913503 -0.11184466 0.0046061371 0.055205338 0.004563719 0.055353478 0.99253726 -0.10881305
