!Keysight Technologies,N5222B,MY61253708,A.15.00.15
!Date: Wednesday, June 19, 2024 10:26:45
!Correction: S11(C  2-Port  ) 
!S21(C  2-Port  ) 
!S12(C  2-Port  ) 
!S22(C  2-Port  ) 
!S2P File: Measurements: S11, S21, S12, S22:
# Hz S  RI   R 50
10000000 0.9985407 -0.0031650066 0.0002082749 0.00020339983 -0.00031852309 0.00029993005 0.9985134 -0.0018875301
19996226.415094 0.99997967 -0.0023830831 6.5987377e-005 0.00060603872 -7.4700947e-005 0.00066772255 1.0000013 -0.0022878945
29992452.830189 0.99970388 -0.0025397241 6.3382904e-006 0.00091269932 -2.272657e-005 0.00095701474 0.99931479 -0.0026467144
39988679.245283 1.0000913 -0.0029980242 3.01252e-005 0.0013033485 3.8228245e-005 0.0013078954 0.99975121 -0.0030708462
49984905.660377 1.0002639 -0.0036331415 2.9716117e-005 0.0016334221 5.9703016e-006 0.0016403075 0.99988031 -0.0036088526
59981132.075472 1.0004447 -0.0045236945 -3.7214719e-005 0.0019059281 1.0832853e-005 0.0019640902 0.99991721 -0.0041791797
69977358.490566 1.000222 -0.0050844587 1.6978029e-005 0.0022401679 6.3779662e-006 0.0022846549 0.99972975 -0.0047512166
79973584.90566 0.99992031 -0.0055722892 -1.5374855e-005 0.0025660214 3.0945172e-005 0.0025940326 0.9993608 -0.0052205622
89969811.320755 0.99994808 -0.0056285262 5.9938757e-006 0.0029361416 1.429813e-006 0.0029182693 0.99956387 -0.0054116547
99966037.735849 1.0002275 -0.0063591897 7.9775346e-006 0.003253541 1.4787656e-005 0.0032552697 0.99965978 -0.0061344206
109962264.15094 1.0002338 -0.0072530955 1.9274303e-005 0.0035620304 1.7765968e-005 0.003568853 0.99971092 -0.0069313049
119958490.56604 1.0003043 -0.0081659555 4.2949687e-005 0.0038782004 4.703179e-005 0.0038918508 0.99973691 -0.0077955723
129954716.98113 1.0002261 -0.0091280937 2.9426068e-005 0.0042036921 4.9237395e-005 0.0042097992 0.99973953 -0.008681953
139950943.39623 1.0001316 -0.009925127 4.1027481e-005 0.0045323516 2.1523534e-005 0.0045451862 0.99967521 -0.0094003677
149947169.81132 1.0000291 -0.010595471 4.488253e-005 0.0048688725 4.2065047e-005 0.0048685903 0.99959087 -0.010006666
159943396.22642 0.99989867 -0.011137992 5.9982762e-005 0.0052051786 4.4675777e-005 0.0052058087 0.99964106 -0.010457218
169939622.64151 0.99991506 -0.011443943 6.2389125e-005 0.005530545 6.3112413e-005 0.0055401954 0.9996891 -0.010872461
179935849.0566 1.0000584 -0.011694968 8.6497166e-005 0.0058369162 8.3608902e-005 0.0058518141 0.99957246 -0.011221051
189932075.4717 1.0001373 -0.012480497 9.3118055e-005 0.0061696423 8.4446045e-005 0.0061653126 0.99979281 -0.011763424
199928301.88679 1.0000867 -0.013335586 8.5827662e-005 0.0064798524 9.9129393e-005 0.0065036733 0.9997105 -0.012624264
209924528.30189 0.99982196 -0.013830036 0.00010803132 0.0068121576 0.00010198553 0.0068293205 0.9994849 -0.013307661
219920754.71698 0.99995959 -0.014670014 0.00013173674 0.0071233227 0.00010088808 0.0071485145 0.99941224 -0.013859153
229916981.13208 0.99967521 -0.01551491 0.00011838181 0.0074526533 0.00011421414 0.0074656773 0.99940693 -0.014710009
239913207.54717 0.99956524 -0.016169237 0.00012633535 0.0077444278 0.00011961377 0.0078227669 0.99929851 -0.015424035
249909433.96226 0.99962151 -0.016749382 0.00011528889 0.0080941487 0.00014335616 0.0081283012 0.99938935 -0.015997648
259905660.37736 0.99982464 -0.017304271 0.00015075179 0.0084435837 9.8264311e-005 0.0084163453 0.99961555 -0.016464144
269901886.79245 0.99979508 -0.018020436 0.00013725006 0.0087541882 0.00017900812 0.0087444745 1.0000756 -0.017237425
279898113.20755 1.0000246 -0.018582463 0.00022115186 0.0091327243 0.0001575409 0.0090946257 0.99982178 -0.018029511
289894339.62264 0.99986553 -0.019387394 0.00019700313 0.0093652382 0.00018207682 0.0093921628 0.99977261 -0.018782884
299890566.03774 0.9998138 -0.019889444 0.00013780594 0.0096722413 0.00013657194 0.0097136069 0.99939495 -0.01928398
309886792.45283 0.99959123 -0.02047348 0.00018665998 0.010024261 0.00022168807 0.010065397 0.99932224 -0.01962918
319883018.86792 0.99968243 -0.020999521 0.00020407373 0.010350469 0.00020243647 0.010426613 0.99947548 -0.02004689
329879245.28302 0.99979359 -0.021808684 0.00021831039 0.010667149 0.00023873756 0.010759029 0.99962366 -0.020798892
339875471.69811 0.99959809 -0.022623807 0.00025043671 0.011015628 0.00020199863 0.01103791 0.9995501 -0.021576747
349871698.11321 0.99975038 -0.023358166 0.00026264368 0.011321872 0.00026500784 0.011365495 0.99959433 -0.022488743
359867924.5283 0.99961555 -0.024170309 0.00026573474 0.01165018 0.00026334077 0.011679983 0.99948859 -0.023457587
369864150.9434 0.99984688 -0.024989754 0.00030624587 0.011979736 0.0003068205 0.012037063 0.99951798 -0.024154186
379860377.35849 0.99965054 -0.025770888 0.00030083023 0.01228587 0.00030745193 0.012334221 0.99934614 -0.024795473
389856603.77358 0.99963319 -0.026231229 0.00034400774 0.012640474 0.00035482738 0.012655152 0.99937475 -0.025279939
399852830.18868 0.99941444 -0.026928127 0.00032470422 0.012976815 0.00033670198 0.012963817 0.99941319 -0.025759399
409849056.60377 0.99936652 -0.02733453 0.00032130902 0.013286808 0.0003558532 0.013290621 0.99940968 -0.026219409
419845283.01887 0.99917525 -0.027825207 0.00035597617 0.013607577 0.00035991287 0.013625888 0.99938452 -0.026749849
429841509.43396 0.99928916 -0.02848497 0.00039274711 0.013918145 0.00037866365 0.013970355 0.99964178 -0.027568519
439837735.84906 0.99898207 -0.029379144 0.00040345301 0.014236237 0.00044553296 0.014267696 0.99926591 -0.028434426
449833962.26415 0.99896008 -0.030189246 0.00042329589 0.014559001 0.00041285157 0.014575583 0.99890703 -0.029332131
459830188.67925 0.99873364 -0.030810654 0.00045304978 0.014896227 0.00041109743 0.014899114 0.99865758 -0.029967099
469826415.09434 0.99866968 -0.03152132 0.00049444661 0.015196284 0.00042121718 0.015235906 0.99845517 -0.030496716
479822641.50943 0.99849564 -0.032007501 0.00049737119 0.015510603 0.00047369068 0.015578721 0.99845558 -0.030871324
489818867.92453 0.99856603 -0.032439858 0.00050027343 0.015839111 0.00050092349 0.01590734 0.99871391 -0.031313181
499815094.33962 0.99868554 -0.032945871 0.00053283805 0.016158301 0.00053037517 0.016208608 0.99905217 -0.031901598
509811320.75472 0.99875087 -0.033318423 0.00056543329 0.016524609 0.00053442456 0.016508382 0.99913287 -0.032709707
519807547.16981 0.99873543 -0.033800811 0.00058257347 0.016790114 0.00063101761 0.016863417 0.99915814 -0.033408731
529803773.58491 0.9986341 -0.034357876 0.00055910973 0.017108053 0.00058399886 0.017136294 0.99888301 -0.03393364
539800000 0.99878561 -0.035049617 0.00059884647 0.017428974 0.00059101684 0.017471448 0.99879336 -0.034588322
549796226.41509 0.99867642 -0.035859466 0.00061101094 0.017774727 0.00062444573 0.017803645 0.99859214 -0.035081536
559792452.83019 0.99843985 -0.036568165 0.00060956273 0.018081285 0.00064256974 0.018138565 0.99854302 -0.035560995
569788679.24528 0.99837446 -0.037164807 0.0006650677 0.018371677 0.00067467848 0.018481566 0.99875468 -0.036307395
579784905.66038 0.99840927 -0.037755482 0.00068401766 0.018756308 0.00067074597 0.018825075 0.99887973 -0.03702563
589781132.07547 0.99855506 -0.038316131 0.00070039462 0.0190857 0.00067469385 0.019151125 0.99895835 -0.037837237
599777358.49057 0.99867368 -0.038890481 0.00070650969 0.019425625 0.00071115047 0.019466024 0.99900126 -0.038576514
609773584.90566 0.99885947 -0.039669003 0.00078167359 0.019732576 0.00078165031 0.019761823 0.99888039 -0.039466988
619769811.32075 0.99898165 -0.040312618 0.00082182977 0.020077653 0.00077941036 0.020079171 0.99892604 -0.039986402
629766037.73585 0.99880999 -0.040995479 0.00085212663 0.020361852 0.00079408847 0.020397456 0.99863166 -0.040524662
639762264.15094 0.9986304 -0.041598916 0.00084909215 0.02065476 0.00079750363 0.020692065 0.99850649 -0.040969133
649758490.56604 0.99858016 -0.042190969 0.00086605642 0.020984845 0.00085907476 0.021054883 0.9985832 -0.041343078
659754716.98113 0.99836892 -0.042687267 0.00086065568 0.02129386 0.00084829796 0.021363791 0.99867791 -0.041915774
669750943.39623 0.99850541 -0.043151528 0.00088537438 0.021620175 0.00086598843 0.021740647 0.99878913 -0.042751014
679747169.81132 0.99845684 -0.04400067 0.00091881119 0.021977434 0.00090659049 0.022033187 0.99870318 -0.043678328
689743396.22642 0.99865842 -0.044818491 0.00098927971 0.022298392 0.0010044072 0.022368331 0.99861133 -0.044600844
699739622.64151 0.99879563 -0.045572013 0.00103004 0.02259667 0.0010318346 0.022668488 0.99849391 -0.045235962
709735849.0566 0.99875224 -0.046465367 0.0010502816 0.022920793 0.0010588688 0.022981776 0.99825394 -0.045950271
719732075.4717 0.99866122 -0.047135174 0.0011222437 0.023209926 0.0010720943 0.023285748 0.998353 -0.046479762
729728301.88679 0.99854577 -0.047691882 0.001139529 0.023550376 0.001134024 0.023583718 0.99833262 -0.046920329
739724528.30189 0.99846852 -0.048288345 0.0011406383 0.023893336 0.001136566 0.023925368 0.99855047 -0.047529384
749720754.71698 0.99826306 -0.048900768 0.0011753645 0.024165908 0.0011569918 0.024236957 0.99857867 -0.048295304
759716981.13208 0.99838728 -0.049355119 0.0012193108 0.024489751 0.0011994932 0.024577962 0.99852979 -0.049092174
769713207.54717 0.99833369 -0.050137222 0.001217166 0.024806939 0.0012219111 0.024865638 0.99823463 -0.049727976
779709433.96226 0.99842393 -0.050797127 0.0012563103 0.025132656 0.0012405544 0.025200015 0.99803954 -0.050396629
789705660.37736 0.99825656 -0.051601559 0.0012827218 0.025441885 0.0013064155 0.025494657 0.99773645 -0.051106364
799701886.79245 0.99822491 -0.052455723 0.0013057627 0.025736872 0.0013120817 0.025827434 0.99760807 -0.051681578
809698113.20755 0.99816501 -0.053001866 0.0013369133 0.026061624 0.001348488 0.026108976 0.99769866 -0.052082196
819694339.62264 0.99789339 -0.053709209 0.0013802741 0.026355579 0.0013644956 0.026455952 0.99781406 -0.052677751
829690566.03774 0.99792075 -0.054216743 0.0014076503 0.026672054 0.001401281 0.026742736 0.99800682 -0.053501964
839686792.45283 0.99784064 -0.054625213 0.0014050598 0.02699925 0.0014288258 0.027066382 0.99811083 -0.054302663
849683018.86792 0.99805301 -0.055271067 0.001446069 0.027335109 0.0014461055 0.027395433 0.99796283 -0.05508332
859679245.28302 0.9980371 -0.055912822 0.0014866609 0.027642287 0.001477804 0.027699094 0.99762475 -0.055651218
869675471.69811 0.99798584 -0.056744248 0.0015214868 0.027943112 0.0015218547 0.028013628 0.9973377 -0.056140572
879671698.11321 0.9978537 -0.057251535 0.0015669849 0.028258294 0.0015705284 0.028295262 0.99730974 -0.05657807
889667924.5283 0.99772197 -0.05810836 0.0015882915 0.028526306 0.0016269311 0.028650122 0.99720979 -0.057096928
899664150.9434 0.99750316 -0.058696449 0.0016010366 0.028867349 0.0016111974 0.028945031 0.99721289 -0.057668924
909660377.35849 0.99750525 -0.059372857 0.0016100062 0.029158995 0.0016265661 0.029259572 0.99737161 -0.058513343
919656603.77358 0.99759114 -0.060108349 0.001675264 0.029490065 0.0016439143 0.029579062 0.99741781 -0.059384406
929652830.18868 0.99753511 -0.0607723 0.0016685994 0.029805597 0.0016883966 0.029902808 0.99724495 -0.060290784
939649056.60377 0.99779499 -0.06134823 0.0017075473 0.030096056 0.0016818224 0.030199857 0.99712092 -0.060937077
949645283.01887 0.99775463 -0.062124271 0.0016777666 0.030444317 0.0016940435 0.030519867 0.9968946 -0.061458912
959641509.43396 0.99763197 -0.062820524 0.0017029652 0.03077843 0.0017182613 0.03086229 0.99680996 -0.061938435
969637735.84906 0.99757433 -0.063496709 0.0017468287 0.031124189 0.00176406 0.031234205 0.99679905 -0.062241018
979633962.26415 0.99739307 -0.064208515 0.0018403542 0.031409845 0.0018048522 0.031529836 0.99687153 -0.062932327
989630188.67925 0.99740016 -0.064723611 0.0018607387 0.031752229 0.001878527 0.031833343 0.99707758 -0.063520968
999626415.09434 0.99751502 -0.065333515 0.0018796194 0.032061823 0.0018969569 0.032172199 0.99699438 -0.064356267
1009622641.5094 0.99748528 -0.066007972 0.0019155028 0.032377757 0.0019332948 0.032526914 0.99688429 -0.065163955
1019618867.9245 0.99763817 -0.066767305 0.0019675512 0.032693096 0.0020095673 0.03279186 0.99661219 -0.065931872
1029615094.3396 0.99764645 -0.067622542 0.002012386 0.0329988 0.0020393319 0.033078857 0.99625015 -0.06656009
1039611320.7547 0.99769372 -0.068504721 0.0020693904 0.033282716 0.0020550909 0.03339351 0.99626422 -0.067181021
1049607547.1698 0.99759561 -0.069360696 0.0020745187 0.033600286 0.0020766365 0.033693496 0.99624139 -0.067748234
1059603773.5849 0.99749446 -0.07010597 0.0020999769 0.033882633 0.002096545 0.034015663 0.9962365 -0.068307549
1069600000 0.99723673 -0.07067582 0.0021035876 0.034176569 0.0021190811 0.034330565 0.99639124 -0.068978876
1079596226.4151 0.99715149 -0.071345963 0.0021047108 0.034515001 0.002114878 0.034647685 0.99644941 -0.06970384
1089592452.8302 0.99721217 -0.071917474 0.0021381751 0.034831475 0.002176051 0.034965929 0.99634314 -0.070479006
1099588679.2453 0.99724615 -0.072626293 0.0021449402 0.035163835 0.0021881089 0.035265539 0.99601519 -0.071071655
1109584905.6604 0.99741179 -0.073387802 0.0021672351 0.035501089 0.0022010934 0.035617292 0.9957878 -0.071663499
1119581132.0755 0.99737185 -0.074334159 0.0021909829 0.035829257 0.002211418 0.035943862 0.99565548 -0.072035208
1129577358.4906 0.99718159 -0.075071156 0.0022318568 0.036166534 0.0022672191 0.036295637 0.99553263 -0.072494715
1139573584.9057 0.99701685 -0.075916946 0.0022688545 0.036475472 0.0023112753 0.036646858 0.99563384 -0.073168755
1149569811.3208 0.99691623 -0.076807939 0.0023169694 0.036806118 0.002378298 0.036941446 0.99575669 -0.07388369
1159566037.7358 0.99673778 -0.077453762 0.0023398949 0.037120029 0.0023819767 0.037217505 0.99587089 -0.074860156
1169562264.1509 0.99654603 -0.078040272 0.0023607407 0.037424039 0.0023860261 0.037564464 0.9956826 -0.075625002
1179558490.566 0.99654055 -0.07882525 0.0023915577 0.037784863 0.0024349431 0.037909076 0.99553114 -0.076317132
1189554716.9811 0.99649423 -0.079507113 0.0023841169 0.038110733 0.0024803309 0.038223259 0.99530298 -0.076848269
1199550943.3962 0.99643582 -0.080360055 0.0024522264 0.038466334 0.0025259573 0.038553327 0.99515128 -0.077268064
1209547169.8113 0.99628538 -0.081222042 0.0024906453 0.038774699 0.0025495347 0.038868573 0.99509877 -0.077524915
1219543396.2264 0.99603724 -0.081997544 0.0025299536 0.039116509 0.0026009637 0.039220385 0.99518847 -0.07795231
1229539622.6415 0.9958232 -0.082819849 0.0025911219 0.039430894 0.0026988126 0.039542425 0.99530303 -0.07867828
1239535849.0566 0.99558818 -0.083487362 0.0026628142 0.039741389 0.0027318504 0.039873555 0.99546367 -0.07958132
1249532075.4717 0.99527222 -0.084176704 0.0027157306 0.040050793 0.002807918 0.040167022 0.99529326 -0.080386937
1259528301.8868 0.99511194 -0.084557146 0.0027672052 0.040367804 0.0028650723 0.040471207 0.99502963 -0.081242472
1269524528.3019 0.9949581 -0.085364014 0.0028188061 0.040686842 0.0029218141 0.040776324 0.99480677 -0.08187148
1279520754.717 0.99467754 -0.086040042 0.002883814 0.040950742 0.0029654258 0.041033175 0.99452156 -0.082430892
1289516981.1321 0.99459684 -0.086819798 0.002899535 0.041247796 0.0029650554 0.041307345 0.99459249 -0.082815707
1299513207.5472 0.99424434 -0.087702572 0.0028923526 0.041572385 0.0029772203 0.041613109 0.99474728 -0.08322528
1309509433.9623 0.99383867 -0.08833766 0.0028845062 0.04187407 0.0029988801 0.041914426 0.99485636 -0.083937302
1319505660.3774 0.99342668 -0.089062825 0.0028893463 0.042164177 0.0029873801 0.042269759 0.99485594 -0.08460243
1329501886.7925 0.99315876 -0.08977592 0.0029211678 0.04249537 0.0030132141 0.042554431 0.9948864 -0.085535198
1339498113.2075 0.9929418 -0.090177625 0.0029509086 0.042838551 0.0030428451 0.042846285 0.99446827 -0.086229682
1349494339.6226 0.992769 -0.09080857 0.0029176092 0.043172859 0.0029941564 0.043182682 0.99410719 -0.086821102
1359490566.0377 0.99271315 -0.091426283 0.0029524509 0.043491744 0.0030023642 0.043551929 0.99396718 -0.08729288
1369486792.4528 0.99249345 -0.091943294 0.0029361844 0.043850657 0.0030292459 0.043899436 0.99380547 -0.087800086
1379483018.8679 0.99225068 -0.092527293 0.0029798304 0.044214588 0.0030473985 0.044227377 0.9938519 -0.088112786
1389479245.283 0.99190235 -0.093046188 0.0030199271 0.044591233 0.0030816942 0.044614218 0.99377805 -0.088769138
1399475471.6981 0.99158132 -0.093385279 0.0030291639 0.044956993 0.0030389354 0.044937849 0.994017 -0.08945626
1409471698.1132 0.99124694 -0.093645073 0.0030272873 0.045312677 0.0031061925 0.045305498 0.99398869 -0.090323165
1419467924.5283 0.9909755 -0.094077647 0.003058088 0.045642074 0.0031091971 0.045698609 0.99379015 -0.09092626
1429464150.9434 0.99089873 -0.094417006 0.0031055156 0.046060402 0.0031545628 0.046059895 0.99371219 -0.091492087
1439460377.3585 0.99102497 -0.09496057 0.0031994972 0.046494838 0.0032285107 0.046506524 0.99346632 -0.091848791
1449456603.7736 0.99101436 -0.095574006 0.0033136941 0.046900563 0.0033337781 0.046872314 0.99340415 -0.092179403
1459452830.1887 0.99106789 -0.096170783 0.0034307316 0.047289468 0.0034292769 0.047301214 0.99349761 -0.092503428
1469449056.6038 0.99107707 -0.096811742 0.0035716062 0.047618125 0.0035909247 0.047623646 0.99373174 -0.093167216
1479445283.0189 0.99097174 -0.097478777 0.0037165773 0.047903821 0.0037094764 0.047907826 0.9937492 -0.094088435
1489441509.434 0.99086761 -0.097980976 0.0038393382 0.048199452 0.0038605612 0.048224341 0.99366462 -0.094920903
1499437735.8491 0.9908241 -0.098324805 0.003948532 0.048496876 0.003946919 0.048481196 0.99359202 -0.095779032
1509433962.2642 0.9906885 -0.098765589 0.0040054489 0.048749711 0.0040142257 0.048733659 0.99336344 -0.096436031
1519430188.6792 0.99076319 -0.099303395 0.004077781 0.048971776 0.0040666014 0.04901655 0.99321032 -0.097003669
1529426415.0943 0.9907878 -0.10000929 0.0041202698 0.049262781 0.0041246805 0.049279347 0.99315101 -0.097366214
1539422641.5094 0.99082434 -0.10077056 0.0042243996 0.049579885 0.0041838735 0.049589235 0.99325562 -0.097817078
1549418867.9245 0.99068117 -0.10157844 0.0042905435 0.049838286 0.0042231027 0.049858972 0.99347621 -0.098617896
1559415094.3396 0.99055111 -0.10230234 0.0042669997 0.050104544 0.0042558555 0.050171971 0.99362212 -0.099176198
1569411320.7547 0.99042183 -0.10313782 0.0043534003 0.050339017 0.004301412 0.050422676 0.99347919 -0.10007088
1579407547.1698 0.99031579 -0.10359089 0.0043797544 0.050629653 0.0043316018 0.050681453 0.9931137 -0.1009156
1589403773.5849 0.99036539 -0.10412061 0.0043583103 0.050933205 0.0043474175 0.050995953 0.99295509 -0.1015847
1599400000 0.99021995 -0.10454759 0.0043480825 0.051221397 0.0043149916 0.051286805 0.99253809 -0.10207257
1609396226.4151 0.99022543 -0.105203 0.0043596141 0.051538695 0.0043043708 0.051569108 0.99239618 -0.10242045
1619392452.8302 0.99024016 -0.10570627 0.0043470226 0.051863268 0.0043013208 0.051913157 0.99238563 -0.10291192
1629388679.2453 0.98997879 -0.10645682 0.0043781959 0.052199375 0.0043020975 0.052292794 0.9926976 -0.10351008
1639384905.6604 0.98981953 -0.10716345 0.004341308 0.052536123 0.0043089101 0.052644815 0.9928546 -0.10425699
1649381132.0755 0.98953277 -0.1077525 0.0044051372 0.052879672 0.004320452 0.052997243 0.99283695 -0.10520995
1659377358.4906 0.98937362 -0.10852662 0.0043771677 0.0532718 0.0043610372 0.053334542 0.99278724 -0.10609627
1669373584.9057 0.98935962 -0.10895727 0.0044234721 0.053615261 0.0043872711 0.053709298 0.99243015 -0.10667769
1679369811.3208 0.98940802 -0.10961428 0.0044374922 0.05402429 0.0044308798 0.054082748 0.99221563 -0.10724041
1689366037.7358 0.98937988 -0.11031345 0.0045121387 0.054330438 0.0044378024 0.054461442 0.99207062 -0.10745472
1699362264.1509 0.98955154 -0.11083461 0.0045414064 0.054725539 0.004503211 0.054838274 0.99227858 -0.10799471
1709358490.566 0.98939979 -0.11147985 0.0045561073 0.055048067 0.0045675291 0.05523945 0.9923045 -0.10848022
1719354716.9811 0.98911953 -0.11205533 0.0046580415 0.055427164 0.0045819487 0.05555556 0.99237847 -0.10914803
1729350943.3962 0.98887205 -0.11271444 0.0047194175 0.055822633 0.0046364199 0.055960216 0.99236727 -0.10998628
