!Keysight Technologies,N5222B,MY61253708,A.15.00.15
!Date: Wednesday, June 19, 2024 10:09:58
!Correction: S11(C  2-Port  ) 
!S21(C  2-Port  ) 
!S12(C  2-Port  ) 
!S22(C  2-Port  ) 
!S2P File: Measurements: S11, S21, S12, S22:
# Hz S  RI   R 50
10000000 0.99866581 -0.0030752122 -2.2211585e-005 -0.00021756698 -0.00016635758 0.00050247915 0.99815416 -0.0015037656
19996226.415094 1.0000796 -0.0023978353 -5.3035328e-006 0.00063697377 -2.5540561e-005 0.00072782987 1.00036 -0.0025150478
29992452.830189 0.99968559 -0.0025505722 -2.9267307e-005 0.0010360713 -5.9061887e-005 0.00094823417 0.99943209 -0.0025985241
39988679.245283 1.0000719 -0.0029907972 3.1712319e-005 0.0013213328 1.2707664e-005 0.0013539848 0.99970251 -0.0031020641
49984905.660377 1.0002463 -0.0036485493 2.344622e-005 0.0016143776 -3.0338415e-005 0.0016788874 0.99992329 -0.0036042631
59981132.075472 1.0004365 -0.0045123696 -1.8453808e-005 0.0019581025 -3.6408892e-006 0.0019447657 0.99990028 -0.0040869415
69977358.490566 1.0002806 -0.0051394235 -1.9629922e-005 0.0023070411 -6.7715373e-006 0.0022964429 0.99976355 -0.0046821758
79973584.90566 0.99998528 -0.0056869388 1.540524e-005 0.0026313583 1.3492885e-005 0.0026427435 0.99940586 -0.0051180422
89969811.320755 0.99999809 -0.0057577491 1.0768301e-005 0.0029455097 2.2402382e-005 0.0029347655 0.99973965 -0.0053828955
99966037.735849 1.0002242 -0.0065376759 3.2845652e-005 0.0032585592 4.0707528e-005 0.0032881475 0.99979806 -0.0061718374
109962264.15094 1.0002257 -0.0073956996 3.960944e-005 0.0035891966 2.555066e-005 0.0036063273 0.99974668 -0.0069325417
119958490.56604 1.0002667 -0.0082858205 3.6263024e-005 0.0039095925 1.4631776e-005 0.0039415713 0.99977708 -0.0078039467
129954716.98113 1.000226 -0.0091977119 3.7944294e-005 0.0042277882 4.3650391e-005 0.0042712134 0.99975842 -0.0086384416
139950943.39623 1.0001467 -0.010023879 3.4612181e-005 0.0045754318 2.2490407e-005 0.0045958394 0.99970257 -0.0093398243
149947169.81132 1.0000386 -0.010711938 4.4043176e-005 0.0048940079 6.6189328e-005 0.0049302406 0.99966842 -0.0099625289
159943396.22642 0.99998212 -0.011276573 5.2471878e-005 0.0052455366 6.7531131e-005 0.0052535776 0.99975544 -0.010413319
169939622.64151 0.99992698 -0.011648275 7.3534204e-005 0.0055514663 6.4417953e-005 0.0055826483 0.999771 -0.01086586
179935849.0566 0.99997145 -0.011924773 6.9397036e-005 0.0058819121 5.1633106e-005 0.0059105274 0.99964166 -0.011237085
189932075.4717 1.0001132 -0.012688994 7.5119315e-005 0.0061986614 0.00010381662 0.0062434226 0.99991614 -0.011779308
199928301.88679 1.0000445 -0.01353398 7.7128294e-005 0.0065250555 7.0049427e-005 0.0065570073 0.9997949 -0.012654275
209924528.30189 0.99982935 -0.013973087 8.3753141e-005 0.0068645361 0.00011538039 0.0068834792 0.99955457 -0.01330331
219920754.71698 0.99995124 -0.014825493 0.00013519218 0.007189923 7.9132151e-005 0.0072258804 0.99947476 -0.013854593
229916981.13208 0.99974215 -0.015680164 0.00011355476 0.0075048939 0.00010013836 0.0075588077 0.9994607 -0.014660627
239913207.54717 0.99962419 -0.016360179 0.00013060552 0.0078265155 0.0001206333 0.0078675523 0.99943894 -0.015384277
249909433.96226 0.99966937 -0.016996771 0.00014482206 0.0081708347 0.00013978477 0.0082014361 0.99952072 -0.015994549
259905660.37736 0.99967915 -0.017548591 0.00013326807 0.0084847584 0.00014826516 0.0085565001 0.99962771 -0.016542882
269901886.79245 0.9998554 -0.01820229 0.00015219208 0.0087999804 0.00014092773 0.0088641159 0.99994743 -0.017226696
279898113.20755 1.0000091 -0.018972069 0.00016353885 0.0090905456 0.00014189258 0.0091660032 0.99986786 -0.017958149
289894339.62264 0.99991548 -0.019643694 0.00022490835 0.0094622513 0.00015874067 0.0095068961 0.99976397 -0.018695533
299890566.03774 0.9997884 -0.020116001 0.00021868641 0.0098017361 0.00022197072 0.0098573733 0.99955225 -0.019153416
309886792.45283 0.99961424 -0.020713352 0.00020394439 0.010100333 0.0001904954 0.01015776 0.99951053 -0.019563772
319883018.86792 0.99978566 -0.021248907 0.0001949654 0.010439651 0.0002531521 0.010490669 0.99962306 -0.020095557
329879245.28302 0.99972647 -0.022123903 0.00023723021 0.010781225 0.00023153983 0.010826145 0.9997198 -0.02085197
339875471.69811 0.99964589 -0.022862025 0.00022397016 0.011143234 0.00021932716 0.011180657 0.99969411 -0.021617368
349871698.11321 0.99970669 -0.023613185 0.00026412331 0.011417434 0.00022139726 0.011474352 0.99966443 -0.022570431
359867924.5283 0.99960208 -0.024473011 0.00029397197 0.011753423 0.00029455638 0.01182862 0.99956727 -0.023488879
369864150.9434 0.99975491 -0.025217772 0.00029358058 0.012084486 0.00030414946 0.012136534 0.99961269 -0.024188459
379860377.35849 0.99958038 -0.02590239 0.00031631696 0.012409737 0.00028608041 0.012466149 0.99953663 -0.024867132
389856603.77358 0.99944019 -0.02639547 0.00035587931 0.01271485 0.00035115564 0.012809698 0.99950647 -0.025362819
399852830.18868 0.99937272 -0.027002096 0.00035201572 0.013077596 0.00036113197 0.013087105 0.99953938 -0.025900006
409849056.60377 0.99924791 -0.027534524 0.0003486973 0.013357588 0.00038481675 0.01343666 0.99945056 -0.026408542
419845283.01887 0.9992376 -0.027955204 0.00038079731 0.013674734 0.00037799543 0.01378414 0.99940354 -0.026900738
429841509.43396 0.99942172 -0.028625607 0.0003601322 0.014041867 0.00041659409 0.014127167 0.99954927 -0.027619064
439837735.84906 0.99928564 -0.029552281 0.00046416849 0.014317826 0.00043102051 0.014410673 0.99931788 -0.028611854
449833962.26415 0.99909204 -0.030284613 0.0004506167 0.014649998 0.00043288385 0.01471505 0.99884844 -0.029339939
459830188.67925 0.9989562 -0.030978203 0.00042401953 0.014985916 0.00042630779 0.015045388 0.99864578 -0.03001821
469826415.09434 0.9989531 -0.031701028 0.00046457816 0.015337693 0.00045313546 0.015387376 0.99828559 -0.030531377
479822641.50943 0.99877536 -0.032235995 0.00047146436 0.015647402 0.00046776794 0.015765373 0.99831277 -0.030912966
489818867.92453 0.99889946 -0.032761365 0.00046316069 0.015966317 0.00051414873 0.016061325 0.99865341 -0.031434894
499815094.33962 0.99902397 -0.033353686 0.00052598631 0.016296994 0.00053734239 0.01637046 0.99884242 -0.031948358
509811320.75472 0.99903512 -0.033785194 0.00057082361 0.016629346 0.00055099861 0.016688515 0.99900645 -0.032659225
519807547.16981 0.99902868 -0.034340262 0.00057243649 0.016912634 0.00054622442 0.017023642 0.99897939 -0.033344209
529803773.58491 0.99899983 -0.034836531 0.00054124463 0.017270854 0.00055283401 0.017328866 0.99877167 -0.033864051
539800000 0.99903619 -0.035569057 0.00060542673 0.01757583 0.00057708612 0.017700223 0.9986707 -0.034464598
549796226.41509 0.99897677 -0.036506265 0.00061295787 0.017942451 0.00061231758 0.018007439 0.99855715 -0.035010576
559792452.83019 0.99882936 -0.037117839 0.00066488609 0.018235151 0.00064730085 0.018302558 0.99857914 -0.035430878
569788679.24528 0.99865067 -0.037744761 0.00063867867 0.018569201 0.00064423773 0.018636549 0.99872327 -0.036174297
579784905.66038 0.99860042 -0.038321443 0.00069138303 0.018915465 0.00067604333 0.018968189 0.99883246 -0.03684777
589781132.07547 0.99869943 -0.038993329 0.00072033517 0.019222755 0.00070827547 0.019317541 0.9989056 -0.037741005
599777358.49057 0.99883163 -0.039545774 0.00075182505 0.019561429 0.00074245315 0.019657847 0.99893916 -0.038533628
609773584.90566 0.99893004 -0.040340282 0.0007668758 0.019871818 0.00079314969 0.01997811 0.99885726 -0.039290726
619769811.32075 0.999071 -0.040993482 0.00079919584 0.020198133 0.00081577012 0.020289168 0.99881965 -0.039856493
629766037.73585 0.99889517 -0.04158473 0.00084158685 0.020562546 0.00084379688 0.020609474 0.99867028 -0.040374547
639762264.15094 0.9987725 -0.04224965 0.00086342287 0.020831643 0.00086443871 0.020899573 0.99850577 -0.040854409
649758490.56604 0.99864268 -0.042916775 0.00087499432 0.021128332 0.00086859753 0.021265561 0.99870098 -0.041218132
659754716.98113 0.99860299 -0.04342407 0.0008723652 0.021525528 0.00088907219 0.021571398 0.99870682 -0.041792184
669750943.39623 0.99857211 -0.043887019 0.00090155657 0.021839621 0.00094328076 0.021933926 0.99887347 -0.042616636
679747169.81132 0.99850863 -0.044653974 0.0009277506 0.022149691 0.00095569179 0.022277582 0.9988395 -0.043552116
689743396.22642 0.9986968 -0.045405656 0.00099959783 0.022496415 0.0010025641 0.02258349 0.99864447 -0.044512004
699739622.64151 0.9987942 -0.046220332 0.0010451199 0.02280109 0.0010317145 0.022931648 0.99857712 -0.045183152
709735849.0566 0.9988125 -0.047043398 0.0011179473 0.023110675 0.0010601351 0.023208689 0.9983086 -0.045851968
719732075.4717 0.99861097 -0.04776445 0.0010924507 0.023406336 0.0010834057 0.023525562 0.99842036 -0.046421289
729728301.88679 0.99858177 -0.048324138 0.0011357684 0.023729514 0.0011226693 0.023844294 0.99843013 -0.046886683
739724528.30189 0.99847424 -0.049036786 0.0011428264 0.024055971 0.0011677644 0.024168044 0.99860358 -0.04760614
749720754.71698 0.99841285 -0.049513102 0.001176192 0.024352901 0.0012045121 0.024487674 0.99861813 -0.048260868
759716981.13208 0.99844325 -0.050012022 0.0012355382 0.024717938 0.0012120456 0.024816081 0.99856597 -0.049062431
769713207.54717 0.9983536 -0.050747246 0.0012786742 0.024984227 0.0012511425 0.025128445 0.99828124 -0.049729496
779709433.96226 0.99850655 -0.05135176 0.0012907918 0.025347881 0.0012843264 0.025448801 0.99802333 -0.050358307
789705660.37736 0.9983477 -0.052227139 0.0013448596 0.025631333 0.0013070796 0.025771908 0.99779683 -0.051130623
799701886.79245 0.99828011 -0.052998245 0.0013600085 0.025944199 0.0013227053 0.026064688 0.99768078 -0.051588058
809698113.20755 0.99818951 -0.05353418 0.0013745511 0.026295001 0.0013536054 0.026392272 0.99773484 -0.052130193
819694339.62264 0.99803108 -0.054186195 0.0013977443 0.02660526 0.0013659731 0.026724324 0.99773115 -0.052725583
829690566.03774 0.99799263 -0.054777056 0.0014189277 0.026906122 0.0014355173 0.027049284 0.99796283 -0.053572595
839686792.45283 0.99810725 -0.055185705 0.0014406531 0.027222846 0.0014617196 0.027376406 0.99803191 -0.054305434
849683018.86792 0.99821693 -0.056002088 0.0014952174 0.027556691 0.0014766566 0.027689971 0.99788815 -0.055111997
859679245.28302 0.99819291 -0.056644261 0.0015086671 0.027870297 0.0014968989 0.028006591 0.99764788 -0.0556705
869675471.69811 0.99810708 -0.057370961 0.0015652701 0.028165136 0.0015423987 0.028306834 0.99728 -0.056197256
879671698.11321 0.99809235 -0.057958115 0.0015788805 0.028490802 0.0015701267 0.028634077 0.99729913 -0.056650642
889667924.5283 0.9978776 -0.058778942 0.0016277675 0.028791185 0.0016333731 0.02896923 0.99714565 -0.057078362
899664150.9434 0.9977262 -0.059417695 0.001613914 0.029075213 0.001654312 0.029244583 0.9971782 -0.057633638
909660377.35849 0.9977324 -0.060111001 0.0016727354 0.029417245 0.0016669775 0.029582545 0.99736422 -0.058503836
919656603.77358 0.99776495 -0.060762972 0.0016709832 0.029734032 0.0016898005 0.029863935 0.99732256 -0.059364349
929652830.18868 0.99776363 -0.061508924 0.0016937079 0.030057723 0.0017081881 0.030204972 0.99720985 -0.060179025
939649056.60377 0.9979015 -0.062094182 0.0017282255 0.030360991 0.0017315075 0.030524932 0.99703193 -0.060907841
949645283.01887 0.99790269 -0.062929399 0.0017052901 0.030677784 0.0017276595 0.030846955 0.99680752 -0.061473843
959641509.43396 0.99775571 -0.063606471 0.0017623706 0.031029817 0.0017697243 0.031182259 0.99672937 -0.061927497
969637735.84906 0.99772227 -0.064289808 0.0017977897 0.031398728 0.0018232828 0.031533599 0.99679947 -0.062326491
979633962.26415 0.99755204 -0.065083705 0.0018354696 0.031704459 0.0018555466 0.031859722 0.99679363 -0.062928788
989630188.67925 0.99764162 -0.065563798 0.0019220319 0.032005765 0.0018949881 0.032180641 0.99706382 -0.063552439
999626415.09434 0.99775374 -0.066158742 0.0019227015 0.032335833 0.0018930044 0.03253419 0.99698055 -0.064294875
1009622641.5094 0.99777234 -0.066846728 0.0019502384 0.032641951 0.0019602375 0.0328645 0.99684566 -0.065130815
1019618867.9245 0.9977864 -0.067579746 0.0019983775 0.032964166 0.0020281631 0.033150524 0.99658567 -0.065925181
1029615094.3396 0.9978317 -0.068483591 0.0020423168 0.033248276 0.0020953808 0.033439741 0.99621999 -0.066428214
1039611320.7547 0.99785489 -0.069325387 0.0020649014 0.033586934 0.0020945044 0.033740345 0.99616653 -0.067112386
1049607547.1698 0.99773127 -0.070227318 0.0021108456 0.033891618 0.0021112193 0.03405951 0.99621123 -0.067766614
1059603773.5849 0.99754572 -0.070902705 0.0021079257 0.034159999 0.0021471148 0.034370307 0.99620092 -0.068227291
1069600000 0.99734366 -0.071458697 0.0021388112 0.034478702 0.0021645324 0.034683354 0.99631834 -0.068916589
1079596226.4151 0.99739873 -0.072240934 0.0021339846 0.034811035 0.0021838299 0.034987364 0.99641985 -0.069700778
1089592452.8302 0.99744797 -0.072885066 0.0021716142 0.035130698 0.0022220295 0.035329934 0.99637139 -0.070461422
1099588679.2453 0.99745631 -0.073551327 0.0021877494 0.035459276 0.0022251625 0.035638664 0.99594915 -0.071035564
1109584905.6604 0.99757564 -0.07426624 0.0021793991 0.035762396 0.0022510029 0.035960879 0.99580598 -0.071647584
1119581132.0755 0.9975093 -0.075208023 0.002198122 0.036126662 0.0022680196 0.036335394 0.99563217 -0.072001323
1129577358.4906 0.99740469 -0.075997502 0.0022397079 0.036477014 0.002310928 0.03670527 0.99547797 -0.072453231
1139573584.9057 0.99712253 -0.076851875 0.0023044627 0.036815412 0.0023767371 0.037001662 0.99560118 -0.073091477
1149569811.3208 0.9969945 -0.07768628 0.0023652338 0.037087239 0.0024340716 0.037302628 0.99567509 -0.073821343
1159566037.7358 0.9968363 -0.078371912 0.0023766253 0.037431613 0.0024438919 0.037613887 0.99585271 -0.074810207
1169562264.1509 0.99668163 -0.079005152 0.0024014208 0.037725613 0.0024910755 0.03793807 0.99559641 -0.075638264
1179558490.566 0.99659634 -0.079850808 0.0023796707 0.038089998 0.0024997904 0.038323753 0.99555331 -0.076313958
1189554716.9811 0.99664772 -0.080516607 0.0024279626 0.038447693 0.002528253 0.038652338 0.9952209 -0.076831251
1199550943.3962 0.99657655 -0.081365883 0.0024706647 0.038765594 0.0025817938 0.038968053 0.99509168 -0.077288508
1209547169.8113 0.99637341 -0.082232192 0.0025446517 0.039095849 0.0026128879 0.039275125 0.99498558 -0.077635974
1219543396.2264 0.99622059 -0.083038211 0.0025836388 0.039439991 0.0026786174 0.039637595 0.9950844 -0.077994943
1229539622.6415 0.99601543 -0.083803236 0.0026197303 0.039771166 0.0027513634 0.039941967 0.995188 -0.078662008
1239535849.0566 0.99575031 -0.084452182 0.0026894342 0.040083855 0.0028131269 0.040293425 0.99528944 -0.079540342
1249532075.4717 0.99542373 -0.085113503 0.0027377286 0.040408466 0.0028879992 0.040595088 0.99523562 -0.080400273
1259528301.8868 0.99517822 -0.085597157 0.0027857143 0.040716868 0.0029114429 0.04085394 0.99494761 -0.081185788
1269524528.3019 0.99508119 -0.086350232 0.0028492538 0.041037813 0.0029842276 0.041199397 0.99474788 -0.081843972
1279520754.717 0.99472576 -0.087052844 0.0029097837 0.041328188 0.0030351838 0.041440859 0.99445415 -0.082399011
1289516981.1321 0.99466258 -0.087896049 0.002942495 0.041615229 0.0030383775 0.041734453 0.99450588 -0.082812548
1299513207.5472 0.99429584 -0.08877784 0.002927253 0.041885786 0.0030466281 0.042068981 0.9946754 -0.083230734
1309509433.9623 0.99388909 -0.089436695 0.0029521566 0.04221911 0.0030653561 0.042378332 0.99476928 -0.083970979
1319505660.3774 0.99358201 -0.090196416 0.0029353518 0.042530537 0.0030836901 0.042690068 0.99480921 -0.084626347
1329501886.7925 0.99332106 -0.090806246 0.0029644351 0.042889021 0.0030925069 0.043005824 0.99477458 -0.08555162
1339498113.2075 0.99295038 -0.09135446 0.0029829089 0.043173954 0.003113945 0.043312743 0.99437785 -0.086161822
1349494339.6226 0.9927913 -0.091908209 0.0029902714 0.043509953 0.0030930541 0.043639347 0.99406105 -0.086834729
1359490566.0377 0.99271214 -0.092385232 0.0029973835 0.043865524 0.0030787922 0.044001952 0.99388033 -0.087342918
1369486792.4528 0.99251407 -0.092927009 0.0030032853 0.044250701 0.0031111604 0.044356901 0.99374574 -0.08771649
1379483018.8679 0.99225414 -0.093495801 0.0030367591 0.044580825 0.0030819031 0.044685002 0.99370009 -0.088064507
1389479245.283 0.99190539 -0.094050467 0.0030850098 0.04497632 0.0031495523 0.04504624 0.99372667 -0.088817149
1399475471.6981 0.99144357 -0.094424844 0.0030681863 0.045295209 0.0031572152 0.045426324 0.99385375 -0.089429826
1409471698.1132 0.99115002 -0.094837479 0.0031122477 0.045702025 0.0031773606 0.045806304 0.99388063 -0.090343893
1419467924.5283 0.99108052 -0.09521094 0.0031365072 0.046045445 0.0032044183 0.046151474 0.99368739 -0.09096247
1429464150.9434 0.99088323 -0.095636547 0.003173884 0.046438694 0.003253039 0.046544909 0.9936564 -0.091613293
1439460377.3585 0.99108958 -0.09604238 0.0032832939 0.046891119 0.0033238735 0.046975411 0.99342215 -0.091875166
1449456603.7736 0.99106359 -0.096587524 0.0033684941 0.047264311 0.0033942647 0.047346301 0.99329466 -0.092186213
1459452830.1887 0.99104738 -0.097190291 0.0034812093 0.04766031 0.0035196431 0.047739033 0.99341846 -0.092517287
1469449056.6038 0.99102211 -0.097893149 0.0036545573 0.047956329 0.0037047118 0.0480964 0.99362189 -0.09311524
1479445283.0189 0.99100888 -0.09849146 0.0038099694 0.048234865 0.0038070576 0.048379544 0.99366868 -0.094053745
1489441509.434 0.99083936 -0.0990071 0.0039039198 0.048578598 0.0039542709 0.048722956 0.99361533 -0.094911873
1499437735.8491 0.99073929 -0.099362463 0.0040319767 0.048875932 0.0040165894 0.04895011 0.99356854 -0.095680982
1509433962.2642 0.99073786 -0.09988492 0.004111948 0.049097806 0.0040602963 0.049238548 0.99338955 -0.096396983
1519430188.6792 0.99081814 -0.10048422 0.004194105 0.049395785 0.004191542 0.049504034 0.99317282 -0.096993893
1529426415.0943 0.99084944 -0.10112512 0.004217742 0.049671389 0.0042145345 0.049796499 0.99307013 -0.097348541
1539422641.5094 0.99089038 -0.10189718 0.0042783832 0.049975041 0.004256967 0.050058931 0.99322128 -0.097900532
1549418867.9245 0.99070323 -0.10265031 0.0043416051 0.05021251 0.0043124277 0.050366916 0.99343961 -0.098568976
1559415094.3396 0.99052715 -0.10330209 0.0043380056 0.050521571 0.0043721423 0.050668769 0.99356556 -0.099240929
1569411320.7547 0.99038595 -0.10398966 0.0044143675 0.050796509 0.0043922104 0.050942782 0.99351263 -0.10009106
1579407547.1698 0.99033183 -0.10443547 0.0044399747 0.05102035 0.0044115898 0.051204406 0.99315429 -0.10087687
1589403773.5849 0.99026501 -0.10504642 0.0044461358 0.051349632 0.0043934062 0.05146376 0.99299186 -0.10151848
1599400000 0.99023843 -0.10550782 0.004415622 0.05165166 0.0044270428 0.051810488 0.99262673 -0.1020371
1609396226.4151 0.99022782 -0.10617974 0.0044413903 0.051938575 0.004399321 0.052117456 0.99242413 -0.10260552
1619392452.8302 0.99017954 -0.10680079 0.0044493936 0.052302755 0.0043911338 0.052489527 0.99235308 -0.10295001
1629388679.2453 0.98989934 -0.10749835 0.0044381674 0.052635901 0.0043797679 0.052825984 0.99260247 -0.10347778
1639384905.6604 0.98975456 -0.1081544 0.0044377143 0.053002931 0.0044080839 0.053190269 0.99280059 -0.10431553
1649381132.0755 0.98960048 -0.1087687 0.0044542663 0.053298555 0.0044395011 0.053547293 0.99279213 -0.1052554
1659377358.4906 0.9894129 -0.10958812 0.0044706501 0.053706687 0.0044745822 0.053908329 0.99274349 -0.10615367
1669373584.9057 0.98936921 -0.11004835 0.0045150178 0.054088593 0.004469234 0.054281317 0.99243212 -0.106812
1679369811.3208 0.98947668 -0.1106523 0.0045429319 0.0544594 0.0044770287 0.054640785 0.99229366 -0.1072959
1689366037.7358 0.98935586 -0.11131749 0.0045940485 0.05480428 0.0045639277 0.055027477 0.99217373 -0.10760999
1699362264.1509 0.98949295 -0.11191764 0.0046482682 0.055151012 0.0046182983 0.055413339 0.99232519 -0.10804123
1709358490.566 0.9894014 -0.11254129 0.0046910476 0.055527136 0.0046362123 0.055766732 0.99238014 -0.10854743
1719354716.9811 0.98909509 -0.11311826 0.0047237668 0.055905238 0.0047345292 0.056146078 0.99238306 -0.10928765
1729350943.3962 0.98877305 -0.11367637 0.0048278943 0.056259882 0.004756121 0.05650387 0.99240863 -0.11010161
