!Keysight Technologies,N5222B,MY61253708,A.15.00.15
!Date: Wednesday, June 19, 2024 10:27:25
!Correction: S11(C  2-Port  ) 
!S21(C  2-Port  ) 
!S12(C  2-Port  ) 
!S22(C  2-Port  ) 
!S2P File: Measurements: S11, S21, S12, S22:
# Hz S  RI   R 50
10000000 0.99835193 -0.0033406317 7.0557435e-005 0.00028337151 -0.00018170135 0.00022405616 0.99842328 -0.0017543137
19996226.415094 0.99990433 -0.0022781789 8.6967426e-005 0.00052745373 -3.4504628e-006 0.00078041974 1.000216 -0.0021141469
29992452.830189 0.99967998 -0.0025197566 -1.8219172e-005 0.0009284853 -1.8531253e-005 0.0010146266 0.99952441 -0.0026692748
39988679.245283 1.0000799 -0.0029820949 6.16943e-006 0.0012634888 -3.1950025e-005 0.0013105477 0.99978215 -0.0031216592
49984905.660377 1.0002396 -0.0036652684 -9.3972194e-006 0.0016712495 3.5694684e-006 0.001649447 0.99998474 -0.0035684705
59981132.075472 1.0004547 -0.0045397282 1.7123122e-005 0.0019453651 5.9206446e-005 0.0019754136 0.99996984 -0.004096806
69977358.490566 1.0001687 -0.0051223356 2.8180511e-006 0.0022627611 3.0196537e-005 0.0022520921 0.99981189 -0.0046636276
79973584.90566 0.99988198 -0.0056880414 3.9401697e-005 0.0025535647 3.2366952e-006 0.0025756953 0.99944764 -0.0051144063
89969811.320755 0.99994719 -0.0056547225 4.2202999e-005 0.002936515 9.0569956e-006 0.0029157363 0.9997282 -0.0052591562
99966037.735849 1.0001698 -0.0064404309 4.0452578e-005 0.0032285969 3.3338962e-005 0.0032562143 0.99978763 -0.0060339272
109962264.15094 1.0002174 -0.0073195994 4.0536455e-005 0.0035561423 4.4291024e-005 0.0035904171 0.99977428 -0.0068244636
119958490.56604 1.000237 -0.0082278252 2.6993919e-005 0.0038774363 4.7637965e-005 0.0039028979 0.99984705 -0.0076912642
129954716.98113 1.00018 -0.0092059672 3.7238584e-005 0.0042121033 4.0056766e-005 0.0042061568 0.99986786 -0.0085879862
139950943.39623 1.000129 -0.0099860691 3.8855884e-005 0.0045353607 5.6510791e-005 0.0045382059 0.99974436 -0.0093024764
149947169.81132 0.99997216 -0.01065734 4.2703934e-005 0.0048689358 3.8613332e-005 0.0048818262 0.99971271 -0.0098615289
159943396.22642 0.99985278 -0.011194319 5.6011602e-005 0.0051919613 2.9836548e-005 0.0052034198 0.99977326 -0.010317355
169939622.64151 0.99988538 -0.011547558 6.5156724e-005 0.0055038584 5.7720405e-005 0.0055226223 0.99984634 -0.010738969
179935849.0566 0.99995732 -0.011776 8.1099686e-005 0.0058187768 4.6754372e-005 0.005855307 0.99970758 -0.011087656
189932075.4717 1.0000834 -0.012514055 8.6809276e-005 0.006156852 8.8576926e-005 0.006169186 0.99994457 -0.011615872
199928301.88679 0.99998188 -0.013387084 6.8589114e-005 0.0064711925 6.0429564e-005 0.006500266 0.99982452 -0.012515128
209924528.30189 0.99975085 -0.013907507 7.3396484e-005 0.0068157548 0.00010094675 0.0068073864 0.99960583 -0.013191015
219920754.71698 0.99990737 -0.014708281 8.2828803e-005 0.007117474 0.00010015746 0.0071349149 0.99946415 -0.013797313
229916981.13208 0.99969071 -0.015581608 0.00010968302 0.00744886 0.0001071482 0.0074677053 0.99946314 -0.014546812
239913207.54717 0.99955279 -0.016294168 0.000119187 0.0077583943 0.00011201565 0.0077835675 0.99943483 -0.015265495
249909433.96226 0.99955821 -0.016884655 0.00013032486 0.0080921566 0.00013156259 0.0081227226 0.99954545 -0.015793175
259905660.37736 0.999717 -0.017360896 0.00015697675 0.0084756138 0.00012301421 0.0084258514 0.99968469 -0.016321808
269901886.79245 0.99988043 -0.017998517 0.00016951654 0.0087500913 0.00016067934 0.0087239388 1.0000746 -0.017010584
279898113.20755 0.99991858 -0.01873146 0.00016644411 0.0090357717 0.00016529905 0.0090517458 0.9999463 -0.01775068
289894339.62264 0.99988008 -0.019554287 0.00014837785 0.0093686171 0.00018780539 0.009403402 0.99984443 -0.018565357
299890566.03774 0.99980891 -0.020020783 0.0001940825 0.0096485009 0.0002057224 0.0097368583 0.99957311 -0.018966019
309886792.45283 0.99957752 -0.020574957 0.00019995274 0.010002187 0.00018017087 0.010042039 0.99953836 -0.019360535
319883018.86792 0.99962413 -0.021187752 0.00019959873 0.010371657 0.00025871675 0.010388175 0.99960184 -0.01988709
329879245.28302 0.99969232 -0.021926761 0.00024960469 0.010667067 0.00021814974 0.010719903 0.99978423 -0.020632118
339875471.69811 0.99954689 -0.022603758 0.00022185186 0.011000091 0.00028932164 0.011002844 0.99974132 -0.021479517
349871698.11321 0.99969786 -0.023463458 0.00024821283 0.011320855 0.00023760949 0.01135382 0.99972761 -0.022386044
359867924.5283 0.99954736 -0.024234474 0.00028420938 0.011626469 0.00028321706 0.011698483 0.99976742 -0.023272872
369864150.9434 0.99974918 -0.025088549 0.00028217235 0.011964826 0.00031161983 0.012005419 0.99969602 -0.024029404
379860377.35849 0.99958718 -0.025727943 0.00032268395 0.012298397 0.00031272066 0.012341654 0.99958223 -0.024717823
389856603.77358 0.99950522 -0.026316017 0.00031510554 0.012598972 0.00031137792 0.012645361 0.99958813 -0.025245607
399852830.18868 0.99938136 -0.026885688 0.00036787428 0.0129578 0.00032348977 0.012967443 0.99958706 -0.025690675
409849056.60377 0.99924624 -0.02736078 0.00036278352 0.01326842 0.00035877811 0.013323659 0.9995175 -0.026247866
419845283.01887 0.99920404 -0.027789384 0.00038315123 0.013608655 0.00037815655 0.013617445 0.99942446 -0.026813
429841509.43396 0.99926686 -0.028446436 0.00042528985 0.013912658 0.00038818503 0.01391983 0.99957991 -0.02750802
439837735.84906 0.99918258 -0.029363662 0.00041121524 0.014202211 0.00043309364 0.014233924 0.99925703 -0.028510794
449833962.26415 0.99899578 -0.030180752 0.00040995842 0.014531104 0.00044095889 0.014585735 0.9987849 -0.029281706
459830188.67925 0.99882257 -0.030846089 0.00045013241 0.014817454 0.00042543467 0.014890837 0.99846661 -0.029901832
469826415.09434 0.99874437 -0.031551242 0.00043475349 0.015206233 0.00043421239 0.01523909 0.99820608 -0.030364633
479822641.50943 0.99865472 -0.031999707 0.00049737131 0.015517042 0.00048674934 0.015566256 0.99818617 -0.030734338
489818867.92453 0.9987458 -0.032606214 0.00049280142 0.015832141 0.00048776716 0.015866034 0.99846596 -0.031147152
499815094.33962 0.9988181 -0.033097982 0.00049995864 0.016158961 0.00052376091 0.016156942 0.99879348 -0.031631738
509811320.75472 0.99890375 -0.033486106 0.0005855395 0.016483042 0.00055965228 0.016493268 0.99895364 -0.032356855
519807547.16981 0.99880028 -0.034079462 0.00056609418 0.016789714 0.00055823522 0.016827606 0.99891126 -0.033018857
529803773.58491 0.99888909 -0.03456682 0.00056599826 0.017074039 0.00055463472 0.017159473 0.99860322 -0.033560127
539800000 0.99891734 -0.035257816 0.00059106387 0.017428981 0.00058687897 0.017495608 0.99859327 -0.034187526
549796226.41509 0.99876904 -0.036059439 0.00059486646 0.017767074 0.00062502548 0.01781252 0.99841249 -0.03464368
559792452.83019 0.99847966 -0.036736012 0.00064936373 0.018092539 0.00066052284 0.018138224 0.99843264 -0.035004765
569788679.24528 0.99850714 -0.037451804 0.00065496704 0.018428583 0.00066837156 0.018437937 0.99856865 -0.035778761
579784905.66038 0.99839616 -0.03798642 0.00065942784 0.018746028 0.00068023195 0.018775523 0.99879152 -0.036471479
589781132.07547 0.99865234 -0.038623154 0.00071791653 0.019042805 0.00073229335 0.019086808 0.99891585 -0.037336558
599777358.49057 0.9987464 -0.03924194 0.00076676439 0.019360334 0.00072244648 0.019434191 0.99898595 -0.038107067
609773584.90566 0.99890971 -0.040015578 0.00077136362 0.01971137 0.00079462712 0.019753937 0.9988876 -0.038989119
619769811.32075 0.99900401 -0.040727496 0.00080134254 0.019992698 0.00082270149 0.020044992 0.99877703 -0.039370537
629766037.73585 0.99883997 -0.041297436 0.00086581986 0.020325739 0.00083854888 0.020407317 0.99868554 -0.039927334
639762264.15094 0.99863005 -0.04187496 0.00083275791 0.02064399 0.00086755492 0.020665659 0.99862176 -0.040383086
649758490.56604 0.99855202 -0.042449147 0.00086478237 0.020932997 0.00084522134 0.021009987 0.99868429 -0.040803939
659754716.98113 0.99844265 -0.043040305 0.00085937884 0.021257505 0.00085199252 0.021310458 0.99876893 -0.041364461
669750943.39623 0.99835432 -0.043414682 0.00087294588 0.021646071 0.00089868531 0.021669982 0.9988088 -0.042177856
679747169.81132 0.99841237 -0.044267297 0.00095496478 0.021952739 0.00089773 0.022012828 0.99881154 -0.043150209
689743396.22642 0.99863595 -0.045109719 0.00094578043 0.022266051 0.00097081158 0.022357063 0.99870855 -0.044016808
699739622.64151 0.99871755 -0.045861691 0.0010006158 0.022598587 0.0010071155 0.022638835 0.99861968 -0.044790298
709735849.0566 0.99872285 -0.046704993 0.001066266 0.022916768 0.0010801572 0.022947963 0.99836588 -0.04541593
719732075.4717 0.9985956 -0.047428489 0.0010491651 0.023205018 0.001112625 0.023234673 0.99843323 -0.04600817
729728301.88679 0.99844694 -0.04802385 0.0011156593 0.023527477 0.0010952763 0.023571841 0.99850154 -0.046441227
739724528.30189 0.99830902 -0.048614845 0.0011523194 0.023830621 0.0011302382 0.023908833 0.99871147 -0.04716365
749720754.71698 0.99826342 -0.049088493 0.0011501512 0.024176979 0.0011787917 0.024226086 0.99870378 -0.047885731
759716981.13208 0.99834472 -0.049586922 0.0012084972 0.024465974 0.0011966676 0.024524618 0.99870074 -0.048609614
769713207.54717 0.99824178 -0.050322533 0.0012352224 0.024784992 0.0012056958 0.024827102 0.99837065 -0.049317181
779709433.96226 0.99835348 -0.050978437 0.0012555693 0.02510028 0.0012569819 0.025145851 0.9981463 -0.050024249
789705660.37736 0.99827832 -0.051870525 0.0012736898 0.025405381 0.0012970958 0.02546992 0.99785471 -0.050721973
799701886.79245 0.99812269 -0.052619159 0.0013144193 0.025721587 0.0012952611 0.025793739 0.99768341 -0.051274896
809698113.20755 0.99809587 -0.05327633 0.0013483637 0.026027337 0.0013115865 0.026095178 0.99771768 -0.051759213
819694339.62264 0.99795598 -0.05390811 0.0013608555 0.026342517 0.0013574013 0.026397815 0.99777263 -0.052303016
829690566.03774 0.99791658 -0.054433107 0.0013838354 0.026626777 0.0013992982 0.026715128 0.99803555 -0.053187877
839686792.45283 0.99790877 -0.054802179 0.00142744 0.026973085 0.0014307615 0.02703644 0.99803144 -0.053892732
849683018.86792 0.9980678 -0.055480614 0.0014354642 0.027306991 0.0014555028 0.027355321 0.99792355 -0.054689206
859679245.28302 0.99804193 -0.056225121 0.0014645196 0.027608313 0.0015118672 0.027674599 0.99761772 -0.055278599
869675471.69811 0.99801981 -0.056904465 0.0015174607 0.027938923 0.0015156223 0.02800213 0.99730372 -0.055810779
879671698.11321 0.99789947 -0.057552621 0.0015763458 0.028222047 0.001561163 0.028307201 0.9972595 -0.056188647
889667924.5283 0.99774134 -0.058358699 0.0015742453 0.028524598 0.0015859064 0.028635183 0.99709314 -0.056653202
899664150.9434 0.99759513 -0.059031337 0.0016070912 0.028799774 0.0016338574 0.028907266 0.997136 -0.057237923
909660377.35849 0.99759066 -0.059635013 0.0016452763 0.02914222 0.0016169855 0.029230788 0.99730462 -0.058104441
919656603.77358 0.99767536 -0.060343549 0.0016774475 0.029477956 0.0016281172 0.02956792 0.9973098 -0.05890429
929652830.18868 0.99764645 -0.061013997 0.0016736314 0.029765388 0.0016998686 0.02988591 0.9971571 -0.059738576
939649056.60377 0.99784446 -0.061638087 0.0016889786 0.030081455 0.0016922811 0.030178653 0.99699235 -0.060409278
949645283.01887 0.99774492 -0.062404335 0.0016746721 0.030430617 0.0016663576 0.03051525 0.99678487 -0.060977057
959641509.43396 0.99770433 -0.063078642 0.001719485 0.030761058 0.0017009638 0.030833887 0.996705 -0.061337024
969637735.84906 0.99765784 -0.063783705 0.0017422372 0.031095669 0.0017664535 0.031204777 0.99671382 -0.061693788
979633962.26415 0.99743795 -0.064510904 0.0017953671 0.031380981 0.0018037171 0.031504437 0.99676377 -0.06237077
989630188.67925 0.99748278 -0.065013528 0.0018615406 0.03173152 0.0018278714 0.031829912 0.99702477 -0.062902242
999626415.09434 0.99755085 -0.065602541 0.0018955059 0.03200591 0.0018767826 0.032137766 0.99691367 -0.063761771
1009622641.5094 0.99754262 -0.066240549 0.0019040727 0.032352123 0.001909527 0.032462269 0.99682158 -0.064579457
1019618867.9245 0.99769223 -0.067060977 0.0019408865 0.032689337 0.0020061322 0.032778114 0.99651521 -0.065427795
1029615094.3396 0.99763453 -0.067985564 0.0020082947 0.032966666 0.0020659333 0.033081006 0.99625981 -0.06589973
1039611320.7547 0.99771339 -0.06879884 0.0020398227 0.033244062 0.0020454759 0.033359863 0.99618685 -0.066557646
1049607547.1698 0.9975754 -0.06965331 0.0021004286 0.033537734 0.0020835327 0.03368922 0.99618518 -0.067112707
1059603773.5849 0.99743539 -0.07040441 0.0020926446 0.033836618 0.0020932127 0.03398389 0.99625111 -0.06760177
1069600000 0.99719167 -0.070973784 0.002103284 0.034169056 0.0021121614 0.034289774 0.99643517 -0.068342835
1079596226.4151 0.99720246 -0.071615733 0.0021046759 0.034470528 0.0021461854 0.034595031 0.99641442 -0.06912981
1089592452.8302 0.99725413 -0.072203249 0.0021338211 0.034791995 0.0021599531 0.03493033 0.99638897 -0.069861174
1099588679.2453 0.99730885 -0.072905362 0.0021431893 0.035148501 0.0021649394 0.035229061 0.99606991 -0.070444584
1109584905.6604 0.99741358 -0.073686689 0.0021725576 0.035437956 0.0021733455 0.035588037 0.99584711 -0.071044609
1119581132.0755 0.99742585 -0.074603736 0.0021741213 0.035772942 0.0022183885 0.035937406 0.99560624 -0.071424723
1129577358.4906 0.9972198 -0.075351954 0.0022114925 0.036142234 0.002250053 0.036290023 0.99547815 -0.071890414
1139573584.9057 0.99699497 -0.076290041 0.0022441 0.036452018 0.0023301998 0.036608223 0.9956575 -0.072461098
1149569811.3208 0.99693722 -0.077140145 0.0023348252 0.036772102 0.0023744472 0.036906347 0.99574804 -0.073236123
1159566037.7358 0.99674481 -0.077771872 0.0023420788 0.037073772 0.002389309 0.037218798 0.99592191 -0.074263215
1169562264.1509 0.99657393 -0.078417838 0.0023599491 0.037360132 0.0023806263 0.037501954 0.99573755 -0.075034499
1179558490.566 0.99646401 -0.079107583 0.0023591525 0.037728351 0.0024183097 0.037879031 0.99562836 -0.075738922
1189554716.9811 0.99650049 -0.079817981 0.0023994884 0.038085058 0.002486256 0.038212709 0.99527991 -0.076209694
1199550943.3962 0.99646288 -0.080634862 0.0024265405 0.038416937 0.0025489777 0.038553089 0.99515516 -0.076673716
1209547169.8113 0.99633175 -0.081520051 0.0024937959 0.038743719 0.0025362754 0.038846243 0.99507046 -0.076989651
1219543396.2264 0.9960742 -0.082343295 0.002522964 0.039087579 0.0026148194 0.039217256 0.9951576 -0.07733041
1229539622.6415 0.99582839 -0.083201557 0.0025750995 0.039405841 0.0026543364 0.039541628 0.99527758 -0.078010499
1239535849.0566 0.99560505 -0.08373633 0.0026384862 0.039702609 0.0027217092 0.039854672 0.99539179 -0.078979045
1249532075.4717 0.99532211 -0.08451274 0.0026916319 0.040004402 0.0027718882 0.040147245 0.99519348 -0.07981915
1259528301.8868 0.99509776 -0.084925264 0.0027233474 0.040372562 0.0028660018 0.040466342 0.99501693 -0.080568075
1269524528.3019 0.99501121 -0.085654527 0.0028342325 0.040634189 0.0029293876 0.040728379 0.99474758 -0.081344664
1279520754.717 0.99468648 -0.086349256 0.0028689587 0.040952317 0.0029476078 0.040990278 0.99443847 -0.081757247
1289516981.1321 0.99454105 -0.087196082 0.0028711287 0.041210335 0.002971434 0.041287191 0.99464113 -0.08224538
1299513207.5472 0.99433792 -0.088019669 0.002860073 0.041525356 0.0029677562 0.041616473 0.99468952 -0.08256793
1309509433.9623 0.99381125 -0.088718086 0.0029139258 0.041835565 0.0030066501 0.041910067 0.99484533 -0.08335866
1319505660.3774 0.99353492 -0.089397132 0.002899684 0.042120542 0.0029973025 0.042206921 0.99486899 -0.083867848
1329501886.7925 0.99323642 -0.090065122 0.0029054079 0.042459272 0.0030110423 0.042555466 0.99484742 -0.084924728
1339498113.2075 0.9929496 -0.09058547 0.0029442683 0.042784173 0.0030467473 0.042816512 0.99447799 -0.085615158
1349494339.6226 0.99276602 -0.091168121 0.0029123547 0.043090697 0.0030181115 0.04316394 0.99410367 -0.086228453
1359490566.0377 0.9926821 -0.091764003 0.0029004887 0.043448821 0.0030197147 0.043493584 0.99392474 -0.086699307
1369486792.4528 0.99249524 -0.092290789 0.0029426347 0.043824971 0.0030295709 0.043863386 0.99379516 -0.087118745
1379483018.8679 0.99223334 -0.092834681 0.0029615243 0.044174086 0.003036723 0.044208165 0.99383384 -0.087488487
1389479245.283 0.99196941 -0.093410373 0.0030048173 0.044530049 0.0030799732 0.044563919 0.99379456 -0.088160634
1399475471.6981 0.99149561 -0.093791455 0.0030273721 0.044865109 0.0030821636 0.044913549 0.99398285 -0.088795722
1409471698.1132 0.99121404 -0.094065584 0.0030314417 0.045240108 0.003114339 0.045277562 0.99399769 -0.089647181
1419467924.5283 0.99104643 -0.094465762 0.0030838251 0.045621723 0.003086268 0.045613382 0.99384528 -0.090307742
1429464150.9434 0.99085277 -0.09483999 0.0030602273 0.046043627 0.0031253304 0.046037085 0.99369293 -0.090813786
1439460377.3585 0.99107957 -0.095279858 0.0031900322 0.04644325 0.0032350458 0.046476722 0.99353236 -0.091218889
1449456603.7736 0.99111468 -0.095894143 0.0032696305 0.046814263 0.0032914169 0.046864115 0.99340725 -0.091586962
1459452830.1887 0.99104285 -0.096643746 0.0034417845 0.047215216 0.0034482162 0.047242343 0.99348837 -0.09189859
1469449056.6038 0.99113721 -0.097232193 0.0035789963 0.047570329 0.0035880245 0.047559451 0.99375141 -0.092447579
1479445283.0189 0.99095988 -0.097853526 0.0036958782 0.047828708 0.0037189515 0.047850501 0.99383062 -0.093445458
1489441509.434 0.99085772 -0.098325193 0.0038024168 0.048123315 0.0038269032 0.04817985 0.99369043 -0.094266295
1499437735.8491 0.99076599 -0.098682374 0.0039373189 0.048403796 0.0039394666 0.048442058 0.9936282 -0.095069557
1509433962.2642 0.99070072 -0.099250473 0.0040006093 0.048690639 0.0040057544 0.048704427 0.99345595 -0.095764294
1519430188.6792 0.99080557 -0.099737585 0.0040522832 0.048960023 0.0040762946 0.048975378 0.99330026 -0.096370757
1529426415.0943 0.99074328 -0.10041624 0.0041459817 0.049235646 0.0041106492 0.049258333 0.99318004 -0.096718431
1539422641.5094 0.99084002 -0.10115919 0.0041775964 0.04950605 0.0041635972 0.049556971 0.99330574 -0.097182512
1549418867.9245 0.99063849 -0.10198756 0.0042775115 0.049768906 0.0042037796 0.049797114 0.9935531 -0.09796086
1559415094.3396 0.9905479 -0.10269108 0.0042922292 0.05006906 0.0042231455 0.050129116 0.99368906 -0.098591208
1569411320.7547 0.99045479 -0.10343246 0.0043466501 0.050340734 0.0042863069 0.050401181 0.99354076 -0.099417225
1579407547.1698 0.99034309 -0.10400964 0.0043463497 0.050597277 0.0042984104 0.050656337 0.99325883 -0.10027941
1589403773.5849 0.99028617 -0.1044246 0.0043762531 0.050850913 0.0043054987 0.050980859 0.99297607 -0.10094848
1599400000 0.99023253 -0.10491395 0.0043486431 0.05116643 0.0043136831 0.051229749 0.99261558 -0.10135424
1609396226.4151 0.99022686 -0.10556563 0.0043485155 0.051463895 0.0042770496 0.051546022 0.99253023 -0.10183764
1619392452.8302 0.9901647 -0.10613772 0.0043393802 0.051832329 0.0042969044 0.051881365 0.99243414 -0.1023224
1629388679.2453 0.98997813 -0.10678896 0.0043694377 0.052190445 0.0042784009 0.052224055 0.9926843 -0.10278818
1639384905.6604 0.98975623 -0.10741682 0.0043669716 0.052483078 0.0042750058 0.052635297 0.99289137 -0.10363068
1649381132.0755 0.98956543 -0.10812068 0.0043808836 0.052840412 0.0043277703 0.052969389 0.99294895 -0.10460451
1659377358.4906 0.98933697 -0.10892516 0.0043611228 0.053184535 0.0043359809 0.053315353 0.99290729 -0.10549322
1669373584.9057 0.98932332 -0.10933214 0.0043999469 0.05360426 0.0043803831 0.053663518 0.99253064 -0.10617737
1679369811.3208 0.98930001 -0.10998362 0.0044561531 0.053951949 0.0044144345 0.054042749 0.99230701 -0.10661626
1689366037.7358 0.9893719 -0.11065212 0.0044926275 0.054296695 0.004457226 0.054430872 0.99212587 -0.10686046
1699362264.1509 0.98956054 -0.11123973 0.0045343293 0.054651931 0.0044873636 0.05480333 0.99243653 -0.10740075
1709358490.566 0.98937356 -0.11195363 0.004589186 0.055014737 0.0045323083 0.055153709 0.99236041 -0.10788687
1719354716.9811 0.98909342 -0.11246973 0.0046333726 0.055367902 0.0045965873 0.055545285 0.9924798 -0.10865191
1729350943.3962 0.98875988 -0.11305472 0.0046967305 0.055792749 0.0046286602 0.055884168 0.99243689 -0.10944209
