!Keysight Technologies,N5222B,MY61253708,A.15.00.15
!Date: Wednesday, June 19, 2024 09:05:17
!Correction: S11(C  2-Port  ) 
!S21(C  2-Port  ) 
!S12(C  2-Port  ) 
!S22(C  2-Port  ) 
!S2P File: Measurements: S11, S21, S12, S22:
# Hz S  RI   R 50
10000000 0.99868715 -0.0019518137 -0.00018043348 0.0010439546 -0.00010375144 0.0001324222 0.99878556 -0.0010356009
19996226.415094 0.99894094 -0.0019232333 9.9928002e-007 0.00059057446 0.00011231881 0.0006911027 0.99933958 -0.002130717
29992452.830189 0.99973285 -0.0025215149 2.721796e-005 0.001142979 3.7921767e-005 0.00098767621 0.99953622 -0.0027648211
39988679.245283 1.0000644 -0.0031437129 -3.9029343e-005 0.0014281562 3.2931595e-005 0.0014227534 0.9996959 -0.0031978339
49984905.660377 1.0002098 -0.0038317442 1.9557949e-005 0.0017347102 1.7732091e-005 0.0017670318 0.99977565 -0.0037663281
59981132.075472 1.0003099 -0.0046082437 4.072336e-005 0.0021033101 1.4456571e-005 0.002091971 0.9997921 -0.0042207241
69977358.490566 1.0000561 -0.0052118152 -2.9624282e-005 0.0023933738 3.5036042e-005 0.0024580022 0.99966305 -0.0047822725
79973584.90566 0.99987495 -0.0058148503 3.6815065e-005 0.0027600103 1.1456781e-005 0.0027993715 0.99933565 -0.0053352118
89969811.320755 0.99980766 -0.0060016513 2.0974083e-005 0.0031407247 2.8494047e-005 0.0031643882 0.99953413 -0.0056276321
99966037.735849 1.0000405 -0.0067297071 1.4491496e-005 0.0035116437 3.5995792e-005 0.0034931866 0.99958891 -0.0064415634
109962264.15094 1.0001136 -0.0076842457 2.9101444e-005 0.0038039554 2.6585476e-005 0.0038595842 0.99959999 -0.0073017478
119958490.56604 1.0001262 -0.0086571872 4.3722568e-005 0.0041857716 4.056585e-005 0.004220522 0.99962461 -0.0081965625
129954716.98113 1.0000664 -0.0097343922 3.9019273e-005 0.0045484016 3.307045e-005 0.0045595709 0.99958652 -0.0091393888
139950943.39623 0.99998605 -0.010570202 3.8390659e-005 0.0048819957 5.7123849e-005 0.0049054814 0.99956793 -0.0098724831
149947169.81132 0.99977243 -0.011280328 7.9863705e-005 0.0052123163 4.9924711e-005 0.0052534752 0.99948406 -0.010539502
159943396.22642 0.99979675 -0.011774123 0.00010508578 0.0055911243 6.2187202e-005 0.0056026904 0.99956214 -0.010998696
169939622.64151 0.99980134 -0.012192205 7.9776917e-005 0.0059314198 7.2085299e-005 0.0059682787 0.9996208 -0.011424609
179935849.0566 0.99980235 -0.012402326 7.2477735e-005 0.006270723 9.9481898e-005 0.0063158101 0.9995212 -0.011853755
189932075.4717 0.99995977 -0.013254523 7.6693483e-005 0.0066187442 9.0598129e-005 0.0066865152 0.99979794 -0.012435406
199928301.88679 0.99989915 -0.014090449 0.0001162613 0.0069437944 0.00011844165 0.0070175431 0.99967647 -0.013325781
209924528.30189 0.99969733 -0.014860377 0.00010251894 0.0073280535 9.4846822e-005 0.0073711267 0.99938852 -0.014138147
219920754.71698 0.99968356 -0.015755415 0.00013827183 0.0076908045 0.00012208452 0.0077148201 0.99921489 -0.014844447
229916981.13208 0.99935621 -0.016579717 0.00012925803 0.008010976 0.00010470743 0.0080632819 0.99910367 -0.015610635
239913207.54717 0.99932766 -0.017224429 0.00015276155 0.0083562164 0.00013092112 0.0083989091 0.99913669 -0.016324885
249909433.96226 0.99934518 -0.01787141 0.0001654306 0.0086986888 0.00015916093 0.0087487772 0.9992578 -0.016987056
259905660.37736 0.9993757 -0.01843825 0.00018390873 0.0091041233 0.00017888332 0.0091148121 0.99941003 -0.01761964
269901886.79245 0.99960756 -0.019209519 0.00020395848 0.0094065182 0.00023046788 0.0094767222 0.99980587 -0.018285915
279898113.20755 0.99962145 -0.0197898 0.00018435763 0.0097533688 0.00015584962 0.0098313624 0.99967045 -0.019105762
289894339.62264 0.99970293 -0.020638257 0.00020745676 0.010087587 0.00023487024 0.010148069 0.99957746 -0.019840658
299890566.03774 0.99963456 -0.021193951 0.00025554909 0.010484589 0.0002469616 0.010486097 0.99925017 -0.020290792
309886792.45283 0.99936152 -0.021765701 0.00021779432 0.010763147 0.00022807601 0.010877823 0.99913466 -0.02074074
319883018.86792 0.99931431 -0.022362113 0.00025158841 0.011149671 0.00026731938 0.011205725 0.99918604 -0.021343857
329879245.28302 0.99934196 -0.023163587 0.00029871101 0.011496525 0.00026616268 0.011545551 0.99937856 -0.022029489
339875471.69811 0.99916297 -0.023876078 0.0003185363 0.011824713 0.00031094672 0.011889746 0.99920589 -0.02285248
349871698.11321 0.99935174 -0.024705112 0.00036656111 0.01218663 0.00035485579 0.012248163 0.99929869 -0.023799866
359867924.5283 0.99931252 -0.025547177 0.00034086546 0.012521586 0.00033032522 0.01259977 0.99929178 -0.024723589
369864150.9434 0.99942619 -0.026425749 0.00031100167 0.012855093 0.00035306951 0.012975402 0.99929297 -0.025427461
379860377.35849 0.99933487 -0.027039319 0.00038226135 0.013221996 0.00033968431 0.013284488 0.99921149 -0.026206806
389856603.77358 0.99919593 -0.027722061 0.00039806869 0.013557103 0.0003797682 0.013641521 0.99910533 -0.026682973
399852830.18868 0.99899036 -0.02835843 0.00041706674 0.013901222 0.00038637826 0.013958588 0.99920064 -0.027098387
409849056.60377 0.99900872 -0.028761668 0.00040046309 0.014215385 0.00041731069 0.014362759 0.99918807 -0.027573509
419845283.01887 0.999053 -0.029182523 0.00046001375 0.014573627 0.00043506781 0.014696391 0.99919784 -0.028144419
429841509.43396 0.99909192 -0.029912561 0.00050943391 0.014928749 0.00049771275 0.015062095 0.99944603 -0.02893129
439837735.84906 0.99905485 -0.030801997 0.00050908257 0.015276965 0.00051409542 0.015351473 0.99920148 -0.029986456
449833962.26415 0.99906349 -0.031703591 0.00050658686 0.015579997 0.00049432414 0.015690967 0.99884176 -0.030793399
459830188.67925 0.99887896 -0.03254956 0.0004991265 0.015942268 0.00046430901 0.016044855 0.99863398 -0.031578392
469826415.09434 0.99879664 -0.033345103 0.0005465271 0.016310368 0.00052350061 0.016437521 0.99841011 -0.032138914
479822641.50943 0.99863976 -0.033948332 0.00053745578 0.016650759 0.00054137455 0.016805008 0.99842483 -0.032566696
489818867.92453 0.99876314 -0.034523338 0.00058977585 0.01700508 0.00059027504 0.017141448 0.99876285 -0.033190101
499815094.33962 0.99893212 -0.035079032 0.00062210392 0.017336577 0.00061810249 0.017511196 0.9990375 -0.033782125
509811320.75472 0.9990108 -0.035575062 0.0006672928 0.017666098 0.00063516776 0.017823165 0.99920082 -0.03471572
519807547.16981 0.99892676 -0.036134809 0.00064948667 0.018038183 0.00064437184 0.018118685 0.99918187 -0.035405576
529803773.58491 0.99887896 -0.036799699 0.00061846152 0.01837663 0.00062352419 0.018527716 0.99889064 -0.036039263
539800000 0.9989925 -0.037541583 0.00070281397 0.018738979 0.00067699072 0.018867299 0.99865299 -0.036753729
549796226.41509 0.99869788 -0.038461387 0.00073066726 0.019066434 0.00069832942 0.019196849 0.99841696 -0.037248909
559792452.83019 0.99845493 -0.039209634 0.00074109714 0.019408394 0.00071232673 0.019557316 0.99836898 -0.037704438
569788679.24528 0.9982906 -0.039891243 0.00078861741 0.019738611 0.00076570129 0.019917212 0.99849665 -0.038535148
579784905.66038 0.99827564 -0.040456787 0.00076763146 0.020119799 0.00081862905 0.02026974 0.99872768 -0.03932365
589781132.07547 0.99840713 -0.041128635 0.00086404756 0.020501956 0.00081190001 0.020652715 0.99881351 -0.040222645
599777358.49057 0.99853116 -0.04178527 0.00089859683 0.020765476 0.00088183489 0.020999294 0.99879938 -0.041049808
609773584.90566 0.99868709 -0.042575363 0.00091314572 0.021179875 0.0009390451 0.021332528 0.99869817 -0.041889481
619769811.32075 0.99871373 -0.043319792 0.00096580759 0.021526042 0.00094520533 0.021698104 0.99859947 -0.042473912
629766037.73585 0.99857807 -0.043988854 0.0010203775 0.021831397 0.00097166747 0.021988034 0.99837911 -0.042973131
639762264.15094 0.99831659 -0.044590026 0.00098615512 0.022122569 0.0010473987 0.022314204 0.99824417 -0.043326095
649758490.56604 0.99811941 -0.04516086 0.0010104897 0.022484541 0.001014322 0.022648504 0.99831206 -0.043873593
659754716.98113 0.99810815 -0.045764416 0.00099462736 0.022820089 0.0010565734 0.02301427 0.99842763 -0.044433892
669750943.39623 0.99807698 -0.046209395 0.0010629371 0.023198523 0.0010881918 0.023357915 0.99843985 -0.045315266
679747169.81132 0.99808908 -0.04699545 0.0010982547 0.023578178 0.0010752195 0.023747932 0.99841344 -0.046252944
689743396.22642 0.99825847 -0.047866732 0.0011564428 0.023932487 0.0011451701 0.024101824 0.99823087 -0.04727307
699739622.64151 0.99838936 -0.048749536 0.0011681234 0.024258347 0.0012301477 0.024422377 0.99813437 -0.047919303
709735849.0566 0.99841011 -0.049630053 0.0012416056 0.024605641 0.0012625464 0.024735613 0.99784452 -0.048619419
719732075.4717 0.99818319 -0.050304025 0.0012774547 0.024953086 0.0012599579 0.025097286 0.99790865 -0.049196184
729728301.88679 0.99809277 -0.050808132 0.0012957547 0.025239049 0.0013002176 0.025411135 0.99799532 -0.049673468
739724528.30189 0.9979623 -0.05147846 0.001324967 0.025596984 0.0013492876 0.025786214 0.99819279 -0.050337151
749720754.71698 0.99792129 -0.052044198 0.0014178799 0.025922945 0.0013434053 0.026088696 0.99814886 -0.051056281
759716981.13208 0.99788356 -0.052562684 0.0014133351 0.026266407 0.0014154343 0.026473932 0.9981811 -0.051880658
769713207.54717 0.99790853 -0.05323875 0.0014001289 0.026602279 0.0014390685 0.026786698 0.99785125 -0.052558988
779709433.96226 0.99808758 -0.053868055 0.0014593235 0.026950166 0.0015059625 0.027162744 0.99764705 -0.053270526
789705660.37736 0.99790967 -0.054858297 0.0015243953 0.027288744 0.0015158514 0.027453888 0.99734724 -0.05400461
799701886.79245 0.9978748 -0.055705249 0.0015310533 0.027597623 0.0015484076 0.027776876 0.99729574 -0.054622203
809698113.20755 0.99780416 -0.056344584 0.0015707621 0.027904414 0.0015695398 0.028145768 0.99730378 -0.055102423
819694339.62264 0.99763894 -0.057027817 0.0016063075 0.028250072 0.0015927898 0.028521437 0.9973883 -0.055705518
829690566.03774 0.99762917 -0.05768913 0.0016439967 0.02861012 0.0016433243 0.028797917 0.99767923 -0.056625456
839686792.45283 0.99769723 -0.058085471 0.0016169809 0.028929219 0.0016542012 0.029162277 0.99774045 -0.057453513
849683018.86792 0.9977169 -0.058769435 0.0017120424 0.029336931 0.0017387799 0.029515153 0.99759859 -0.058248393
859679245.28302 0.99785376 -0.059499413 0.0017851731 0.029650182 0.0017647399 0.029864125 0.99728525 -0.058871835
869675471.69811 0.9977234 -0.060295075 0.0018423973 0.029978599 0.0018109232 0.030211182 0.99696022 -0.059373647
879671698.11321 0.99762219 -0.061004072 0.0018174828 0.030290736 0.0018490402 0.030528687 0.99694794 -0.059866123
889667924.5283 0.99738657 -0.061849922 0.0018632496 0.030604642 0.001819877 0.030862484 0.9967922 -0.060397953
899664150.9434 0.99721396 -0.062623501 0.0019029388 0.030972555 0.0018819487 0.031186579 0.99685091 -0.061063409
909660377.35849 0.99718517 -0.063245967 0.001943463 0.031284988 0.0019291183 0.031559318 0.99698406 -0.061950326
919656603.77358 0.99727887 -0.063984945 0.001966354 0.03162805 0.0019670804 0.031887684 0.99699908 -0.062834755
929652830.18868 0.99727631 -0.064653397 0.0019570999 0.031935688 0.0020110812 0.032220371 0.99683845 -0.063792884
939649056.60377 0.99749207 -0.065411001 0.0019894391 0.032296728 0.0020192824 0.032529198 0.99663192 -0.064537674
949645283.01887 0.9973529 -0.066269711 0.0020273328 0.032631487 0.002053227 0.032887239 0.99641109 -0.065059036
959641509.43396 0.99731237 -0.066967845 0.0020502228 0.0330281 0.0020539928 0.033269946 0.99637157 -0.06552875
969637735.84906 0.99721062 -0.067689568 0.0020908909 0.033371873 0.0021079928 0.033621613 0.99636745 -0.065876067
979633962.26415 0.99702317 -0.068412289 0.0021535691 0.033677366 0.0021759088 0.033963688 0.99640948 -0.066541687
989630188.67925 0.99702567 -0.068920106 0.002192514 0.03401934 0.0021926705 0.034325354 0.99654663 -0.067239136
999626415.09434 0.9971031 -0.069577783 0.002221128 0.034362942 0.0022389796 0.03466427 0.99652445 -0.068095773
1009622641.5094 0.9971835 -0.070291921 0.0022575343 0.034721009 0.0022939034 0.035008784 0.99633712 -0.068986982
1019618867.9245 0.99721241 -0.07110931 0.002338618 0.035075452 0.0023523723 0.035359725 0.99612176 -0.069869876
1029615094.3396 0.99722373 -0.072118878 0.0024050307 0.035370838 0.002422357 0.035682172 0.99571484 -0.070408791
1039611320.7547 0.99721313 -0.073035777 0.0023992499 0.035705805 0.0024369285 0.03598801 0.99565661 -0.071139246
1049607547.1698 0.99701107 -0.073971182 0.0024464589 0.03600413 0.0024970772 0.036333542 0.9956494 -0.071704298
1059603773.5849 0.99690795 -0.074630946 0.0024726568 0.036332708 0.0025507575 0.036647137 0.99560416 -0.072233528
1069600000 0.99659324 -0.075333148 0.0024863556 0.036656328 0.0025461782 0.036964312 0.99580324 -0.073073417
1079596226.4151 0.99658263 -0.075918354 0.0025188383 0.037014887 0.0025716498 0.037325628 0.99577868 -0.07379698
1089592452.8302 0.9966718 -0.076552272 0.0025498075 0.037391186 0.0025922572 0.037678309 0.99570978 -0.074518651
1099588679.2453 0.99664617 -0.077254325 0.0025625583 0.037670568 0.0026053283 0.038012393 0.99534124 -0.075146765
1109584905.6604 0.99679488 -0.078101367 0.0025777938 0.038033694 0.0026393896 0.038384221 0.99509716 -0.075751573
1119581132.0755 0.99671549 -0.079060897 0.0026130225 0.038404159 0.0026716799 0.038739696 0.99492371 -0.076162726
1129577358.4906 0.99663222 -0.079927742 0.0026341509 0.03876929 0.0027195122 0.039108999 0.99474567 -0.076624364
1139573584.9057 0.99627876 -0.080839306 0.0026942603 0.039123639 0.0027737459 0.039453179 0.99483937 -0.077326536
1149569811.3208 0.99618471 -0.081764117 0.0027514629 0.039488118 0.0028569207 0.039782133 0.99495882 -0.078135192
1159566037.7358 0.99590695 -0.082446188 0.0027959403 0.039764814 0.002893893 0.040122829 0.99506974 -0.079234332
1169562264.1509 0.99578702 -0.083090127 0.0028401688 0.04009125 0.0028936025 0.040454186 0.99494636 -0.079975843
1179558490.566 0.99581754 -0.083845347 0.0028361375 0.040502507 0.0029606682 0.040827662 0.99478871 -0.080714285
1189554716.9811 0.9957642 -0.084524453 0.0028886637 0.040823806 0.0030086162 0.041196119 0.99449635 -0.081236213
1199550943.3962 0.99572134 -0.085433781 0.002896959 0.041225389 0.0030802302 0.041557707 0.99434185 -0.081682652
1209547169.8113 0.99555707 -0.08628802 0.0029491792 0.041562371 0.0030752057 0.041866735 0.99418688 -0.08198905
1219543396.2264 0.99530435 -0.08711344 0.0030307118 0.041938402 0.0031165089 0.042243578 0.9943338 -0.08239463
1229539622.6415 0.99489725 -0.088019282 0.0030844044 0.042263754 0.0031837933 0.042593386 0.99445933 -0.083136529
1239535849.0566 0.99465579 -0.088790119 0.0031394847 0.04259102 0.0032801861 0.042921506 0.99458057 -0.084063619
1249532075.4717 0.99441051 -0.089407884 0.0032182201 0.042917404 0.003370055 0.043250356 0.99430734 -0.084940761
1259528301.8868 0.99421096 -0.08989948 0.0032730028 0.043283999 0.0033938121 0.043556809 0.99405587 -0.085888892
1269524528.3019 0.99404287 -0.090671301 0.0033405628 0.04359651 0.0034964904 0.043887299 0.99380755 -0.086488545
1279520754.717 0.99368072 -0.091439739 0.0033886365 0.043895677 0.0035381569 0.04416154 0.99348396 -0.087088473
1289516981.1321 0.99345315 -0.09227711 0.0034349849 0.044195618 0.0035677375 0.044461697 0.99357361 -0.087497711
1299513207.5472 0.99315703 -0.093092144 0.0034404173 0.044541046 0.0036087409 0.044824839 0.99369526 -0.087887466
1309509433.9623 0.99270678 -0.093796313 0.0034830291 0.044843808 0.0035893284 0.045135882 0.99378365 -0.088667586
1319505660.3774 0.99227589 -0.094602004 0.0034740642 0.045196351 0.0035834406 0.04546399 0.99382323 -0.08930704
1329501886.7925 0.99203134 -0.095271379 0.0034664348 0.045539193 0.0036266483 0.045803681 0.99386251 -0.09033525
1339498113.2075 0.99180198 -0.095727384 0.0035185199 0.045895919 0.0036383048 0.046118934 0.99344724 -0.091041207
1349494339.6226 0.99147767 -0.096331351 0.003501209 0.046191253 0.0036652205 0.046491448 0.99305493 -0.091681153
1359490566.0377 0.99144602 -0.096954077 0.0035175811 0.046595696 0.0036698543 0.04684446 0.99282479 -0.092175841
1369486792.4528 0.9912765 -0.097503901 0.0035324749 0.046997067 0.0036812816 0.047219846 0.99259979 -0.092671722
1379483018.8679 0.99094415 -0.098144792 0.0035758098 0.047376074 0.0036649378 0.047553651 0.99265599 -0.092977986
1389479245.283 0.99061227 -0.09862715 0.0036282893 0.047735792 0.0037094466 0.047985557 0.99265265 -0.093723029
1399475471.6981 0.99014962 -0.09911707 0.0036489144 0.048142925 0.0037353784 0.048373051 0.992818 -0.094445705
1409471698.1132 0.98982954 -0.099516839 0.0037043691 0.048516344 0.003770456 0.048744421 0.9928757 -0.095268242
1419467924.5283 0.98959166 -0.099751681 0.0036954517 0.048915148 0.0037848018 0.049156915 0.99259591 -0.095994979
1429464150.9434 0.98951435 -0.10018328 0.0037522502 0.049347583 0.0038376097 0.049563743 0.99255031 -0.096528143
1439460377.3585 0.98967099 -0.10068184 0.0038752686 0.049767368 0.0039242711 0.049999561 0.99225605 -0.096901178
1449456603.7736 0.98964065 -0.10116598 0.0039546071 0.050175481 0.0040081115 0.050409682 0.99220043 -0.097222313
1459452830.1887 0.98971105 -0.10190964 0.0041152723 0.05061882 0.0041332524 0.050870217 0.99228573 -0.097547263
1469449056.6038 0.98968744 -0.10262176 0.0042778328 0.050954051 0.0042837197 0.051172815 0.99246335 -0.098261863
1479445283.0189 0.98956603 -0.10337533 0.0043857275 0.051224381 0.0044246754 0.051511623 0.99249643 -0.099173546
1489441509.434 0.98933244 -0.10379449 0.0045540687 0.051561546 0.0045593269 0.051813483 0.99240661 -0.10011661
1499437735.8491 0.98923254 -0.10414469 0.0046534352 0.051870503 0.0046997815 0.052115254 0.99225092 -0.10096717
1509433962.2642 0.98925084 -0.10468934 0.0047339611 0.05212361 0.0047349297 0.052409366 0.99210155 -0.10175596
1519430188.6792 0.9893856 -0.10520521 0.0048134457 0.052448079 0.0048216134 0.052680701 0.99200952 -0.10222983
1529426415.0943 0.98926187 -0.10590234 0.0048919842 0.052722588 0.0048847646 0.053016849 0.99190152 -0.10266912
1539422641.5094 0.98928541 -0.10677201 0.0049104239 0.053046055 0.0049666418 0.053365171 0.99196911 -0.10318856
1549418867.9245 0.98917437 -0.10756497 0.0049945684 0.053355772 0.0049879085 0.053632941 0.99216849 -0.10379595
1559415094.3396 0.98902887 -0.10828671 0.0050723758 0.053615011 0.0050446019 0.053965181 0.9922865 -0.10453349
1569411320.7547 0.98883194 -0.10912225 0.0050661042 0.053939898 0.0051029716 0.054233916 0.99223912 -0.1054676
1579407547.1698 0.98880279 -0.10961686 0.0051586065 0.054205619 0.0051030908 0.054514226 0.99178869 -0.10627596
1589403773.5849 0.98873997 -0.11003551 0.0051712189 0.054534577 0.0051394198 0.054854795 0.99161685 -0.10698882
1599400000 0.98872417 -0.11056817 0.0051461458 0.054846238 0.0051419083 0.055135481 0.99119514 -0.10744682
1609396226.4151 0.98870313 -0.11126286 0.0051542222 0.055212725 0.0051054889 0.055505391 0.99106312 -0.10797271
1619392452.8302 0.9887234 -0.1118964 0.0051812995 0.055505656 0.0051377472 0.055868722 0.99103469 -0.10849771
1629388679.2453 0.98841727 -0.11254141 0.0051943958 0.055903997 0.0051571075 0.056243367 0.99119848 -0.10896641
1639384905.6604 0.98816538 -0.11332025 0.0051883562 0.056224827 0.0051352764 0.056627844 0.99155092 -0.10983243
1649381132.0755 0.98788154 -0.11404777 0.0052164923 0.056627873 0.0051894728 0.056998983 0.99145341 -0.11082932
1659377358.4906 0.98775733 -0.11484301 0.0052581746 0.057024993 0.0052428227 0.057403598 0.99141097 -0.11170551
1669373584.9057 0.98761272 -0.11524042 0.0052676504 0.057443589 0.0052912021 0.057781804 0.99106926 -0.11241098
1679369811.3208 0.98774475 -0.11589539 0.0053333696 0.057807382 0.0053054523 0.058218047 0.99081427 -0.11293912
1689366037.7358 0.9877317 -0.11654601 0.005437864 0.05816973 0.0053757932 0.058553115 0.99067807 -0.11321828
1699362264.1509 0.98790056 -0.11715056 0.00547079 0.058570139 0.0054456256 0.058984995 0.99088299 -0.11372826
1709358490.566 0.98774743 -0.11788511 0.0054758247 0.058938548 0.0054744454 0.059372928 0.99083978 -0.11417572
1719354716.9811 0.98744732 -0.11850712 0.0055991262 0.059335649 0.0055646598 0.059750862 0.99093014 -0.11498865
1729350943.3962 0.98709124 -0.11904728 0.0056474078 0.05971963 0.0057006124 0.060171671 0.99094164 -0.11585739
