!Keysight Technologies,N5222B,MY61253708,A.15.00.15
!Date: Wednesday, June 19, 2024 08:47:23
!Correction: S11(C  2-Port  ) 
!S21(C  2-Port  ) 
!S12(C  2-Port  ) 
!S22(C  2-Port  ) 
!S2P File: Measurements: S11, S21, S12, S22:
# Hz S  RI   R 50
10000000 0.99829888 -0.0020947456 0.00025343761 0.0002552066 -0.00031189842 0.00076580816 0.99874336 -0.0012422502
19996226.415094 0.99928713 -0.0021325052 8.3426625e-005 0.00084249873 3.2245327e-005 0.00073850586 0.99930775 -0.0020857453
29992452.830189 0.99972057 -0.0025662184 -8.1696868e-005 0.0011071272 2.6873284e-005 0.0011711014 0.99948293 -0.0028350055
39988679.245283 1.0000917 -0.003312096 3.6035577e-005 0.001551454 -4.3745473e-005 0.0014751622 0.9996196 -0.0033409446
49984905.660377 1.0001228 -0.0040337741 -4.8897113e-005 0.0019455684 -1.1138851e-005 0.0019134735 0.99974728 -0.0039591193
59981132.075472 1.0002496 -0.004883498 1.7748913e-005 0.0023514244 3.0147785e-005 0.0022904633 0.99968243 -0.0044768453
69977358.490566 0.99996161 -0.0054780208 2.4168497e-005 0.0027278031 1.7706021e-005 0.0026611905 0.99961483 -0.005071342
79973584.90566 0.99975324 -0.0060423017 -2.3623696e-005 0.0030410821 6.737886e-006 0.0030641719 0.999385 -0.0056354403
89969811.320755 0.99976981 -0.0063668191 5.9255399e-006 0.0034278531 2.6219408e-005 0.0034410083 0.99946189 -0.0059951246
99966037.735849 1.0000113 -0.007105276 5.5303157e-005 0.0038343503 2.4530629e-005 0.0038398756 0.99952096 -0.0068052262
109962264.15094 0.99999321 -0.0080642104 3.2755663e-005 0.0042176205 5.1748182e-005 0.0042201728 0.9995693 -0.0076981783
119958490.56604 1.0000491 -0.0091482699 4.2353524e-005 0.0045941002 4.1305088e-005 0.0045824018 0.99958682 -0.0086877048
129954716.98113 1.0000223 -0.010256082 4.9226917e-005 0.0049762428 6.9542788e-005 0.0049870191 0.99953026 -0.0096858442
139950943.39623 0.99990642 -0.011154404 7.5413394e-005 0.0053452044 7.0678259e-005 0.0053735133 0.99947912 -0.010473816
149947169.81132 0.9997822 -0.011823446 8.2928455e-005 0.0057292054 7.0416136e-005 0.0057474598 0.9994148 -0.011139721
159943396.22642 0.99973452 -0.012377083 7.9329591e-005 0.0061306753 6.1371364e-005 0.0061304974 0.99947971 -0.011600405
169939622.64151 0.99977499 -0.01275143 7.6352735e-005 0.006510694 9.719067e-005 0.0065203863 0.99957389 -0.012081645
179935849.0566 0.99980092 -0.013118327 0.00012170081 0.006871826 0.00010735425 0.0069007506 0.99948561 -0.012560755
189932075.4717 0.99995017 -0.013896644 0.00012730388 0.0072549172 0.00011386978 0.0072778622 0.99969167 -0.013237774
199928301.88679 0.99989605 -0.014812618 0.00010813284 0.0076685301 0.00010232558 0.0076504862 0.9995631 -0.014136195
209924528.30189 0.99956566 -0.015656307 0.00015879341 0.0080379797 0.00015399826 0.0080524227 0.99934143 -0.014894277
219920754.71698 0.99959612 -0.016561508 0.00018706475 0.0084058931 0.0001656129 0.0084439255 0.99909061 -0.01572296
229916981.13208 0.99927473 -0.017492831 0.00016662246 0.0087940749 0.00017700018 0.008818293 0.99901628 -0.016507715
239913207.54717 0.99915695 -0.018151375 0.00016391823 0.0091653019 0.00020550127 0.0092162527 0.99900168 -0.017211329
249909433.96226 0.99920237 -0.018793613 0.00020430563 0.0095351171 0.00018748944 0.009573821 0.999152 -0.017928958
259905660.37736 0.99943167 -0.01945591 0.0002332353 0.0098924451 0.00022908766 0.0099431034 0.99930829 -0.01854977
269901886.79245 0.99964511 -0.020167693 0.00024925568 0.010306258 0.0002211032 0.0103307 0.99968243 -0.019296259
279898113.20755 0.9996587 -0.020823985 0.00021641981 0.01073454 0.00018855277 0.010758483 0.99959046 -0.02012454
289894339.62264 0.99963951 -0.02177912 0.00026395684 0.011133632 0.00025148783 0.011077683 0.99944687 -0.020912558
299890566.03774 0.99948364 -0.022381365 0.00024640653 0.01145363 0.00028206478 0.011509101 0.99927038 -0.021465868
309886792.45283 0.99929059 -0.022936463 0.00028792012 0.011841313 0.00027470919 0.011909125 0.99907798 -0.021917872
319883018.86792 0.99912816 -0.023665935 0.00028543686 0.012206481 0.00032715173 0.012274368 0.9990688 -0.022475243
329879245.28302 0.99903464 -0.02439633 0.00026060129 0.012594949 0.00031712512 0.01265113 0.99915767 -0.023223013
339875471.69811 0.9989925 -0.025003597 0.00037766097 0.012923593 0.00032067136 0.01304001 0.99909294 -0.024098404
349871698.11321 0.99920207 -0.026037991 0.0003973227 0.013360698 0.00036483118 0.013393944 0.99914336 -0.025043666
359867924.5283 0.99916494 -0.026913404 0.00040011527 0.013731614 0.0003971369 0.013793076 0.99916941 -0.026050597
369864150.9434 0.99928242 -0.027790964 0.00045007141 0.014131462 0.00041822251 0.014175511 0.99915051 -0.026841193
379860377.35849 0.99927366 -0.028528184 0.00043762312 0.014514934 0.0004849839 0.014513501 0.9990797 -0.027626276
389856603.77358 0.99913406 -0.029184073 0.00044353958 0.014872368 0.00049607502 0.014908183 0.99901551 -0.028061122
399852830.18868 0.99882501 -0.029704422 0.00044641364 0.015262691 0.00050859153 0.015277134 0.9990685 -0.028523684
409849056.60377 0.99886268 -0.030214896 0.00052360218 0.015605098 0.0005076786 0.015685946 0.99911118 -0.029017163
419845283.01887 0.99874824 -0.030732274 0.00052858051 0.016056346 0.00053260103 0.01611834 0.99910545 -0.029662192
429841509.43396 0.9989053 -0.03139776 0.00057525747 0.016409846 0.00056720152 0.016502257 0.99923199 -0.030558169
439837735.84906 0.99876755 -0.032393664 0.00065685972 0.016764205 0.00059147901 0.016862452 0.99901754 -0.031527638
449833962.26415 0.99876195 -0.033286273 0.00061313948 0.017097745 0.00064622145 0.017149119 0.9986394 -0.03235814
459830188.67925 0.99872994 -0.034145534 0.0005998984 0.017489631 0.00063254591 0.017515767 0.99855411 -0.033229589
469826415.09434 0.99861109 -0.035065681 0.00065427134 0.017846962 0.00062676799 0.017968673 0.99831223 -0.033841938
479822641.50943 0.99846381 -0.035682186 0.00067316531 0.01827425 0.00070028938 0.018375281 0.99842471 -0.034279965
489818867.92453 0.99856925 -0.036179274 0.00069972593 0.018663056 0.00070679653 0.018752538 0.99868381 -0.034965873
499815094.33962 0.99866021 -0.036847025 0.00071523245 0.019058906 0.00073081115 0.01913679 0.99899769 -0.035651535
509811320.75472 0.99879104 -0.037345611 0.00074292801 0.019430652 0.00079348776 0.019491145 0.99915677 -0.036543388
519807547.16981 0.99872917 -0.038015217 0.00079541933 0.019807 0.00076242303 0.019869406 0.99912423 -0.03733772
529803773.58491 0.9986335 -0.038615584 0.00081813708 0.02018242 0.00081346277 0.020280574 0.99881947 -0.038114071
539800000 0.99868071 -0.03946653 0.00085601909 0.020607449 0.00083733723 0.020629646 0.99856073 -0.038802326
549796226.41509 0.99840838 -0.040292531 0.0008735056 0.020932624 0.0008597658 0.021002527 0.99838221 -0.039312333
559792452.83019 0.9981122 -0.041099876 0.00089517515 0.021311352 0.0008784635 0.021406783 0.99822211 -0.039886206
569788679.24528 0.99804831 -0.041944206 0.00094472105 0.02172689 0.00096032815 0.021831833 0.99838537 -0.040645003
579784905.66038 0.99802262 -0.042568743 0.00098577561 0.022104327 0.00098882802 0.022185808 0.99850649 -0.041394144
589781132.07547 0.99819314 -0.043183684 0.0010074889 0.022458887 0.001009943 0.022546707 0.99859488 -0.04235062
599777358.49057 0.99829948 -0.043936908 0.0010505375 0.022871837 0.0010253303 0.022958184 0.99868399 -0.0433487
609773584.90566 0.99845332 -0.044740733 0.0011358759 0.023228258 0.0011402802 0.023358973 0.99849117 -0.044243194
619769811.32075 0.99852467 -0.0454925 0.0011913758 0.023610689 0.001187887 0.023699524 0.99832577 -0.044778794
629766037.73585 0.99827754 -0.046113461 0.0012257686 0.023921669 0.0012264401 0.024011027 0.99812448 -0.045236737
639762264.15094 0.99804431 -0.046750411 0.0012382083 0.024288975 0.0012561786 0.024383087 0.99800622 -0.045726582
649758490.56604 0.99790055 -0.047491819 0.0012368895 0.02465767 0.0012257784 0.024777122 0.9980678 -0.046242163
659754716.98113 0.99768221 -0.048020244 0.0012630923 0.025039852 0.0012317495 0.025188047 0.99808049 -0.046820819
669750943.39623 0.99773443 -0.048560709 0.0013129339 0.02543084 0.0012821332 0.025563993 0.99819797 -0.0477584
679747169.81132 0.99776012 -0.049437076 0.0013164185 0.025825946 0.0013313488 0.025917884 0.99813271 -0.048741624
689743396.22642 0.99797499 -0.050261199 0.0013676342 0.026247827 0.0013994379 0.026350992 0.99789906 -0.049810648
699739622.64151 0.99804139 -0.051164955 0.0014381288 0.026597034 0.0014323508 0.026701447 0.99781919 -0.050496995
709735849.0566 0.99803251 -0.052082695 0.0015136572 0.026947614 0.0014946749 0.027021602 0.9976303 -0.051193096
719732075.4717 0.99782825 -0.052838355 0.0015213741 0.027351299 0.0015167482 0.027441652 0.99768507 -0.051767439
729728301.88679 0.99769294 -0.053441852 0.0015706792 0.027688187 0.001574669 0.027817823 0.99763596 -0.052240998
739724528.30189 0.99756175 -0.054073423 0.0016231607 0.028068641 0.0015839296 0.028164977 0.99794728 -0.052976221
749720754.71698 0.99751192 -0.054634139 0.0016165334 0.02842173 0.001634297 0.028557522 0.99786872 -0.053730831
759716981.13208 0.99754852 -0.055085391 0.0016856352 0.028772287 0.0016854033 0.028951265 0.99792993 -0.054599583
769713207.54717 0.99740702 -0.055906385 0.0017231395 0.029167576 0.0017433427 0.029305037 0.99754101 -0.05535385
779709433.96226 0.99761856 -0.056624923 0.0018048806 0.029562753 0.0017744766 0.029653987 0.99727207 -0.056074984
789705660.37736 0.99748534 -0.05764389 0.0018231506 0.029908383 0.0018477645 0.030007029 0.99707198 -0.056787014
799701886.79245 0.99742818 -0.0585455 0.0018821703 0.030247781 0.0018649502 0.030386174 0.99686384 -0.057383031
809698113.20755 0.99730968 -0.059226841 0.0019128318 0.030630508 0.0018745684 0.030760482 0.99699593 -0.057913229
819694339.62264 0.99716151 -0.059904069 0.0019497052 0.031012762 0.001929515 0.031132473 0.99711847 -0.058564961
829690566.03774 0.99720156 -0.060539484 0.0019638333 0.03137321 0.0019156765 0.031504191 0.99741924 -0.059540153
839686792.45283 0.99724263 -0.061018825 0.0020237677 0.031736944 0.0020037424 0.031899739 0.99745202 -0.060458988
849683018.86792 0.99734551 -0.061627179 0.0020237206 0.032130137 0.0020420025 0.032303214 0.99737114 -0.061284482
859679245.28302 0.99731493 -0.062518686 0.0020748833 0.032500967 0.0020827511 0.0326676 0.99697965 -0.061941653
869675471.69811 0.99726045 -0.063314408 0.0021347813 0.032882355 0.0021784259 0.033041161 0.99664164 -0.062495798
879671698.11321 0.99713165 -0.06406574 0.0021991814 0.033210248 0.0021994505 0.033385884 0.99667603 -0.063006684
889667924.5283 0.9970144 -0.064993501 0.0022514751 0.033608228 0.0022443263 0.033724431 0.99644786 -0.063521594
899664150.9434 0.99661314 -0.065830618 0.0022678189 0.033948462 0.0022596531 0.034144685 0.99649596 -0.064232647
909660377.35849 0.99669224 -0.066481352 0.0023373477 0.034321297 0.0023181392 0.034484103 0.99660867 -0.06521216
919656603.77358 0.99677962 -0.067178667 0.0023847404 0.034673285 0.002371625 0.034864482 0.99666244 -0.066184506
929652830.18868 0.99670559 -0.067928165 0.0024340488 0.034992658 0.0024078079 0.035218973 0.99647415 -0.067123413
939649056.60377 0.99693215 -0.068688959 0.0024249833 0.035396047 0.0024277903 0.035572536 0.99627459 -0.0678792
949645283.01887 0.99696255 -0.069535151 0.0024330423 0.035784408 0.0024283351 0.035958339 0.99604356 -0.068515778
959641509.43396 0.99678576 -0.070204079 0.0024966178 0.036172405 0.0024982402 0.036368564 0.99599671 -0.069054604
969637735.84906 0.9966076 -0.070981711 0.0025463291 0.036570832 0.0025337469 0.036778539 0.99601132 -0.069299579
979633962.26415 0.99645108 -0.07173451 0.002579045 0.036917582 0.0025984123 0.037109084 0.99606377 -0.070074521
989630188.67925 0.99644995 -0.072325051 0.0026398674 0.037298493 0.002633485 0.037500147 0.99614573 -0.070751518
999626415.09434 0.9964385 -0.073023945 0.002694916 0.037659183 0.0026785675 0.037902974 0.99607575 -0.071674019
1009622641.5094 0.99646139 -0.073777273 0.0026985975 0.038073637 0.0027721804 0.038258374 0.99588817 -0.072629616
1019618867.9245 0.99650061 -0.074633867 0.0028124717 0.038428597 0.0028295219 0.03862036 0.99562246 -0.073482886
1029615094.3396 0.99661756 -0.075672239 0.0028766673 0.038785618 0.0028944835 0.038992994 0.99518704 -0.074124038
1039611320.7547 0.99655706 -0.07662791 0.0029396433 0.039139695 0.0029356517 0.039369889 0.99515539 -0.074906886
1049607547.1698 0.99637461 -0.077510595 0.0029555196 0.039490312 0.0029877922 0.03972942 0.99510574 -0.075422049
1059603773.5849 0.99624431 -0.078254938 0.0030240836 0.039828308 0.0030411482 0.040048681 0.99511039 -0.076084524
1069600000 0.99599028 -0.078924298 0.0030394047 0.040205486 0.0030767284 0.040393427 0.99524248 -0.076827437
1079596226.4151 0.99589163 -0.079609901 0.0030726315 0.040559888 0.0031377943 0.040793665 0.99526322 -0.077646725
1089592452.8302 0.99586993 -0.080244154 0.0031123264 0.040938392 0.0031573353 0.041178904 0.99509299 -0.078395694
1099588679.2453 0.99595255 -0.080995381 0.003126381 0.041279085 0.0031839814 0.041526482 0.99472606 -0.07904017
1109584905.6604 0.99605495 -0.081956699 0.0031583169 0.041692927 0.003232602 0.041919321 0.99448097 -0.079679847
1119581132.0755 0.9960109 -0.083012141 0.0031971568 0.042074464 0.0032614428 0.042326804 0.99425822 -0.080149293
1129577358.4906 0.99593222 -0.083850861 0.0032291897 0.042506576 0.0033094399 0.042732138 0.99415219 -0.080625176
1139573584.9057 0.99553454 -0.084848017 0.0033067884 0.042855192 0.003374828 0.04308508 0.99423027 -0.081372559
1149569811.3208 0.99542814 -0.085763253 0.003378599 0.043216221 0.0034617777 0.043478936 0.99435914 -0.082134269
1159566037.7358 0.99515283 -0.086350411 0.0034771133 0.04357956 0.003525719 0.043800831 0.99444842 -0.083233118
1169562264.1509 0.99491656 -0.087096155 0.0034355242 0.043917041 0.0035138763 0.044182677 0.99424583 -0.08413139
1179558490.566 0.99496686 -0.087821856 0.0035130512 0.044359341 0.0035265791 0.044552874 0.99403656 -0.084868208
1189554716.9811 0.99492884 -0.088549197 0.0035199635 0.044739041 0.0036408035 0.044984605 0.9938103 -0.085458547
1199550943.3962 0.99485314 -0.089467674 0.0035780314 0.045133479 0.0036873296 0.045345366 0.9935531 -0.085760504
1209547169.8113 0.99461865 -0.090423793 0.0036385953 0.045487773 0.0037702732 0.045710262 0.99347508 -0.086206838
1219543396.2264 0.99446791 -0.091298096 0.0036831619 0.045900367 0.0038287397 0.046109848 0.99361497 -0.086600736
1229539622.6415 0.99411708 -0.092251599 0.0038032085 0.046305552 0.0039211381 0.046524554 0.99365318 -0.087390184
1239535849.0566 0.99380112 -0.092998713 0.003835693 0.046633694 0.0039838254 0.046873879 0.99376273 -0.088381022
1249532075.4717 0.9935475 -0.093645126 0.0039389441 0.047027074 0.0040797601 0.047235277 0.99363655 -0.089341447
1259528301.8868 0.99331582 -0.094251305 0.0039951336 0.047373038 0.0041183047 0.047591608 0.99328911 -0.090302646
1269524528.3019 0.99316329 -0.095045149 0.004072478 0.047732387 0.004216183 0.04790055 0.99305832 -0.091017932
1279520754.717 0.99281621 -0.095803678 0.004160861 0.048069198 0.0042789066 0.048231054 0.99277484 -0.091594882
1289516981.1321 0.99261093 -0.0966824 0.0042175744 0.048372585 0.0043026395 0.048543714 0.9928323 -0.092013955
1299513207.5472 0.9922446 -0.097475439 0.0042141341 0.048763335 0.0043336153 0.048936054 0.99295282 -0.092463017
1309509433.9623 0.99182343 -0.098252296 0.0042299619 0.049132735 0.004324167 0.049276371 0.99302846 -0.093175337
1319505660.3774 0.99134105 -0.099023908 0.0042587779 0.049513493 0.0043726154 0.049626753 0.99303693 -0.093890205
1329501886.7925 0.99104816 -0.099698573 0.0043076072 0.049860351 0.004410943 0.050010853 0.99300039 -0.094910145
1339498113.2075 0.99082369 -0.10027623 0.0043456852 0.05023795 0.0044612112 0.050390735 0.99261594 -0.095687568
1349494339.6226 0.99057019 -0.10083605 0.0043309676 0.050609469 0.0044478537 0.050752006 0.99216759 -0.096324861
1359490566.0377 0.9904924 -0.10162848 0.0043353904 0.051015832 0.0044946652 0.051143408 0.99193674 -0.096948534
1369486792.4528 0.99022692 -0.10222107 0.0043882355 0.051416393 0.0045126416 0.051547047 0.99174488 -0.09748131
1379483018.8679 0.98988533 -0.10286072 0.0044436804 0.051844008 0.0045235162 0.051970433 0.99170995 -0.097873256
1389479245.283 0.98952907 -0.10345468 0.0045335907 0.052251358 0.0045942236 0.052405264 0.99166489 -0.098544747
1399475471.6981 0.98906684 -0.10369578 0.0045559686 0.052645285 0.0046230033 0.052760627 0.99196726 -0.099294126
1409471698.1132 0.9887355 -0.1042647 0.0045942031 0.053073101 0.0046874587 0.053178154 0.99185228 -0.10010269
1419467924.5283 0.98853111 -0.10448003 0.0046611279 0.053449739 0.0046890471 0.053604417 0.99166584 -0.10092425
1429464150.9434 0.98839396 -0.10488996 0.0047054794 0.053957745 0.004745312 0.054062366 0.99155182 -0.10144785
1439460377.3585 0.9885599 -0.10544412 0.0047869571 0.054426529 0.0048621381 0.054536458 0.99130774 -0.10184516
1449456603.7736 0.98857778 -0.10604046 0.0049143555 0.054891929 0.0049494784 0.054962128 0.99115342 -0.10221118
1459452830.1887 0.98861265 -0.10676518 0.0050568394 0.055336248 0.0050932523 0.055424049 0.99124467 -0.10259017
1469449056.6038 0.98858845 -0.10766926 0.0052681826 0.055668551 0.0052189939 0.055802617 0.9915095 -0.10329041
1479445283.0189 0.98838621 -0.10830726 0.0053986446 0.056022458 0.0053594382 0.056159306 0.99146301 -0.10429865
1489441509.434 0.9882766 -0.10885167 0.0055178106 0.056373555 0.0055122543 0.0564651 0.99136728 -0.10524514
1499437735.8491 0.98808497 -0.10923073 0.0056938864 0.056679994 0.0056393035 0.056791939 0.99127591 -0.10606921
1509433962.2642 0.98805153 -0.10968883 0.0057669869 0.057037245 0.0057481071 0.057158671 0.99104738 -0.10685349
1519430188.6792 0.98819715 -0.11015272 0.005909292 0.057351239 0.0058077406 0.057467718 0.99084389 -0.1074267
1529426415.0943 0.98806846 -0.11096144 0.0059136003 0.05762513 0.0058876127 0.057782009 0.99080473 -0.10789117
1539422641.5094 0.98816842 -0.11189581 0.0059780646 0.057979058 0.005944063 0.058146849 0.99091834 -0.10844555
1549418867.9245 0.98793095 -0.1128079 0.0060828691 0.058345851 0.0060388315 0.058497339 0.99108124 -0.1091235
1559415094.3396 0.98779941 -0.11344895 0.0061419643 0.058629274 0.0060815401 0.058798343 0.9912076 -0.10990953
1569411320.7547 0.98764867 -0.11435218 0.0061960611 0.05901143 0.0061636819 0.059160888 0.99117208 -0.11076429
1579407547.1698 0.9875263 -0.11483894 0.0062611718 0.059318937 0.0062034288 0.059442919 0.99064505 -0.11167833
1589403773.5849 0.98748076 -0.11539304 0.0062206164 0.059616808 0.0062216092 0.059813529 0.99042332 -0.11234647
1599400000 0.98746014 -0.11599281 0.0062459055 0.059966639 0.006196944 0.06016269 0.98999768 -0.11293849
1609396226.4151 0.98746693 -0.1166961 0.0062777745 0.060355965 0.0061987406 0.060523726 0.98985028 -0.11349332
1619392452.8302 0.98738086 -0.11727744 0.0063576102 0.060755037 0.0062579531 0.060927156 0.98980546 -0.11398369
1629388679.2453 0.9870522 -0.11807635 0.0063771661 0.061131198 0.0062512793 0.061344493 0.99006426 -0.11453226
1639384905.6604 0.9868449 -0.11876875 0.0063490164 0.061536849 0.0062810774 0.061803021 0.9902575 -0.11549523
1649381132.0755 0.9866122 -0.11945465 0.0063732099 0.061931826 0.0063274577 0.062188245 0.99032384 -0.1164507
1659377358.4906 0.98637319 -0.12034002 0.006436877 0.062328611 0.0063814167 0.062583566 0.99015039 -0.11736041
1669373584.9057 0.98632056 -0.12084517 0.0064888014 0.062769346 0.0064699296 0.063041799 0.9897601 -0.11803435
1679369811.3208 0.98643404 -0.12151839 0.0065622739 0.063215666 0.0065054391 0.063455798 0.98953491 -0.11869517
1689366037.7358 0.98628116 -0.12221539 0.0066500902 0.063628346 0.0065653119 0.063890606 0.98930991 -0.11901906
1699362264.1509 0.98642325 -0.1229284 0.0067250011 0.064015508 0.0066573266 0.064329997 0.98945075 -0.11939283
1709358490.566 0.98629236 -0.12358771 0.0068295645 0.064493723 0.0067545464 0.064765885 0.98946321 -0.12004973
1719354716.9811 0.9859494 -0.1243065 0.0069416761 0.064900741 0.0068913046 0.06515529 0.98948133 -0.1207639
1729350943.3962 0.98559856 -0.12493363 0.0070305802 0.065300263 0.0069641657 0.065596834 0.98945343 -0.1217756
