!Keysight Technologies,N5222B,MY61253708,A.15.00.15
!Date: Wednesday, June 19, 2024 10:16:00
!Correction: S11(C  2-Port  ) 
!S21(C  2-Port  ) 
!S12(C  2-Port  ) 
!S22(C  2-Port  ) 
!S2P File: Measurements: S11, S21, S12, S22:
# Hz S  RI   R 50
10000000 0.9986515 -0.0032221973 1.6794125e-005 0.0003453742 -0.00032684219 0.00032761903 0.99843097 -0.0016330481
19996226.415094 1.0001948 -0.0023654699 1.5344413e-005 0.00060764584 2.1015789e-005 0.00057306886 1.0002172 -0.0023956895
29992452.830189 0.99974853 -0.0024281442 -3.5192439e-005 0.0010583948 4.3931097e-005 0.0010066772 0.99949801 -0.0028024316
39988679.245283 1.0000373 -0.0029323101 -2.1545915e-005 0.0013139843 -8.7324152e-006 0.0012798947 0.99974674 -0.003138721
49984905.660377 1.0002389 -0.0036221743 2.2270076e-005 0.0016574241 -5.4833363e-006 0.0016320855 0.99989289 -0.0036415756
59981132.075472 1.0004436 -0.0044231415 4.7767186e-005 0.0019618603 2.1888583e-005 0.0019653158 0.99990761 -0.0042143166
69977358.490566 1.0002207 -0.005061375 3.5847392e-005 0.0022642871 2.898437e-005 0.0023108188 0.99977589 -0.0048608091
79973584.90566 0.99992788 -0.0056291223 2.5062123e-005 0.0025902861 2.2204942e-005 0.0026450169 0.99939275 -0.0052527785
89969811.320755 0.99999511 -0.0057296753 4.46341e-005 0.0029445537 -1.7450657e-007 0.0029428378 0.99964857 -0.005471468
99966037.735849 1.0001954 -0.0064646006 1.4097255e-005 0.003281394 -1.3323443e-005 0.0032711141 0.99975872 -0.0062192082
109962264.15094 1.0002556 -0.007367 2.9977877e-005 0.0035959075 2.7647766e-005 0.0036141789 0.99972862 -0.0069936663
119958490.56604 1.0002552 -0.0082654655 3.2933312e-005 0.0038964553 2.4726149e-005 0.0039336821 0.9997617 -0.0078808367
129954716.98113 1.0002069 -0.009141624 3.5217148e-005 0.0042388868 5.0734845e-005 0.0042531309 0.99976778 -0.0087326765
139950943.39623 1.0001258 -0.0099511947 2.1876054e-005 0.0045544221 6.0981787e-005 0.0045805238 0.99967819 -0.0094614718
149947169.81132 1.0000492 -0.010604531 5.9366925e-005 0.0049045943 5.8762031e-005 0.0049150083 0.99961585 -0.010068655
159943396.22642 0.9999876 -0.011143506 6.9292495e-005 0.0052025127 5.4061878e-005 0.0052429899 0.99969876 -0.010538161
169939622.64151 0.99992019 -0.011516914 6.7421177e-005 0.0055459919 7.1138958e-005 0.0055700913 0.99971652 -0.010993525
179935849.0566 1.0000186 -0.011752784 7.2695548e-005 0.0058428864 5.0093746e-005 0.0058672698 0.99960923 -0.011358589
189932075.4717 1.0001708 -0.012539297 7.8551006e-005 0.0061956155 6.8146037e-005 0.0062400093 0.99981749 -0.011855364
199928301.88679 1.0000433 -0.01339367 8.1044855e-005 0.006505331 8.8477042e-005 0.0065467209 0.99975073 -0.012730271
209924528.30189 0.99978745 -0.013910964 9.7210635e-005 0.0068443245 9.2988485e-005 0.0068628876 0.99951279 -0.013368517
219920754.71698 1.0000358 -0.014744401 0.00011212262 0.0071670245 0.00010889815 0.007179616 0.99946904 -0.013946563
229916981.13208 0.99976319 -0.015565544 0.00011374964 0.0074883103 0.00011638482 0.0075306473 0.99944472 -0.014839292
239913207.54717 0.99964404 -0.016210021 0.00011324872 0.0078069679 0.00012260911 0.0078641251 0.99935865 -0.015511205
249909433.96226 0.9996407 -0.016874701 0.0001423459 0.0081556151 0.00014611613 0.0081796283 0.99946725 -0.01610595
259905660.37736 0.99978638 -0.017418295 0.00014648633 0.0084756482 0.00011083065 0.0085162781 0.9996351 -0.016625047
269901886.79245 0.99971396 -0.018104136 0.00015975768 0.0088376785 0.00017296919 0.0088195186 1.0000693 -0.017372072
279898113.20755 0.9999516 -0.018672556 0.00016541453 0.00913643 0.00015980937 0.0091703963 0.99981707 -0.018115193
289894339.62264 0.99989212 -0.019467503 0.0002059089 0.0094555132 0.00018971879 0.0094745038 0.99974614 -0.018903375
299890566.03774 0.9998638 -0.020051926 0.00020593754 0.0097924145 0.00021493901 0.0098138507 0.99955887 -0.019334733
309886792.45283 0.99966824 -0.020478964 0.00018470956 0.010113372 0.00020861649 0.01017765 0.99938828 -0.019747816
319883018.86792 0.99982977 -0.021193177 0.00018642377 0.010413708 0.00021011522 0.010492154 0.9994688 -0.020233482
329879245.28302 0.99981624 -0.021991253 0.00027424935 0.010766273 0.00023170188 0.010815949 0.99969721 -0.020920455
339875471.69811 0.99969983 -0.022623546 0.00024578499 0.011104834 0.00022935076 0.011126576 0.99959922 -0.021770604
349871698.11321 0.99990147 -0.023498416 0.00027479744 0.011407392 0.00024751248 0.011475705 0.99957043 -0.022706389
359867924.5283 0.99960577 -0.024371296 0.00032956898 0.011724802 0.00028972048 0.011792133 0.9995271 -0.023575664
369864150.9434 0.99988443 -0.025054008 0.00029566162 0.012035381 0.00027984288 0.012116439 0.99954522 -0.024264067
379860377.35849 0.99970871 -0.02577804 0.00032038079 0.01239161 0.00033097272 0.012403324 0.99935472 -0.024892986
389856603.77358 0.99957228 -0.026357383 0.00033617998 0.01269714 0.00033624563 0.012769018 0.99940181 -0.025397629
399852830.18868 0.99944448 -0.026908189 0.00031889789 0.013016988 0.00032865442 0.01308066 0.99950111 -0.025884598
409849056.60377 0.99932998 -0.027449099 0.0003815669 0.013359838 0.00035011105 0.013390549 0.99943984 -0.026397066
419845283.01887 0.99926269 -0.027837425 0.00040027872 0.01366495 0.00037529878 0.013739883 0.99943465 -0.026905745
429841509.43396 0.99935961 -0.028556049 0.00039865449 0.013988854 0.00040612696 0.014066009 0.99959445 -0.027653813
439837735.84906 0.99922705 -0.029447258 0.00043674477 0.01430863 0.00044726429 0.014377013 0.99933982 -0.028627142
449833962.26415 0.99902505 -0.030211568 0.00044648629 0.0146379 0.00045738788 0.014692121 0.99900776 -0.029425234
459830188.67925 0.99885833 -0.030905843 0.00041326974 0.014957551 0.00043221004 0.015011288 0.99879456 -0.030080587
469826415.09434 0.99882227 -0.031514108 0.00044906139 0.015307955 0.0004506316 0.015337704 0.99847275 -0.030608207
479822641.50943 0.99871874 -0.032063663 0.00046911393 0.015617306 0.00045824633 0.015705206 0.99852854 -0.031094283
489818867.92453 0.99875271 -0.032468498 0.0005048397 0.015962152 0.00052520866 0.016019803 0.99886644 -0.031612247
499815094.33962 0.9988032 -0.033172458 0.00052186335 0.016303118 0.00054972386 0.016320407 0.99911213 -0.03215462
509811320.75472 0.99894673 -0.033510033 0.00053927052 0.016576882 0.00053800683 0.016633388 0.99919432 -0.032916732
519807547.16981 0.99887687 -0.034050256 0.00057059946 0.016905431 0.00052715326 0.01695844 0.99921846 -0.033683628
529803773.58491 0.99886429 -0.034600765 0.00059975497 0.017241869 0.00059852097 0.01728645 0.99900448 -0.034157664
539800000 0.99892128 -0.035188705 0.00060118758 0.01758801 0.00059698522 0.017629491 0.99883807 -0.034837976
549796226.41509 0.99876463 -0.036007941 0.0006359932 0.017895892 0.0006032763 0.017946493 0.99873692 -0.035336912
559792452.83019 0.99869061 -0.036678195 0.00063160062 0.018221799 0.0006355606 0.018311478 0.998671 -0.035851657
569788679.24528 0.99859458 -0.037305176 0.00062656077 0.018527858 0.00066119712 0.018622799 0.99882048 -0.03663367
579784905.66038 0.99849367 -0.037890553 0.00066602847 0.018885156 0.00065254373 0.018942621 0.99888015 -0.037253775
589781132.07547 0.99861395 -0.038553536 0.00072644278 0.019200016 0.00070940237 0.019258486 0.99902236 -0.038071424
599777358.49057 0.99876529 -0.03916806 0.00074894167 0.019526429 0.00073310919 0.019622736 0.9990415 -0.038900405
609773584.90566 0.99889231 -0.039882556 0.00076677039 0.019838508 0.00075442216 0.019923924 0.99893773 -0.03974057
619769811.32075 0.99898899 -0.040487975 0.00082382979 0.020196509 0.00082695251 0.020202897 0.99886698 -0.040228546
629766037.73585 0.99887305 -0.041215181 0.00083519984 0.020446027 0.00083667506 0.020556018 0.99870253 -0.040775567
639762264.15094 0.99875849 -0.041898221 0.00087923207 0.020792907 0.00084961392 0.020859551 0.99856055 -0.041298494
649758490.56604 0.99870121 -0.042410418 0.0008765175 0.021079093 0.00087698502 0.02117659 0.99863845 -0.041723788
659754716.98113 0.99850726 -0.04302004 0.00089863967 0.021425877 0.00083949324 0.021521937 0.99872661 -0.042261928
669750943.39623 0.99853837 -0.043410808 0.00089693535 0.021769155 0.00090096146 0.021829052 0.9988333 -0.043007821
679747169.81132 0.99854344 -0.044215031 0.00095514301 0.022089051 0.00095476909 0.022203948 0.99878252 -0.043949381
689743396.22642 0.99869007 -0.044979811 0.0010001045 0.022453915 0.00096386857 0.022525219 0.99860001 -0.044833034
699739622.64151 0.99879444 -0.045866936 0.0010423241 0.022735054 0.0010218471 0.022826627 0.99852067 -0.045541704
709735849.0566 0.99880105 -0.04665409 0.0010767272 0.023054974 0.0010492882 0.023144927 0.99827361 -0.046202771
719732075.4717 0.99870527 -0.047458649 0.001119053 0.02337417 0.0011140499 0.023448542 0.99830663 -0.046763539
729728301.88679 0.99858147 -0.048026443 0.0011284547 0.023688909 0.0010857135 0.023772873 0.99834132 -0.047226667
739724528.30189 0.99842459 -0.048631072 0.0011744001 0.02401692 0.001117208 0.024074027 0.9985522 -0.047904551
749720754.71698 0.9983964 -0.049153596 0.0011884617 0.024292061 0.0012064688 0.024399716 0.99852121 -0.048645481
759716981.13208 0.99840987 -0.04964307 0.0012296932 0.024626698 0.0012258748 0.024727162 0.99853301 -0.049350619
769713207.54717 0.99829459 -0.050321907 0.0012453301 0.024938494 0.001259651 0.025035929 0.99827617 -0.050053716
779709433.96226 0.99847847 -0.050989591 0.0012693187 0.025275387 0.0012921642 0.025405299 0.99801993 -0.050618391
789705660.37736 0.99831754 -0.051821768 0.001302327 0.025590926 0.0012868224 0.025699928 0.99776852 -0.051376373
799701886.79245 0.99831539 -0.052647799 0.0013308004 0.025904346 0.0013454538 0.026003905 0.9977107 -0.051962495
809698113.20755 0.99824929 -0.053201824 0.0013355273 0.026223959 0.0013582488 0.026336703 0.99767727 -0.05237107
819694339.62264 0.99801862 -0.053854793 0.00139305 0.026526855 0.0013724118 0.026655976 0.99779296 -0.052975774
829690566.03774 0.99802715 -0.054428726 0.0014104042 0.026835885 0.0014347257 0.026980175 0.99799633 -0.053821027
839686792.45283 0.99801505 -0.054831684 0.0014413339 0.027151108 0.001449421 0.027273864 0.99810594 -0.054578841
849683018.86792 0.99819428 -0.055564545 0.0014471391 0.027488429 0.0015008221 0.027587349 0.99796277 -0.055409551
859679245.28302 0.99813473 -0.05630818 0.0014973758 0.027807213 0.001503923 0.027910292 0.99775529 -0.055995852
869675471.69811 0.99803519 -0.056957513 0.0015484262 0.028142346 0.0015460355 0.028255619 0.99729359 -0.056573093
879671698.11321 0.99799275 -0.05757311 0.0015875847 0.028413707 0.0015814602 0.028546296 0.9973498 -0.056967825
889667924.5283 0.99780655 -0.058384746 0.0015803706 0.02872481 0.0015875865 0.02884567 0.99719357 -0.057427347
899664150.9434 0.99765217 -0.059029669 0.0016284408 0.029033527 0.0016202545 0.029174011 0.99732459 -0.058041811
909660377.35849 0.99767309 -0.059689716 0.0016434076 0.029366551 0.0016511069 0.029472621 0.99742705 -0.058837354
919656603.77358 0.99771333 -0.060314685 0.0016873558 0.029692758 0.0016640332 0.029823316 0.99744099 -0.059684381
929652830.18868 0.99769157 -0.061030477 0.0017038481 0.029983621 0.0017234553 0.030099077 0.99725276 -0.060584098
939649056.60377 0.99792725 -0.061683655 0.001703823 0.030303525 0.0016864054 0.030427864 0.99711829 -0.061289757
949645283.01887 0.9978559 -0.0624387 0.0017005596 0.030643973 0.0017063107 0.030775242 0.99690777 -0.061814707
959641509.43396 0.99781352 -0.063152939 0.0017354218 0.030969199 0.0017700018 0.0311235 0.99685073 -0.062375337
969637735.84906 0.99772298 -0.063875675 0.0017675199 0.031318016 0.0017984193 0.031441137 0.99684358 -0.062695622
979633962.26415 0.99751335 -0.064517997 0.0018602249 0.03160644 0.0018628878 0.031751327 0.99687546 -0.063388206
989630188.67925 0.99756271 -0.065040529 0.0019072853 0.031934582 0.0018773004 0.032095298 0.99708235 -0.063913763
999626415.09434 0.99776697 -0.065686792 0.0019035265 0.032250252 0.0019284626 0.032425232 0.99701047 -0.064706087
1009622641.5094 0.99769235 -0.066332698 0.0019308575 0.032604944 0.0019364846 0.032726467 0.99690223 -0.065555111
1019618867.9245 0.99771327 -0.067085773 0.0019826032 0.032888211 0.0020077229 0.033066694 0.99661809 -0.066342711
1029615094.3396 0.99775243 -0.068040609 0.0020382423 0.033204775 0.0020635063 0.033370934 0.99631536 -0.066935122
1039611320.7547 0.99780363 -0.068819016 0.0020806883 0.033515442 0.0020533698 0.033649784 0.99627334 -0.067601383
1049607547.1698 0.99765468 -0.069740243 0.0021146948 0.033788122 0.0021125921 0.033970907 0.99626708 -0.068149157
1059603773.5849 0.997518 -0.070417762 0.0021150429 0.034096152 0.0021502664 0.034272309 0.99624532 -0.068686962
1069600000 0.9973982 -0.071021348 0.0021189312 0.034396231 0.0021797977 0.034569804 0.99644434 -0.069399416
1079596226.4151 0.99731648 -0.071745098 0.0021125786 0.034729619 0.0021797791 0.034913816 0.99640137 -0.070124425
1089592452.8302 0.99742091 -0.072336555 0.0021546781 0.035072654 0.0022059111 0.035220008 0.99636084 -0.07090655
1099588679.2453 0.99743497 -0.073017895 0.0021632574 0.035364889 0.0022103768 0.035558503 0.99607301 -0.07148093
1109584905.6604 0.99753451 -0.073802739 0.0022040568 0.035705097 0.002233725 0.035872638 0.99581373 -0.072050855
1119581132.0755 0.99751848 -0.074781299 0.0022016317 0.036070477 0.0022526369 0.036214743 0.99564695 -0.072505623
1129577358.4906 0.99735767 -0.075454891 0.0022617131 0.036392789 0.00228904 0.036585405 0.99555469 -0.072891593
1139573584.9057 0.99711436 -0.07632634 0.0022880072 0.036753491 0.0023659617 0.036881804 0.99568582 -0.07352072
1149569811.3208 0.99701589 -0.077195361 0.0023355153 0.037046254 0.0024087727 0.037224695 0.99574977 -0.074269772
1159566037.7358 0.99674594 -0.077775568 0.0023733722 0.037328482 0.0024225553 0.037531469 0.99584013 -0.075268269
1169562264.1509 0.99663961 -0.078478545 0.0023806635 0.037648816 0.0024566371 0.037854619 0.99566472 -0.075986683
1179558490.566 0.9965905 -0.07932508 0.0024018497 0.038016155 0.0024730815 0.03821649 0.99559879 -0.07669957
1189554716.9811 0.99660075 -0.080014139 0.0024331054 0.038362451 0.0025330782 0.038548369 0.9953227 -0.07730034
1199550943.3962 0.99652672 -0.080848366 0.0024643503 0.038703904 0.0026008897 0.038870811 0.99514365 -0.077715218
1209547169.8113 0.99638557 -0.081690982 0.0025308346 0.039022107 0.0026113549 0.039140571 0.99507308 -0.078067079
1219543396.2264 0.99615109 -0.082489669 0.0025600004 0.039376225 0.002649819 0.03955806 0.99514645 -0.078458682
1229539622.6415 0.99589825 -0.083293766 0.0026332531 0.039670415 0.0027361009 0.039858501 0.99523294 -0.079143614
1239535849.0566 0.99569273 -0.083907753 0.0026601637 0.039972838 0.0027803862 0.040175848 0.99543965 -0.079971194
1249532075.4717 0.99533165 -0.084583029 0.0027369652 0.040324807 0.0028568357 0.040495567 0.99523449 -0.080750018
1259528301.8868 0.99511296 -0.085038722 0.0027849283 0.040643409 0.0028900336 0.040773001 0.99503338 -0.081608862
1269524528.3019 0.99504197 -0.085772991 0.0028613703 0.040953495 0.0029702773 0.041090801 0.99476683 -0.082286119
1279520754.717 0.99475747 -0.086481437 0.0028976472 0.0412235 0.0030157976 0.041349363 0.99455512 -0.082800053
1289516981.1321 0.99454522 -0.087327808 0.0029079411 0.041530944 0.0030044438 0.041642658 0.9945544 -0.0832946
1299513207.5472 0.99430537 -0.088216245 0.0029322002 0.041808955 0.0030498579 0.041915227 0.99466753 -0.083726257
1309509433.9623 0.99384868 -0.088898063 0.0029163891 0.042149104 0.0030453159 0.042251766 0.99477994 -0.084382445
1319505660.3774 0.9935081 -0.08958444 0.0029160241 0.042460755 0.0030620676 0.042578895 0.99483258 -0.085033193
1329501886.7925 0.99324787 -0.090281785 0.0029441062 0.042777367 0.0030839853 0.042883791 0.99489772 -0.085963458
1339498113.2075 0.99290586 -0.090732157 0.0029852679 0.043088 0.0030533066 0.043222912 0.99451745 -0.086663246
1349494339.6226 0.99277866 -0.091285378 0.0029914035 0.043422677 0.0030685929 0.043513831 0.99415147 -0.087282188
1359490566.0377 0.99268454 -0.091828018 0.002996143 0.043781139 0.0030579213 0.043850422 0.99397969 -0.087821901
1369486792.4528 0.99246716 -0.092355639 0.0029711341 0.044153064 0.0030847387 0.044188503 0.99383992 -0.088215619
1379483018.8679 0.99221623 -0.092922486 0.0030163217 0.044486031 0.0030646247 0.04456798 0.99381959 -0.088634647
1389479245.283 0.99191511 -0.093416065 0.0030539781 0.044889946 0.0031273179 0.044951975 0.99372965 -0.08920905
1399475471.6981 0.99154401 -0.093838423 0.0030579232 0.045220912 0.0031392258 0.045269553 0.99398595 -0.089900434
1409471698.1132 0.99120897 -0.094214275 0.0030981547 0.045595929 0.0031599749 0.045674663 0.9939276 -0.09071891
1419467924.5283 0.99102509 -0.094635695 0.0031266194 0.045965634 0.0031899996 0.046033081 0.9937529 -0.091477513
1429464150.9434 0.99089921 -0.09499076 0.0031628236 0.046358474 0.0032156613 0.046391446 0.99379432 -0.09202224
1439460377.3585 0.99100214 -0.095427424 0.0032632342 0.046808138 0.0033082534 0.046885692 0.99347115 -0.092348307
1449456603.7736 0.991027 -0.096017584 0.0033654347 0.047171321 0.0033773081 0.047229413 0.99333435 -0.092661723
1459452830.1887 0.99106014 -0.096583515 0.0034885295 0.047573857 0.0034922119 0.047612309 0.99348783 -0.092999429
1469449056.6038 0.99115068 -0.097360611 0.0036442308 0.047914799 0.0036258856 0.047955364 0.99370885 -0.093648344
1479445283.0189 0.99107182 -0.097860187 0.0037520011 0.048186172 0.0037728013 0.048226401 0.99376434 -0.094508141
1489441509.434 0.99086934 -0.098361701 0.0038645361 0.048477273 0.0039109234 0.048568949 0.99366641 -0.095328659
1499437735.8491 0.99076396 -0.098694861 0.0040039085 0.048748773 0.0040261932 0.048852555 0.99360633 -0.09617883
1509433962.2642 0.99076909 -0.099221811 0.0040660161 0.049015041 0.0040589701 0.049089637 0.99338001 -0.096887439
1519430188.6792 0.99087185 -0.099790454 0.0041186772 0.049299628 0.0041519199 0.049340941 0.99323368 -0.097513497
1529426415.0943 0.99079967 -0.1004042 0.0041917581 0.049601436 0.0041654855 0.049647443 0.99315035 -0.097926944
1539422641.5094 0.99080747 -0.10123928 0.0042429282 0.049866404 0.0042384984 0.049956802 0.99320173 -0.098395891
1549418867.9245 0.99068213 -0.10205796 0.004332846 0.050124459 0.0042907 0.050209105 0.99345362 -0.099102423
1559415094.3396 0.99054897 -0.10268015 0.0043641683 0.050429046 0.0043122265 0.050538559 0.99356711 -0.099696547
1569411320.7547 0.99037039 -0.10340834 0.0044137957 0.050691172 0.0043616956 0.05080308 0.99352872 -0.10054293
1579407547.1698 0.99036729 -0.10393445 0.0044003781 0.050942086 0.0044082585 0.051111013 0.99317098 -0.10137586
1589403773.5849 0.99028897 -0.10446712 0.0044082254 0.051257968 0.0043799188 0.051407803 0.99305201 -0.10198301
1599400000 0.99029088 -0.10494518 0.0044143107 0.051542569 0.004368159 0.051660627 0.99256843 -0.10245469
1609396226.4151 0.9902581 -0.10555583 0.0043965662 0.051881552 0.0043397588 0.051964819 0.99244398 -0.10292797
1619392452.8302 0.99023032 -0.10615748 0.0044333935 0.052199796 0.0043409877 0.052298028 0.99238938 -0.10338852
1629388679.2453 0.99000645 -0.10691985 0.0044146348 0.05253993 0.0043834746 0.052674934 0.9925741 -0.10395235
1639384905.6604 0.9898144 -0.10757627 0.004454047 0.052897841 0.0043698926 0.053042214 0.99282902 -0.10480367
1649381132.0755 0.98962891 -0.10818541 0.0044643693 0.053218313 0.0043838061 0.053385656 0.99279487 -0.10570031
1659377358.4906 0.98942268 -0.10894972 0.0044245645 0.053609166 0.0044086296 0.053750437 0.99273318 -0.10650647
1669373584.9057 0.98942339 -0.10936406 0.0044763735 0.053974047 0.0044303341 0.054121099 0.99254346 -0.10716729
1679369811.3208 0.98945522 -0.11006415 0.0045571458 0.054360285 0.0044474779 0.054496143 0.99239182 -0.1077292
1689366037.7358 0.98942399 -0.11072075 0.0046041291 0.054711618 0.0045275502 0.054843433 0.99212062 -0.1080189
1699362264.1509 0.98954844 -0.11127026 0.0046024173 0.055081833 0.0045734849 0.055261042 0.99229944 -0.10839294
1709358490.566 0.98941517 -0.11193439 0.0046778088 0.055401009 0.0046239207 0.055613022 0.9922545 -0.10906784
1719354716.9811 0.98917258 -0.11253911 0.0047030672 0.055768792 0.00468475 0.055970673 0.99236035 -0.10967997
