!Keysight Technologies,N5222B,MY61253708,A.15.00.15
!Date: Wednesday, June 19, 2024 10:38:09
!Correction: S11(C  2-Port  ) 
!S21(C  2-Port  ) 
!S12(C  2-Port  ) 
!S22(C  2-Port  ) 
!S2P File: Measurements: S11, S21, S12, S22:
# Hz S  RI   R 50
10000000 0.99857581 -0.0031138659 0.00042893077 0.00040241989 0.00015373269 0.00023617382 0.99826121 -0.0019173324
19996226.415094 0.99972934 -0.0023402274 -6.011143e-005 0.00063868903 2.5518821e-006 0.00074666366 0.99997449 -0.0022090971
29992452.830189 0.99955738 -0.0025914907 -7.7066361e-006 0.00096314499 1.0174292e-005 0.00096734212 0.99933839 -0.0026901066
39988679.245283 1.0001158 -0.0030416399 -3.695066e-006 0.0013175558 1.7416358e-005 0.0013298052 0.99975604 -0.0030656457
49984905.660377 1.0002064 -0.0036979318 1.6805832e-005 0.0016156641 1.6946695e-005 0.0016451827 0.99997783 -0.003606081
59981132.075472 1.0004766 -0.0045417547 3.4622732e-005 0.0019534691 4.3773325e-005 0.0019803152 0.99995238 -0.0041212142
69977358.490566 1.0002159 -0.0051234532 3.7832069e-006 0.0022091456 4.8217735e-006 0.0022948869 0.99983072 -0.0046321694
79973584.90566 0.9999367 -0.00567168 5.2527292e-005 0.002561959 1.1466793e-005 0.002604255 0.9994359 -0.0051312745
89969811.320755 0.99990076 -0.0057541728 1.867651e-006 0.0029102059 4.0965504e-005 0.002906929 0.99970531 -0.0052838326
99966037.735849 1.0001053 -0.0064581633 1.3907615e-005 0.0032275687 2.5347632e-005 0.0032439404 0.99974477 -0.0060407072
109962264.15094 1.0001816 -0.007335633 5.6753051e-005 0.0035541062 3.9444771e-005 0.0035656826 0.99979293 -0.0068638772
119958490.56604 1.0002102 -0.008280158 2.4366891e-005 0.0038816356 3.8702972e-005 0.0039030816 0.99981028 -0.0076856017
129954716.98113 1.0001762 -0.0092367232 3.4986879e-005 0.0041814446 4.5282068e-005 0.0042125275 0.99981058 -0.0085941255
139950943.39623 1.0000955 -0.010011224 3.4493132e-005 0.0045159785 5.5364246e-005 0.0045222309 0.9997412 -0.0092961602
149947169.81132 0.99998719 -0.010693878 5.4010889e-005 0.0048441221 2.9389746e-005 0.0048619551 0.99966753 -0.0099020004
159943396.22642 0.99991482 -0.011189193 7.1398681e-005 0.0051640696 4.7673471e-005 0.0051811878 0.99976206 -0.010307401
169939622.64151 0.99985582 -0.011547044 7.919356e-005 0.0054907752 5.12345e-005 0.0055113663 0.99981636 -0.010721929
179935849.0566 0.99990696 -0.011752516 9.1933645e-005 0.0058137011 9.1078691e-005 0.0058554718 0.99972212 -0.01104632
189932075.4717 1.0000784 -0.012555629 6.6921813e-005 0.0061186338 0.0001115934 0.0061561875 0.99993891 -0.011570334
199928301.88679 0.99996006 -0.013307363 8.2660001e-005 0.0064383289 0.00010134152 0.0064469795 0.99983943 -0.01246956
209924528.30189 0.9996646 -0.013862893 9.3278824e-005 0.006784786 6.8619964e-005 0.0067872424 0.99961525 -0.013142318
219920754.71698 0.99987382 -0.01466164 9.9348603e-005 0.0071162265 0.00012958446 0.0071121124 0.99945033 -0.013728946
229916981.13208 0.99963951 -0.015554547 0.0001052299 0.0074516963 0.00011014892 0.0074452851 0.99945015 -0.014548451
239913207.54717 0.99953306 -0.01625178 0.00011349702 0.0077470774 0.00012673752 0.0077871438 0.9994173 -0.015227092
249909433.96226 0.99960566 -0.016795754 0.00014135032 0.0080539081 0.00013810722 0.0080936635 0.99951023 -0.015754998
259905660.37736 0.99973738 -0.017447889 0.00015792158 0.0083921487 0.0001631421 0.0083967065 0.99968708 -0.016312242
269901886.79245 0.99995255 -0.018003851 0.00015548535 0.0087558934 0.00014860567 0.0087324847 1.0001556 -0.016998246
279898113.20755 1.0000571 -0.018727466 0.00016605365 0.0090757338 0.00018299092 0.0090255467 0.99990755 -0.017728895
289894339.62264 0.99989724 -0.019509554 0.00019150227 0.0093651237 0.00018609315 0.009378938 0.99984598 -0.018475443
299890566.03774 0.9998247 -0.019979179 0.00020266301 0.009644445 0.00020836224 0.0097167809 0.99960154 -0.018860579
309886792.45283 0.9996255 -0.020565085 0.00014220492 0.0099790301 0.00024051557 0.010043822 0.99952757 -0.019351907
319883018.86792 0.99964184 -0.021155536 0.00019382592 0.01032064 0.00025068922 0.010362854 0.99970418 -0.019761771
329879245.28302 0.99960244 -0.021864116 0.00017981697 0.010622612 0.00025315955 0.01065794 0.99975348 -0.020608097
339875471.69811 0.9995268 -0.022605523 0.00025208492 0.010978339 0.0002557087 0.011003785 0.99969792 -0.02141311
349871698.11321 0.99964619 -0.023406208 0.00025238912 0.011264133 0.00024237786 0.011340044 0.99976993 -0.022353202
359867924.5283 0.99955833 -0.024247646 0.00030754087 0.011612236 0.00026878761 0.011632688 0.99971259 -0.023263425
369864150.9434 0.99977481 -0.024988353 0.00027973088 0.011934501 0.0002706137 0.011964364 0.9997561 -0.02388075
379860377.35849 0.99958885 -0.025752783 0.00030184234 0.012256141 0.00032301131 0.01229351 0.99964744 -0.024710432
389856603.77358 0.99947512 -0.026285499 0.00032070279 0.012589997 0.00034628948 0.012599966 0.99958074 -0.025162548
399852830.18868 0.99936986 -0.026913643 0.00035631144 0.012932885 0.00032264413 0.012929691 0.99963695 -0.025650591
409849056.60377 0.99921304 -0.02736632 0.00036990375 0.013214963 0.00036755364 0.013232294 0.99952465 -0.026188957
419845283.01887 0.99913132 -0.02782023 0.00038807327 0.013538451 0.00036052009 0.013573366 0.99947941 -0.026788682
429841509.43396 0.99922431 -0.028401792 0.00040989742 0.013865359 0.00035432586 0.013911829 0.99959052 -0.027516901
439837735.84906 0.99905497 -0.029385895 0.00041674962 0.014176074 0.00041315285 0.014227476 0.99925369 -0.028535247
449833962.26415 0.99890131 -0.030092269 0.00043211319 0.014479047 0.00044489326 0.014519183 0.99875295 -0.02930668
459830188.67925 0.99871314 -0.030781716 0.00043064682 0.01480559 0.00040318398 0.014820877 0.99842083 -0.029956609
469826415.09434 0.99868846 -0.031429738 0.0004640338 0.015144799 0.00042977976 0.015153296 0.99808973 -0.030410796
479822641.50943 0.99850422 -0.032063633 0.00048354745 0.015482585 0.00048614561 0.015509295 0.99810392 -0.03068997
489818867.92453 0.99860412 -0.03247425 0.00051450357 0.015788123 0.00052160351 0.015825881 0.99835181 -0.031106472
499815094.33962 0.9987334 -0.033074677 0.00054313708 0.016082818 0.00055020489 0.016149016 0.99865854 -0.031520545
509811320.75472 0.9988445 -0.033416241 0.00054401049 0.016390378 0.00055990869 0.016442982 0.99881166 -0.032237221
519807547.16981 0.9987843 -0.033942431 0.00057718623 0.016706796 0.00053784018 0.016733039 0.99883193 -0.032900304
529803773.58491 0.99875259 -0.034459174 0.00057584373 0.017029379 0.00057391683 0.017111678 0.99858218 -0.033425629
539800000 0.99882168 -0.035100713 0.00059146807 0.017381988 0.00057166512 0.017435711 0.99837863 -0.034061894
549796226.41509 0.99867165 -0.035925865 0.00061175507 0.01773156 0.00058019068 0.017743561 0.99832082 -0.034419298
559792452.83019 0.99845767 -0.036604315 0.00061875023 0.018001638 0.00065305922 0.018060971 0.99830502 -0.034823686
569788679.24528 0.99842095 -0.037272036 0.00067404192 0.018300014 0.00066141458 0.018400069 0.99849498 -0.035513908
579784905.66038 0.99839795 -0.037791751 0.00064330653 0.018691443 0.00070392957 0.018714774 0.99871594 -0.036284208
589781132.07547 0.99857461 -0.038469255 0.00072455592 0.018983435 0.00069253705 0.01905496 0.99884427 -0.037118226
599777358.49057 0.99866724 -0.039035499 0.00076343585 0.019303421 0.00072615966 0.019378303 0.99892569 -0.037883133
609773584.90566 0.9988234 -0.039805852 0.00074257172 0.019614641 0.00077076297 0.019688515 0.99881369 -0.038780402
619769811.32075 0.99897039 -0.040557712 0.00080114417 0.019937377 0.00080362894 0.019995481 0.99881661 -0.039309233
629766037.73585 0.99877095 -0.041151345 0.00082357135 0.020263802 0.00079534482 0.020308807 0.99862671 -0.039726973
639762264.15094 0.998689 -0.04174301 0.00090206787 0.020583062 0.0008330876 0.020631816 0.99846792 -0.040130913
649758490.56604 0.99850476 -0.042318329 0.000854176 0.020869197 0.00084976433 0.020948507 0.99863988 -0.04058294
659754716.98113 0.99833083 -0.042770088 0.00087004248 0.021239731 0.00087643042 0.021316458 0.99871808 -0.041124821
669750943.39623 0.99845082 -0.043254822 0.000862638 0.021555744 0.00087086251 0.021595724 0.99882472 -0.042011231
679747169.81132 0.99839306 -0.044137664 0.00092466047 0.021900352 0.00089797482 0.021952819 0.99884897 -0.042951621
689743396.22642 0.99859798 -0.044842333 0.00097397342 0.022240339 0.00097302068 0.02226029 0.99866676 -0.043911755
699739622.64151 0.9986946 -0.045673847 0.00099793635 0.022517499 0.001027612 0.022586325 0.99862742 -0.044596314
709735849.0566 0.99868309 -0.046574891 0.0010641615 0.022822361 0.0010620872 0.022882909 0.99840492 -0.045254759
719732075.4717 0.99853045 -0.047235221 0.001087931 0.023131331 0.0010599601 0.023173317 0.99851429 -0.045805007
729728301.88679 0.99843949 -0.047764063 0.0011009378 0.023460228 0.001106184 0.023502924 0.99852902 -0.046304345
739724528.30189 0.99829334 -0.048479185 0.0011319341 0.023773141 0.001121236 0.023813294 0.99875271 -0.046961695
749720754.71698 0.99821788 -0.048908681 0.0011735205 0.024079148 0.0011608889 0.024184674 0.99872148 -0.047632694
759716981.13208 0.99826765 -0.049449146 0.001197407 0.024388414 0.0011895383 0.024473883 0.99865282 -0.048474729
769713207.54717 0.99818426 -0.050202191 0.0012104604 0.024693009 0.0012352513 0.024781866 0.99844551 -0.049194306
779709433.96226 0.99836951 -0.050821252 0.0012577944 0.025013115 0.0012295787 0.025072649 0.99808311 -0.049888179
789705660.37736 0.99820018 -0.051718414 0.0012716241 0.025322244 0.0012777625 0.025383815 0.99776626 -0.050537735
799701886.79245 0.99818009 -0.0524683 0.0012911903 0.0256544 0.0012781881 0.025702219 0.99770224 -0.051138669
809698113.20755 0.99806821 -0.053103387 0.0013156428 0.025965944 0.0012991079 0.026038453 0.99773037 -0.05155462
819694339.62264 0.99790013 -0.05366841 0.001378295 0.026272172 0.0013464466 0.026374171 0.99785191 -0.052149177
829690566.03774 0.99787676 -0.054187983 0.0013924185 0.026561063 0.0013902532 0.026662912 0.9980635 -0.053046525
839686792.45283 0.99797863 -0.054740816 0.0014105802 0.026895767 0.0014083236 0.026971092 0.99801642 -0.053780138
849683018.86792 0.99798465 -0.055298135 0.0014240602 0.027225664 0.0014376997 0.027296586 0.99789292 -0.054497704
859679245.28302 0.99803323 -0.05601725 0.0014650607 0.027529975 0.0014796145 0.027599584 0.99763036 -0.055186093
869675471.69811 0.99793631 -0.056732088 0.0015208861 0.027834089 0.0015050955 0.027920024 0.99725407 -0.05561775
879671698.11321 0.99780381 -0.057334416 0.0015562356 0.028131196 0.0015662424 0.028217366 0.99718553 -0.055998642
889667924.5283 0.99767172 -0.058096558 0.0016018525 0.028398043 0.0015673917 0.028520873 0.9971211 -0.05647403
899664150.9434 0.99753952 -0.058768332 0.0016046688 0.028731488 0.0016079163 0.028829992 0.99714732 -0.057028472
909660377.35849 0.99751395 -0.059503555 0.0016068551 0.029058821 0.0016143136 0.029144237 0.99726087 -0.057896763
919656603.77358 0.99759829 -0.060110584 0.0016276441 0.029370852 0.0016209111 0.02948604 0.99725306 -0.05874595
929652830.18868 0.99755538 -0.060802758 0.0016652727 0.029673057 0.0016550478 0.029757909 0.99713111 -0.059571028
939649056.60377 0.99780512 -0.06142661 0.0016664797 0.029963274 0.0016990099 0.03010066 0.99698508 -0.060320646
949645283.01887 0.99777418 -0.062303834 0.0016679907 0.030304043 0.0016659911 0.03040467 0.99671209 -0.060695503
959641509.43396 0.99762958 -0.062878489 0.0017283075 0.030654293 0.0017052004 0.03075481 0.9966476 -0.061227888
969637735.84906 0.99756598 -0.063528031 0.0017547337 0.031029746 0.001748044 0.031092096 0.9967407 -0.06147489
979633962.26415 0.99741018 -0.064325869 0.0018148066 0.031304728 0.0018169838 0.03139947 0.99674404 -0.06214375
989630188.67925 0.9974615 -0.064821869 0.0018337406 0.03162029 0.0018540323 0.031741295 0.99694139 -0.062697321
999626415.09434 0.9973923 -0.065350682 0.0018819347 0.031941906 0.0018983642 0.032069951 0.9968816 -0.063521892
1009622641.5094 0.99750698 -0.065983936 0.0018776692 0.032257352 0.0019138861 0.032385275 0.99678206 -0.064385936
1019618867.9245 0.99759358 -0.066826761 0.0019399957 0.032576673 0.0019724821 0.032692935 0.99649966 -0.06518656
1029615094.3396 0.99766386 -0.067786932 0.0020150207 0.032881554 0.0020150589 0.032966979 0.99612063 -0.065780252
1039611320.7547 0.99766254 -0.068549573 0.0020356867 0.033175278 0.0020428002 0.033283032 0.9961679 -0.066350222
1049607547.1698 0.99755162 -0.069446608 0.0020561784 0.033447068 0.0020742367 0.033547018 0.99617416 -0.066883415
1059603773.5849 0.99746907 -0.07012558 0.0020916238 0.033736706 0.0020897081 0.033899788 0.99622619 -0.067389727
1069600000 0.99727178 -0.070743263 0.0020665638 0.034042336 0.0021222569 0.034201749 0.99636269 -0.068062752
1079596226.4151 0.99720496 -0.071293965 0.002094347 0.034359507 0.002153812 0.03451357 0.99638385 -0.068890974
1089592452.8302 0.99718094 -0.071990192 0.0021095723 0.034738474 0.0021636169 0.03483754 0.9963339 -0.069646537
1099588679.2453 0.9972688 -0.072668672 0.0021206625 0.035075065 0.0021605622 0.035149284 0.99598432 -0.070135117
1109584905.6604 0.99743855 -0.073371395 0.0021365173 0.035346314 0.0021784212 0.035477512 0.99577624 -0.070761517
1119581132.0755 0.99749124 -0.074353009 0.0021641045 0.035684071 0.0022082566 0.035839345 0.99560201 -0.071130976
1129577358.4906 0.99718553 -0.075167835 0.0022213664 0.03602786 0.0022508297 0.03618272 0.99550456 -0.071609288
1139573584.9057 0.99700004 -0.076040238 0.0022238372 0.036355399 0.0023144586 0.036497075 0.99561548 -0.072331965
1149569811.3208 0.99692738 -0.076888353 0.0023085109 0.036690064 0.0023564994 0.036805253 0.99579829 -0.073008873
1159566037.7358 0.9966644 -0.077485502 0.0023493348 0.036985084 0.0023830673 0.037109107 0.99586535 -0.074047357
1169562264.1509 0.99652559 -0.078117013 0.002325926 0.0372632 0.0023984462 0.037406921 0.99567848 -0.074830413
1179558490.566 0.99650937 -0.078894049 0.0023349978 0.037630454 0.0024207409 0.037767082 0.99555153 -0.075463489
1189554716.9811 0.99653214 -0.079606384 0.0023669647 0.03797419 0.0024697613 0.038097147 0.99527472 -0.076014191
1199550943.3962 0.99647391 -0.080390394 0.0024310183 0.038303535 0.0025121253 0.038443469 0.99509585 -0.076424867
1209547169.8113 0.99631941 -0.08128047 0.0024610413 0.038609404 0.0025582304 0.038725808 0.99505866 -0.076738119
1219543396.2264 0.9961307 -0.082063124 0.0025187996 0.038975649 0.0025960421 0.039091531 0.9951753 -0.077048287
1229539622.6415 0.99581701 -0.082850993 0.0025600865 0.039324258 0.002656443 0.039388344 0.99535465 -0.077754736
1239535849.0566 0.99558461 -0.083568633 0.002633105 0.039588436 0.0027251681 0.039727245 0.99539739 -0.078760505
1249532075.4717 0.99530452 -0.084223688 0.0026658666 0.039919741 0.0027611982 0.040030226 0.99523193 -0.079475582
1259528301.8868 0.99513245 -0.084665537 0.0027374923 0.040221531 0.0028518997 0.040329136 0.99498594 -0.080406189
1269524528.3019 0.9950273 -0.085422575 0.0027942574 0.040531188 0.0029076869 0.040601403 0.99478972 -0.081045359
1279520754.717 0.99470532 -0.086104393 0.0028478138 0.04082023 0.002936542 0.040876172 0.99446869 -0.081566252
1289516981.1321 0.99458933 -0.086940378 0.0028626714 0.04109443 0.0029455982 0.041162875 0.99458468 -0.081960171
1299513207.5472 0.99425519 -0.087750554 0.0028588939 0.041393217 0.0029546712 0.041473545 0.99471176 -0.082385838
1309509433.9623 0.99382359 -0.088400722 0.0029020058 0.041680083 0.0029695444 0.041769091 0.99485278 -0.083062306
1319505660.3774 0.99349624 -0.089179799 0.0028713634 0.042007726 0.0029997295 0.042085964 0.99488854 -0.083696201
1329501886.7925 0.99320853 -0.089816332 0.002880225 0.042338245 0.0029915143 0.042410549 0.99485701 -0.084626138
1339498113.2075 0.99300432 -0.090369016 0.002942089 0.04266477 0.003025664 0.042727605 0.99450165 -0.085407019
1349494339.6226 0.99281353 -0.090989746 0.0028743409 0.042976622 0.0029781498 0.043026496 0.9941256 -0.08594393
1359490566.0377 0.99270678 -0.091516435 0.0029149428 0.043347519 0.003018491 0.043381959 0.99390775 -0.086460739
1369486792.4528 0.99249035 -0.092071593 0.0029181391 0.043692306 0.0029999381 0.043725435 0.99379146 -0.086911678
1379483018.8679 0.99226499 -0.092636198 0.0029316959 0.044051487 0.0029935732 0.044070944 0.99383605 -0.087235719
1389479245.283 0.99191654 -0.093139887 0.0029819813 0.044388402 0.0030418299 0.044423275 0.9938823 -0.087879658
1399475471.6981 0.99149764 -0.093449563 0.0029871892 0.044719499 0.003037842 0.044806387 0.99398583 -0.088502914
1409471698.1132 0.99124998 -0.09383335 0.0030260831 0.045136932 0.0030963616 0.045155294 0.9941361 -0.089416139
1419467924.5283 0.99099171 -0.094172746 0.0030415924 0.045476131 0.0030817073 0.045518503 0.99391091 -0.090113074
1429464150.9434 0.9908911 -0.094622672 0.0030704141 0.045881219 0.0031302404 0.045929082 0.9937647 -0.09059003
1439460377.3585 0.99100286 -0.095092312 0.0031706737 0.046311796 0.0031750742 0.046325888 0.99353594 -0.091036558
1449456603.7736 0.99109721 -0.095602348 0.0032433774 0.046727408 0.0033023395 0.046703115 0.99340451 -0.091320023
1459452830.1887 0.99111921 -0.096333712 0.0033858027 0.047092699 0.003420705 0.047124416 0.99356508 -0.091568321
1469449056.6038 0.99120015 -0.09699133 0.0035641938 0.047397912 0.0035769427 0.04747159 0.99376488 -0.092207104
1479445283.0189 0.99099779 -0.097694352 0.0036727106 0.047702331 0.0037017916 0.047723111 0.99386805 -0.093219973
1489441509.434 0.99094111 -0.098175138 0.0038102604 0.048006386 0.0038327742 0.048053324 0.99379754 -0.094057143
1499437735.8491 0.99072695 -0.098449677 0.003913071 0.048272986 0.0039220974 0.048317038 0.99364257 -0.09488067
1509433962.2642 0.99070096 -0.098986402 0.0040124021 0.048531882 0.0039787549 0.048549678 0.99346805 -0.095541112
1519430188.6792 0.99085391 -0.099445075 0.0040514097 0.048789762 0.0040878206 0.048839852 0.9932915 -0.096102715
1529426415.0943 0.99077046 -0.10010099 0.0040979106 0.049049959 0.0041002184 0.049091719 0.99321288 -0.096481174
1539422641.5094 0.99079591 -0.10094294 0.0041571562 0.0493377 0.0041362196 0.049380016 0.99332678 -0.096891426
1549418867.9245 0.99065083 -0.10176943 0.0041858228 0.049622241 0.0041793939 0.049695462 0.99357462 -0.09770903
1559415094.3396 0.99057835 -0.10242164 0.0042550955 0.049915992 0.0042203888 0.049960449 0.99370325 -0.098307312
1569411320.7547 0.99038643 -0.10319823 0.0042795399 0.050207082 0.0042743245 0.050231561 0.99367011 -0.099159852
1579407547.1698 0.99030375 -0.10374288 0.0042770095 0.050439458 0.0042985426 0.0505112 0.99327326 -0.10001783
1589403773.5849 0.99025917 -0.10428354 0.0043257196 0.050723441 0.0042674951 0.050807413 0.99308336 -0.10064912
1599400000 0.99021888 -0.10462782 0.0043484857 0.050997663 0.0043008849 0.05108846 0.9927063 -0.10122502
1609396226.4151 0.99017888 -0.10529725 0.0043250443 0.051339202 0.0042716698 0.05141576 0.99244702 -0.10162818
1619392452.8302 0.99017143 -0.10589314 0.004322283 0.051653281 0.0042569023 0.051739268 0.99251091 -0.10209772
1629388679.2453 0.98989552 -0.10657573 0.0043344684 0.051994875 0.0042781029 0.052049108 0.99274015 -0.10258305
1639384905.6604 0.98980314 -0.10726605 0.0043345392 0.052347858 0.0042692553 0.052458566 0.99303395 -0.10347823
1649381132.0755 0.98949122 -0.10790423 0.0043491814 0.052713692 0.004304992 0.052835397 0.99303234 -0.10429838
1659377358.4906 0.98931557 -0.10862523 0.0043710861 0.053050444 0.0043247361 0.053141512 0.99295157 -0.10522565
1669373584.9057 0.98931223 -0.10906503 0.0043748692 0.053381138 0.0043481509 0.053535204 0.99261451 -0.10589543
1679369811.3208 0.98936838 -0.10974863 0.0044114506 0.053750154 0.0043963408 0.053900983 0.99241853 -0.10636058
1689366037.7358 0.98935497 -0.11036515 0.0044498984 0.054128587 0.0044023413 0.05426117 0.99228466 -0.10666525
1699362264.1509 0.98953301 -0.11097504 0.0044993125 0.054503731 0.0044777142 0.054684587 0.99252295 -0.10711351
1709358490.566 0.98941898 -0.1115635 0.0045485571 0.054883715 0.0045202048 0.055021338 0.99251646 -0.10764813
1719354716.9811 0.98907471 -0.11218208 0.0046029594 0.055238847 0.0045598652 0.055367928 0.99252915 -0.10830486
