!Keysight Technologies,N5222B,MY61253708,A.15.00.15
!Date: Wednesday, June 19, 2024 10:36:49
!Correction: S11(C  2-Port  ) 
!S21(C  2-Port  ) 
!S12(C  2-Port  ) 
!S22(C  2-Port  ) 
!S2P File: Measurements: S11, S21, S12, S22:
# Hz S  RI   R 50
10000000 0.99859428 -0.003639698 0.0001335883 0.00028048738 -0.00031262863 0.00019899501 0.99847645 -0.0017533302
19996226.415094 0.99968767 -0.0023472905 1.334463e-005 0.00062979606 6.3325017e-005 0.00057978858 1.0001342 -0.0023397803
29992452.830189 0.99955362 -0.0026104748 8.3531195e-006 0.00091599923 1.5017577e-008 0.00097760477 0.99935186 -0.0027495921
39988679.245283 1.0000771 -0.0030347258 -6.1625193e-005 0.0013361055 -1.4845762e-005 0.0013383483 0.99976844 -0.0030753762
49984905.660377 1.0002317 -0.0037462115 2.2657798e-005 0.001623502 2.0924432e-005 0.0016034048 0.99995065 -0.003621906
59981132.075472 1.0004033 -0.0045338273 -1.5988015e-005 0.0019608217 4.1027844e-005 0.0019456373 0.999946 -0.0041382611
69977358.490566 1.0002041 -0.0051899347 1.5377977e-005 0.0022440467 4.0460029e-005 0.0022929083 0.99986154 -0.0046869945
79973584.90566 0.99990284 -0.0056875646 1.1327094e-005 0.0025669606 1.0207528e-005 0.0026048226 0.99942183 -0.0051124394
89969811.320755 0.99994183 -0.0057573318 3.7710182e-005 0.002881818 -1.7118291e-005 0.0029279485 0.99962783 -0.0052823126
99966037.735849 1.0001322 -0.0064469874 2.0870997e-005 0.0032152785 1.2761273e-005 0.0032507894 0.99975044 -0.0060498714
109962264.15094 1.0001726 -0.0073069334 2.313935e-005 0.0035657212 3.5659235e-005 0.0035625494 0.9997617 -0.0068421066
119958490.56604 1.0002033 -0.0082495511 1.5304307e-005 0.003878634 9.6682925e-006 0.0038782002 0.99980032 -0.0077092648
129954716.98113 1.0001981 -0.0092483461 3.7538237e-005 0.0042027198 4.1094609e-005 0.004234191 0.99978316 -0.0085763931
139950943.39623 1.0001115 -0.01003523 2.0636522e-005 0.0045369291 3.9313672e-005 0.004544952 0.99973845 -0.0093080234
149947169.81132 0.99995828 -0.010715038 4.8214803e-005 0.0048484425 5.2506803e-005 0.0048630666 0.99966013 -0.0099110305
159943396.22642 0.99991798 -0.011231482 4.143524e-005 0.0051690824 4.350557e-005 0.0051747514 0.999708 -0.010313511
169939622.64151 0.99984413 -0.011572145 7.2821218e-005 0.0055038533 4.988577e-005 0.0055231149 0.9998008 -0.010716438
179935849.0566 0.99992967 -0.011802226 5.3129857e-005 0.0058186501 7.0429989e-005 0.005834409 0.99967372 -0.011067092
189932075.4717 1.0000663 -0.012524545 9.2601171e-005 0.0061374903 8.665747e-005 0.0061767562 0.99994653 -0.011575907
199928301.88679 0.99995959 -0.013331532 9.0476009e-005 0.0064647491 0.00011509925 0.0064701685 0.99981284 -0.012514412
209924528.30189 0.99971277 -0.013845265 8.7542692e-005 0.0068030553 9.6612028e-005 0.0067952867 0.99956286 -0.013150632
219920754.71698 0.99989539 -0.014679313 0.00011400436 0.0071101282 9.4964402e-005 0.0071333479 0.99945617 -0.013744473
229916981.13208 0.99966723 -0.015620768 0.0001132132 0.0074337525 0.00011244323 0.0074595856 0.99945182 -0.014543623
239913207.54717 0.99953866 -0.016259031 0.00012387727 0.0077580041 0.00010632574 0.0077882619 0.99939638 -0.015228296
249909433.96226 0.99952066 -0.01685977 0.00013849465 0.0080692777 0.00013561803 0.008099949 0.99947596 -0.015780658
259905660.37736 0.9996376 -0.017387539 9.9333003e-005 0.0083658788 0.00015316997 0.0084091052 0.99972653 -0.016297847
269901886.79245 0.99990779 -0.01805757 0.0001656363 0.0087168273 0.00013634562 0.0087392209 1.0000452 -0.016971231
279898113.20755 0.99995786 -0.01865831 0.00010245829 0.0090356609 0.00014009024 0.009062048 0.99992424 -0.017786577
289894339.62264 0.99994075 -0.01955387 0.00018072361 0.0093225492 0.00020802021 0.0094159842 0.99982667 -0.018519878
299890566.03774 0.99985456 -0.02007103 0.00018194481 0.0097021591 0.00018093619 0.0097267907 0.99957401 -0.018981785
309886792.45283 0.99957788 -0.020535067 0.0001897912 0.0099447221 0.00020999101 0.010069149 0.99941856 -0.019343212
319883018.86792 0.99959826 -0.021144271 0.00021510059 0.010376753 0.00024247076 0.010354356 0.99967021 -0.01978156
329879245.28302 0.99965191 -0.022016019 0.00020898692 0.010637854 0.00027177483 0.010683346 0.99977291 -0.020605564
339875471.69811 0.99953634 -0.02272509 0.00026302412 0.011004386 0.00021979189 0.011006604 0.99969506 -0.021365002
349871698.11321 0.99959713 -0.023458123 0.00027969969 0.011335848 0.00025334419 0.011359341 0.99973077 -0.022307992
359867924.5283 0.99957168 -0.024241269 0.00028492277 0.011644509 0.00024797535 0.011678293 0.99970436 -0.023256481
369864150.9434 0.99975693 -0.024986863 0.00026029954 0.0119255 0.00030569406 0.011993275 0.99972588 -0.023961008
379860377.35849 0.9996379 -0.025767252 0.00029221363 0.01228236 0.00035478198 0.012336718 0.99955761 -0.02476351
389856603.77358 0.99953187 -0.026295334 0.00030500861 0.012588589 0.00029830309 0.01260961 0.99960488 -0.02519533
399852830.18868 0.9992348 -0.026937038 0.00035051862 0.01290137 0.00032482948 0.012959378 0.99957734 -0.025660515
409849056.60377 0.9991889 -0.02735262 0.00036744683 0.013240862 0.00039360896 0.013270168 0.99952221 -0.026208322
419845283.01887 0.99917072 -0.027723283 0.00037520984 0.013569735 0.00036592921 0.013584698 0.99937987 -0.026743203
429841509.43396 0.99924898 -0.02840814 0.00038011372 0.013864977 0.00039583584 0.013887372 0.99955201 -0.027557105
439837735.84906 0.99901754 -0.029390201 0.00040148629 0.014183275 0.00039706752 0.014221564 0.99925923 -0.02857247
449833962.26415 0.99893206 -0.030161738 0.00043728529 0.01449081 0.00041694846 0.014528747 0.99870676 -0.029359281
459830188.67925 0.9986794 -0.030822575 0.00040717842 0.014828228 0.00045972737 0.01482507 0.99840003 -0.029950202
469826415.09434 0.99866617 -0.031508923 0.00041920319 0.015139745 0.00044539897 0.015211858 0.99812019 -0.030370414
479822641.50943 0.99860579 -0.032003298 0.00046756933 0.015477016 0.00046886608 0.015561104 0.99810135 -0.030740537
489818867.92453 0.99861801 -0.032495111 0.00049324566 0.015795277 0.00052629923 0.015878856 0.99833667 -0.031149447
499815094.33962 0.99875343 -0.033051044 0.00054050284 0.016118556 0.00052791182 0.016169932 0.99864173 -0.0315952
509811320.75472 0.99885297 -0.0333892 0.00051683525 0.016450962 0.00053366076 0.016462678 0.99875355 -0.032338373
519807547.16981 0.99879324 -0.033869445 0.00056716381 0.016764859 0.00055746408 0.016762933 0.99877125 -0.032921582
529803773.58491 0.99874032 -0.034463823 0.00056729838 0.017056119 0.0005690339 0.017130259 0.99860418 -0.033437848
539800000 0.99888498 -0.03514944 0.00060778274 0.017387271 0.00059165852 0.017470999 0.99842888 -0.034050062
549796226.41509 0.99858743 -0.035960674 0.00060971035 0.017733349 0.00061934674 0.017754205 0.9982779 -0.034455955
559792452.83019 0.99852401 -0.036583126 0.00064996257 0.01803321 0.00064538792 0.018066932 0.99832422 -0.034914911
569788679.24528 0.99833715 -0.037287146 0.00065184152 0.018388446 0.00063758297 0.018428454 0.99849153 -0.035663396
579784905.66038 0.99837202 -0.037848786 0.00068097713 0.018693438 0.0006892106 0.018761583 0.99873561 -0.03629224
589781132.07547 0.9985373 -0.038524717 0.00070475508 0.019014388 0.00070167333 0.0190943 0.99890393 -0.03718254
599777358.49057 0.99871141 -0.03910175 0.00077229924 0.019326132 0.00071370602 0.019410267 0.99892223 -0.037910551
609773584.90566 0.99883908 -0.03985662 0.00077382976 0.019657567 0.00078403659 0.019693704 0.99874628 -0.038804188
619769811.32075 0.99890751 -0.040508568 0.0008089873 0.0199422 0.00080077304 0.020041941 0.99877942 -0.039326578
629766037.73585 0.99875253 -0.041131616 0.00082188845 0.020279717 0.00084076729 0.020335428 0.99859273 -0.039821088
639762264.15094 0.99857634 -0.041791022 0.00084557827 0.020567447 0.000832994 0.020638118 0.99843389 -0.04018867
649758490.56604 0.99858779 -0.042384326 0.00085272966 0.020887366 0.00084608607 0.020974047 0.99865198 -0.040636435
659754716.98113 0.99833262 -0.042820394 0.00090561435 0.021265876 0.00088140089 0.021302357 0.99869382 -0.041148424
669750943.39623 0.99836636 -0.043336898 0.00089571066 0.021549761 0.00086344779 0.021622101 0.99880087 -0.041959912
679747169.81132 0.99836683 -0.044095777 0.00090571039 0.021920867 0.00091852585 0.021981478 0.99882615 -0.042963669
689743396.22642 0.9985708 -0.044901341 0.00095589738 0.022255883 0.00099888165 0.022324549 0.99864745 -0.043962955
699739622.64151 0.99869555 -0.045709372 0.0010242201 0.022535106 0.0010332307 0.022606485 0.99861228 -0.044646353
709735849.0566 0.9987191 -0.046631724 0.0010520827 0.022846131 0.0010497116 0.022929808 0.9983694 -0.045283988
719732075.4717 0.99857104 -0.047320545 0.0010943688 0.023179822 0.0010783179 0.023233961 0.99843943 -0.04589805
729728301.88679 0.99854338 -0.047831714 0.0011202162 0.023503646 0.0010856362 0.023527799 0.99846619 -0.046292067
739724528.30189 0.99838096 -0.048496634 0.0011400059 0.023771614 0.0011335704 0.02386168 0.9986735 -0.046936899
749720754.71698 0.99819672 -0.048967794 0.0011658948 0.024090031 0.0011688937 0.024186321 0.99872947 -0.047735319
759716981.13208 0.99826086 -0.049453974 0.0011921804 0.024418293 0.0011859164 0.02448426 0.9986372 -0.048485667
769713207.54717 0.99816263 -0.050195098 0.0012039626 0.024715116 0.0012136968 0.024802718 0.9983297 -0.049252599
779709433.96226 0.99836224 -0.050771918 0.0012424191 0.025056951 0.0012360977 0.02509851 0.99803948 -0.049895253
789705660.37736 0.9981668 -0.051710129 0.0012789788 0.025373559 0.0012832433 0.02542966 0.99780995 -0.050598204
799701886.79245 0.99812627 -0.05253461 0.0013233293 0.025685579 0.0012803702 0.025733663 0.99767882 -0.051202774
809698113.20755 0.99807596 -0.053111926 0.0013459823 0.025952689 0.0013206671 0.026089186 0.99766999 -0.051579326
819694339.62264 0.99791014 -0.053754449 0.0013893764 0.026292577 0.0013754508 0.02639389 0.99773693 -0.052211553
829690566.03774 0.99782294 -0.054273009 0.0013976945 0.026619768 0.0013959045 0.026693588 0.99798465 -0.053043485
839686792.45283 0.99793005 -0.054752618 0.0014049122 0.026926467 0.0014400855 0.02701227 0.99804336 -0.053846151
849683018.86792 0.99796331 -0.055345759 0.0014450178 0.0272494 0.001478534 0.027335949 0.99791759 -0.05454433
859679245.28302 0.99803758 -0.055981666 0.001450873 0.027563944 0.0014881659 0.027636539 0.99762237 -0.055194497
869675471.69811 0.99791956 -0.056770504 0.0015319381 0.027880186 0.0015069358 0.027964536 0.99718952 -0.055645674
879671698.11321 0.99787223 -0.057401761 0.001570096 0.028154593 0.0015630494 0.028269999 0.99720353 -0.05606097
889667924.5283 0.99762857 -0.058154404 0.00159116 0.02846415 0.0015678583 0.02857336 0.99702442 -0.056515396
899664150.9434 0.99756956 -0.0588319 0.0016178153 0.028748883 0.0016133804 0.028865069 0.99702513 -0.057104707
909660377.35849 0.99752104 -0.059505612 0.0016156649 0.029067578 0.001625828 0.029211275 0.99724495 -0.05796212
919656603.77358 0.99758345 -0.060140893 0.0016402733 0.029411489 0.0016429089 0.029510381 0.99720442 -0.058799043
929652830.18868 0.99762005 -0.060807526 0.0016743625 0.029699719 0.0016591297 0.029812042 0.99708611 -0.059618235
939649056.60377 0.99783182 -0.061437607 0.001678572 0.030013368 0.0016922681 0.030133951 0.99686271 -0.060352504
949645283.01887 0.99768394 -0.06227313 0.0016830048 0.030330325 0.0016954219 0.030468 0.99668372 -0.060849037
959641509.43396 0.9976455 -0.062862277 0.0016783383 0.030691694 0.00172232 0.030792398 0.99660259 -0.06125918
969637735.84906 0.99754477 -0.063619852 0.0017708996 0.03102193 0.0017555412 0.031131454 0.99661511 -0.061584949
979633962.26415 0.99741483 -0.064300515 0.00181054 0.031313755 0.0018178553 0.031456951 0.99675399 -0.062206104
989630188.67925 0.99743575 -0.064783931 0.0018547764 0.031664822 0.0018380135 0.031756699 0.99690485 -0.062746972
999626415.09434 0.99743664 -0.065382689 0.0018649241 0.031956054 0.001873483 0.032101888 0.99684751 -0.06354174
1009622641.5094 0.99757004 -0.066073045 0.0019080532 0.032285608 0.0019311425 0.03244951 0.99670857 -0.064402118
1019618867.9245 0.99759746 -0.066907883 0.0019398341 0.032610834 0.0019958718 0.032737546 0.99647051 -0.065179601
1029615094.3396 0.99768531 -0.067774475 0.0020143623 0.032919809 0.0020140596 0.033003122 0.99611044 -0.065816939
1039611320.7547 0.99773252 -0.068597853 0.002019533 0.033167563 0.0020495467 0.033306297 0.99612278 -0.066458821
1049607547.1698 0.99757934 -0.069472194 0.0020879514 0.033497632 0.0020810752 0.033615962 0.99613547 -0.066983894
1059603773.5849 0.99736935 -0.070198119 0.002101345 0.033759397 0.0020957459 0.033923473 0.99612057 -0.067523003
1069600000 0.99720728 -0.070775419 0.0020766435 0.034064069 0.0021072971 0.034219075 0.99631101 -0.068187654
1079596226.4151 0.99719381 -0.071382694 0.0020836457 0.034411449 0.0021529756 0.034580696 0.99639481 -0.068979174
1089592452.8302 0.99722594 -0.072007358 0.0021193791 0.034751724 0.0021722354 0.034872327 0.99626178 -0.069607377
1099588679.2453 0.99729568 -0.072691798 0.0021125935 0.035067089 0.0021539796 0.0352083 0.99593925 -0.070248902
1109584905.6604 0.99742442 -0.073436767 0.0021685595 0.0353778 0.0021880008 0.035513736 0.99574202 -0.070813879
1119581132.0755 0.9973675 -0.074432582 0.0021907412 0.035701595 0.0022053514 0.03585029 0.99563456 -0.071204647
1129577358.4906 0.99720037 -0.075182408 0.0022235196 0.036071505 0.0022464395 0.036246903 0.99549782 -0.071672469
1139573584.9057 0.99702132 -0.076104254 0.0022560256 0.036380466 0.0023218617 0.03653672 0.99559301 -0.072373748
1149569811.3208 0.99691379 -0.07690914 0.0022930691 0.036701955 0.0023910478 0.036850318 0.99575335 -0.073027998
1159566037.7358 0.9966678 -0.077509165 0.0023338571 0.036986966 0.0023848806 0.037148789 0.99582011 -0.074124277
1169562264.1509 0.99651831 -0.078185737 0.0023072958 0.03730242 0.0023937859 0.037443906 0.99569893 -0.074864805
1179558490.566 0.99644232 -0.078895658 0.0023642359 0.037664153 0.0024015156 0.037780255 0.99552429 -0.075616509
1189554716.9811 0.99648798 -0.079618961 0.0023829956 0.03799716 0.0024592401 0.038144857 0.99525404 -0.076113015
1199550943.3962 0.99646819 -0.080462545 0.0024362784 0.038331136 0.0025241002 0.038479105 0.99509597 -0.076453447
1209547169.8113 0.9963088 -0.081342995 0.0024688123 0.038661376 0.0025478918 0.038793348 0.99502265 -0.076815709
1219543396.2264 0.99612051 -0.082145631 0.0025226297 0.039018773 0.0025906148 0.039138313 0.9951492 -0.077155784
1229539622.6415 0.99587691 -0.082915276 0.0026312973 0.039337788 0.0026634056 0.039468624 0.99525046 -0.077821881
1239535849.0566 0.99558616 -0.083604097 0.002625701 0.039615959 0.0027261153 0.039749514 0.9953835 -0.078826874
1249532075.4717 0.9953199 -0.084217839 0.0026590775 0.039960437 0.0028022504 0.040104609 0.99527407 -0.079612263
1259528301.8868 0.99518251 -0.08472681 0.0027309302 0.040256746 0.0028597638 0.040376984 0.9949826 -0.080427408
1269524528.3019 0.99497849 -0.085451543 0.0027922355 0.040581219 0.0029202299 0.040672287 0.99476177 -0.081095546
1279520754.717 0.99471498 -0.086170368 0.002863951 0.04080775 0.0029321108 0.04092297 0.99448496 -0.081598341
1289516981.1321 0.99461687 -0.08697024 0.0028713448 0.041128498 0.0029704683 0.041219421 0.99454618 -0.082006961
1299513207.5472 0.99428558 -0.08779645 0.002857253 0.041449197 0.0029661991 0.041506246 0.99462461 -0.082411885
1309509433.9623 0.99379563 -0.088524222 0.0028752992 0.041721016 0.0029941406 0.041835528 0.99481881 -0.083095461
1319505660.3774 0.99351782 -0.089230642 0.0028687324 0.042087041 0.0029862653 0.04216275 0.9948445 -0.083729759
1329501886.7925 0.99320203 -0.089850008 0.0028953403 0.042400233 0.0030042212 0.042441308 0.99479824 -0.084743291
1339498113.2075 0.99298143 -0.090406984 0.0029134667 0.042700239 0.0030166768 0.042759523 0.99445558 -0.085405767
1349494339.6226 0.99274534 -0.090943195 0.0028867093 0.043021586 0.0029888921 0.043096889 0.9941408 -0.086007394
1359490566.0377 0.99278569 -0.091543764 0.0029008258 0.043368552 0.0030157007 0.043432169 0.99390531 -0.086527288
1369486792.4528 0.99252033 -0.092052221 0.0029346142 0.043698229 0.0030357689 0.043783873 0.99371958 -0.086976081
1379483018.8679 0.99220669 -0.09265925 0.0029360785 0.044071931 0.0030104814 0.044125166 0.99380577 -0.087289758
1389479245.283 0.99201858 -0.093188316 0.0029974151 0.044455085 0.0030430723 0.044513036 0.99376911 -0.087964982
1399475471.6981 0.9915427 -0.09360674 0.0029800367 0.044745188 0.0030700136 0.044841141 0.99398923 -0.088613987
1409471698.1132 0.99123418 -0.09395615 0.0030225918 0.045142587 0.0031138612 0.045217331 0.99396646 -0.089439891
1419467924.5283 0.99102318 -0.094173968 0.0030360902 0.045514878 0.0031023007 0.045589969 0.99380851 -0.09018141
1429464150.9434 0.99091971 -0.094623834 0.0030732695 0.045928471 0.0031266697 0.045972265 0.9937247 -0.090737224
1439460377.3585 0.99108118 -0.095120937 0.0031695385 0.046301953 0.003217455 0.0464046 0.99345416 -0.09105441
1449456603.7736 0.99113131 -0.095630035 0.003265759 0.046742283 0.003313031 0.046777919 0.99330461 -0.091433167
1459452830.1887 0.99116296 -0.096351027 0.0034063011 0.047143094 0.003421342 0.047188312 0.99350405 -0.091689914
1469449056.6038 0.99110222 -0.09707737 0.0035685571 0.047454502 0.003574823 0.047541294 0.99383426 -0.092332095
1479445283.0189 0.99099904 -0.097688355 0.0036838215 0.047736809 0.0036981709 0.04779163 0.99387217 -0.09326791
1489441509.434 0.9908793 -0.098187506 0.0038243532 0.048010979 0.0038339719 0.048110433 0.99367261 -0.094152331
1499437735.8491 0.99073994 -0.098579526 0.0038963426 0.04832698 0.003940776 0.048379477 0.99359059 -0.094923466
1509433962.2642 0.99064809 -0.098994508 0.0040187533 0.048558794 0.0039645303 0.048627056 0.99339116 -0.095608652
1519430188.6792 0.990762 -0.099489689 0.0040774997 0.048840895 0.0040648691 0.048896968 0.99335921 -0.09619531
1529426415.0943 0.99078727 -0.10009679 0.004099397 0.04913028 0.0041288808 0.04920803 0.99324733 -0.096538603
1539422641.5094 0.99087054 -0.10098868 0.0041570598 0.049400147 0.0041400511 0.049485248 0.99333608 -0.097028449
1549418867.9245 0.99067366 -0.10173427 0.0042097596 0.049689062 0.0042017978 0.04974135 0.99351913 -0.097719952
1559415094.3396 0.99056911 -0.10252857 0.0042593703 0.049973585 0.0042514727 0.050068092 0.99367839 -0.098442376
1569411320.7547 0.99038512 -0.10320258 0.0043101432 0.050227258 0.0042746086 0.050316926 0.99352932 -0.099298492
1579407547.1698 0.99034274 -0.10377488 0.004348421 0.050472107 0.0042826249 0.050597582 0.99325138 -0.10013153
1589403773.5849 0.99026936 -0.10428107 0.0043720528 0.050779365 0.0042890273 0.050888732 0.99303198 -0.10073093
1599400000 0.99023652 -0.10471889 0.0043398924 0.05109819 0.0043067345 0.051158309 0.99257529 -0.1012769
1609396226.4151 0.99022436 -0.10538258 0.0043257261 0.051364135 0.0042777909 0.051486522 0.99249548 -0.10169387
1619392452.8302 0.99016637 -0.10593441 0.0043461043 0.05170789 0.0042635594 0.051802978 0.99247909 -0.10212636
1629388679.2453 0.98997831 -0.10664308 0.0043589417 0.052029099 0.004277721 0.052191596 0.9927693 -0.10263988
1639384905.6604 0.9897902 -0.107292 0.0043217181 0.052414451 0.0043085013 0.052549481 0.99294943 -0.10352556
1649381132.0755 0.9895134 -0.10797131 0.0043390561 0.052740768 0.0042919926 0.052866794 0.99289685 -0.10443369
1659377358.4906 0.98931164 -0.10870233 0.0043424871 0.053103969 0.0043395758 0.053240076 0.99292475 -0.1052109
1669373584.9057 0.9893235 -0.10916483 0.0043814234 0.0534315 0.0044012554 0.053589791 0.99261415 -0.10596687
1679369811.3208 0.9892832 -0.10982758 0.0044186609 0.053850438 0.0043942183 0.053974543 0.99239171 -0.10648498
1689366037.7358 0.98929465 -0.11042324 0.0044838283 0.054192577 0.0044009201 0.054352634 0.99214888 -0.10676998
1699362264.1509 0.98946106 -0.11098938 0.004554159 0.054542702 0.0044570062 0.054742612 0.99238157 -0.10715011
1709358490.566 0.98932248 -0.11163484 0.0045910133 0.054911479 0.0045458013 0.055092406 0.99238425 -0.10767244
1719354716.9811 0.98909754 -0.11225474 0.0045994874 0.055262439 0.0045462213 0.055429153 0.99247342 -0.10839245
1729350943.3962 0.98884255 -0.11282083 0.0046803579 0.055638008 0.0046719238 0.055856425 0.992571 -0.10928527
