!Keysight Technologies,N5222B,MY61253708,A.15.00.15
!Date: Wednesday, June 19, 2024 09:41:41
!Correction: S11(C  2-Port  ) 
!S21(C  2-Port  ) 
!S12(C  2-Port  ) 
!S22(C  2-Port  ) 
!S2P File: Measurements: S11, S21, S12, S22:
# Hz S  RI   R 50
10000000 0.99842215 -0.0024579167 4.7716028e-005 0.00034337214 -0.00010019792 0.00022554595 0.99841481 -0.0015137494
19996226.415094 0.99887544 -0.0025921762 -2.4425855e-005 0.000789118 -1.6140752e-005 0.00071814773 0.99892402 -0.0029554069
29992452.830189 0.99972594 -0.002510488 -5.2533695e-005 0.00098066498 -1.6340346e-005 0.00098810962 0.99946839 -0.0027184486
39988679.245283 1.0000315 -0.0030144006 3.4163575e-005 0.001333666 1.5387501e-005 0.0013422063 0.99958497 -0.0031355321
49984905.660377 1.0001988 -0.0037381351 1.0953227e-005 0.0016852742 2.3426779e-005 0.0016645899 0.99980527 -0.0036845505
59981132.075472 1.0003552 -0.0045482218 3.4535187e-005 0.0020278334 2.3318978e-005 0.0020051834 0.99976361 -0.0042892098
69977358.490566 1.0001843 -0.0051863231 -2.51696e-005 0.0023157247 -1.0138741e-005 0.0023543111 0.99972171 -0.0047882926
79973584.90566 0.99996388 -0.0057344139 3.1267642e-005 0.0026492274 5.22763e-006 0.0027273244 0.99932408 -0.0052592456
89969811.320755 0.99996901 -0.0058239996 3.6317739e-005 0.0029915031 -9.8618912e-006 0.0030073822 0.99953008 -0.0055741668
99966037.735849 1.0001669 -0.0066589266 2.1572283e-005 0.0033164439 4.0365849e-006 0.0033354363 0.99962252 -0.0063484907
109962264.15094 1.0001881 -0.0074894577 4.8085582e-005 0.0036362549 3.0517753e-005 0.0036858548 0.99962747 -0.0071904659
119958490.56604 1.0002128 -0.0083720386 2.8348644e-005 0.0039542513 3.492448e-005 0.0040138401 0.99961329 -0.0080737174
129954716.98113 1.0001421 -0.0093834996 6.205379e-005 0.00431024 2.6010675e-005 0.0043535018 0.99962246 -0.0089517534
139950943.39623 1.000067 -0.01017111 2.8596318e-005 0.0046473742 3.9104372e-005 0.0046682195 0.99957353 -0.0096681491
149947169.81132 0.9999733 -0.010869443 5.6481455e-005 0.0049764761 5.0643459e-005 0.0050085974 0.99950045 -0.010298669
159943396.22642 0.99996597 -0.011422217 5.8831414e-005 0.0053079249 5.0705392e-005 0.0053726221 0.99959195 -0.010759056
169939622.64151 0.99992532 -0.011782832 6.5851491e-005 0.0056403237 6.0451392e-005 0.0056826877 0.99963951 -0.01120013
179935849.0566 0.99992818 -0.01206854 6.8369904e-005 0.0059909299 7.1918941e-005 0.006027712 0.99954206 -0.011582494
189932075.4717 1.0000914 -0.01284039 0.00011351658 0.0062834402 9.2990231e-005 0.0063505759 0.99974537 -0.012138695
199928301.88679 1.0000315 -0.013614804 8.7225344e-005 0.0066459645 9.1568334e-005 0.0066735568 0.99965495 -0.013003051
209924528.30189 0.9997558 -0.014208242 9.6442178e-005 0.0069528879 8.1174192e-005 0.0070279036 0.9994517 -0.013695106
219920754.71698 0.99985898 -0.015129268 0.0001198086 0.0073142014 8.3409715e-005 0.0073506851 0.99932539 -0.014335513
229916981.13208 0.99959296 -0.015927643 0.00013942271 0.0076224878 0.00014054403 0.0076836767 0.99925894 -0.015139669
239913207.54717 0.99947411 -0.016627612 0.00014101806 0.0079590837 0.00013685475 0.0080164438 0.99921209 -0.015877381
249909433.96226 0.99959606 -0.017263889 0.00014258246 0.0082781604 0.00013891608 0.0083537512 0.9992792 -0.016501099
259905660.37736 0.99962229 -0.017783135 0.00016568881 0.0086486191 0.00015947316 0.0087284101 0.99949992 -0.017059535
269901886.79245 0.99968225 -0.018547103 0.00014096813 0.0088919783 0.00017246546 0.0090493821 0.99980319 -0.017764419
279898113.20755 0.9998368 -0.01908049 0.00016823178 0.0092789074 0.00017739111 0.0093820821 0.99963343 -0.018539697
289894339.62264 0.99981999 -0.019890577 0.00021270756 0.0096108541 0.00017245812 0.0096746385 0.99959809 -0.019256771
299890566.03774 0.99969327 -0.020360172 0.0001687624 0.009941211 0.00017362367 0.010012222 0.99934763 -0.01972422
309886792.45283 0.99954075 -0.020975552 0.00021361397 0.010277084 0.0002326867 0.01036217 0.99921447 -0.020191893
319883018.86792 0.99970543 -0.021559983 0.00017823 0.010606219 0.00025425246 0.010665543 0.99931419 -0.020675182
329879245.28302 0.99964571 -0.022382349 0.00018610712 0.010923393 0.00026409142 0.011026305 0.99946702 -0.021523565
339875471.69811 0.99947226 -0.023077957 0.00029661611 0.011295441 0.00021924521 0.011347005 0.99934 -0.022159137
349871698.11321 0.9995991 -0.024015218 0.00026935223 0.011578644 0.00027553551 0.011654336 0.99939746 -0.023097485
359867924.5283 0.99946946 -0.024768025 0.00030280976 0.011889068 0.00032041501 0.012019612 0.99931657 -0.023988962
369864150.9434 0.99967039 -0.025503367 0.00031040306 0.012264147 0.00029575243 0.012364971 0.99932295 -0.024731159
379860377.35849 0.99959826 -0.026269004 0.00035446696 0.012593848 0.00037224824 0.012702776 0.99920589 -0.025354698
389856603.77358 0.99940187 -0.026913971 0.000350866 0.012879052 0.00037080189 0.012990145 0.9991712 -0.025823653
399852830.18868 0.99927372 -0.027382076 0.00035295309 0.013240883 0.00037192041 0.013367131 0.99933976 -0.026267529
409849056.60377 0.99923301 -0.027795466 0.00038374381 0.013534454 0.00035452042 0.013708215 0.99927557 -0.026745612
419845283.01887 0.99917406 -0.028289378 0.00041379966 0.013865437 0.00040395418 0.014020072 0.99934024 -0.027324498
429841509.43396 0.99924612 -0.028933436 0.0004051337 0.014234763 0.0003827624 0.01434168 0.99951935 -0.028159112
439837735.84906 0.99910563 -0.02982825 0.00043302961 0.014549172 0.00043318176 0.01468579 0.99931347 -0.02913484
449833962.26415 0.99899691 -0.030696779 0.00044749072 0.014824975 0.00045501813 0.014996531 0.99891549 -0.02990371
459830188.67925 0.9989289 -0.03135711 0.00046599703 0.015200559 0.00043647923 0.015306978 0.99872887 -0.030592293
469826415.09434 0.99886137 -0.032072395 0.00051546842 0.015541364 0.0004573958 0.015685309 0.99858516 -0.031216949
479822641.50943 0.99875236 -0.032689556 0.00046424544 0.015876776 0.00048060506 0.016019281 0.99853861 -0.031710051
489818867.92453 0.99891621 -0.033213586 0.00051680533 0.01618829 0.00053071789 0.016337052 0.99887288 -0.032259375
499815094.33962 0.99885136 -0.033790469 0.00055141607 0.016550222 0.00054358365 0.016677756 0.99915898 -0.032837093
509811320.75472 0.99899966 -0.034287717 0.00058903586 0.016859228 0.00057201018 0.017009899 0.99926263 -0.033659279
519807547.16981 0.99903286 -0.034766704 0.000610332 0.017156666 0.00057464279 0.017318252 0.99917948 -0.034374774
529803773.58491 0.99897498 -0.035344779 0.00061098114 0.017479867 0.00062331557 0.017638108 0.99896193 -0.034967154
539800000 0.99903607 -0.036067083 0.00064045447 0.017795058 0.00064866175 0.018014718 0.99886936 -0.035679385
549796226.41509 0.99893868 -0.036796093 0.00066638691 0.018186949 0.00062712468 0.018354205 0.99862063 -0.036136806
559792452.83019 0.99870002 -0.0375413 0.00067111477 0.018494988 0.0006686952 0.018739797 0.99859947 -0.036703378
569788679.24528 0.99855745 -0.038266808 0.00065630535 0.018861022 0.00067490898 0.018996568 0.99873155 -0.037438482
579784905.66038 0.99849308 -0.038794786 0.00070127973 0.019184176 0.00070992892 0.019357057 0.99881119 -0.038109586
589781132.07547 0.99858129 -0.039485574 0.00074854679 0.019530945 0.00074984413 0.019681018 0.99889523 -0.039023608
599777358.49057 0.9987222 -0.040112644 0.00077504013 0.01980919 0.00080609135 0.020009544 0.99892712 -0.039866954
609773584.90566 0.99873781 -0.040826261 0.00083031284 0.020179475 0.00079136493 0.020304749 0.99883634 -0.040600844
619769811.32075 0.99904096 -0.041493952 0.00086028362 0.02047834 0.00087229162 0.020692432 0.99877584 -0.041211039
629766037.73585 0.99881709 -0.042182773 0.00087542739 0.020774322 0.00088452268 0.020953201 0.99848783 -0.041689306
639762264.15094 0.99859881 -0.042807281 0.0009036446 0.021099668 0.00088866986 0.021300657 0.9984135 -0.042239442
649758490.56604 0.9985739 -0.043412954 0.00086256908 0.021416638 0.00089384615 0.021579348 0.99846941 -0.042603314
659754716.98113 0.99844551 -0.043881983 0.00091998652 0.02178245 0.00090718176 0.021950375 0.9985621 -0.043163419
669750943.39623 0.9984653 -0.044474483 0.00095188618 0.022119243 0.00093672611 0.022294832 0.99863416 -0.043970108
679747169.81132 0.99838597 -0.045149252 0.00098647259 0.022453094 0.00097766239 0.02267093 0.99854702 -0.044947051
689743396.22642 0.9985832 -0.045981169 0.0010491749 0.022788612 0.0010199752 0.022998448 0.99843967 -0.045782089
699739622.64151 0.99865794 -0.046845615 0.0010757102 0.023136081 0.0011003464 0.023297435 0.99827856 -0.046533734
709735849.0566 0.99857694 -0.047619388 0.0011206106 0.023428403 0.0011483879 0.023642726 0.99805182 -0.047206953
719732075.4717 0.99853504 -0.048360974 0.0011374904 0.023759775 0.0011211126 0.023978118 0.99809146 -0.047733754
729728301.88679 0.99837583 -0.048942655 0.0011582561 0.024084657 0.0011534877 0.024294887 0.99825639 -0.048206955
739724528.30189 0.99831295 -0.049547806 0.0012164791 0.024399715 0.0011961162 0.024583798 0.998375 -0.048867106
749720754.71698 0.99828166 -0.050023541 0.001231032 0.024705317 0.0012541534 0.024937974 0.99837184 -0.049576178
759716981.13208 0.99828219 -0.050593674 0.0012892587 0.025014801 0.0012408178 0.025286999 0.99831915 -0.050358206
769713207.54717 0.99818468 -0.051299512 0.0013053594 0.025342699 0.0012927167 0.025588546 0.99807787 -0.051023513
779709433.96226 0.99829787 -0.051988557 0.0012957166 0.025667649 0.0013416718 0.025893074 0.9979037 -0.05168945
789705660.37736 0.99823558 -0.052867115 0.0013642814 0.025965223 0.0013819383 0.026237268 0.9976365 -0.052324027
799701886.79245 0.99817228 -0.053617656 0.0014295019 0.026297566 0.0014068391 0.026563931 0.9975301 -0.053014338
809698113.20755 0.9980855 -0.054255441 0.0014097174 0.026653694 0.0014034582 0.026886135 0.99755073 -0.053395018
819694339.62264 0.9979704 -0.054820776 0.0014469433 0.026947752 0.0014446988 0.027216332 0.99761647 -0.054040611
829690566.03774 0.99798167 -0.055439472 0.0014466858 0.027247684 0.0014779251 0.027516542 0.99791908 -0.055001438
839686792.45283 0.99799544 -0.055964679 0.001481079 0.027609013 0.0015398762 0.027841026 0.99799103 -0.055752337
849683018.86792 0.9979921 -0.056521945 0.0014990757 0.027930224 0.0015683491 0.028177012 0.99785441 -0.056519836
859679245.28302 0.99804878 -0.057293445 0.0015668487 0.028260477 0.0015784958 0.028515555 0.99759853 -0.057099164
869675471.69811 0.998052 -0.058077991 0.0016314704 0.028584478 0.0016124407 0.028846219 0.99731827 -0.057632089
879671698.11321 0.99789262 -0.058722943 0.0016671709 0.028895557 0.0016530426 0.029129555 0.9972893 -0.058125995
889667924.5283 0.99768865 -0.059445649 0.001661418 0.029191837 0.0016849581 0.029463425 0.99713898 -0.058614582
899664150.9434 0.99749929 -0.060156614 0.0017112456 0.02949935 0.0017398996 0.029764384 0.99711865 -0.059255689
909660377.35849 0.99761814 -0.06078364 0.0017004986 0.029830826 0.0017425166 0.030115161 0.99729049 -0.060137406
919656603.77358 0.99769115 -0.06153819 0.0017298399 0.030129865 0.0017642397 0.030426018 0.99731499 -0.060947374
929652830.18868 0.99752963 -0.06222403 0.0017894153 0.030454364 0.0017889459 0.03074421 0.9971137 -0.061907709
939649056.60377 0.99774158 -0.062844336 0.0017593307 0.030768782 0.0017918991 0.031074876 0.99697918 -0.062565804
949645283.01887 0.99783587 -0.063676447 0.0017893754 0.031136861 0.0018238674 0.031418774 0.99673837 -0.063156679
959641509.43396 0.99763471 -0.064420104 0.0018085334 0.031474955 0.0018563699 0.031791743 0.99669302 -0.063657522
969637735.84906 0.99761701 -0.065123558 0.0018692901 0.031834602 0.0019147247 0.032122616 0.99666166 -0.064079821
979633962.26415 0.99746346 -0.065783031 0.0019247741 0.032112788 0.0019425165 0.032440964 0.99678981 -0.064658575
989630188.67925 0.99741292 -0.066378772 0.0019730227 0.032431006 0.0019696373 0.032777306 0.99693578 -0.065258175
999626415.09434 0.99760157 -0.066969186 0.0019940408 0.032774717 0.0019846149 0.03307382 0.99688399 -0.066088319
1009622641.5094 0.99758792 -0.067570344 0.0020291237 0.033100531 0.0020931279 0.033442076 0.99676645 -0.066955864
1019618867.9245 0.99768162 -0.068410382 0.0020906446 0.033403333 0.0021163225 0.033772513 0.99646533 -0.067773089
1029615094.3396 0.99767947 -0.069370359 0.0021277824 0.033745117 0.0021687979 0.034046508 0.99605697 -0.068325698
1039611320.7547 0.99766779 -0.070201844 0.0021636914 0.034019381 0.0022047237 0.034352258 0.99606299 -0.068994164
1049607547.1698 0.99746662 -0.071099296 0.0021594903 0.034329768 0.0022236258 0.034700479 0.9960646 -0.069536678
1059603773.5849 0.99737543 -0.071779191 0.0022269785 0.034629792 0.0022465708 0.035020787 0.99597621 -0.070115983
1069600000 0.99717915 -0.072334379 0.0021884385 0.034958296 0.0022600768 0.035300702 0.99619567 -0.070802212
1079596226.4151 0.99715489 -0.073049426 0.0022179126 0.035279676 0.0022883122 0.035623103 0.99618483 -0.071594767
1089592452.8302 0.99726701 -0.073721677 0.0022447035 0.035634171 0.0022983886 0.035995826 0.99618864 -0.072244912
1099588679.2453 0.99724507 -0.074387163 0.0022433233 0.035954632 0.0023207013 0.036286574 0.99582744 -0.072948128
1109584905.6604 0.99736238 -0.075274944 0.0022968967 0.036281686 0.0023779413 0.036659218 0.99557304 -0.073527858
1119581132.0755 0.99734044 -0.076090559 0.0023116046 0.036599666 0.002360085 0.036980808 0.99540973 -0.073913246
1129577358.4906 0.99709952 -0.076945633 0.0023394488 0.036962848 0.0024230257 0.037337236 0.99533951 -0.074376017
1139573584.9057 0.9969306 -0.077830344 0.0023909956 0.037315153 0.0024639228 0.037685089 0.99539745 -0.075058609
1149569811.3208 0.996773 -0.078670964 0.0024610402 0.037636761 0.0025478597 0.037987389 0.99549186 -0.075870387
1159566037.7358 0.9965539 -0.079320639 0.002469006 0.037954044 0.0025706394 0.03831397 0.99560225 -0.076773018
1169562264.1509 0.99640262 -0.079992801 0.0024720896 0.038211055 0.0025756061 0.038643539 0.99537808 -0.077554703
1179558490.566 0.99637932 -0.080850102 0.0024999641 0.038605504 0.0026142439 0.038980242 0.99535418 -0.078295723
1189554716.9811 0.99635333 -0.081481248 0.0025579482 0.038949508 0.0026694378 0.039332472 0.99502206 -0.078832954
1199550943.3962 0.99630928 -0.08229965 0.0025731288 0.039314494 0.0027292259 0.039681815 0.99487907 -0.079252481
1209547169.8113 0.99616545 -0.083217993 0.0026337048 0.039631944 0.0027755927 0.039986357 0.99473763 -0.079586864
1219543396.2264 0.99593437 -0.084000617 0.0027017887 0.040001992 0.0027778 0.040385231 0.9947992 -0.080064625
1229539622.6415 0.99564803 -0.084827244 0.0027495585 0.040301539 0.0028532948 0.040712576 0.99497736 -0.080708981
1239535849.0566 0.99542308 -0.085466743 0.0027892133 0.040632531 0.0029309988 0.040994693 0.99504626 -0.081549078
1249532075.4717 0.99510115 -0.086167023 0.0028649352 0.040915579 0.0030301611 0.041327827 0.99489659 -0.082422748
1259528301.8868 0.99489665 -0.086628377 0.0029116347 0.041270245 0.0030428525 0.041624025 0.9946239 -0.083301306
1269524528.3019 0.99478775 -0.087364197 0.002957603 0.041560885 0.0031159874 0.04195261 0.99443907 -0.083866835
1279520754.717 0.99443483 -0.088101037 0.0030319903 0.041877761 0.0031846226 0.042214151 0.99418676 -0.084483042
1289516981.1321 0.99427176 -0.089036524 0.0030502835 0.042155635 0.0032060137 0.042500973 0.99417484 -0.084943533
1299513207.5472 0.99387181 -0.089814842 0.0030461345 0.042471889 0.0032139979 0.042821042 0.9943732 -0.085347652
1309509433.9623 0.99344403 -0.09046939 0.0030715754 0.042788818 0.0032332325 0.043105733 0.99444634 -0.086082548
1319505660.3774 0.99319869 -0.091176137 0.0030666068 0.043119419 0.0032114955 0.043438088 0.99442679 -0.086743876
1329501886.7925 0.99283808 -0.091860592 0.0030808467 0.04346212 0.0032529868 0.04376474 0.99447417 -0.087636232
1339498113.2075 0.99262685 -0.092325449 0.0031184703 0.043795232 0.0032457076 0.044050671 0.9940722 -0.088382334
1349494339.6226 0.99245095 -0.092834853 0.0030875043 0.044108141 0.0032607536 0.044436973 0.993716 -0.089022949
1359490566.0377 0.9922682 -0.093519688 0.0030930303 0.044443741 0.0032630935 0.04476963 0.99352694 -0.089507312
1369486792.4528 0.99208862 -0.094005704 0.0031401692 0.04483135 0.0032657273 0.045131702 0.9933458 -0.089939535
1379483018.8679 0.9918083 -0.094582334 0.0031181611 0.045209419 0.0032529484 0.045463212 0.9933185 -0.090267383
1389479245.283 0.99146342 -0.095063657 0.0031921435 0.045584474 0.003293097 0.045878969 0.9933483 -0.090951413
1399475471.6981 0.99111509 -0.095433891 0.0032105464 0.045921326 0.0033342857 0.046207912 0.99354613 -0.091672659
1409471698.1132 0.9907968 -0.095808469 0.0032400072 0.04629188 0.0033650161 0.046614163 0.99355894 -0.092444621
1419467924.5283 0.99056268 -0.096130282 0.0032751737 0.046642784 0.003345306 0.046975553 0.99336046 -0.093191862
1429464150.9434 0.99042362 -0.096554756 0.0033314787 0.047060162 0.0034187827 0.047378503 0.99317753 -0.093798012
1439460377.3585 0.99067807 -0.097057164 0.0033655912 0.047517557 0.0034778286 0.047760345 0.992989 -0.094061166
1449456603.7736 0.99060488 -0.097621664 0.0035067396 0.047875162 0.003603315 0.048241489 0.99282593 -0.094398424
1459452830.1887 0.99066031 -0.098308623 0.0036384929 0.048313633 0.0037065335 0.048583277 0.9929173 -0.094745427
1469449056.6038 0.99066103 -0.098961741 0.0037708106 0.048649393 0.0038615447 0.04894482 0.99317968 -0.095466495
1479445283.0189 0.99050915 -0.0994545 0.0039128433 0.048925873 0.0039748941 0.049243722 0.99327892 -0.096334584
1489441509.434 0.99043781 -0.10004333 0.004052572 0.049242929 0.0041048415 0.049570441 0.99318099 -0.097195864
1499437735.8491 0.99025482 -0.10032266 0.004194865 0.049498793 0.0041958038 0.049825612 0.99309558 -0.098023504
1509433962.2642 0.99024773 -0.10081294 0.0042463811 0.04979362 0.0042619677 0.050114658 0.99285173 -0.098735988
1519430188.6792 0.99031222 -0.10146195 0.0043147281 0.050012112 0.0043318402 0.050375726 0.99273503 -0.09929347
1529426415.0943 0.99032223 -0.10207996 0.0043534767 0.050337955 0.0043826532 0.050633296 0.99266088 -0.099674731
1539422641.5094 0.99037927 -0.10292918 0.004426721 0.050656281 0.00445507 0.050956063 0.99272281 -0.10014115
1549418867.9245 0.9901967 -0.10368721 0.0044862106 0.050900199 0.0045180507 0.051274754 0.99295187 -0.10093118
1559415094.3396 0.99006659 -0.10431957 0.0045169033 0.051178299 0.0045127962 0.051520407 0.99312013 -0.10159704
1569411320.7547 0.98992538 -0.10513517 0.0045608189 0.051468629 0.0045652743 0.051828869 0.99298912 -0.10227054
1579407547.1698 0.98990554 -0.10557659 0.0045929127 0.051730301 0.0045765862 0.052142311 0.99257219 -0.1031826
1589403773.5849 0.98996109 -0.10616666 0.0045612156 0.052066483 0.0045988262 0.052404352 0.99238586 -0.10387665
1599400000 0.98978645 -0.10660875 0.0045729587 0.052288242 0.0045851916 0.052712433 0.99207687 -0.10433161
1609396226.4151 0.98980319 -0.10719602 0.0045660296 0.052657377 0.0046000076 0.053051073 0.99189138 -0.10484267
1619392452.8302 0.98971456 -0.1079253 0.0046072248 0.053035315 0.0045874082 0.053380668 0.99182755 -0.1052936
1629388679.2453 0.9895649 -0.10857567 0.0046243165 0.053367212 0.0045952946 0.05374857 0.99199843 -0.10580054
1639384905.6604 0.98928893 -0.10917418 0.0046004397 0.053691756 0.0045710695 0.054117881 0.99227554 -0.10669655
1649381132.0755 0.98911154 -0.10993302 0.0046103634 0.054033104 0.0046219043 0.054471351 0.99228704 -0.10752994
1659377358.4906 0.98887372 -0.11074507 0.0046392865 0.054420672 0.0046501663 0.054834381 0.99224091 -0.10843852
1669373584.9057 0.98892516 -0.11117902 0.0046517579 0.054827094 0.0046980111 0.055230606 0.99196804 -0.1090606
1679369811.3208 0.98898339 -0.11179414 0.0047119409 0.055193633 0.0047212392 0.055621617 0.9916864 -0.10964391
1689366037.7358 0.98898792 -0.1124416 0.0047659241 0.055573028 0.0047672931 0.055994026 0.99154472 -0.10995835
1699362264.1509 0.98912269 -0.11305261 0.0048646294 0.055900201 0.0048141237 0.05641057 0.9917348 -0.11044072
1709358490.566 0.9888944 -0.11381561 0.00488743 0.056295261 0.0049008643 0.056791294 0.99179506 -0.11099315
1719354716.9811 0.98869693 -0.11432001 0.0049360618 0.05667346 0.0049666669 0.057105795 0.99185276 -0.11159989
1729350943.3962 0.98839211 -0.11488435 0.0049873888 0.057053052 0.0050061569 0.057528406 0.99183464 -0.11249578
