!Keysight Technologies,N5222B,MY61253708,A.15.00.15
!Date: Wednesday, June 19, 2024 08:46:46
!Correction: S11(C  2-Port  ) 
!S21(C  2-Port  ) 
!S12(C  2-Port  ) 
!S22(C  2-Port  ) 
!S2P File: Measurements: S11, S21, S12, S22:
# Hz S  RI   R 50
10000000 0.99883151 -0.0021726489 -0.00023817946 0.00021845079 -0.00017139541 0.00050142151 0.99903458 -0.00082525611
19996226.415094 0.99903762 -0.0020704865 7.5255579e-005 0.0007056609 8.1535341e-005 0.00065154117 0.99952209 -0.002168864
29992452.830189 0.99984968 -0.0025655329 3.8079859e-005 0.0011807844 4.2468775e-005 0.0011164024 0.99944717 -0.002805233
39988679.245283 1.0000113 -0.0032550246 -1.0272182e-005 0.0014812493 -1.3706303e-006 0.0015742112 0.99970591 -0.0032854974
49984905.660377 1.0001707 -0.0040629804 4.9982336e-005 0.0019036715 -1.1332857e-005 0.001896751 0.99976373 -0.0039849877
59981132.075472 1.0001891 -0.0049165189 -3.704062e-005 0.002310799 3.3381686e-005 0.002233203 0.99971467 -0.0045188665
69977358.490566 1.0000554 -0.005496433 3.4749224e-005 0.0027110099 1.7796185e-005 0.0026907127 0.99955058 -0.0050214212
79973584.90566 0.99983537 -0.0060216486 4.8476737e-005 0.0030394297 4.3303706e-005 0.0030351067 0.9993304 -0.00562042
89969811.320755 0.9997735 -0.0063239932 1.8453691e-005 0.0034156777 1.5645172e-005 0.0034587369 0.99947643 -0.0060214698
99966037.735849 0.99995208 -0.0070680529 2.2170541e-005 0.0038021298 1.7327839e-005 0.0038302857 0.99952453 -0.0068050027
109962264.15094 1.0000172 -0.0080528408 5.9276179e-005 0.0041928464 4.1248219e-005 0.0042144568 0.99955708 -0.0077094734
119958490.56604 1.0000724 -0.0091365874 4.2550266e-005 0.0045665563 5.6456774e-005 0.004589132 0.99961293 -0.0086483955
129954716.98113 1.000025 -0.010205299 5.6605903e-005 0.0049398663 5.833921e-005 0.0049695428 0.9995656 -0.0096425712
139950943.39623 0.99989069 -0.011100024 6.6080553e-005 0.0053412654 6.9273592e-005 0.0053570364 0.99950773 -0.010456508
149947169.81132 0.99971199 -0.011768967 8.7154564e-005 0.0056883474 7.2424766e-005 0.005701188 0.9994092 -0.011104971
159943396.22642 0.99973071 -0.012328714 7.3534204e-005 0.0060856314 6.5277331e-005 0.0061040246 0.99952602 -0.011561811
169939622.64151 0.99975717 -0.012725584 9.5693395e-005 0.0064865523 9.1226597e-005 0.0065103574 0.99962831 -0.012019366
179935849.0566 0.99976182 -0.013030201 8.6649787e-005 0.0068198894 0.00010289997 0.0069000395 0.99952489 -0.012483537
189932075.4717 0.9999091 -0.013810486 8.8342e-005 0.0072776144 9.4427029e-005 0.0072435737 0.99975288 -0.013110191
199928301.88679 0.99987924 -0.014765471 0.0001363405 0.0076231305 0.00015263166 0.0076288185 0.99959385 -0.014082938
209924528.30189 0.99959505 -0.015583441 0.00016170973 0.0079872673 0.00015361642 0.0080060707 0.99940509 -0.014917642
219920754.71698 0.99953395 -0.01656273 0.0001684539 0.0083962549 0.00017972733 0.0083911736 0.99915123 -0.015633136
229916981.13208 0.99924314 -0.017423719 0.00016729743 0.0087547097 0.00016704481 0.0087939994 0.99903876 -0.016461194
239913207.54717 0.99915063 -0.018121315 0.00016790898 0.0091229565 0.00018813403 0.0091725225 0.99902469 -0.017177081
249909433.96226 0.9992311 -0.018824726 0.00020435476 0.0094992472 0.00020500435 0.0095399823 0.9991523 -0.017881125
259905660.37736 0.9993428 -0.019405484 0.00021033455 0.0098239966 0.00020253146 0.0099018747 0.99939221 -0.01854071
269901886.79245 0.99946076 -0.020128414 0.00024461071 0.010221801 0.00024705869 0.010378847 0.99970281 -0.019260705
279898113.20755 0.99961197 -0.020883799 0.00025594258 0.010607441 0.00023116521 0.010685331 0.99961364 -0.020049602
289894339.62264 0.9995414 -0.021551579 0.00021700002 0.01095384 0.00028269831 0.011099256 0.99949825 -0.020860016
299890566.03774 0.99951577 -0.022290379 0.00023893849 0.011383195 0.00025398796 0.011423915 0.99920017 -0.021372944
309886792.45283 0.99920219 -0.022916086 0.00026010768 0.011790651 0.00029070105 0.01180915 0.99910498 -0.021890037
319883018.86792 0.99913442 -0.023520917 0.00029516453 0.012126692 0.00027808128 0.012209296 0.99910206 -0.022414237
329879245.28302 0.9990195 -0.024261564 0.00034258747 0.012540517 0.00034576282 0.012638992 0.99915844 -0.023247302
339875471.69811 0.99892241 -0.025110476 0.00035132701 0.012908989 0.00036138308 0.012962515 0.9990949 -0.023992807
349871698.11321 0.99923646 -0.025887728 0.00038783718 0.013307896 0.00038191676 0.013306919 0.99921089 -0.025009096
359867924.5283 0.99912983 -0.026843488 0.00038246717 0.013616383 0.00036214152 0.013754698 0.9991678 -0.025931597
369864150.9434 0.99928939 -0.027692884 0.000422318 0.014044642 0.00042281556 0.014112846 0.99920177 -0.026756644
379860377.35849 0.99919474 -0.028362781 0.00042953342 0.014451535 0.00039585517 0.014466039 0.99910998 -0.027497828
389856603.77358 0.99902487 -0.028977931 0.000467401 0.014812364 0.00046802964 0.014858205 0.9990654 -0.028000236
399852830.18868 0.99893022 -0.029624939 0.00046924595 0.015153518 0.00046325522 0.015226348 0.99908137 -0.028452843
409849056.60377 0.99886453 -0.030077428 0.00051903899 0.01555364 0.00049089344 0.015626691 0.99912542 -0.028905468
419845283.01887 0.99882257 -0.030626893 0.00055417093 0.015939323 0.00053516217 0.016016958 0.99908757 -0.029618412
429841509.43396 0.99885499 -0.031280875 0.00060246745 0.016312206 0.0005227807 0.016398938 0.99921012 -0.030378193
439837735.84906 0.99882233 -0.032220572 0.00059301942 0.01666397 0.0006178061 0.016746692 0.9990406 -0.031398892
449833962.26415 0.99877834 -0.03321752 0.00061572203 0.017012101 0.00059650652 0.017151525 0.9986611 -0.032267332
459830188.67925 0.99870062 -0.0340451 0.0006346507 0.017402839 0.00062533189 0.017510813 0.99862909 -0.033115447
469826415.09434 0.99856544 -0.034947306 0.00062207831 0.017812571 0.00063881092 0.017875668 0.99829662 -0.033701122
479822641.50943 0.99842733 -0.03560926 0.00067376322 0.018175254 0.00066524954 0.018268308 0.99836212 -0.034222148
489818867.92453 0.99858981 -0.036156535 0.00070492458 0.018553102 0.00069560856 0.018661179 0.99869311 -0.034918547
499815094.33962 0.9987089 -0.036758184 0.00074745482 0.018971989 0.0007323632 0.019047502 0.99895597 -0.035482317
509811320.75472 0.99884403 -0.037151918 0.00075621391 0.019291224 0.00074518356 0.019378982 0.9991318 -0.036373407
519807547.16981 0.99881816 -0.037783682 0.00078221085 0.01969232 0.00076477928 0.01979723 0.99907571 -0.037183434
529803773.58491 0.99861556 -0.038533896 0.00082602724 0.020094497 0.00080341659 0.020188393 0.99875963 -0.037895113
539800000 0.99866086 -0.039332598 0.00083224918 0.020440202 0.00083874655 0.020569306 0.99856347 -0.038580313
549796226.41509 0.99843508 -0.04028374 0.00086772256 0.020825278 0.00086687598 0.02091261 0.99828589 -0.039174676
559792452.83019 0.99827814 -0.041095316 0.00088480022 0.021233628 0.00089509226 0.021315973 0.99819374 -0.039729208
569788679.24528 0.99804926 -0.041818678 0.00095174275 0.021607347 0.00094805425 0.021703105 0.99834263 -0.040470809
579784905.66038 0.99791539 -0.042363785 0.00095181819 0.021979041 0.00094118179 0.022124918 0.99849683 -0.041311748
589781132.07547 0.99816442 -0.043078423 0.0010167072 0.022350498 0.0010042889 0.022463588 0.99863398 -0.042243391
599777358.49057 0.99837345 -0.043763846 0.0010452382 0.022711884 0.0010507386 0.02286518 0.99865592 -0.043149978
609773584.90566 0.99847621 -0.044640113 0.0011348784 0.023142198 0.0010942128 0.023247419 0.99853951 -0.044059291
619769811.32075 0.99846548 -0.045379072 0.001185542 0.023495961 0.0012116889 0.023633387 0.99848068 -0.044600248
629766037.73585 0.99831712 -0.046077162 0.0012609074 0.023784623 0.0012514638 0.023908839 0.99821091 -0.045141429
639762264.15094 0.99808383 -0.04675658 0.0012454744 0.024130125 0.0012220894 0.024286991 0.99798852 -0.045596763
649758490.56604 0.99793386 -0.047330111 0.0012371885 0.024518628 0.0012266673 0.024656856 0.99808151 -0.046001464
659754716.98113 0.99766797 -0.047893375 0.0012423489 0.024909046 0.0012472365 0.025052048 0.99809635 -0.046687365
669750943.39623 0.9977271 -0.048413306 0.0012732055 0.025325388 0.001258445 0.025439225 0.99822861 -0.047531575
679747169.81132 0.99783599 -0.049255863 0.0013341052 0.025717819 0.0013045373 0.025822876 0.99813735 -0.048674449
689743396.22642 0.99795008 -0.050131798 0.0013644751 0.026095372 0.001367962 0.026190571 0.99792033 -0.049600959
699739622.64151 0.99801499 -0.050989032 0.0014225235 0.026444929 0.0014125379 0.026611593 0.99784899 -0.050365627
709735849.0566 0.99801207 -0.051902056 0.0014883862 0.026836542 0.0014546767 0.02696605 0.9976142 -0.051058277
719732075.4717 0.99791092 -0.052728921 0.0015135575 0.027178606 0.0015106359 0.027333874 0.99769056 -0.05168131
729728301.88679 0.99776947 -0.053242564 0.0015886743 0.027543753 0.0015389668 0.027704315 0.99770153 -0.052096367
739724528.30189 0.99771899 -0.053922921 0.0015984485 0.027903002 0.0015980764 0.028090669 0.99792963 -0.052805766
749720754.71698 0.99746186 -0.0544319 0.0016555204 0.028296754 0.0016481937 0.028463729 0.99792182 -0.053629458
759716981.13208 0.99749267 -0.055004507 0.0016942741 0.028656494 0.0016529299 0.028815757 0.99789119 -0.054443687
769713207.54717 0.99749267 -0.055813491 0.0017269682 0.029042924 0.0017182324 0.029200874 0.99753499 -0.055171341
779709433.96226 0.99762613 -0.056393869 0.0017566116 0.029398762 0.0017825469 0.029541133 0.99730599 -0.055856526
789705660.37736 0.99751616 -0.05739817 0.0018075025 0.02974673 0.001807305 0.029910121 0.99710208 -0.056636155
799701886.79245 0.99745792 -0.05833897 0.001864139 0.030114111 0.0018732427 0.030293986 0.99693227 -0.057253808
809698113.20755 0.99744451 -0.059052646 0.0019070054 0.030456368 0.0018852651 0.030644376 0.99702215 -0.057789564
819694339.62264 0.99719191 -0.059724763 0.0019158884 0.030822415 0.0019027819 0.031033179 0.99713761 -0.058403686
829690566.03774 0.99722552 -0.060319364 0.001959499 0.031200889 0.001883341 0.031385183 0.99738103 -0.05935654
839686792.45283 0.99732828 -0.06080249 0.0019725552 0.03160378 0.0019985754 0.031780381 0.99741489 -0.06025967
849683018.86792 0.99737048 -0.0615196 0.0020606813 0.031991348 0.0020561635 0.032117046 0.99735463 -0.061063893
859679245.28302 0.99736518 -0.062277794 0.0020737117 0.032308757 0.0020609787 0.032524604 0.9969933 -0.061717421
869675471.69811 0.99729449 -0.063144535 0.0021408759 0.032705836 0.0021735039 0.032888647 0.99665785 -0.062337309
879671698.11321 0.99715984 -0.063822173 0.0021916451 0.033070803 0.0021902276 0.03323127 0.99656516 -0.062782377
889667924.5283 0.99688399 -0.064843386 0.0022384673 0.033420682 0.0022130692 0.033607502 0.99642372 -0.063323677
899664150.9434 0.99665391 -0.065522939 0.0022352654 0.033787481 0.0022360682 0.033959229 0.99647981 -0.064023137
909660377.35849 0.9966948 -0.066205218 0.0023272196 0.034145106 0.0023201494 0.034346577 0.99660611 -0.064964697
919656603.77358 0.99674976 -0.066925049 0.0023434609 0.034488019 0.002347887 0.034716684 0.99656653 -0.065986797
929652830.18868 0.99670994 -0.067760587 0.0023817159 0.034832787 0.0023841206 0.035060886 0.99639904 -0.066949576
939649056.60377 0.99698478 -0.068417937 0.0023962036 0.035188809 0.0024114409 0.03545231 0.99628246 -0.067696869
949645283.01887 0.99692827 -0.069218084 0.0024199332 0.035587251 0.0024240047 0.035813615 0.9960708 -0.068259969
959641509.43396 0.99677736 -0.070030212 0.0024563242 0.03597793 0.0024658991 0.036237441 0.99593651 -0.068766028
969637735.84906 0.99668789 -0.070814282 0.0025274102 0.036373027 0.0025401413 0.036604658 0.99595213 -0.069170207
979633962.26415 0.99651569 -0.071602061 0.0025780527 0.03674192 0.002598573 0.036977656 0.99598229 -0.069867909
989630188.67925 0.99641174 -0.072110474 0.0026229611 0.03712748 0.0026245583 0.037371602 0.99614507 -0.070510566
999626415.09434 0.99648875 -0.072757423 0.0026588179 0.037461843 0.0026858319 0.037757158 0.99604845 -0.071443707
1009622641.5094 0.99656093 -0.0734981 0.0026934016 0.037873294 0.0027451264 0.038121145 0.99584639 -0.072250128
1019618867.9245 0.99662197 -0.07445161 0.0027706525 0.038259692 0.0028208024 0.038486615 0.99561489 -0.07323055
1029615094.3396 0.99666965 -0.075505376 0.00285073 0.038615204 0.0028943736 0.038801041 0.99511254 -0.073945493
1039611320.7547 0.99663174 -0.076396078 0.0028888015 0.038973242 0.0028963247 0.03920044 0.99514169 -0.074636787
1049607547.1698 0.99639034 -0.077354997 0.0029666775 0.039303999 0.0029689383 0.039581861 0.99508226 -0.075290129
1059603773.5849 0.99640054 -0.07809341 0.0030169478 0.039608181 0.0030131312 0.039879572 0.99505126 -0.075877607
1069600000 0.99601912 -0.078743994 0.0030088294 0.039964356 0.0030609723 0.040253919 0.99524236 -0.07657513
1079596226.4151 0.99592704 -0.079332389 0.0030648657 0.040374719 0.0031080763 0.040625852 0.99521118 -0.077417381
1089592452.8302 0.9959448 -0.080033511 0.0030855862 0.040746704 0.0031437185 0.040997736 0.99511892 -0.078145504
1099588679.2453 0.99608767 -0.080750227 0.0030899812 0.041121509 0.0031454545 0.041361749 0.9947412 -0.078828156
1109584905.6604 0.99607009 -0.08163172 0.0031287568 0.041477576 0.0032319799 0.041768178 0.99454689 -0.079417542
1119581132.0755 0.9961248 -0.082726352 0.0031599733 0.041868173 0.0032420522 0.042150173 0.99421227 -0.079898663
1129577358.4906 0.99589968 -0.083530545 0.0032380186 0.042247333 0.0032639652 0.042521827 0.99411666 -0.080387175
1139573584.9057 0.99565274 -0.084558398 0.0032758061 0.042650171 0.0033579431 0.042898327 0.99418986 -0.081136137
1149569811.3208 0.99537343 -0.085397109 0.0033532497 0.043018337 0.0034535835 0.043294799 0.99433631 -0.081925809
1159566037.7358 0.99527436 -0.086155236 0.0034016203 0.043341644 0.0034903679 0.043636635 0.99440908 -0.08302623
1169562264.1509 0.99501979 -0.086770833 0.0034076385 0.043698646 0.0035224464 0.043997724 0.99424183 -0.083848059
1179558490.566 0.9950012 -0.087648332 0.003437337 0.044116713 0.0035163201 0.044406902 0.99412864 -0.084553957
1189554716.9811 0.99494153 -0.088335156 0.0035111737 0.044512503 0.0036323993 0.04476342 0.99379736 -0.085142285
1199550943.3962 0.99493456 -0.089259893 0.0035900157 0.044900779 0.0036492981 0.045149378 0.99356759 -0.085562766
1209547169.8113 0.99480611 -0.090198919 0.0036158366 0.045286518 0.0037248526 0.04552155 0.99351144 -0.085966453
1219543396.2264 0.99442762 -0.091024607 0.0036698375 0.045667991 0.0037710704 0.045936123 0.99357235 -0.086425401
1229539622.6415 0.99418348 -0.091930062 0.0037630405 0.046042725 0.003876742 0.046324503 0.99365902 -0.087149709
1239535849.0566 0.99380165 -0.092651337 0.003840059 0.046414286 0.0039715702 0.046682876 0.99375916 -0.088211298
1249532075.4717 0.99358648 -0.093475901 0.0038835695 0.046727814 0.0040525822 0.047028311 0.9935984 -0.089077927
1259528301.8868 0.99332917 -0.09393245 0.0039776377 0.047140025 0.004115859 0.047380574 0.99322098 -0.09004584
1269524528.3019 0.99321246 -0.094778359 0.0040690284 0.047525708 0.0042124186 0.047733098 0.99306357 -0.09081918
1279520754.717 0.99284452 -0.095468447 0.0041239788 0.047820456 0.0042901007 0.04799296 0.99273866 -0.091304973
1289516981.1321 0.99264979 -0.096362591 0.0041688904 0.048152257 0.0042959535 0.048371129 0.99284005 -0.09177205
1299513207.5472 0.99232829 -0.097236961 0.0041626506 0.048504356 0.0043126885 0.048728034 0.99295807 -0.092122376
1309509433.9623 0.99184084 -0.097921371 0.0041736867 0.048854344 0.004332372 0.049054708 0.99301046 -0.092964917
1319505660.3774 0.99142301 -0.098710358 0.0042386986 0.049243972 0.0043690056 0.049458336 0.99299318 -0.093558028
1329501886.7925 0.99111456 -0.099400848 0.0042580273 0.049608909 0.0044073556 0.049817733 0.9930203 -0.094633549
1339498113.2075 0.99087542 -0.099999964 0.0043166401 0.049982544 0.0044428501 0.050178342 0.99260008 -0.095499694
1349494339.6226 0.99061292 -0.10059248 0.0043211523 0.050318189 0.0044219634 0.050537907 0.99218208 -0.096109837
1359490566.0377 0.99051929 -0.10123885 0.0043231566 0.050779447 0.0044445228 0.050908931 0.99191874 -0.096683353
1369486792.4528 0.99034512 -0.10187826 0.0043317769 0.051166393 0.0044444781 0.051308487 0.99175948 -0.097063363
1379483018.8679 0.98998892 -0.10249734 0.004371881 0.051575381 0.0045214295 0.051708687 0.99175453 -0.097561419
1389479245.283 0.98956573 -0.10309696 0.0044730809 0.051977135 0.0045438875 0.052164324 0.99171603 -0.098306954
1399475471.6981 0.9891457 -0.10357735 0.004493311 0.05238317 0.004595682 0.052559979 0.99193913 -0.098941267
1409471698.1132 0.98875678 -0.10388438 0.0045636394 0.052811753 0.0046138046 0.052993685 0.99196976 -0.099905953
1419467924.5283 0.98864526 -0.10406911 0.0045638364 0.053214077 0.004661479 0.053391624 0.99179137 -0.10061046
1429464150.9434 0.9884975 -0.10458764 0.0046229996 0.053664062 0.0047273356 0.053809091 0.991521 -0.10115412
1439460377.3585 0.98867023 -0.10514173 0.0047248472 0.054166142 0.0048174383 0.054281235 0.99132228 -0.10155569
1449456603.7736 0.98864627 -0.10577054 0.0048764674 0.054564111 0.0049037347 0.054741219 0.99113923 -0.10196902
1459452830.1887 0.98864639 -0.10652655 0.0050194915 0.055082433 0.0050535239 0.055205792 0.99126387 -0.10229123
1469449056.6038 0.98867297 -0.10727718 0.005164491 0.055406209 0.0052011292 0.055581637 0.9914211 -0.10301539
1479445283.0189 0.98854709 -0.10802943 0.0053597619 0.05573919 0.0053386376 0.055927947 0.99148983 -0.1039413
1489441509.434 0.98830509 -0.10848004 0.0055117905 0.056079149 0.0054993555 0.0563168 0.99134874 -0.10496953
1499437735.8491 0.98817223 -0.10883552 0.0056067891 0.056414746 0.0056236386 0.056608748 0.99122858 -0.10578471
1509433962.2642 0.98819888 -0.10940526 0.0057229558 0.056706674 0.0057036355 0.056932632 0.99102783 -0.10653012
1519430188.6792 0.98826748 -0.10985655 0.0057896506 0.057040729 0.0058177803 0.057216328 0.99089277 -0.1071521
1529426415.0943 0.98825055 -0.11070302 0.0058579352 0.057361595 0.0058301892 0.057538778 0.99085826 -0.10759196
1539422641.5094 0.98821002 -0.11149868 0.0059642852 0.057729121 0.0059082522 0.057916705 0.99090445 -0.10804807
1549418867.9245 0.98802769 -0.1124616 0.0060368618 0.058032095 0.005978168 0.05823769 0.9910531 -0.10886531
1559415094.3396 0.98793054 -0.11308807 0.0061128587 0.058385164 0.0060422309 0.058584645 0.99119127 -0.10956651
1569411320.7547 0.98773229 -0.11399184 0.0061561745 0.058669273 0.0061004264 0.058899805 0.99106824 -0.11045469
1579407547.1698 0.98762316 -0.11454599 0.0061888089 0.058977239 0.0061872667 0.059250169 0.99072182 -0.11133794
1589403773.5849 0.98752677 -0.11511582 0.0061821174 0.059290912 0.0062007494 0.059594736 0.99047989 -0.11212605
1599400000 0.98751366 -0.11559114 0.0062146895 0.059657447 0.0061571654 0.059919164 0.98993123 -0.11259803
1609396226.4151 0.98748064 -0.11631438 0.0062009618 0.060047492 0.0061510419 0.060305703 0.98987997 -0.11307494
1619392452.8302 0.98742461 -0.11696383 0.006287789 0.060410999 0.0061951652 0.060670756 0.98983949 -0.11359853
1629388679.2453 0.98718303 -0.1177398 0.0062619802 0.060823627 0.0061813761 0.06109098 0.99006402 -0.11422223
1639384905.6604 0.98691469 -0.11840467 0.0062693972 0.061209567 0.0062514064 0.061516821 0.99026442 -0.11519217
1649381132.0755 0.98657131 -0.11918139 0.0063384641 0.061590862 0.0063197315 0.061939087 0.99020994 -0.11612508
1659377358.4906 0.98645115 -0.1199244 0.0063518472 0.062017094 0.0064024813 0.062335357 0.99013042 -0.11707768
1669373584.9057 0.98638695 -0.1204638 0.006421268 0.062452078 0.0063982196 0.062792152 0.98982221 -0.11782161
1679369811.3208 0.9864735 -0.12111036 0.0064892322 0.062889919 0.0064608529 0.063194901 0.98956269 -0.11832196
1689366037.7358 0.98636866 -0.12178871 0.0065844897 0.063299902 0.0065223482 0.06361796 0.98933363 -0.11856303
1699362264.1509 0.98660183 -0.12249616 0.0066150278 0.063721903 0.0065968009 0.064071216 0.98953336 -0.11909913
1709358490.566 0.98641533 -0.12327407 0.0067635011 0.064141341 0.0067045791 0.064484209 0.9894672 -0.11966749
1719354716.9811 0.98599052 -0.12386766 0.0068283025 0.064582534 0.006813217 0.064892337 0.98952025 -0.12052786
1729350943.3962 0.98566115 -0.12450653 0.0069585051 0.064915739 0.0069494788 0.065320775 0.98951322 -0.12154794
