!Keysight Technologies,N5222B,MY61253708,A.15.00.15
!Date: Wednesday, June 19, 2024 10:03:16
!Correction: S11(C  2-Port  ) 
!S21(C  2-Port  ) 
!S12(C  2-Port  ) 
!S22(C  2-Port  ) 
!S2P File: Measurements: S11, S21, S12, S22:
# Hz S  RI   R 50
10000000 0.99859142 -0.003117919 0.00017229919 -6.422375e-005 -5.5886194e-006 0.00035152913 0.99868363 -0.0011340976
19996226.415094 1.0002868 -0.0027206242 2.6109716e-005 0.00084195822 5.3841155e-005 0.000626639 1.0003059 -0.0026116669
29992452.830189 0.99971759 -0.00245592 -3.3798278e-005 0.0010384911 -8.1053004e-006 0.00097813667 0.99954337 -0.0026825368
39988679.245283 1.000052 -0.0029195249 5.0882678e-005 0.0013336368 -1.2437857e-005 0.0013250747 0.99972886 -0.0030475259
49984905.660377 1.0001793 -0.0036638677 1.0336633e-005 0.0016386335 2.1247193e-005 0.0016663701 0.99990892 -0.00357759
59981132.075472 1.0004345 -0.004545629 3.9961946e-005 0.0019858242 -1.449429e-006 0.0019629751 0.99983931 -0.0041429996
69977358.490566 1.0002476 -0.005116513 1.8821229e-005 0.0023180798 1.1224129e-005 0.0023386488 0.99974275 -0.0047349185
79973584.90566 0.99992037 -0.0056830049 1.4936901e-005 0.0025844274 8.7412773e-006 0.0025982582 0.99938214 -0.0052057207
89969811.320755 0.99992478 -0.0057833195 -2.8505456e-006 0.0029462578 2.8259354e-005 0.0030109454 0.99966359 -0.0053753555
99966037.735849 1.0001681 -0.006599158 2.0803825e-005 0.0032816154 2.6737107e-005 0.0032932856 0.99974447 -0.0061855465
109962264.15094 1.0001761 -0.0074422359 1.7036102e-005 0.0035820617 2.4639885e-005 0.0036167405 0.99973959 -0.006953761
119958490.56604 1.0002041 -0.0083159208 2.3329281e-005 0.0039187465 2.4046749e-005 0.0039473292 0.99978256 -0.0077910125
129954716.98113 1.0001763 -0.0092530251 3.0713622e-005 0.0042696996 3.8643717e-005 0.0042974586 0.99976307 -0.0086755157
139950943.39623 1.0001228 -0.010042133 4.3786931e-005 0.0046049738 2.8460985e-005 0.0046254853 0.99967426 -0.0093962625
149947169.81132 0.99999851 -0.01072666 3.7466409e-005 0.0049406914 4.961458e-005 0.0049580676 0.99965519 -0.010006845
159943396.22642 0.99991059 -0.011341304 4.5066234e-005 0.0052547995 4.7270674e-005 0.0052744146 0.99972045 -0.010490179
169939622.64151 0.99992621 -0.011665888 7.6575903e-005 0.0055819661 6.595772e-005 0.0056180037 0.99977517 -0.010933086
179935849.0566 0.9999212 -0.011931002 7.6224213e-005 0.005927993 6.6491193e-005 0.0059577674 0.99965388 -0.011302948
189932075.4717 1.0000918 -0.012751609 6.4873602e-005 0.0062409369 0.00010136026 0.0062691038 0.99983132 -0.011825055
199928301.88679 1.00006 -0.013463616 7.5699762e-005 0.0065492196 0.00010169344 0.0065791407 0.99976408 -0.012709767
209924528.30189 0.99976003 -0.01404494 9.826012e-005 0.0069003897 8.6954795e-005 0.0069101863 0.99955004 -0.013409346
219920754.71698 0.99997991 -0.014898062 0.00011217431 0.0072169085 9.2472183e-005 0.0072509283 0.9994421 -0.013959795
229916981.13208 0.9997192 -0.015740663 0.00014128839 0.0075337696 0.00012019766 0.0075821425 0.99944079 -0.014774621
239913207.54717 0.99957889 -0.016387794 0.00014066701 0.0078554284 0.00012648673 0.0079244161 0.99941659 -0.015475094
249909433.96226 0.99961209 -0.017086715 0.00013925531 0.0082209744 0.00014043204 0.0082366811 0.99945873 -0.016094446
259905660.37736 0.99962497 -0.017681539 0.00012173643 0.0085494407 0.00015217392 0.0086074406 0.99969268 -0.016671091
269901886.79245 0.99989498 -0.018228844 0.00017221551 0.0088827712 0.00019572582 0.0088998601 1.0000012 -0.01732707
279898113.20755 0.99988121 -0.019046545 0.00019840966 0.0091705881 0.00015058601 0.0092127295 0.99983191 -0.018032297
289894339.62264 0.99986225 -0.019741476 0.00020276289 0.0095477849 0.00016535586 0.0095484611 0.99978662 -0.018786371
299890566.03774 0.99982196 -0.020215839 0.00016463175 0.0098241651 0.00024463004 0.0098683601 0.99950594 -0.019225329
309886792.45283 0.99950564 -0.020696193 0.00023706205 0.01020385 0.00017344661 0.010240228 0.99944794 -0.019657977
319883018.86792 0.99974775 -0.021383941 0.00020487094 0.01048144 0.00022367574 0.010554455 0.99959171 -0.020186514
329879245.28302 0.99966753 -0.022151738 0.00027555879 0.010790358 0.00026159501 0.01091963 0.99971384 -0.020985037
339875471.69811 0.99948049 -0.022917584 0.00028507598 0.011107348 0.00025204429 0.011227228 0.99954486 -0.021802068
349871698.11321 0.99973118 -0.023780674 0.00028277095 0.011444383 0.00028714794 0.01154245 0.99964011 -0.022627413
359867924.5283 0.99952674 -0.024417728 0.00030383514 0.011773795 0.00025076233 0.011862826 0.99960005 -0.02355507
369864150.9434 0.99963456 -0.025219649 0.00028480892 0.012158416 0.00030595949 0.01221357 0.999596 -0.024228573
379860377.35849 0.9995513 -0.025889978 0.00031583803 0.012422632 0.00028341217 0.012511826 0.99949229 -0.024962261
389856603.77358 0.99942219 -0.026537389 0.00033611991 0.012794437 0.0003192327 0.012825258 0.99947739 -0.025435746
399852830.18868 0.99932021 -0.027155846 0.00037124008 0.013112988 0.00036875205 0.01316492 0.99950337 -0.025984555
409849056.60377 0.99928701 -0.027570184 0.00036497379 0.013421332 0.00034943462 0.013486804 0.99943113 -0.026482217
419845283.01887 0.99925458 -0.028003931 0.00040199235 0.013758373 0.00036671897 0.013820389 0.99936229 -0.027030259
429841509.43396 0.99932909 -0.028695583 0.00041543739 0.014088184 0.000421545 0.014165709 0.99952257 -0.027726799
439837735.84906 0.99921739 -0.029578984 0.00042202254 0.01441898 0.00043056195 0.014467024 0.99924058 -0.028739065
449833962.26415 0.99915946 -0.030375957 0.00042925216 0.014707312 0.00045464933 0.014765123 0.99886048 -0.029417872
459830188.67925 0.99894631 -0.031027257 0.00046272762 0.015034152 0.0004277993 0.015102399 0.99861991 -0.030182064
469826415.09434 0.99888992 -0.031727105 0.0004548924 0.015411662 0.00042783096 0.015441021 0.9983148 -0.030641884
479822641.50943 0.99886388 -0.032357372 0.00048397249 0.015707135 0.00045905937 0.015826004 0.99836117 -0.03104084
489818867.92453 0.99885607 -0.032891512 0.00049540959 0.016052699 0.00050704787 0.016124807 0.99864388 -0.031538904
499815094.33962 0.99895853 -0.033466876 0.00052819774 0.016380722 0.00056064408 0.016431965 0.99888915 -0.032070339
509811320.75472 0.99908167 -0.034004789 0.00057418965 0.016681636 0.00059105037 0.016810544 0.99899542 -0.032853108
519807547.16981 0.99901235 -0.034531981 0.00059015444 0.016985679 0.0005588769 0.017080029 0.99906409 -0.033468693
529803773.58491 0.99898785 -0.034999341 0.00060591102 0.017315036 0.00060263555 0.017434027 0.9987638 -0.034072548
539800000 0.99906439 -0.035694897 0.00057489518 0.017659497 0.00059190299 0.01773094 0.99871272 -0.03472127
549796226.41509 0.99891376 -0.036571771 0.00062874332 0.018003182 0.00064879516 0.018084245 0.99861866 -0.03513512
559792452.83019 0.99878168 -0.037265301 0.00064887945 0.01829868 0.00065232534 0.018399239 0.99853194 -0.035601854
569788679.24528 0.99856937 -0.037901849 0.00069086161 0.018721167 0.00067398138 0.018751981 0.99873173 -0.036388725
579784905.66038 0.9985534 -0.038458213 0.00071920746 0.019006668 0.00067402632 0.01908008 0.99885547 -0.037101008
589781132.07547 0.99866837 -0.039080054 0.00074864738 0.019299917 0.00074109249 0.019412763 0.99895084 -0.037899137
599777358.49057 0.99876368 -0.039689004 0.00078577828 0.019648721 0.00076157041 0.019721845 0.99901551 -0.038705051
609773584.90566 0.99890947 -0.040549651 0.00078723114 0.019969437 0.00080505357 0.020069746 0.99885219 -0.039584529
619769811.32075 0.9989652 -0.041166663 0.00080537051 0.020292053 0.00081679737 0.020389456 0.99872601 -0.040080637
629766037.73585 0.99886727 -0.041836053 0.00087895989 0.02062887 0.00083380565 0.020742981 0.99864769 -0.040603906
639762264.15094 0.99867588 -0.042472661 0.00088732922 0.0208901 0.00089880917 0.020990254 0.99855101 -0.041071728
649758490.56604 0.99857652 -0.043130621 0.00090033468 0.021213235 0.00088437181 0.021339821 0.99863493 -0.041474521
659754716.98113 0.99852908 -0.043623835 0.00088341348 0.021536905 0.00087245181 0.021653051 0.99871629 -0.042087704
669750943.39623 0.99847335 -0.044120103 0.00092103984 0.021903552 0.00089451671 0.02205508 0.99877441 -0.04286623
679747169.81132 0.99840486 -0.044813693 0.00096432201 0.022232043 0.00094735995 0.022339953 0.9987641 -0.043771118
689743396.22642 0.99858224 -0.045570046 0.0010093823 0.022582453 0.0010012081 0.02264907 0.99859285 -0.044674516
699739622.64151 0.9987334 -0.046377748 0.0010451209 0.02288622 0.001039383 0.023023112 0.99851751 -0.045365423
709735849.0566 0.99866444 -0.047182776 0.0010970572 0.0231889 0.0010753218 0.023327213 0.99832052 -0.04603751
719732075.4717 0.99852484 -0.047911018 0.0011218437 0.023518179 0.0011294554 0.023626547 0.99832773 -0.046701163
729728301.88679 0.9984808 -0.048454195 0.0011450229 0.023864038 0.0011241809 0.023981497 0.99837124 -0.047153562
739724528.30189 0.99836409 -0.049165726 0.0011657407 0.024181053 0.0011578258 0.024274278 0.99852705 -0.047771305
749720754.71698 0.99830729 -0.049664751 0.0012084283 0.024481149 0.0012234044 0.024603885 0.99853921 -0.048510104
759716981.13208 0.998366 -0.05019623 0.0011960743 0.024762247 0.0012277737 0.024910688 0.99854052 -0.049250603
769713207.54717 0.99826437 -0.050906211 0.0012389533 0.025103528 0.0012665885 0.025232894 0.99827325 -0.049980313
779709433.96226 0.99841672 -0.051470127 0.0012975144 0.025418947 0.0013254074 0.025577655 0.99804789 -0.050623361
789705660.37736 0.99831271 -0.052375793 0.0013330318 0.025788166 0.001336243 0.025876902 0.99781173 -0.051318437
799701886.79245 0.99823451 -0.053126484 0.0013503088 0.02605987 0.0013417173 0.026209567 0.99765354 -0.051880121
809698113.20755 0.99819654 -0.053751647 0.0013833477 0.026373381 0.0013743476 0.026546821 0.99768311 -0.052318737
819694339.62264 0.99793452 -0.054456443 0.0013914821 0.02669568 0.0014044037 0.026845751 0.99772722 -0.052981496
829690566.03774 0.99796408 -0.054984778 0.001415967 0.027020367 0.0014395379 0.0271639 0.99792004 -0.053848743
839686792.45283 0.99798185 -0.055409193 0.0014541345 0.027333315 0.0014466252 0.027481884 0.99802721 -0.054568201
849683018.86792 0.99814302 -0.056125991 0.0014696198 0.027684785 0.0015044874 0.027821053 0.99786878 -0.055359706
859679245.28302 0.99814439 -0.056821525 0.0015224647 0.027990956 0.0015228754 0.028137185 0.99760783 -0.055913329
869675471.69811 0.998128 -0.057616562 0.0015882375 0.028303863 0.0015591308 0.028445516 0.99728823 -0.056452632
879671698.11321 0.99801326 -0.058222726 0.0016018378 0.028620008 0.001619628 0.028764093 0.99725878 -0.056829624
889667924.5283 0.99783701 -0.058992028 0.0016415808 0.028898653 0.0016294504 0.029054046 0.9971171 -0.057380915
899664150.9434 0.99765229 -0.059662759 0.0016539926 0.029234037 0.0016711419 0.02938167 0.99712908 -0.057915896
909660377.35849 0.99771124 -0.060321525 0.0016720984 0.029545426 0.001665832 0.029692613 0.99731219 -0.058755696
919656603.77358 0.9977411 -0.060946345 0.0017101546 0.029869106 0.001709302 0.030001167 0.99729401 -0.059640855
929652830.18868 0.99772871 -0.061785191 0.0017597759 0.030162912 0.0017330945 0.030333383 0.99718982 -0.060432822
939649056.60377 0.9979049 -0.062298685 0.0017376207 0.03047983 0.0017439416 0.030662719 0.9970479 -0.061202019
949645283.01887 0.99787128 -0.063179255 0.0017338964 0.030825676 0.0017409915 0.030975463 0.9968124 -0.061683849
959641509.43396 0.99780607 -0.063890606 0.0017585028 0.031171143 0.0018005157 0.031336848 0.99674726 -0.062236458
969637735.84906 0.99772912 -0.064613819 0.001807807 0.03149043 0.0018109959 0.031676687 0.99680245 -0.062574208
979633962.26415 0.99756569 -0.065301627 0.001899329 0.031831749 0.0018692911 0.031989835 0.99676681 -0.063269533
989630188.67925 0.99757499 -0.065837979 0.00191628 0.032108389 0.0019343188 0.032333858 0.99697721 -0.063807338
999626415.09434 0.99763846 -0.066395491 0.0019303123 0.032471582 0.0019559581 0.032681681 0.99695945 -0.064620197
1009622641.5094 0.99767482 -0.067069083 0.0019515054 0.032791689 0.0019907104 0.032985359 0.99680543 -0.065447539
1019618867.9245 0.99774545 -0.067841843 0.0020175469 0.033116929 0.0020626537 0.03332746 0.99657756 -0.06616354
1029615094.3396 0.99770927 -0.068770438 0.0020764023 0.033428833 0.0020933989 0.033601154 0.99621564 -0.066788167
1039611320.7547 0.99776816 -0.069601744 0.0021107206 0.03372661 0.0021166848 0.033920657 0.99616325 -0.067445457
1049607547.1698 0.99757391 -0.070515484 0.0021441786 0.034027863 0.0021374843 0.034205869 0.99619216 -0.067963198
1059603773.5849 0.99747878 -0.071156979 0.0021591876 0.03431543 0.0021884767 0.034525599 0.99614233 -0.068584442
1069600000 0.9972887 -0.071840405 0.0021435972 0.034603618 0.0022009537 0.034854159 0.99635899 -0.069236636
1079596226.4151 0.99724668 -0.072567426 0.0021409453 0.034937825 0.0022094846 0.035151012 0.99630648 -0.070053786
1089592452.8302 0.99732429 -0.073184043 0.0021790769 0.035279151 0.0022298973 0.035498641 0.99626404 -0.07075581
1099588679.2453 0.99744022 -0.073793203 0.002204679 0.035611149 0.0022376981 0.035801295 0.99597156 -0.071360439
1109584905.6604 0.99746656 -0.07463491 0.0022155056 0.035947502 0.0023031365 0.036150269 0.99575406 -0.071948349
1119581132.0755 0.99748689 -0.075529456 0.0022329288 0.036282189 0.0023011044 0.036502779 0.99563032 -0.072346658
1129577358.4906 0.99725568 -0.076310098 0.0022755731 0.036640551 0.002338551 0.036861748 0.99547672 -0.072784603
1139573584.9057 0.99705005 -0.07711789 0.0023273854 0.036957908 0.0024150433 0.03719601 0.99557149 -0.07341373
1149569811.3208 0.99690843 -0.078024678 0.0023986935 0.037271127 0.0024589356 0.037495751 0.9957372 -0.074177988
1159566037.7358 0.99673027 -0.078622222 0.0024117231 0.037580866 0.0025095306 0.037820045 0.99576122 -0.075141519
1169562264.1509 0.99658287 -0.079259276 0.0024165958 0.037877232 0.0024899617 0.038129453 0.99558079 -0.075951606
1179558490.566 0.99658048 -0.080079645 0.0024414607 0.038265128 0.0024948721 0.038510714 0.99549276 -0.076639131
1189554716.9811 0.99652356 -0.080853581 0.0024678884 0.03859324 0.0025609322 0.038834818 0.99519295 -0.07711938
1199550943.3962 0.99654913 -0.0816333 0.0025276765 0.03895437 0.0026031528 0.039155189 0.99500561 -0.077614069
1209547169.8113 0.99626344 -0.082536846 0.0025577107 0.03925392 0.002645894 0.039461695 0.99498016 -0.077952012
1219543396.2264 0.99611747 -0.083342791 0.0025987625 0.039640464 0.0026889546 0.039823011 0.99506044 -0.078344777
1229539622.6415 0.99593592 -0.08414045 0.0026571397 0.039924342 0.0027581919 0.040167779 0.99514043 -0.079028726
1239535849.0566 0.99559259 -0.084733307 0.0027459087 0.04023958 0.0028420901 0.040473327 0.99526417 -0.079906225
1249532075.4717 0.99531364 -0.0854114 0.0027651445 0.040577564 0.0029142939 0.040764976 0.99516159 -0.080645539
1259528301.8868 0.99513459 -0.085876495 0.002821805 0.040872555 0.0029524285 0.041080654 0.9948746 -0.081489474
1269524528.3019 0.99497867 -0.086639196 0.0029047476 0.04120085 0.0030151792 0.041370109 0.9946996 -0.082235068
1279520754.717 0.99465883 -0.087322906 0.0029416333 0.041498624 0.0030567248 0.041628666 0.99442083 -0.082741544
1289516981.1321 0.99451387 -0.088173151 0.0029699784 0.041785788 0.0030741962 0.041921049 0.99446177 -0.083262503
1299513207.5472 0.99415469 -0.089040726 0.0029732268 0.042076796 0.0030854251 0.042261422 0.99460161 -0.083643943
1309509433.9623 0.99380451 -0.089803964 0.0029914137 0.042396538 0.0031084772 0.042557176 0.9947409 -0.084356457
1319505660.3774 0.99345767 -0.090469465 0.0029987991 0.042692192 0.0031158645 0.042860333 0.9947179 -0.084911644
1329501886.7925 0.99319237 -0.091197073 0.0030135531 0.043024905 0.0031072963 0.043189678 0.99465597 -0.085893393
1339498113.2075 0.99288774 -0.091662794 0.0030286973 0.043336578 0.0031490084 0.043511938 0.99434835 -0.086593688
1349494339.6226 0.99273932 -0.092130058 0.0030125058 0.043711886 0.0031239353 0.043850053 0.99400622 -0.087197639
1359490566.0377 0.99266016 -0.092739642 0.0030365884 0.044055 0.0031416304 0.04419326 0.99382722 -0.087678611
1369486792.4528 0.99241376 -0.093223631 0.0030438127 0.044417158 0.0031305728 0.044569671 0.99367106 -0.088097453
1379483018.8679 0.99210298 -0.093770474 0.003082931 0.044780578 0.0031453671 0.044878919 0.99366558 -0.088451959
1389479245.283 0.991808 -0.09437868 0.0031150412 0.045158442 0.0031940844 0.045288701 0.99356675 -0.089171827
1399475471.6981 0.99145353 -0.094759047 0.0031240769 0.045489214 0.0031775925 0.045622386 0.99383044 -0.089801699
1409471698.1132 0.99108827 -0.095194273 0.003157469 0.045874517 0.0032035885 0.046005357 0.9938401 -0.090733565
1419467924.5283 0.99097341 -0.095519751 0.0031440211 0.046219803 0.0032484354 0.046366818 0.99366766 -0.091339469
1429464150.9434 0.99080753 -0.095920324 0.0032117497 0.046640083 0.0032559074 0.046765652 0.99357772 -0.091949642
1439460377.3585 0.99095422 -0.096395493 0.0033071255 0.047050562 0.0033367919 0.047176924 0.99333137 -0.092260137
1449456603.7736 0.99098599 -0.096916586 0.0034290925 0.047449298 0.0034375265 0.047578719 0.99319971 -0.092624858
1459452830.1887 0.99101317 -0.097555548 0.0035278779 0.047868643 0.0035591964 0.047971129 0.99339205 -0.092924684
1469449056.6038 0.99095464 -0.0982216 0.003682767 0.048177142 0.003701889 0.048302691 0.99359584 -0.0935691
1479445283.0189 0.99085003 -0.098861054 0.0038147848 0.048437409 0.0038256187 0.048610426 0.99361652 -0.094350524
1489441509.434 0.99080485 -0.099370062 0.0039153658 0.048795462 0.0040111355 0.048911843 0.9934504 -0.09519881
1499437735.8491 0.99059844 -0.099666893 0.0040895045 0.049024783 0.0040766113 0.049160808 0.993433 -0.096071184
1509433962.2642 0.99062294 -0.10020307 0.0041209343 0.049318604 0.0041640615 0.04946712 0.99327153 -0.096805006
1519430188.6792 0.9907366 -0.10084832 0.0042225104 0.04960278 0.0042022672 0.049716469 0.99316812 -0.09731555
1529426415.0943 0.99065655 -0.10139829 0.0042660739 0.049871754 0.0042313039 0.049993712 0.99305844 -0.097801507
1539422641.5094 0.99068159 -0.1021881 0.0042974283 0.050156347 0.0042955955 0.050283492 0.99310249 -0.098296843
1549418867.9245 0.99058431 -0.10308348 0.0043845456 0.050434861 0.0043616863 0.050597858 0.99332815 -0.098996058
1559415094.3396 0.99045062 -0.10364279 0.0044109914 0.050691988 0.0043788087 0.050900526 0.99347389 -0.099684089
1569411320.7547 0.99033093 -0.10444094 0.0044610407 0.051029198 0.0044335881 0.051170889 0.99346 -0.10042733
1579407547.1698 0.990165 -0.10496405 0.0044849473 0.051240686 0.0044620619 0.051438194 0.99307996 -0.10122985
1589403773.5849 0.99019349 -0.10543129 0.0044537 0.051544238 0.004448317 0.051760972 0.99291527 -0.10189903
1599400000 0.99012703 -0.10592842 0.0044610063 0.051848568 0.0044328282 0.052030481 0.99249184 -0.1024422
1609396226.4151 0.99012178 -0.10661988 0.0044727568 0.052177373 0.0044205468 0.052362096 0.99232775 -0.10291116
1619392452.8302 0.99010807 -0.10716775 0.0044794194 0.052535113 0.0044482611 0.052714933 0.9922843 -0.10335094
1629388679.2453 0.98985291 -0.10788783 0.0044717956 0.052840583 0.0044671874 0.053040653 0.99251688 -0.10390443
1639384905.6604 0.98971456 -0.10842358 0.0044847364 0.053180963 0.0044578053 0.053439971 0.99277496 -0.10471956
1649381132.0755 0.98949134 -0.10918918 0.0044734236 0.053558823 0.0044520609 0.053788412 0.99271905 -0.10566297
1659377358.4906 0.98931056 -0.10994577 0.0045205429 0.053913496 0.0045041051 0.054151889 0.99271333 -0.10657826
1669373584.9057 0.98935103 -0.11039526 0.0045601125 0.054320972 0.0045245462 0.05454113 0.99241483 -0.10723318
1679369811.3208 0.98934394 -0.11108005 0.0046164105 0.054617636 0.00456875 0.05489105 0.99223167 -0.10764322
1689366037.7358 0.9892835 -0.11166427 0.0046356507 0.055052347 0.004641477 0.055280015 0.99207485 -0.10805532
1699362264.1509 0.98946661 -0.11223738 0.0046837199 0.055384688 0.0046496335 0.055657703 0.99225539 -0.10849747
1709358490.566 0.98925698 -0.11295253 0.0047418866 0.055788122 0.0046902401 0.056050178 0.9922322 -0.10894309
1719354716.9811 0.98898637 -0.11351058 0.0048058778 0.056140862 0.0047741216 0.056413408 0.9922775 -0.10969776
1729350943.3962 0.98874503 -0.11407834 0.0049196891 0.056547858 0.004871849 0.056772903 0.99239296 -0.11057445
