!Keysight Technologies,N5222B,MY61253708,A.15.00.15
!Date: Wednesday, June 19, 2024 10:11:19
!Correction: S11(C  2-Port  ) 
!S21(C  2-Port  ) 
!S12(C  2-Port  ) 
!S22(C  2-Port  ) 
!S2P File: Measurements: S11, S21, S12, S22:
# Hz S  RI   R 50
10000000 0.99859357 -0.0032809973 0.00041506783 0.00040478478 4.6373549e-005 4.3235297e-005 0.99825501 -0.0018978417
19996226.415094 1.0002621 -0.0024897754 1.3056357e-005 0.00066155358 -2.8870883e-005 0.0006566901 1.0002222 -0.0024563074
29992452.830189 0.9997139 -0.0024390221 3.6240788e-005 0.00097246864 1.3280282e-005 0.0009862486 0.9995594 -0.0026641786
39988679.245283 1.0000714 -0.0029596239 1.3739133e-005 0.001233487 -2.1861342e-005 0.0013383871 0.99971938 -0.0030294061
49984905.660377 1.0002118 -0.0036371648 -4.4287357e-005 0.001631642 9.155483e-006 0.0016399833 0.99991298 -0.0035817325
59981132.075472 1.0004838 -0.0045298338 3.890408e-005 0.0019694332 1.2632168e-005 0.0019423675 0.99988019 -0.0040693581
69977358.490566 1.0002275 -0.0051230583 2.7337235e-005 0.0023178987 3.889246e-005 0.0022828772 0.99980122 -0.0047070067
79973584.90566 0.99998289 -0.0057070255 3.8547907e-005 0.0026174297 -1.4923746e-005 0.0026211548 0.99942458 -0.0051744878
89969811.320755 0.99994004 -0.0057605207 6.058719e-006 0.0029201382 9.9997269e-006 0.0029624389 0.99967599 -0.0053528547
99966037.735849 1.000213 -0.0065193921 1.8992228e-005 0.0032595329 2.7646427e-005 0.0032848667 0.99975932 -0.0061640143
109962264.15094 1.0002375 -0.0073997527 2.7749105e-005 0.0036033629 3.71075e-005 0.0036100063 0.99975634 -0.0069415867
119958490.56604 1.0002325 -0.0082790852 1.414679e-005 0.0039029438 3.1205476e-005 0.0039388724 0.99976671 -0.0077588558
129954716.98113 1.0001997 -0.0092448294 3.2920158e-005 0.0042342595 3.5575824e-005 0.0042612818 0.99977767 -0.0086424649
139950943.39623 1.0001521 -0.010029208 2.6857961e-005 0.0045679547 4.8527232e-005 0.0045799208 0.99968636 -0.0093518756
149947169.81132 1.000043 -0.010711193 4.4234563e-005 0.0048983749 6.107823e-005 0.004895621 0.99964023 -0.0099479258
159943396.22642 1.0000105 -0.011226624 5.2617863e-005 0.0052133491 4.3986132e-005 0.0052574137 0.99971628 -0.01042968
169939622.64151 0.99991906 -0.011665829 7.9737394e-005 0.0055504385 6.1905244e-005 0.0055991481 0.99976385 -0.010859951
179935849.0566 1.0000131 -0.011897087 7.2210561e-005 0.0058850497 8.0392114e-005 0.0059247846 0.99965852 -0.01124987
189932075.4717 1.0001192 -0.012698084 7.9182209e-005 0.0062181354 9.8679215e-005 0.0062259063 0.99986666 -0.011785626
199928301.88679 1.0000561 -0.01346314 6.1948318e-005 0.0065216976 9.4199087e-005 0.0065599256 0.9997564 -0.012639195
209924528.30189 0.99979347 -0.013980553 9.7325654e-005 0.0068519223 7.7555072e-005 0.0068820044 0.99953145 -0.013292924
219920754.71698 0.99997091 -0.014801085 0.00010900875 0.0071901763 0.00010484387 0.0072085187 0.9994337 -0.013866723
229916981.13208 0.99979383 -0.015669376 0.00011468958 0.0075151259 0.00010241708 0.0075400332 0.99948043 -0.014680833
239913207.54717 0.99960732 -0.016364438 0.00014093764 0.0078166658 0.00013070532 0.0078761186 0.99943453 -0.015408901
249909433.96226 0.99965566 -0.016955227 0.00012688176 0.0081584388 0.00017340714 0.008205805 0.99949002 -0.016012728
259905660.37736 0.99974781 -0.017588884 0.00012181932 0.0084956037 0.00017542904 0.0085380375 0.99969447 -0.016588002
269901886.79245 0.99983585 -0.018181846 0.00019273988 0.0088162543 0.00014602242 0.0088318288 0.99995875 -0.017242432
279898113.20755 0.99983972 -0.018927708 0.00019314326 0.009138125 0.00015551946 0.0091440063 0.99977148 -0.017962486
289894339.62264 0.99985993 -0.019631505 0.00018700911 0.0094814096 0.00017899042 0.0095017729 0.99972808 -0.018704951
299890566.03774 0.99983656 -0.020184278 0.00019853539 0.0097798267 0.00016975868 0.0098215481 0.99955654 -0.019099593
309886792.45283 0.99964905 -0.020673811 0.00018065772 0.010137429 0.00020759192 0.010172261 0.99950725 -0.019561157
319883018.86792 0.9997685 -0.021257758 0.00021413201 0.010479679 0.00020948378 0.010517497 0.99962544 -0.020059347
329879245.28302 0.99970484 -0.022020012 0.00020138687 0.010810493 0.00020895945 0.010823136 0.99972296 -0.020850629
339875471.69811 0.99963236 -0.022786163 0.00025289983 0.011089522 0.00026594778 0.011146626 0.9996168 -0.021631926
349871698.11321 0.99971557 -0.023628324 0.00028413394 0.011416063 0.00029941159 0.011462457 0.99965692 -0.022548795
359867924.5283 0.99958682 -0.024395972 0.00027363189 0.011753425 0.00024287309 0.011807202 0.99956918 -0.023408145
369864150.9434 0.99974334 -0.025185704 0.00030140299 0.012079594 0.00030493038 0.012154545 0.99958795 -0.024163902
379860377.35849 0.99966353 -0.025814891 0.00032779924 0.012414566 0.00033266819 0.012448546 0.99950242 -0.024901241
389856603.77358 0.99943209 -0.026420921 0.00032826653 0.012706676 0.00033005048 0.012766736 0.9994818 -0.025344104
399852830.18868 0.99936998 -0.027026385 0.000340953 0.013039037 0.00036108308 0.013129643 0.99952936 -0.025909781
409849056.60377 0.999345 -0.027484117 0.00039673306 0.013318397 0.00034083676 0.013428689 0.99944156 -0.026410814
419845283.01887 0.99928755 -0.027938038 0.00036822353 0.013669643 0.00033953506 0.013735474 0.99932677 -0.02691105
429841509.43396 0.99936104 -0.028563052 0.00040515047 0.013994822 0.00038681831 0.01409293 0.9995324 -0.027592897
439837735.84906 0.99918574 -0.029476494 0.00042078143 0.014342872 0.00042287225 0.014382069 0.99929386 -0.028643996
449833962.26415 0.99907857 -0.030224293 0.00042687217 0.014669929 0.00045024464 0.014716452 0.99881488 -0.029366016
459830188.67925 0.99898976 -0.030935943 0.00043844432 0.01497497 0.00043358328 0.015041428 0.99860615 -0.030025601
469826415.09434 0.99892116 -0.031687409 0.0004655635 0.015306838 0.00045424188 0.015369581 0.9983021 -0.03053543
479822641.50943 0.99879247 -0.032240577 0.00045449287 0.015630003 0.00046599307 0.015705347 0.99829966 -0.03088022
489818867.92453 0.99890959 -0.032739878 0.00052111503 0.015951432 0.00050839316 0.016027633 0.99855018 -0.031393051
499815094.33962 0.9989242 -0.033309489 0.00052611716 0.016259419 0.00055677583 0.016366227 0.9988631 -0.031893075
509811320.75472 0.9990536 -0.033752307 0.00061897398 0.01662288 0.00055254973 0.01670491 0.99899483 -0.032705124
519807547.16981 0.99899215 -0.034323424 0.00057262275 0.016886748 0.00056150509 0.016999526 0.99896872 -0.033344746
529803773.58491 0.99896944 -0.034811229 0.00056702644 0.017277997 0.00058562122 0.017291658 0.99878597 -0.033806205
539800000 0.99911219 -0.035570934 0.00057802326 0.017579265 0.00059057586 0.017663023 0.9986304 -0.034502536
549796226.41509 0.99889266 -0.036392003 0.00065402035 0.017900236 0.00059026619 0.018008618 0.99851865 -0.034876704
559792452.83019 0.99866772 -0.037118226 0.00064334366 0.018205576 0.00062155072 0.018309386 0.9985503 -0.035418659
569788679.24528 0.99859661 -0.037802845 0.00066289399 0.018551929 0.00066511054 0.018631605 0.99868184 -0.036153704
579784905.66038 0.99856335 -0.038284965 0.00063866097 0.018902665 0.00068538787 0.018966824 0.99879628 -0.03687299
589781132.07547 0.99867082 -0.038901418 0.00071599986 0.019214388 0.00072126742 0.019298337 0.99894321 -0.037750691
599777358.49057 0.99876624 -0.039608061 0.00075249933 0.019548271 0.00073626637 0.019620355 0.99895149 -0.038460881
609773584.90566 0.9989354 -0.040325075 0.00079055229 0.019856848 0.00075100973 0.019937608 0.9988724 -0.039228417
619769811.32075 0.99898899 -0.040934771 0.00081557129 0.020171568 0.00081297383 0.020258402 0.99878508 -0.039838165
629766037.73585 0.99900389 -0.041641116 0.00085395295 0.020497445 0.0008481266 0.020589547 0.99861318 -0.040335327
639762264.15094 0.99873507 -0.042268008 0.00086673163 0.020787854 0.00084943604 0.020908838 0.9984982 -0.040799573
649758490.56604 0.99861443 -0.042930037 0.00089789182 0.021127529 0.0008783727 0.021200046 0.9986701 -0.041216701
659754716.98113 0.998496 -0.043355584 0.00088759791 0.021476828 0.00084914267 0.021571433 0.99875808 -0.041767657
669750943.39623 0.9985373 -0.04384318 0.00087620458 0.021801714 0.00086374255 0.02187977 0.99875522 -0.042585641
679747169.81132 0.99852288 -0.044636942 0.0009538664 0.022140021 0.00095046847 0.02223908 0.99882638 -0.043499127
689743396.22642 0.99865723 -0.045463413 0.00099735893 0.022484209 0.0010035913 0.022577088 0.9986099 -0.044416577
699739622.64151 0.99874139 -0.046148509 0.0010404298 0.022778755 0.0010505747 0.022900084 0.99859422 -0.045110822
709735849.0566 0.99876267 -0.046956658 0.0010841968 0.023095181 0.0010550934 0.023199268 0.99828792 -0.045785166
719732075.4717 0.99863601 -0.047773242 0.0010810164 0.023395162 0.0010948456 0.02349337 0.99843383 -0.046437263
729728301.88679 0.99853337 -0.048219055 0.0011531543 0.023711819 0.001101668 0.023805588 0.99840808 -0.046844751
739724528.30189 0.99842256 -0.048948511 0.0011781328 0.024024783 0.0011414411 0.024166849 0.99859476 -0.047507614
749720754.71698 0.99834251 -0.049461991 0.0012160838 0.024362138 0.0011708019 0.024473852 0.99862123 -0.048277423
759716981.13208 0.99843061 -0.050014734 0.0012404388 0.024659559 0.0012125531 0.0247964 0.99853122 -0.048999667
769713207.54717 0.99830115 -0.050708234 0.0011998592 0.024992362 0.0012513679 0.025113661 0.99829882 -0.049725682
779709433.96226 0.99852604 -0.051243704 0.0012620842 0.025300071 0.0012880454 0.025439158 0.99811941 -0.050337244
789705660.37736 0.99826258 -0.052154988 0.0013165548 0.025618264 0.0013100933 0.025754809 0.99783701 -0.051049739
799701886.79245 0.9983182 -0.052885354 0.0013255095 0.025937948 0.0013279952 0.026055865 0.99769646 -0.051644653
809698113.20755 0.99820203 -0.053491995 0.0013824387 0.026242662 0.0013659466 0.026397476 0.99774611 -0.052047849
819694339.62264 0.99801487 -0.054233521 0.0014087344 0.026564566 0.0013713776 0.02668315 0.99776876 -0.052719623
829690566.03774 0.99802983 -0.054825097 0.0014160322 0.026887693 0.001431304 0.027037498 0.997967 -0.05356586
839686792.45283 0.99802256 -0.055260062 0.0014333786 0.027214048 0.0014582439 0.027329553 0.99803013 -0.054293931
849683018.86792 0.99806994 -0.05590827 0.0014864276 0.027529286 0.0014653176 0.027630439 0.99790299 -0.055011213
859679245.28302 0.99819219 -0.05656454 0.0015010936 0.027832177 0.001513103 0.027973015 0.99761492 -0.055648029
869675471.69811 0.99807578 -0.057325244 0.0015424835 0.02817555 0.001571401 0.028317247 0.99729848 -0.056157231
879671698.11321 0.99807143 -0.057996273 0.0015968434 0.02844584 0.0015985408 0.028615953 0.99730712 -0.056530893
889667924.5283 0.9978677 -0.058743089 0.0015988005 0.028761411 0.0016073165 0.028913103 0.99714613 -0.057088047
899664150.9434 0.99770308 -0.059453517 0.0016383817 0.029076584 0.0016008839 0.0292226 0.99717224 -0.057643831
909660377.35849 0.99772537 -0.060051396 0.0016476745 0.029417867 0.001669371 0.029518545 0.99737412 -0.058501258
919656603.77358 0.99780679 -0.060714409 0.0016564964 0.029741935 0.0016728332 0.02987542 0.99732208 -0.059325397
929652830.18868 0.99772561 -0.061442643 0.0017070295 0.030023802 0.0017155549 0.030181125 0.99716872 -0.060155571
939649056.60377 0.99799299 -0.062048227 0.0017273445 0.030350449 0.001709885 0.03048039 0.99702913 -0.060880989
949645283.01887 0.99786901 -0.062850103 0.0016889866 0.030668605 0.0017397116 0.030835655 0.99678856 -0.061393935
959641509.43396 0.99780029 -0.063510567 0.0017455751 0.031029567 0.0017731916 0.031179398 0.99678183 -0.061882049
969637735.84906 0.9976995 -0.064313352 0.001801311 0.031358525 0.0018125828 0.031487312 0.99678171 -0.062235147
979633962.26415 0.99758446 -0.065048911 0.0018541983 0.031676542 0.0018326177 0.031804457 0.99680001 -0.062889211
989630188.67925 0.9976722 -0.065460593 0.001872668 0.031986803 0.0018878309 0.032155294 0.99702221 -0.063467205
999626415.09434 0.99768031 -0.06609875 0.0018857652 0.032300737 0.0019240566 0.03247771 0.99695355 -0.064237803
1009622641.5094 0.99774867 -0.066747591 0.001952407 0.032621104 0.0019622492 0.032824811 0.99685305 -0.065039262
1019618867.9245 0.99780267 -0.067534074 0.0020025605 0.032955464 0.0020381119 0.033110119 0.99657518 -0.065807343
1029615094.3396 0.9977994 -0.068451554 0.0020548366 0.033267304 0.0021052072 0.03340172 0.99626291 -0.066399068
1039611320.7547 0.99783731 -0.069259256 0.0020923698 0.033552352 0.0020751823 0.033726767 0.99620467 -0.067073703
1049607547.1698 0.99769044 -0.070189551 0.00210084 0.0338526 0.0021205812 0.034032065 0.9961732 -0.06767042
1059603773.5849 0.99764895 -0.070839286 0.0021016076 0.034145009 0.0021554502 0.034322407 0.99618483 -0.068195254
1069600000 0.99737883 -0.071545571 0.0021135202 0.034446131 0.0021856362 0.03464511 0.99631822 -0.06893304
1079596226.4151 0.99732006 -0.072166242 0.0021268595 0.034774251 0.0021779183 0.034955543 0.99639529 -0.069681756
1089592452.8302 0.99747217 -0.072779864 0.0021700952 0.035113733 0.0022112038 0.035288274 0.99636066 -0.070438772
1099588679.2453 0.99741709 -0.073481619 0.0021761227 0.035427421 0.0022172928 0.035623886 0.9959867 -0.071033984
1109584905.6604 0.99756938 -0.074248672 0.0022039916 0.035755582 0.0022533424 0.035942234 0.99577528 -0.071573541
1119581132.0755 0.99756151 -0.075247869 0.0022090487 0.03609395 0.0022868128 0.036278404 0.99560356 -0.071987838
1129577358.4906 0.99736917 -0.075933158 0.0022567865 0.036476463 0.0023188349 0.036633268 0.99551189 -0.072410315
1139573584.9057 0.99721724 -0.076814622 0.002275208 0.036775708 0.0023557786 0.036977556 0.99557799 -0.073065162
1149569811.3208 0.99705952 -0.077646196 0.0023331367 0.037113812 0.0024215062 0.037273083 0.99571925 -0.073750742
1159566037.7358 0.99683005 -0.078330696 0.0023983372 0.03739205 0.0024284637 0.037583016 0.99579173 -0.074769855
1169562264.1509 0.9965812 -0.078919083 0.0023937915 0.037709489 0.0024656653 0.03792588 0.99570858 -0.075574279
1179558490.566 0.99661076 -0.079721853 0.002394571 0.038049489 0.0024563102 0.038265947 0.99555415 -0.076233245
1189554716.9811 0.99659586 -0.080465078 0.0024371054 0.038419086 0.0025351141 0.038612045 0.99528134 -0.076821476
1199550943.3962 0.99655992 -0.081326962 0.0024718177 0.038753301 0.0025729071 0.038908307 0.99508202 -0.077224612
1209547169.8113 0.99644089 -0.082187191 0.0025177989 0.039055906 0.0026296694 0.039228901 0.99499047 -0.077570409
1219543396.2264 0.99618345 -0.082987204 0.0025717183 0.039437067 0.0026542237 0.039606061 0.99507046 -0.077916324
1229539622.6415 0.99600792 -0.083754063 0.0026650876 0.039760225 0.0027259197 0.039930772 0.99520099 -0.078606993
1239535849.0566 0.99567878 -0.084361851 0.0027098702 0.040033605 0.0027818866 0.0402367 0.99537385 -0.07950899
1249532075.4717 0.99541181 -0.08504799 0.0027494661 0.040364511 0.00287996 0.040525049 0.99514675 -0.080267221
1259528301.8868 0.99527127 -0.085551292 0.0027907174 0.040697284 0.0029306281 0.040887639 0.99494874 -0.081124812
1269524528.3019 0.99508703 -0.086265892 0.0028631855 0.040981997 0.0029801605 0.041156575 0.99477357 -0.081775576
1279520754.717 0.99473572 -0.087008886 0.0029160448 0.041275088 0.0030150705 0.041424345 0.99444634 -0.082339786
1289516981.1321 0.99461043 -0.087828994 0.0029073395 0.04156059 0.0030528326 0.041703187 0.99452591 -0.082831979
1299513207.5472 0.99430442 -0.088626623 0.0029536933 0.041906275 0.0030453689 0.04204952 0.99468529 -0.083179742
1309509433.9623 0.99390727 -0.089409038 0.0029465659 0.04216807 0.0030685486 0.042306751 0.99472195 -0.083990693
1319505660.3774 0.9935233 -0.090086043 0.0029432373 0.042507298 0.0030563315 0.042609427 0.99476862 -0.084595233
1329501886.7925 0.99328834 -0.090790063 0.0029523354 0.042839594 0.0030996464 0.04296897 0.99482679 -0.085492224
1339498113.2075 0.99304128 -0.091255158 0.0029893117 0.043143515 0.0031203376 0.043275502 0.99442691 -0.086207926
1349494339.6226 0.99278378 -0.091786347 0.0029916717 0.043458238 0.0030788174 0.043627314 0.99411643 -0.086759686
1359490566.0377 0.99267507 -0.092375636 0.0029867385 0.043858055 0.0030990075 0.043946154 0.99388671 -0.087277889
1369486792.4528 0.99251819 -0.092933863 0.0029940112 0.044203043 0.0031079445 0.044328876 0.99370587 -0.08770752
1379483018.8679 0.99224067 -0.09344323 0.0030250561 0.044557028 0.0031062749 0.044629958 0.9937489 -0.088060044
1389479245.283 0.99191058 -0.093985915 0.0030960292 0.044922795 0.0031339377 0.045023389 0.99371016 -0.088703394
1399475471.6981 0.99157739 -0.094348758 0.0030564722 0.045268796 0.0031541679 0.045364197 0.99388564 -0.089358747
1409471698.1132 0.99124569 -0.09483096 0.003111064 0.045622267 0.0031769772 0.045739558 0.99388939 -0.090266436
1419467924.5283 0.99104702 -0.095103502 0.0031240638 0.046007246 0.0032469491 0.046093434 0.99370003 -0.090887427
1429464150.9434 0.99093163 -0.095526725 0.0031622369 0.046400078 0.003254734 0.046517111 0.99364829 -0.091540515
1439460377.3585 0.99107981 -0.096014872 0.0032512695 0.046857852 0.0032927431 0.046921749 0.99338967 -0.091904491
1449456603.7736 0.99102551 -0.096543804 0.0033505298 0.047216743 0.0034367638 0.047322411 0.99322569 -0.092169687
1459452830.1887 0.99112487 -0.097214013 0.0035061203 0.047624119 0.0035297424 0.047712952 0.99343836 -0.09242785
1469449056.6038 0.99112743 -0.09784314 0.00366027 0.047949877 0.0036460338 0.048054677 0.99362797 -0.093085408
1479445283.0189 0.99088621 -0.09841235 0.0037902973 0.048250191 0.0038104695 0.048329476 0.99374181 -0.093962602
1489441509.434 0.99088788 -0.098940849 0.0039014574 0.048557974 0.003928002 0.048662368 0.9935323 -0.09481886
1499437735.8491 0.99070364 -0.099251598 0.0040116813 0.048808549 0.0039868839 0.048907392 0.99358642 -0.095583498
1509433962.2642 0.99078053 -0.099829502 0.004096745 0.049088087 0.0040944903 0.049186591 0.99337441 -0.096356943
1519430188.6792 0.99086893 -0.10038692 0.0041842721 0.049332619 0.0041602384 0.049420424 0.99317276 -0.096862197
1529426415.0943 0.99072284 -0.10106376 0.0042166319 0.049621604 0.0042285603 0.049751066 0.99309957 -0.097295791
1539422641.5094 0.99078095 -0.10186384 0.0042637517 0.04992643 0.0042502871 0.050095152 0.9932884 -0.09782818
1549418867.9245 0.99056852 -0.10263501 0.0043281075 0.050199471 0.0043196753 0.050296459 0.9934147 -0.098574817
1559415094.3396 0.99048418 -0.10322365 0.0043539274 0.050462253 0.0043574441 0.050607108 0.99357367 -0.099193603
1569411320.7547 0.99040109 -0.10403882 0.0043991366 0.05073661 0.004367467 0.050888121 0.99348366 -0.099965885
1579407547.1698 0.9903546 -0.10451357 0.0044098175 0.051016945 0.0044151568 0.051168032 0.99313724 -0.1008025
1589403773.5849 0.99022985 -0.10501632 0.0044443514 0.05132328 0.004416205 0.051494271 0.99298275 -0.10149437
1599400000 0.9902361 -0.10550582 0.0044084825 0.051581621 0.0043927915 0.051749837 0.99263108 -0.10204712
1609396226.4151 0.99018788 -0.10621665 0.0044079041 0.051906805 0.0043759421 0.052081611 0.99246526 -0.10251085
1619392452.8302 0.99021208 -0.10675928 0.0044249073 0.052244697 0.0043960586 0.052403308 0.9924441 -0.10284153
1629388679.2453 0.98994023 -0.10750923 0.004436994 0.052597199 0.0043943431 0.052780367 0.99260151 -0.10346994
1639384905.6604 0.98973572 -0.10805439 0.0044594794 0.052936908 0.0043871845 0.053131696 0.99282753 -0.10426058
1649381132.0755 0.98960602 -0.10879433 0.004452318 0.053307042 0.0044220388 0.053506106 0.99280691 -0.10508025
1659377358.4906 0.98947948 -0.10953498 0.0044784173 0.053650707 0.0044776965 0.05387298 0.99282366 -0.10606736
1669373584.9057 0.98931611 -0.10990738 0.0044970335 0.054041043 0.0044488725 0.054189075 0.99249673 -0.1066317
1679369811.3208 0.98931915 -0.1106284 0.004571666 0.054385137 0.0044889273 0.054577097 0.99229991 -0.10723963
1689366037.7358 0.98930287 -0.11123791 0.0046122335 0.054783113 0.0045568161 0.054976687 0.99211717 -0.10751274
1699362264.1509 0.98950356 -0.11178811 0.0046513062 0.055168472 0.0046011368 0.05535572 0.99236834 -0.10794216
1709358490.566 0.98937231 -0.11241446 0.0046819923 0.055495497 0.0046484647 0.055742115 0.99234408 -0.10855116
1719354716.9811 0.9890672 -0.11307609 0.0047214478 0.055844784 0.0047207624 0.056070767 0.99242389 -0.10912916
1729350943.3962 0.9888646 -0.11363143 0.0047953557 0.056231234 0.004787609 0.056475732 0.99241972 -0.10997781
