!Keysight Technologies,N5222B,MY61253708,A.15.00.15
!Date: Wednesday, June 19, 2024 10:32:47
!Correction: S11(C  2-Port  ) 
!S21(C  2-Port  ) 
!S12(C  2-Port  ) 
!S22(C  2-Port  ) 
!S2P File: Measurements: S11, S21, S12, S22:
# Hz S  RI   R 50
10000000 0.99835896 -0.0031250119 0.00029660706 0.00027056457 -0.00015154071 3.3283126e-005 0.99843764 -0.0017984807
19996226.415094 0.99985647 -0.0023424923 -4.2056345e-005 0.00066043914 5.566515e-005 0.00062329718 0.99994427 -0.0023113787
29992452.830189 0.99959552 -0.0025422275 3.7761376e-005 0.00099515484 -2.5042566e-005 0.000947177 0.99935257 -0.002625674
39988679.245283 1.0000329 -0.0030595511 -3.6773432e-005 0.0013046374 -1.9117419e-005 0.0012993151 0.99973083 -0.0030953884
49984905.660377 1.0002301 -0.0036649108 5.998963e-005 0.0016433272 2.3438653e-005 0.0016314655 0.99994278 -0.0035464466
59981132.075472 1.0004438 -0.0045336783 -1.6006525e-006 0.0019435277 6.5452012e-005 0.0019558696 0.99990886 -0.0041414201
69977358.490566 1.0002546 -0.0051129386 4.5800512e-005 0.0022810716 -6.8308727e-006 0.0022775535 0.99974799 -0.004671853
79973584.90566 0.99993873 -0.0056584477 6.1018625e-005 0.0025900165 4.9405731e-005 0.0026153941 0.99937737 -0.0051672757
89969811.320755 0.99994451 -0.0057880282 -4.2313477e-006 0.0028908299 2.6931521e-006 0.0029103928 0.99965858 -0.0052955151
99966037.735849 1.000186 -0.0064530373 1.1727097e-005 0.0032363837 1.4394172e-005 0.003249587 0.99972963 -0.0060750246
109962264.15094 1.0001584 -0.0072948188 3.7424557e-005 0.0035293761 3.1076837e-005 0.003569304 0.99975735 -0.0068650395
119958490.56604 1.0002136 -0.0082160234 3.4328783e-005 0.0038869879 3.6358484e-005 0.0038943631 0.99978417 -0.0077010989
129954716.98113 1.0001779 -0.0092174709 4.4142595e-005 0.0041866689 3.906386e-005 0.0042189606 0.99976432 -0.0086175501
139950943.39623 1.0001471 -0.010035653 3.3250661e-005 0.0045332033 5.311679e-005 0.0045234733 0.99968743 -0.0093245432
149947169.81132 0.99999988 -0.010703593 5.4658158e-005 0.0048689647 5.6278426e-005 0.0048480025 0.99961644 -0.0099190176
159943396.22642 0.99992323 -0.011208117 5.8735721e-005 0.0051810285 5.3958967e-005 0.0052116308 0.99971056 -0.010353982
169939622.64151 0.99992138 -0.011554331 6.0052495e-005 0.0054966188 5.6441699e-005 0.0055310479 0.99975169 -0.010759138
179935849.0566 0.99995875 -0.011764318 7.239054e-005 0.0058292318 5.0249044e-005 0.0058412133 0.99963385 -0.011121064
189932075.4717 1.0000851 -0.012551099 9.3932496e-005 0.0061567612 7.1444316e-005 0.0061731134 0.99989212 -0.011621952
199928301.88679 1.0000277 -0.013370633 9.1425376e-005 0.0064597935 8.7375171e-005 0.0064874333 0.99979085 -0.012535572
209924528.30189 0.9997412 -0.013913631 8.9078676e-005 0.0067928485 0.00010009902 0.0068271211 0.99956971 -0.013231859
219920754.71698 0.99997067 -0.014662534 9.6244738e-005 0.0071247779 0.00010761246 0.0071085505 0.99942791 -0.013776988
229916981.13208 0.999717 -0.01553914 0.00011083088 0.0074516353 0.00011198688 0.0074746041 0.99940675 -0.014555156
239913207.54717 0.99954569 -0.016268309 0.00011766465 0.007747022 0.00013013699 0.0077841217 0.99937725 -0.015234943
249909433.96226 0.99956995 -0.016889334 0.00013500545 0.0080786915 0.00011850498 0.0080968766 0.99945503 -0.015795946
259905660.37736 0.9997164 -0.017419696 0.00013789441 0.0084329247 0.00017062156 0.0084311748 0.99971271 -0.01637432
269901886.79245 0.99983948 -0.018156916 0.00020711566 0.0087639103 0.00017613207 0.0087839905 0.99999094 -0.017047957
279898113.20755 0.99992746 -0.018697187 0.00012034061 0.0090705855 0.0001423615 0.0090586646 0.99991745 -0.017770603
289894339.62264 0.99991262 -0.019530207 0.00015293155 0.0093867611 0.00018345332 0.0093953488 0.99982047 -0.018601954
299890566.03774 0.99988818 -0.02001369 0.00017108349 0.0096858218 0.000218309 0.0097218323 0.99951702 -0.018931478
309886792.45283 0.99964464 -0.020537369 0.00022816332 0.010005906 0.00019743753 0.010070903 0.99947023 -0.019305013
319883018.86792 0.99959612 -0.021194845 0.00020363182 0.010367197 0.00024051126 0.010357491 0.99957776 -0.019853801
329879245.28302 0.999654 -0.021936178 0.0001962306 0.010687191 0.00025761779 0.010665659 0.99968708 -0.020622432
339875471.69811 0.99944448 -0.022583067 0.00023515697 0.010993385 0.00024714903 0.011010555 0.99964303 -0.021417767
349871698.11321 0.99965131 -0.023473203 0.00024898909 0.011275508 0.00027013733 0.011314052 0.99965167 -0.022387475
359867924.5283 0.99952924 -0.02432254 0.000280065 0.011630233 0.00028564408 0.01166706 0.99963033 -0.023320794
369864150.9434 0.99977058 -0.025025696 0.00030298205 0.011964932 0.00033982843 0.012010762 0.99966443 -0.024063557
379860377.35849 0.99962342 -0.025720969 0.00029919739 0.012304745 0.00031786878 0.012315053 0.99952459 -0.024727851
389856603.77358 0.99940282 -0.026283026 0.00031099049 0.012588234 0.00034829369 0.012631813 0.99952745 -0.025219113
399852830.18868 0.99930441 -0.02696836 0.00036724145 0.012925963 0.00031538354 0.012949348 0.99951053 -0.025693744
409849056.60377 0.99925297 -0.027346423 0.00033881227 0.013229861 0.00034717887 0.013291356 0.99945712 -0.026247134
419845283.01887 0.99913514 -0.027855992 0.0003857105 0.013556869 0.0003753216 0.013603217 0.99934769 -0.026765287
429841509.43396 0.99926567 -0.028467566 0.00039587077 0.01387821 0.00038809236 0.01393671 0.99952126 -0.027518034
439837735.84906 0.99904895 -0.029373929 0.00041724858 0.01420932 0.00039763027 0.014257457 0.99926412 -0.028628454
449833962.26415 0.99895465 -0.030128717 0.00041311141 0.014508202 0.00044294493 0.014544434 0.99860626 -0.029277503
459830188.67925 0.99878442 -0.030834347 0.0004222556 0.014817631 0.00042529451 0.014886675 0.99840236 -0.02997002
469826415.09434 0.99871284 -0.031541973 0.00044131745 0.015186539 0.0004529478 0.015227543 0.99807435 -0.030420274
479822641.50943 0.99859631 -0.032064974 0.00048272533 0.015480279 0.00049553823 0.015548503 0.99804819 -0.03072869
489818867.92453 0.99865252 -0.032551765 0.00048836553 0.015800076 0.00049545337 0.015872987 0.99835289 -0.031137943
499815094.33962 0.99876982 -0.033086628 0.00051442254 0.01612635 0.00051315734 0.016177757 0.99861348 -0.031615376
509811320.75472 0.99882191 -0.033457428 0.00054840866 0.016445482 0.0005613534 0.016483489 0.99880379 -0.032365941
519807547.16981 0.99883032 -0.03399381 0.00057756109 0.016765052 0.00057250122 0.016798994 0.99880135 -0.032971412
529803773.58491 0.99883223 -0.03448689 0.00055949437 0.017094884 0.00056401454 0.017131461 0.99854898 -0.033531934
539800000 0.9988749 -0.035151124 0.00060217292 0.0173782 0.00054242997 0.017480973 0.99842542 -0.03416878
549796226.41509 0.99867719 -0.036100686 0.0005885982 0.017718306 0.00061771041 0.017820824 0.99832696 -0.034543723
559792452.83019 0.99850571 -0.036655515 0.00060429983 0.018037159 0.00061235763 0.018119372 0.99830902 -0.034970015
569788679.24528 0.99845695 -0.037322521 0.00066749612 0.018368743 0.00065484457 0.018450681 0.99852824 -0.035641849
579784905.66038 0.99843115 -0.037938535 0.00071323477 0.018711751 0.00069211796 0.018783847 0.99871939 -0.036401778
589781132.07547 0.99856853 -0.038543731 0.00072102435 0.019021949 0.00070686266 0.019108748 0.99879843 -0.037230194
599777358.49057 0.99873406 -0.039239764 0.00073916838 0.019373037 0.00075355731 0.019410893 0.99886262 -0.038022518
609773584.90566 0.99891508 -0.039945662 0.00076536229 0.019681051 0.00072994677 0.019754395 0.99874324 -0.038835224
619769811.32075 0.99896061 -0.04062593 0.00075979996 0.019994432 0.00082506659 0.020030631 0.99881017 -0.039354801
629766037.73585 0.9988901 -0.041250765 0.00086414441 0.020331994 0.0008297069 0.020364419 0.99852097 -0.039872169
639762264.15094 0.99865526 -0.041854084 0.00085253897 0.020624509 0.00085606845 0.020648595 0.99847722 -0.040259615
649758490.56604 0.99855435 -0.042438298 0.00085577136 0.020928275 0.00084531447 0.020994287 0.99859303 -0.040685952
659754716.98113 0.99847412 -0.042928159 0.00085995067 0.021256331 0.00083099492 0.021286942 0.99865824 -0.041291595
669750943.39623 0.99835956 -0.043367416 0.00092933467 0.021571228 0.00086231716 0.021688154 0.99884164 -0.042074233
679747169.81132 0.99843019 -0.044183128 0.00094550266 0.021924799 0.00093015551 0.021972565 0.99881434 -0.043078497
689743396.22642 0.99858987 -0.045016974 0.00099940971 0.022243194 0.00096060615 0.022327241 0.99859905 -0.044013172
699739622.64151 0.99874592 -0.045810282 0.0010103323 0.02254911 0.0010319119 0.022626543 0.99859226 -0.044750333
709735849.0566 0.99871486 -0.046627127 0.0010274783 0.022847544 0.0010516392 0.022931734 0.99830729 -0.045401193
719732075.4717 0.99854046 -0.047400564 0.0010941499 0.023169957 0.0010703444 0.023245895 0.99843246 -0.045966536
729728301.88679 0.99849278 -0.047934026 0.0011148946 0.023490028 0.0011301311 0.023546189 0.99847138 -0.046412677
739724528.30189 0.99833995 -0.048513487 0.001130945 0.023814 0.0011093006 0.023887284 0.99861073 -0.047138274
749720754.71698 0.99827361 -0.048966333 0.0011774711 0.024103113 0.0011563818 0.024219494 0.99867624 -0.047820181
759716981.13208 0.99831998 -0.04953602 0.0011866493 0.024434842 0.0012017488 0.024546767 0.99863183 -0.048619658
769713207.54717 0.99823511 -0.050248474 0.0012132628 0.024742443 0.0012383051 0.024838444 0.998344 -0.049272805
779709433.96226 0.99841791 -0.050873723 0.0012233185 0.025076581 0.0012399878 0.025157867 0.99803865 -0.049991045
789705660.37736 0.99822295 -0.051838875 0.0012812205 0.025383154 0.0012564948 0.025445435 0.99782515 -0.050701737
799701886.79245 0.99820447 -0.052585572 0.0013329545 0.025656294 0.0012909314 0.025779927 0.99762928 -0.051274747
809698113.20755 0.99807894 -0.053158477 0.0013408461 0.026006041 0.0013423432 0.026082095 0.99766153 -0.051682934
819694339.62264 0.99791998 -0.053797543 0.0013739765 0.026298475 0.0013722666 0.026405828 0.99781072 -0.052274376
829690566.03774 0.99793178 -0.0544191 0.0013959743 0.026621871 0.0014028503 0.026732132 0.99798226 -0.05314815
839686792.45283 0.99794769 -0.054776132 0.0014160378 0.026945539 0.0014417204 0.027041042 0.99797279 -0.053904504
849683018.86792 0.99806923 -0.055382535 0.001417537 0.027268987 0.0014470243 0.027345985 0.99786866 -0.054650545
859679245.28302 0.9981091 -0.056086123 0.0015087184 0.027580045 0.0014794888 0.027671224 0.99754 -0.055241287
869675471.69811 0.99797547 -0.056814998 0.0015533892 0.027884029 0.0015134607 0.027973527 0.99716294 -0.055745482
879671698.11321 0.99791896 -0.057477418 0.0015751871 0.028188298 0.0015642904 0.0282938 0.99713707 -0.05609354
889667924.5283 0.99774075 -0.058238655 0.0015861019 0.028474856 0.0015787594 0.02859555 0.99703455 -0.056603551
899664150.9434 0.99751979 -0.058914274 0.0015833732 0.028791757 0.0016328702 0.028932279 0.99707294 -0.057167411
909660377.35849 0.99749941 -0.059598938 0.0015973118 0.029097892 0.00161521 0.029233839 0.99722803 -0.058049977
919656603.77358 0.9975757 -0.060270742 0.0016328301 0.029422909 0.0016635666 0.029541209 0.99725181 -0.058851972
929652830.18868 0.99763942 -0.060986072 0.0016755555 0.029722787 0.0016659563 0.02982606 0.99709702 -0.059687436
939649056.60377 0.99777061 -0.061513126 0.0016869428 0.030045483 0.0016796989 0.03014601 0.9969207 -0.060364872
949645283.01887 0.99772394 -0.062340911 0.0016672327 0.030380534 0.0017174364 0.030483466 0.99670333 -0.060893457
959641509.43396 0.9976294 -0.063005179 0.0016886285 0.030722702 0.0017316695 0.030828418 0.99666804 -0.061347902
969637735.84906 0.99763715 -0.063755482 0.0017421516 0.031059548 0.0017597666 0.031159893 0.99662936 -0.061639547
979633962.26415 0.99748349 -0.064473897 0.0018300139 0.031353761 0.0017926241 0.03146885 0.99667472 -0.062269986
989630188.67925 0.99746138 -0.064906597 0.0018621618 0.031650893 0.0018443791 0.031814683 0.996925 -0.062841266
999626415.09434 0.99753404 -0.065513194 0.0018607089 0.03196799 0.001886474 0.032116629 0.99682212 -0.063728482
1009622641.5094 0.99762732 -0.066209272 0.001888202 0.032311607 0.0019407817 0.032459941 0.99673229 -0.064497665
1019618867.9245 0.99768859 -0.066888168 0.0019367109 0.03265547 0.0019960413 0.032763436 0.99646401 -0.065305263
1029615094.3396 0.99770588 -0.067891389 0.0019978769 0.032935545 0.0020218566 0.033026472 0.9961046 -0.065855384
1039611320.7547 0.99774802 -0.068699688 0.0020440342 0.033232842 0.0020603603 0.033352297 0.99608696 -0.066464484
1049607547.1698 0.99766594 -0.06951683 0.0020745941 0.03352616 0.002060995 0.033651032 0.99607903 -0.067088023
1059603773.5849 0.99753672 -0.070340812 0.0021040291 0.033799153 0.0021170266 0.033944786 0.99615496 -0.06756261
1069600000 0.99725139 -0.070844859 0.0020978376 0.034094065 0.002107488 0.034277376 0.9963392 -0.06831637
1079596226.4151 0.99719352 -0.071527846 0.0020906799 0.034444075 0.0021255813 0.034569737 0.99632269 -0.069002874
1089592452.8302 0.99724561 -0.072137386 0.0021311259 0.034768555 0.0021684123 0.0348849 0.99629217 -0.069841653
1099588679.2453 0.99730372 -0.072713107 0.0021377485 0.035091035 0.0021645091 0.035219751 0.99597216 -0.070385277
1109584905.6604 0.99746871 -0.073564723 0.0021828841 0.035418682 0.0021999637 0.035538271 0.99571437 -0.070914745
1119581132.0755 0.99737698 -0.074540675 0.002170518 0.035768837 0.0022044769 0.035888102 0.99556237 -0.071342543
1129577358.4906 0.9972769 -0.075288683 0.0022020414 0.036086828 0.0022449661 0.036256004 0.99549603 -0.071761996
1139573584.9057 0.99698234 -0.076193094 0.002263288 0.036388233 0.0022991318 0.036559638 0.99555403 -0.072427958
1149569811.3208 0.99692112 -0.077059001 0.0023201499 0.036735352 0.0023580629 0.036884956 0.99573368 -0.073185943
1159566037.7358 0.99672055 -0.077715755 0.0023494354 0.03704527 0.0024113227 0.03715127 0.9958421 -0.074159324
1169562264.1509 0.99652582 -0.078285933 0.002353074 0.037339307 0.0023807306 0.037509128 0.99565065 -0.074992269
1179558490.566 0.99656993 -0.079009876 0.0023457876 0.037687674 0.0024331422 0.03786229 0.99554342 -0.075687543
1189554716.9811 0.99651736 -0.079705417 0.0023839241 0.038020723 0.0024904739 0.038197052 0.99523348 -0.076147228
1199550943.3962 0.9965111 -0.080547124 0.0024231542 0.038357906 0.0025173146 0.038519446 0.99504733 -0.076561213
1209547169.8113 0.99637938 -0.08141771 0.0024595987 0.038704563 0.0025426531 0.038798757 0.99502194 -0.076876298
1219543396.2264 0.99619746 -0.082192898 0.0025076997 0.039075505 0.0026070327 0.039178848 0.99502456 -0.07726866
1229539622.6415 0.99585396 -0.083143145 0.0025967266 0.039338205 0.0026782118 0.039516222 0.99523199 -0.077973098
1239535849.0566 0.99573916 -0.083738476 0.002666438 0.039674446 0.0027432982 0.039800867 0.99531239 -0.078933239
1249532075.4717 0.99536681 -0.084417738 0.0026959528 0.039953776 0.0028280863 0.040128667 0.99522215 -0.07973095
1259528301.8868 0.99518478 -0.084852666 0.002742175 0.040292688 0.0028484352 0.040390473 0.99493444 -0.080569446
1269524528.3019 0.99504137 -0.085573226 0.0028057182 0.04061038 0.0029228982 0.040696427 0.9946481 -0.081241339
1279520754.717 0.99473429 -0.086307801 0.0028595964 0.040884782 0.0029654137 0.040969323 0.99444824 -0.081727952
1289516981.1321 0.99463147 -0.087085605 0.002867898 0.041165635 0.0029751752 0.041228514 0.99450076 -0.082143247
1299513207.5472 0.99431276 -0.087976635 0.0028802957 0.04145021 0.0029886365 0.041576095 0.99468696 -0.082523674
1309509433.9623 0.99388772 -0.088575736 0.0028851461 0.041785792 0.002982269 0.041875463 0.99475819 -0.083254412
1319505660.3774 0.99346673 -0.089313224 0.0028717583 0.042107794 0.0029989518 0.042187978 0.99480778 -0.083923325
1329501886.7925 0.9931885 -0.090006173 0.0029116627 0.042430565 0.0030347612 0.042484276 0.99489594 -0.084853381
1339498113.2075 0.9930535 -0.090541095 0.0029801009 0.042726532 0.0030284822 0.042804476 0.99438071 -0.085527241
1349494339.6226 0.99284738 -0.091109335 0.0029272176 0.043057818 0.0030204928 0.043147966 0.99406457 -0.086090811
1359490566.0377 0.9927187 -0.091610491 0.0028988104 0.043423161 0.0030076429 0.043468121 0.99392664 -0.086617798
1369486792.4528 0.99253559 -0.092185259 0.0029126694 0.043775767 0.0030312166 0.043800935 0.99375689 -0.087097973
1379483018.8679 0.99228096 -0.092759661 0.0029313087 0.04411206 0.0030084329 0.044145495 0.99373186 -0.087461926
1389479245.283 0.99202073 -0.093294054 0.0029969178 0.044490136 0.0030812286 0.04453785 0.99374235 -0.088130862
1399475471.6981 0.99156964 -0.093642384 0.003000604 0.0448245 0.0030757878 0.044869702 0.9939394 -0.088747114
1409471698.1132 0.99123031 -0.09405335 0.0030741738 0.045191832 0.0030936396 0.045229506 0.99397606 -0.089608319
1419467924.5283 0.99106574 -0.094310403 0.0030668359 0.04556505 0.0030968534 0.045588538 0.99376917 -0.090304375
1429464150.9434 0.9909656 -0.094806165 0.0031049121 0.045973003 0.0031378139 0.045990374 0.99366671 -0.09084183
1439460377.3585 0.99113619 -0.095172226 0.0031642672 0.046404213 0.0031996435 0.046416968 0.99340516 -0.091173828
1449456603.7736 0.99117368 -0.095812842 0.0032800008 0.046797916 0.0033282004 0.046801865 0.99338573 -0.091507584
1459452830.1887 0.9911592 -0.096501112 0.0033945162 0.047174685 0.0034441259 0.047209572 0.99352127 -0.091799259
1469449056.6038 0.99117887 -0.097209096 0.0035758698 0.047489785 0.0035811421 0.047564909 0.99369085 -0.092457682
1479445283.0189 0.9909814 -0.097706318 0.0037079889 0.04779138 0.0037070722 0.047848836 0.99377453 -0.093353406
1489441509.434 0.99096566 -0.098316818 0.0038090907 0.048080031 0.0038235486 0.048137274 0.99370658 -0.094258398
1499437735.8491 0.99070853 -0.098583281 0.003922224 0.048373826 0.0039584618 0.048387188 0.99352753 -0.095062107
1509433962.2642 0.99075776 -0.099129289 0.0040171761 0.048610318 0.0040216567 0.048684668 0.99339128 -0.095753625
1519430188.6792 0.99088347 -0.099641532 0.0040930845 0.048872069 0.0040765237 0.048939422 0.99329084 -0.09634769
1529426415.0943 0.99077618 -0.10028222 0.0041256584 0.049158134 0.0040902533 0.049233891 0.99317491 -0.096677333
1539422641.5094 0.99084473 -0.10107936 0.004199245 0.049471244 0.0041682562 0.049486373 0.99325705 -0.09724395
1549418867.9245 0.99064922 -0.10186131 0.0042481394 0.04972896 0.0042009074 0.049788013 0.99351299 -0.097908586
1559415094.3396 0.99060285 -0.10256004 0.004261598 0.049994841 0.0042559467 0.050079606 0.99362117 -0.098583698
1569411320.7547 0.99038237 -0.10338168 0.0043091569 0.050247688 0.0042814007 0.050316073 0.99354094 -0.099319115
1579407547.1698 0.9903999 -0.10382567 0.0043157497 0.050515361 0.0042802193 0.050631542 0.9932456 -0.10020883
1589403773.5849 0.99033761 -0.10439208 0.0043304916 0.050797969 0.004324317 0.050903626 0.99301791 -0.10090312
1599400000 0.99027181 -0.10487172 0.0043168087 0.051074091 0.0042929845 0.051212851 0.99259067 -0.10139465
1609396226.4151 0.9902119 -0.10554686 0.0043297475 0.051412448 0.0043011429 0.051515736 0.99247289 -0.10189879
1619392452.8302 0.990219 -0.10604078 0.0043604579 0.051738743 0.0042897966 0.051849224 0.99242693 -0.10230082
1629388679.2453 0.98996532 -0.10677195 0.0043534655 0.052076109 0.0042712539 0.05221251 0.9926492 -0.10275397
1639384905.6604 0.98978984 -0.1073795 0.0043299263 0.052440003 0.0042845826 0.052596908 0.99287724 -0.10363165
1649381132.0755 0.9896 -0.10806251 0.0043845382 0.052797969 0.0043529421 0.052914351 0.99287438 -0.10459191
1659377358.4906 0.98945171 -0.10884586 0.0044129994 0.053109206 0.0043444466 0.053271994 0.99277139 -0.1054433
1669373584.9057 0.98939824 -0.1092654 0.0043833591 0.053517375 0.0043803845 0.053664222 0.99254698 -0.10612366
1679369811.3208 0.98938346 -0.10988939 0.0044510188 0.053866681 0.0044020517 0.054008186 0.9923526 -0.10659784
1689366037.7358 0.98936343 -0.11060169 0.0045035165 0.054266259 0.0044448338 0.054406412 0.99214649 -0.10682079
1699362264.1509 0.98952734 -0.11111557 0.0045320978 0.054554291 0.0044716215 0.054747459 0.99239814 -0.10733777
1709358490.566 0.98943049 -0.11173831 0.0045717089 0.054920405 0.0045577483 0.055113964 0.99241704 -0.10788894
1719354716.9811 0.98906362 -0.11232945 0.0046140589 0.055319451 0.004568357 0.055463351 0.99246359 -0.10857117
