!Keysight Technologies,N5222B,MY61253708,A.15.00.15
!Date: Wednesday, June 19, 2024 09:07:08
!Correction: S11(C  2-Port  ) 
!S21(C  2-Port  ) 
!S12(C  2-Port  ) 
!S22(C  2-Port  ) 
!S2P File: Measurements: S11, S21, S12, S22:
# Hz S  RI   R 50
10000000 0.99880201 -0.0024675131 6.8347857e-005 0.00053815707 0.00013680612 0.00035154392 0.99859792 -0.0011696815
19996226.415094 0.9990716 -0.0019540787 0.0001752119 0.00068771024 4.1830936e-006 0.00066213653 0.99920499 -0.0022757947
29992452.830189 0.99977773 -0.0024927557 6.5814704e-005 0.0010977472 3.6235753e-005 0.0010743204 0.99959999 -0.0026828945
39988679.245283 1.0001012 -0.0030594766 -1.373775e-005 0.0014062512 3.2991302e-005 0.0014013943 0.99968404 -0.0032181889
49984905.660377 1.0001812 -0.0038399696 -2.5395595e-005 0.0017265291 -3.3715041e-006 0.0017266928 0.99977863 -0.0038250685
59981132.075472 1.0003806 -0.0046642721 5.5329001e-005 0.0021009785 5.6969002e-006 0.002107284 0.99973971 -0.0043453872
69977358.490566 1.0000755 -0.0052424055 -5.7473844e-006 0.0024367739 0.00010298244 0.0024459735 0.99960601 -0.0048154537
79973584.90566 0.99986637 -0.0057769418 -2.2485852e-005 0.0028115471 3.231049e-005 0.0027970544 0.9993124 -0.0053426921
89969811.320755 0.99988794 -0.0059839189 2.0857551e-005 0.0031182403 2.0649168e-005 0.0031644953 0.99955463 -0.0056425333
99966037.735849 1.0000926 -0.0067492723 3.8778351e-005 0.0034694737 2.8675946e-005 0.0034916063 0.99955338 -0.0064627379
109962264.15094 1.0001513 -0.0076450258 3.7878403e-005 0.0038347824 4.0354731e-005 0.0038563004 0.99961787 -0.0073336363
119958490.56604 1.0001646 -0.0087038875 6.3277781e-005 0.0041627223 4.1524181e-005 0.0042043878 0.99959993 -0.0082364976
129954716.98113 1.0001274 -0.0097409189 4.709838e-005 0.0045060297 5.4982491e-005 0.0045613591 0.99962139 -0.0091913342
139950943.39623 1.0000345 -0.010577405 4.3128603e-005 0.0048707826 5.2083356e-005 0.0048762136 0.99953133 -0.0099812485
149947169.81132 0.99988437 -0.011258155 6.8094349e-005 0.0052138073 4.9018068e-005 0.0052507771 0.99947596 -0.01059401
159943396.22642 0.99987292 -0.011749327 5.4722885e-005 0.0055638663 6.352528e-005 0.0056108735 0.99953151 -0.011056244
169939622.64151 0.99986315 -0.01214648 5.7633792e-005 0.0059158015 6.0820312e-005 0.0059744893 0.99962538 -0.011497647
179935849.0566 0.99996483 -0.012459546 8.5303327e-005 0.0062696803 0.00010663748 0.006310116 0.99951565 -0.011879146
189932075.4717 1.0000527 -0.013196468 0.00010171533 0.0066249855 0.00011584419 0.0066677574 0.99971288 -0.012506336
199928301.88679 1.0000033 -0.014117151 7.6924451e-005 0.006961213 8.6036045e-005 0.0070008929 0.99959826 -0.013421595
209924528.30189 0.99969101 -0.01481013 0.00011582894 0.0073149521 0.00012447545 0.0073445183 0.99938726 -0.014145121
219920754.71698 0.99973547 -0.015717924 0.0001374085 0.0076645408 0.00015202397 0.0076941401 0.99920273 -0.014877707
229916981.13208 0.99940008 -0.016618669 0.00013065478 0.0079893265 0.00012818049 0.0080313766 0.99911845 -0.015666783
239913207.54717 0.99933642 -0.017244808 0.00015484633 0.0083189933 0.00014544681 0.0084031913 0.99912405 -0.016389411
249909433.96226 0.99940991 -0.017903984 0.0001593479 0.0086815394 0.00016144197 0.0087511232 0.99920988 -0.01706484
259905660.37736 0.99953365 -0.018509477 0.00020384323 0.009061709 0.00017122598 0.0090874033 0.99936283 -0.017669439
269901886.79245 0.99961752 -0.019148588 0.00016602897 0.0094032157 0.00014874595 0.0094920397 0.99984223 -0.018349573
279898113.20755 0.99982798 -0.019845888 0.00018615206 0.0097611807 0.00021386519 0.0097496435 0.9996199 -0.019100726
289894339.62264 0.99987388 -0.020702213 0.00023225741 0.010062096 0.00021068146 0.010142185 0.99945211 -0.01994136
299890566.03774 0.99955291 -0.021188796 0.00016562012 0.010411122 0.00025959034 0.01051743 0.99923986 -0.020445079
309886792.45283 0.99940711 -0.021820679 0.00027195353 0.010790214 0.00027558801 0.010815043 0.9990955 -0.02083727
319883018.86792 0.9993844 -0.022337198 0.00024052849 0.011168856 0.00023849402 0.011218448 0.99913448 -0.021381557
329879245.28302 0.99928629 -0.023146451 0.00026406953 0.011462314 0.00032676663 0.011530492 0.99922514 -0.022117525
339875471.69811 0.99918538 -0.023932442 0.00028314732 0.011809661 0.00031230622 0.011931888 0.99918205 -0.022924915
349871698.11321 0.99944842 -0.024740696 0.0003208355 0.012168819 0.00030183606 0.012284582 0.99927175 -0.023790419
359867924.5283 0.99932933 -0.025562614 0.00036928803 0.012465451 0.00031738775 0.012605833 0.9992317 -0.024900407
369864150.9434 0.99955785 -0.026468188 0.00038319547 0.012854469 0.00032366579 0.012899747 0.99920869 -0.025523484
379860377.35849 0.99926364 -0.027106315 0.00036558579 0.013211943 0.00037352298 0.013233409 0.99905753 -0.026272431
389856603.77358 0.99930501 -0.027774423 0.00039248215 0.013555452 0.00038187439 0.01361423 0.99912059 -0.026744187
399852830.18868 0.99909174 -0.028268516 0.00038406206 0.01382752 0.0004255618 0.013970701 0.99914765 -0.027214587
409849056.60377 0.99910456 -0.028696312 0.00040723887 0.014215242 0.00042177885 0.014300984 0.99918538 -0.027677346
419845283.01887 0.99905753 -0.029179901 0.00045139156 0.014575371 0.00044920016 0.014672977 0.99932396 -0.028221428
429841509.43396 0.99910736 -0.029877275 0.00046931673 0.014931148 0.00046357792 0.01503481 0.99952686 -0.029039413
439837735.84906 0.99901587 -0.030879468 0.00046527141 0.015238673 0.00048814574 0.015376618 0.99927211 -0.030024529
449833962.26415 0.99899405 -0.031691879 0.00047995942 0.015584428 0.00047661457 0.015706435 0.99892569 -0.030846626
459830188.67925 0.99887699 -0.032447904 0.0005017519 0.015925935 0.00052004959 0.016018527 0.99870145 -0.031596184
469826415.09434 0.99882942 -0.033300012 0.00053202966 0.016330628 0.00056387065 0.016406771 0.99849218 -0.032290339
479822641.50943 0.99864697 -0.033875674 0.00055828714 0.016659277 0.00055230642 0.016790247 0.99848026 -0.032714993
489818867.92453 0.99878222 -0.034415543 0.00057817576 0.016960597 0.00057563977 0.017107757 0.9989062 -0.033313394
499815094.33962 0.99897432 -0.035081476 0.00061206985 0.017336866 0.00063637737 0.017452359 0.99915105 -0.033948928
509811320.75472 0.99896485 -0.035519943 0.00061722693 0.017648045 0.00066435523 0.017785966 0.99931473 -0.034844145
519807547.16981 0.99893439 -0.036122143 0.0006576539 0.018041098 0.00058983266 0.018167235 0.99925435 -0.035601854
529803773.58491 0.99889827 -0.036728293 0.00068754144 0.018333102 0.00065556448 0.018507913 0.99897301 -0.036285043
539800000 0.9988758 -0.03743875 0.00069041527 0.018739277 0.00068330113 0.018844327 0.99877018 -0.037038729
549796226.41509 0.99871635 -0.038295388 0.00076293852 0.019068528 0.00072647445 0.019196911 0.99863327 -0.037385792
559792452.83019 0.99845219 -0.039117008 0.00079884846 0.019434378 0.00076335575 0.019543532 0.99848759 -0.037985235
569788679.24528 0.99832094 -0.03981331 0.00078851357 0.019782189 0.00078458013 0.01990539 0.99858534 -0.03869909
579784905.66038 0.99836874 -0.040401541 0.00078219362 0.020110203 0.00082120986 0.020237206 0.99868631 -0.039508685
589781132.07547 0.99839425 -0.041052699 0.00085801352 0.020470375 0.00083805807 0.020618899 0.99885011 -0.040532678
599777358.49057 0.99865705 -0.041710734 0.0008301679 0.020792162 0.00086692441 0.020950757 0.99889356 -0.04129988
609773584.90566 0.99870998 -0.042469867 0.00090609293 0.021158082 0.00094024511 0.021333331 0.9986769 -0.042176284
619769811.32075 0.99878645 -0.043243825 0.00095140468 0.021500368 0.00099292351 0.021643916 0.99858797 -0.042676091
629766037.73585 0.99863291 -0.04394123 0.00098008849 0.021806326 0.0010215817 0.021948297 0.99836808 -0.043229342
639762264.15094 0.99839842 -0.044526249 0.0010094168 0.022112265 0.0010387122 0.022257706 0.99826998 -0.043677673
649758490.56604 0.99821049 -0.04521659 0.0010184431 0.022493223 0.0010553389 0.022640044 0.99829364 -0.04410772
659754716.98113 0.99806142 -0.045654655 0.0010311967 0.022812534 0.0010310533 0.023012381 0.99834728 -0.044691294
669750943.39623 0.99810827 -0.046088099 0.0010365071 0.023197394 0.0010602605 0.023372108 0.99845892 -0.045554608
679747169.81132 0.99814886 -0.046932261 0.0011162186 0.02355016 0.001092255 0.023734197 0.99833828 -0.046535715
689743396.22642 0.99829221 -0.047816128 0.0011453694 0.023886397 0.0011506593 0.024100965 0.99816269 -0.047519326
699739622.64151 0.99839979 -0.048589945 0.0012027482 0.024233297 0.0011800574 0.024403697 0.99811739 -0.048167557
709735849.0566 0.99841213 -0.049480692 0.0012054333 0.02455773 0.0012369255 0.02473516 0.99779958 -0.048855364
719732075.4717 0.99818206 -0.050241292 0.0012984467 0.024916666 0.001267598 0.025062073 0.99788779 -0.049441099
729728301.88679 0.99805903 -0.050707489 0.0012565404 0.025237061 0.0013174228 0.025410801 0.9979983 -0.049776047
739724528.30189 0.99796396 -0.051360846 0.0013166773 0.025579238 0.0013582953 0.025755664 0.9981575 -0.050527275
749720754.71698 0.9979226 -0.052026436 0.0013687187 0.025879676 0.0013899244 0.026074737 0.99821633 -0.051318124
759716981.13208 0.99796748 -0.052508444 0.001394622 0.026261456 0.0013972428 0.02642847 0.9982115 -0.052081794
769713207.54717 0.99795103 -0.053259164 0.0014493652 0.026563417 0.0014489666 0.026766492 0.99788374 -0.052825481
779709433.96226 0.99800658 -0.05387862 0.0014639653 0.02693326 0.0014756822 0.027135093 0.99761766 -0.053457387
789705660.37736 0.99793005 -0.054827064 0.0015241299 0.027265221 0.0015506232 0.027432956 0.99738693 -0.054260999
799701886.79245 0.99788105 -0.055675715 0.0015880652 0.027559288 0.0015521869 0.027784538 0.99724275 -0.054842293
809698113.20755 0.99777454 -0.056369767 0.0015621218 0.027933169 0.0015858263 0.028145362 0.99735659 -0.05530107
819694339.62264 0.997666 -0.056952924 0.0015766532 0.028258637 0.0015868116 0.028472116 0.99743307 -0.05592826
829690566.03774 0.99762082 -0.057603031 0.0016659629 0.028583977 0.0016392479 0.02882825 0.99772847 -0.056871772
839686792.45283 0.99763691 -0.058030754 0.0016263137 0.028940771 0.0016872557 0.02911927 0.99779105 -0.057733208
849683018.86792 0.99783927 -0.058714047 0.0016643272 0.029261131 0.001698415 0.029513713 0.99765027 -0.058451638
859679245.28302 0.99780309 -0.059450805 0.0017678011 0.029625798 0.0017673569 0.029828636 0.99732852 -0.059161991
869675471.69811 0.9977349 -0.060230523 0.0017856304 0.029961005 0.0017850446 0.030173896 0.99698687 -0.059698522
879671698.11321 0.99758369 -0.060987949 0.0018537871 0.030279066 0.0018194407 0.030512074 0.99698269 -0.060113125
889667924.5283 0.99749815 -0.061773717 0.0018497761 0.030574832 0.0018887715 0.030861909 0.99690348 -0.060591608
899664150.9434 0.99725795 -0.062421083 0.0019017197 0.030932225 0.0019069007 0.031166505 0.99691212 -0.061262369
909660377.35849 0.99719989 -0.063118428 0.0019653374 0.03125051 0.0019508805 0.031518798 0.99702394 -0.062177002
919656603.77358 0.99727297 -0.06388171 0.0019581555 0.03159577 0.0019747852 0.031867392 0.99704951 -0.06315583
929652830.18868 0.99731946 -0.064679116 0.0019620424 0.031902805 0.0019961167 0.032200266 0.99687618 -0.064063877
939649056.60377 0.99746835 -0.065278947 0.0020028921 0.032242242 0.0019808086 0.032512095 0.99670053 -0.064821333
949645283.01887 0.99750143 -0.066104084 0.0019994737 0.032620024 0.002029493 0.032892831 0.99647659 -0.065333098
959641509.43396 0.99732339 -0.06681478 0.0020374944 0.03299924 0.0020889146 0.033251405 0.99638438 -0.065916151
969637735.84906 0.99724483 -0.067554951 0.0020924332 0.033361115 0.0021120301 0.03362108 0.99643099 -0.06627965
979633962.26415 0.99711031 -0.068268418 0.0021525584 0.033649728 0.0021669588 0.033953916 0.99651635 -0.066940725
989630188.67925 0.99711519 -0.068807155 0.0021899045 0.033997312 0.0021954458 0.034295533 0.99663359 -0.067550093
999626415.09434 0.99714893 -0.069390088 0.0022039283 0.034340605 0.0022418071 0.034628861 0.99649763 -0.068404704
1009622641.5094 0.99708158 -0.070144176 0.0022360543 0.034671135 0.0022856295 0.034980182 0.99636233 -0.069350466
1019618867.9245 0.9972735 -0.071051195 0.0023140311 0.035044085 0.0023640348 0.035332337 0.99616981 -0.070191413
1029615094.3396 0.99723411 -0.07203123 0.0023677852 0.035370257 0.002405908 0.035640728 0.99570918 -0.070770115
1039611320.7547 0.9972344 -0.072914898 0.0024151225 0.035658747 0.0024534911 0.035954282 0.99566489 -0.071421266
1049607547.1698 0.9970715 -0.073843747 0.0024655487 0.035973687 0.0024849605 0.03629275 0.99563485 -0.072059244
1059603773.5849 0.99695581 -0.074613094 0.0024637766 0.036288705 0.0025175121 0.036605231 0.99562728 -0.072567523
1069600000 0.99676454 -0.075177997 0.0024727508 0.036626916 0.0025222823 0.036946326 0.99580193 -0.073358774
1079596226.4151 0.99667805 -0.075828835 0.0024900408 0.036972556 0.0025579715 0.037278831 0.99579751 -0.07410863
1089592452.8302 0.9967401 -0.076418281 0.0025593881 0.037320264 0.0026019122 0.037618108 0.99566621 -0.074885219
1099588679.2453 0.9967289 -0.077210248 0.0025556814 0.037637513 0.0026401468 0.037934788 0.99532139 -0.075534195
1109584905.6604 0.99686658 -0.077975795 0.0025678175 0.038008854 0.0026489645 0.038343553 0.99511135 -0.076097563
1119581132.0755 0.99680281 -0.079073556 0.0026112571 0.038364537 0.0026605995 0.038687371 0.99484593 -0.076506704
1129577358.4906 0.99656498 -0.079822421 0.0026539192 0.038745359 0.0027294513 0.039057616 0.99480796 -0.076990306
1139573584.9057 0.99630976 -0.080759913 0.0026795967 0.039112832 0.0027969927 0.039401252 0.99481678 -0.077698976
1149569811.3208 0.99616534 -0.081599429 0.0027652392 0.039421037 0.0028435832 0.039743878 0.99497801 -0.078469284
1159566037.7358 0.99599177 -0.082255512 0.0028104261 0.039738413 0.0028794967 0.040099315 0.99509621 -0.079548806
1169562264.1509 0.99583602 -0.082971364 0.0028308928 0.040071674 0.0029066242 0.040427577 0.9949398 -0.080338627
1179558490.566 0.99572587 -0.08369337 0.0028156191 0.040431492 0.0029158692 0.040809698 0.99474931 -0.081028417
1189554716.9811 0.9957844 -0.084478915 0.0028593913 0.040824492 0.0029924046 0.041169923 0.99447477 -0.081540763
1199550943.3962 0.99567771 -0.085353315 0.0029250607 0.041189961 0.0030546542 0.041511867 0.99428469 -0.082004547
1209547169.8113 0.99552667 -0.086280644 0.0029633939 0.041501809 0.0030568261 0.041795813 0.99419415 -0.082338095
1219543396.2264 0.99529785 -0.087030843 0.003048378 0.041901335 0.0031384351 0.042199545 0.99421006 -0.082726672
1229539622.6415 0.99498963 -0.087871939 0.0031249132 0.042209338 0.0032061357 0.042548016 0.99451059 -0.083504736
1239535849.0566 0.99475288 -0.088478625 0.003177355 0.042548493 0.0033030864 0.04289367 0.99449402 -0.084456205
1249532075.4717 0.99441957 -0.089304626 0.0032225749 0.042917054 0.0033372017 0.043215469 0.99435806 -0.085312918
1259528301.8868 0.99423182 -0.089805275 0.0032761302 0.043224476 0.0034136325 0.043511555 0.99404871 -0.086251855
1269524528.3019 0.99410105 -0.090533823 0.0033347812 0.043573052 0.0035150982 0.043863684 0.99387586 -0.086941928
1279520754.717 0.99372113 -0.091354474 0.0033942922 0.043832555 0.0035566569 0.044121522 0.99354905 -0.087470092
1289516981.1321 0.99360609 -0.092187434 0.0034200158 0.044158578 0.0035430519 0.044435907 0.99359655 -0.087919325
1299513207.5472 0.99315685 -0.093015641 0.0034498312 0.044484854 0.0035516266 0.044771798 0.9937005 -0.088346869
1309509433.9623 0.99279332 -0.093738854 0.00343775 0.044808231 0.0036012195 0.045098018 0.99380016 -0.089018211
1319505660.3774 0.99236345 -0.094453216 0.003451434 0.045144409 0.0036200592 0.045424692 0.99384069 -0.089735061
1329501886.7925 0.99205637 -0.095108867 0.0034962166 0.045487858 0.0036434159 0.04576391 0.99388689 -0.090691686
1339498113.2075 0.99178922 -0.095689058 0.0035463339 0.045834322 0.0036455356 0.046074267 0.99348772 -0.091377735
1349494339.6226 0.99153256 -0.096262209 0.003545952 0.046168685 0.0036144434 0.04644179 0.99295634 -0.091984473
1359490566.0377 0.99143589 -0.096909583 0.0035293493 0.046553101 0.0036654584 0.046824459 0.99285626 -0.092560023
1369486792.4528 0.99124503 -0.097437948 0.0035559908 0.04695116 0.0036715325 0.047178932 0.99266124 -0.093070328
1379483018.8679 0.99096745 -0.097997755 0.0035572522 0.047295906 0.0036693546 0.047538806 0.99269593 -0.093465976
1389479245.283 0.99056697 -0.098503947 0.0036453512 0.047683354 0.0037339553 0.047949404 0.99262714 -0.09409532
1399475471.6981 0.99015963 -0.098894715 0.0036648512 0.048068691 0.0037200917 0.048292745 0.99288535 -0.094833046
1409471698.1132 0.98985541 -0.099305585 0.0037079642 0.048462749 0.0037566817 0.048721295 0.99284631 -0.095713124
1419467924.5283 0.98961806 -0.099605531 0.0037173498 0.048849326 0.0038156649 0.049116254 0.99266541 -0.096346855
1429464150.9434 0.98950392 -0.10002366 0.0037370492 0.049286641 0.003886966 0.049505644 0.99251646 -0.096923143
1439460377.3585 0.98961288 -0.10049191 0.0038640713 0.049716681 0.0039233649 0.049956046 0.99226612 -0.097301885
1449456603.7736 0.98968869 -0.10109696 0.0039969599 0.050147567 0.0040168865 0.050370775 0.99208546 -0.097708061
1459452830.1887 0.98972631 -0.10179624 0.0041520149 0.050522715 0.0041408017 0.050782666 0.99223059 -0.097966313
1469449056.6038 0.98967934 -0.1026198 0.0043068221 0.050870776 0.0043159379 0.051177267 0.99249494 -0.098772168
1479445283.0189 0.9895519 -0.10319667 0.0044070762 0.051203679 0.004444994 0.051467612 0.99250823 -0.099576578
1489441509.434 0.98952729 -0.10365677 0.0045452025 0.051512647 0.0046243984 0.051789049 0.99239373 -0.10057074
1499437735.8491 0.98926425 -0.10401821 0.0046556387 0.051800758 0.0046965107 0.052072503 0.99235433 -0.10130721
1509433962.2642 0.98929888 -0.10447927 0.0047588432 0.052138578 0.004781133 0.052347045 0.99207562 -0.10204373
1519430188.6792 0.98942935 -0.10505423 0.004823612 0.052391626 0.0048406553 0.052638765 0.99191082 -0.10261929
1529426415.0943 0.98930061 -0.10578233 0.0049140938 0.052670732 0.0049066655 0.05297254 0.99181533 -0.10313264
1539422641.5094 0.98933864 -0.10664675 0.0049316748 0.052996695 0.0049187262 0.053246684 0.99184769 -0.10358645
1549418867.9245 0.98925704 -0.10739334 0.0049796356 0.053276859 0.0050540632 0.053569723 0.99215889 -0.10433461
1559415094.3396 0.98903024 -0.10812569 0.0050700009 0.053544089 0.0050405227 0.053888872 0.99227536 -0.1049585
1569411320.7547 0.98887575 -0.10883166 0.0051257107 0.053875871 0.0050871186 0.054191366 0.99221021 -0.10577014
1579407547.1698 0.98889238 -0.10936594 0.0051461281 0.054151006 0.0051374054 0.054495461 0.99184722 -0.10667269
1589403773.5849 0.98876143 -0.10996276 0.005148096 0.054471336 0.0051592458 0.054807186 0.99155772 -0.10735181
1599400000 0.98875964 -0.11048758 0.0051194578 0.054770824 0.0051428154 0.055129196 0.99111891 -0.10784373
1609396226.4151 0.9887048 -0.1111289 0.0051390431 0.055139743 0.0051186346 0.055444006 0.9909265 -0.10837837
1619392452.8302 0.98871374 -0.1117107 0.0051475745 0.055486508 0.0051445309 0.05582653 0.99102819 -0.108832
1629388679.2453 0.98850578 -0.11241847 0.005186893 0.055836834 0.0051495582 0.056176018 0.99116492 -0.10940543
1639384905.6604 0.98827863 -0.11321777 0.0052134651 0.056201067 0.0051368363 0.056583203 0.99136543 -0.11030647
1649381132.0755 0.98801303 -0.11373726 0.0051682219 0.056604099 0.0052135158 0.056962658 0.99141812 -0.11115888
1659377358.4906 0.98789656 -0.11469883 0.0052631423 0.056959398 0.0052251536 0.057337061 0.99133623 -0.11213583
1669373584.9057 0.98778147 -0.11510535 0.0052847252 0.057358325 0.0052525797 0.057741817 0.9910776 -0.11282674
1679369811.3208 0.98778701 -0.11571643 0.0053087361 0.057743911 0.0053306706 0.058133248 0.99086154 -0.11327681
1689366037.7358 0.98783422 -0.11645845 0.0054296684 0.05812297 0.0053665359 0.058489174 0.99063861 -0.11354703
1699362264.1509 0.98796988 -0.11699639 0.0054503158 0.058492225 0.0054025603 0.058910746 0.99081475 -0.11418213
1709358490.566 0.98774385 -0.11768484 0.0055194227 0.058880385 0.0054847905 0.059344295 0.99086654 -0.11466417
1719354716.9811 0.98745537 -0.11841512 0.0055727996 0.059311308 0.0055718198 0.05971013 0.99090374 -0.11535722
1729350943.3962 0.98723692 -0.11895689 0.0056553874 0.05968558 0.0056334082 0.060120605 0.99090075 -0.11638018
