!Keysight Technologies,N5222B,MY61253708,A.15.00.15
!Date: Wednesday, June 19, 2024 08:57:52
!Correction: S11(C  2-Port  ) 
!S21(C  2-Port  ) 
!S12(C  2-Port  ) 
!S22(C  2-Port  ) 
!S2P File: Measurements: S11, S21, S12, S22:
# Hz S  RI   R 50
10000000 0.99853325 -0.0024771988 -0.00021714861 0.00016689545 -3.9976585e-005 0.00051155768 0.99876869 -0.00092166662
19996226.415094 0.99901748 -0.0020068586 -3.256838e-005 0.00084214285 4.3216627e-005 0.00088339706 0.9994632 -0.002147764
29992452.830189 0.99985337 -0.0025142133 0.00013010885 0.001111078 6.9337722e-005 0.0011166173 0.99958408 -0.0027011335
39988679.245283 1.0000471 -0.0031668842 3.8814294e-005 0.0014334773 2.1972315e-005 0.0014409425 0.99965471 -0.0032182932
49984905.660377 1.0001404 -0.0039289296 -3.705197e-005 0.0017969502 -6.7327637e-006 0.001795548 0.99980342 -0.0038328469
59981132.075472 1.0002632 -0.0047416091 9.9843019e-006 0.0021732333 1.0312593e-005 0.0021972375 0.99966335 -0.0043510795
69977358.490566 1.0000877 -0.0053152628 2.005422e-005 0.0024859298 2.0001942e-005 0.0024823407 0.99963278 -0.0049286298
79973584.90566 0.99979132 -0.0058371723 2.7843169e-005 0.0028439036 1.3512094e-005 0.002867667 0.9993211 -0.0054134429
89969811.320755 0.99981034 -0.0060722828 4.2069005e-006 0.0032209344 2.3609609e-005 0.0032476932 0.99950266 -0.0057200491
99966037.735849 1.0000458 -0.0068927556 5.5346754e-005 0.0035408717 1.4116929e-005 0.0035674933 0.99959767 -0.0065682828
109962264.15094 1.0000432 -0.007797122 1.9177038e-005 0.0039035727 2.9901334e-005 0.0039391913 0.99957764 -0.0074546337
119958490.56604 1.0001036 -0.0088204443 3.5139266e-005 0.0042707468 3.8138125e-005 0.0043142415 0.99959838 -0.0083471835
129954716.98113 1.0000792 -0.0098537505 6.162771e-005 0.0046277167 5.9005688e-005 0.0046708682 0.99958348 -0.0092853904
139950943.39623 0.9999963 -0.010731485 3.1647403e-005 0.0049678525 7.7327437e-005 0.0050185523 0.99949414 -0.010076581
149947169.81132 0.99979621 -0.011439592 8.3201099e-005 0.005321037 8.0866739e-005 0.0053736223 0.99946421 -0.010680646
159943396.22642 0.99973726 -0.011945546 6.6289213e-005 0.0057157823 6.7394692e-005 0.0057367738 0.99955261 -0.011164397
169939622.64151 0.99983126 -0.012316726 8.840207e-005 0.0060666096 6.8320252e-005 0.0060787438 0.99960405 -0.011624396
179935849.0566 0.99985152 -0.012580574 6.44268e-005 0.0064140521 0.00010247785 0.006458642 0.9995203 -0.011997759
189932075.4717 0.99996901 -0.013457537 0.00011664466 0.0067905225 0.00010840013 0.0068318555 0.99974436 -0.012664497
199928301.88679 0.99992704 -0.014297694 0.00011268794 0.0071236268 8.4672589e-005 0.0071885567 0.99961007 -0.013558954
209924528.30189 0.99961042 -0.014970094 0.0001229808 0.0074783042 0.00010080473 0.0075231325 0.99941462 -0.014351219
219920754.71698 0.99960619 -0.015904069 0.00015299488 0.0078178765 0.00011528935 0.0078787003 0.99922812 -0.015079081
229916981.13208 0.99941552 -0.016858637 0.00014840998 0.0082026655 0.00015136669 0.0082287183 0.99907696 -0.015869349
239913207.54717 0.99926591 -0.017495355 0.00015964039 0.0085346503 0.00014887746 0.0086089624 0.99909484 -0.016594088
249909433.96226 0.99934328 -0.018171966 0.00013713515 0.008891454 0.00016862666 0.0089482348 0.99919981 -0.017253697
259905660.37736 0.99935466 -0.018816113 0.00019494817 0.0092520108 0.00025202101 0.0093237637 0.99940419 -0.017797709
269901886.79245 0.99953854 -0.019380927 0.00021166727 0.0096061565 0.00017275335 0.0096167009 0.99970722 -0.018578574
279898113.20755 0.99973089 -0.020199344 0.00020923768 0.0099716261 0.00021788664 0.010031992 0.99964547 -0.019295573
289894339.62264 0.99976385 -0.020930171 0.0002195756 0.010293659 0.00019303057 0.010398295 0.99956137 -0.020136774
299890566.03774 0.99961239 -0.021532625 0.00024110614 0.010683641 0.00019404734 0.01072987 0.99935579 -0.020602524
309886792.45283 0.99934494 -0.022144042 0.00026973267 0.011023475 0.00025668007 0.011109208 0.99920762 -0.021055043
319883018.86792 0.99922454 -0.022767156 0.00024574064 0.01138783 0.00030001393 0.011447677 0.9992435 -0.021563292
329879245.28302 0.99925935 -0.023400694 0.00029933685 0.011748692 0.00029729865 0.011835551 0.99926233 -0.02237916
339875471.69811 0.99917156 -0.024183154 0.00031748845 0.012111899 0.00031832966 0.012166762 0.99923092 -0.02319555
349871698.11321 0.99941063 -0.025131255 0.0003300542 0.012456677 0.00034975423 0.012556051 0.9993605 -0.024121642
359867924.5283 0.99929255 -0.02592209 0.00032142689 0.012832017 0.00035600038 0.01289329 0.99929774 -0.025117248
369864150.9434 0.99941808 -0.026811481 0.00034651463 0.013162764 0.00035526277 0.013261812 0.99923503 -0.025837839
379860377.35849 0.99931222 -0.027541801 0.00034463266 0.013533378 0.00040410575 0.013591673 0.99910313 -0.026547685
389856603.77358 0.99930543 -0.028082907 0.00040919008 0.01383284 0.00037813419 0.01395981 0.99915552 -0.027101398
399852830.18868 0.99905121 -0.028754443 0.00042450288 0.014243534 0.00043636793 0.01430757 0.99917698 -0.027566522
409849056.60377 0.99901932 -0.029227808 0.00045392191 0.014577155 0.00044127775 0.014607572 0.99920666 -0.027996544
419845283.01887 0.99894762 -0.029612988 0.00048732525 0.014897829 0.00046091573 0.015020618 0.99920458 -0.028605103
429841509.43396 0.99910307 -0.030238718 0.00050725276 0.015284549 0.00046946667 0.015387454 0.99938965 -0.029340267
439837735.84906 0.99901909 -0.031202227 0.00054396852 0.015638363 0.00049738167 0.015729049 0.99907094 -0.030303061
449833962.26415 0.99892974 -0.032113254 0.00051424699 0.015952991 0.00052369153 0.016070619 0.99880093 -0.031268001
459830188.67925 0.99882305 -0.03292948 0.00053008925 0.01634432 0.00053240359 0.016381089 0.99861169 -0.03195107
469826415.09434 0.99876797 -0.033819854 0.00056794425 0.016681258 0.00054857414 0.01677187 0.99833637 -0.032618731
479822641.50943 0.99857247 -0.034396447 0.00060888496 0.017069293 0.00060233707 0.017164357 0.99846512 -0.033132143
489818867.92453 0.9987756 -0.035007477 0.00062433165 0.017391276 0.00062189344 0.017509468 0.99873531 -0.033657342
499815094.33962 0.99881619 -0.0355874 0.00063467305 0.017770184 0.00063787168 0.017879626 0.99907988 -0.034278482
509811320.75472 0.99888211 -0.036045808 0.00067582697 0.018122107 0.00067914691 0.018247105 0.99922884 -0.035134222
519807547.16981 0.99891061 -0.036660284 0.000641244 0.018419018 0.00065306295 0.018557165 0.99914253 -0.035909653
529803773.58491 0.99893224 -0.037289441 0.00071371254 0.018801138 0.00070578046 0.018981732 0.99889523 -0.036545753
539800000 0.99881947 -0.038068816 0.00073828269 0.019209357 0.00073510665 0.019286744 0.99866819 -0.037345961
549796226.41509 0.99861962 -0.038913727 0.00076104794 0.019551067 0.00070394017 0.019647855 0.99850148 -0.037828684
559792452.83019 0.998375 -0.039675534 0.0007888563 0.019918203 0.00077902433 0.019972917 0.99837011 -0.038344651
569788679.24528 0.99818069 -0.040508151 0.00081743672 0.020229992 0.00078130374 0.020350695 0.99848574 -0.039056659
579784905.66038 0.99821615 -0.041034736 0.00084963907 0.020616287 0.00078626769 0.020716719 0.99862266 -0.039879397
589781132.07547 0.99829519 -0.041656047 0.00085231662 0.020932181 0.00089545734 0.021122593 0.99874258 -0.040729165
599777358.49057 0.99842995 -0.042330891 0.00089970976 0.02129613 0.00088156946 0.02144986 0.99881494 -0.041622043
609773584.90566 0.9986394 -0.043101333 0.00096847396 0.021682488 0.00097355561 0.02178851 0.99857539 -0.0424846
619769811.32075 0.99869156 -0.043886065 0.001020913 0.022022147 0.0010268604 0.022150951 0.99854821 -0.043009192
629766037.73585 0.99857712 -0.044509649 0.0010364335 0.022339767 0.0010557454 0.022472939 0.99832726 -0.043575197
639762264.15094 0.99833345 -0.045170322 0.0010304374 0.022639625 0.0010582765 0.022809457 0.99818921 -0.044061691
649758490.56604 0.99816614 -0.045836911 0.0010391623 0.022993796 0.0010371041 0.02315989 0.99820453 -0.044508353
659754716.98113 0.99794561 -0.046316981 0.0010810066 0.023356769 0.0011175014 0.023552466 0.99834269 -0.045134306
669750943.39623 0.99794632 -0.04688552 0.0011170469 0.023712497 0.001118232 0.023897137 0.99843013 -0.045954973
679747169.81132 0.99799377 -0.047678791 0.0011601376 0.024097748 0.001144489 0.024271917 0.99834877 -0.046969306
689743396.22642 0.9982127 -0.048507631 0.0012061521 0.024451219 0.0012212861 0.02462367 0.99816358 -0.04789114
699739622.64151 0.99831533 -0.049330473 0.0012593037 0.024805637 0.0012419689 0.024977401 0.99807769 -0.048619807
709735849.0566 0.99827766 -0.050261244 0.0013112453 0.025141632 0.0012870604 0.025299486 0.99782109 -0.049273722
719732075.4717 0.99808413 -0.050980866 0.0013210177 0.025479507 0.0013428591 0.025639279 0.99785835 -0.049890876
729728301.88679 0.99805117 -0.051571369 0.001373128 0.025833078 0.0013718652 0.02602488 0.99792612 -0.050287336
739724528.30189 0.99781066 -0.052131727 0.0014143963 0.026190395 0.0014106338 0.02635831 0.99813777 -0.051040053
749720754.71698 0.99779391 -0.052662507 0.001454547 0.026533669 0.0014567268 0.026695864 0.99814451 -0.051755935
759716981.13208 0.99786973 -0.053228021 0.0014734324 0.026825707 0.0014788415 0.027044158 0.99811733 -0.052537292
769713207.54717 0.99774832 -0.054003775 0.0015060185 0.027216529 0.001533783 0.027404521 0.99779928 -0.053307325
779709433.96226 0.99792808 -0.054604817 0.0015286567 0.027565846 0.0015487208 0.027743179 0.99754471 -0.053992283
789705660.37736 0.99780166 -0.055596054 0.001590482 0.027894869 0.0016105613 0.028074214 0.99737203 -0.054710895
799701886.79245 0.99777722 -0.056500822 0.0016146358 0.028234854 0.0016030464 0.028448623 0.99717361 -0.055352241
809698113.20755 0.99771488 -0.057171702 0.0016247546 0.028587578 0.0016445932 0.028765948 0.99719989 -0.05578886
819694339.62264 0.99753499 -0.057842463 0.00164482 0.028920552 0.0016830596 0.02914956 0.99732596 -0.056444883
829690566.03774 0.9975276 -0.058342606 0.0017465437 0.029297754 0.0017244006 0.029471356 0.99764431 -0.057365596
839686792.45283 0.99760652 -0.058824629 0.0017520767 0.029605033 0.0017604707 0.029834032 0.99767965 -0.058232307
849683018.86792 0.99771953 -0.059587955 0.0017766654 0.029966019 0.0018103668 0.030182354 0.99758071 -0.058991842
859679245.28302 0.9976784 -0.060318261 0.001830468 0.030342579 0.001814927 0.03056271 0.99724507 -0.059666872
869675471.69811 0.99755871 -0.061101377 0.001851609 0.030652426 0.0018742606 0.030890606 0.99690574 -0.060191989
879671698.11321 0.9975062 -0.061787769 0.0019204421 0.031028397 0.0019139608 0.031205285 0.99685675 -0.060651451
889667924.5283 0.99723786 -0.062715501 0.0019271104 0.03132217 0.0019453717 0.031532221 0.99670094 -0.061218768
899664150.9434 0.9970758 -0.063431233 0.0019670483 0.031652723 0.0019826759 0.031892657 0.99677312 -0.061854631
909660377.35849 0.99702466 -0.064116061 0.002007768 0.032035019 0.0020327219 0.032216609 0.99694848 -0.06278193
919656603.77358 0.99713439 -0.064828902 0.0020343228 0.032332845 0.0020534834 0.032618944 0.9969247 -0.063720539
929652830.18868 0.99712074 -0.065540493 0.0020679208 0.032686681 0.0020981971 0.03293708 0.99672425 -0.064668447
939649056.60377 0.99735361 -0.066234976 0.0021027951 0.033007681 0.0020698681 0.033290662 0.99654853 -0.065327972
949645283.01887 0.99729604 -0.067088962 0.0021061185 0.033371791 0.0021149334 0.033646807 0.99632776 -0.065930888
959641509.43396 0.9971531 -0.067779452 0.0021517863 0.033737373 0.0021406785 0.034017675 0.99627823 -0.066417843
969637735.84906 0.99709934 -0.068511218 0.0022269255 0.034158781 0.0022309236 0.034402654 0.99628472 -0.066815019
979633962.26415 0.99695009 -0.069345906 0.0022494281 0.034477785 0.0022571483 0.034714345 0.99627692 -0.067551173
989630188.67925 0.99689192 -0.069858134 0.0023012031 0.034799829 0.0022994624 0.035120048 0.996436 -0.068175346
999626415.09434 0.99704075 -0.070521623 0.0023216698 0.035119545 0.0023595393 0.035454184 0.99638683 -0.068996102
1009622641.5094 0.99701774 -0.071143031 0.0023367964 0.035535865 0.0023868848 0.035804138 0.99621254 -0.069877088
1019618867.9245 0.99706388 -0.071987048 0.0024279505 0.035888027 0.0024596755 0.036152445 0.99598569 -0.07073763
1029615094.3396 0.99708366 -0.073061526 0.0025028083 0.036227249 0.0025193673 0.036491863 0.99556315 -0.071427912
1039611320.7547 0.99710047 -0.073992819 0.0025159493 0.036541164 0.002534858 0.03683408 0.9954955 -0.072063923
1049607547.1698 0.99691504 -0.074973986 0.002590863 0.036857158 0.0026090115 0.037130896 0.99543327 -0.072732963
1059603773.5849 0.99677986 -0.075645596 0.0025963923 0.037157971 0.0026369924 0.037479445 0.99546236 -0.073193669
1069600000 0.9965747 -0.076314926 0.0026176963 0.037502509 0.0026520826 0.037798852 0.99569273 -0.074030489
1079596226.4151 0.99647236 -0.076887295 0.002611666 0.037849613 0.0027072323 0.038156494 0.99571395 -0.074786127
1089592452.8302 0.99649525 -0.077520281 0.002670344 0.038211636 0.0027441187 0.038545318 0.99555826 -0.07548362
1099588679.2453 0.99655354 -0.078215718 0.0026939344 0.038546674 0.0027514249 0.038869888 0.99516582 -0.076145619
1109584905.6604 0.99662119 -0.079109177 0.0027218685 0.038923241 0.0027806656 0.039220404 0.99490887 -0.07679978
1119581132.0755 0.99663174 -0.080103494 0.0027484586 0.039274909 0.0028132377 0.039602857 0.9946968 -0.077230617
1129577358.4906 0.99639559 -0.080943644 0.0027767103 0.039693221 0.0028425194 0.039966505 0.99464959 -0.077715933
1139573584.9057 0.99608517 -0.081883967 0.002835121 0.04002149 0.0029277606 0.040342223 0.99468744 -0.078423887
1149569811.3208 0.99597156 -0.082789592 0.0029025227 0.040350076 0.0029844358 0.040696658 0.99481219 -0.079184413
1159566037.7358 0.99575627 -0.083461761 0.002942225 0.040668882 0.0030498542 0.040999375 0.9949007 -0.0801588
1169562264.1509 0.99560285 -0.084098876 0.0029609911 0.041012719 0.0030564237 0.041342765 0.99473536 -0.081039965
1179558490.566 0.99549639 -0.084838718 0.0029897459 0.041389104 0.0030708204 0.041759867 0.99455947 -0.081744425
1189554716.9811 0.99556983 -0.085575759 0.0030216388 0.041778173 0.0031464333 0.042062704 0.99429119 -0.082310915
1199550943.3962 0.99547106 -0.08654952 0.0030599795 0.042149574 0.0031909607 0.042444903 0.99410856 -0.082672268
1209547169.8113 0.99531579 -0.087409064 0.0031163795 0.04248086 0.0032061404 0.042816088 0.99404025 -0.083038166
1219543396.2264 0.99505347 -0.088333651 0.0031980965 0.042862888 0.0032882998 0.043180175 0.99408156 -0.083440736
1229539622.6415 0.99475008 -0.089146554 0.0032401998 0.043191567 0.0033732485 0.043547887 0.99427092 -0.084240764
1239535849.0566 0.99452168 -0.089827746 0.0033198353 0.043562885 0.0034382427 0.043875951 0.99432355 -0.085181147
1249532075.4717 0.99416357 -0.090584278 0.0033885776 0.043928675 0.0035291892 0.044190161 0.99410498 -0.086024612
1259528301.8868 0.99402356 -0.091100395 0.0034044515 0.044244118 0.0035775583 0.044543639 0.99387443 -0.087002248
1269524528.3019 0.99381691 -0.091828108 0.0035260823 0.044606697 0.0036643501 0.044867177 0.99367535 -0.087617576
1279520754.717 0.9934752 -0.092574343 0.0035433902 0.044862267 0.0037191024 0.04516618 0.99334568 -0.088204518
1289516981.1321 0.99333 -0.093433201 0.0035974765 0.045210388 0.0037139757 0.045485936 0.9933998 -0.088682175
1299513207.5472 0.99291599 -0.094233781 0.0036126822 0.045534316 0.0037549194 0.045808956 0.99354148 -0.089118689
1309509433.9623 0.9925046 -0.094967753 0.0036154548 0.045870174 0.0037759915 0.046133313 0.9936927 -0.089847818
1319505660.3774 0.99214917 -0.095758393 0.0036547566 0.046215326 0.0038241213 0.046445817 0.99366581 -0.090490207
1329501886.7925 0.99176371 -0.096409082 0.0036983564 0.046589054 0.0038236175 0.046839975 0.99369472 -0.09149757
1339498113.2075 0.99148858 -0.09690696 0.0037128795 0.046913221 0.0038378807 0.047160964 0.99323195 -0.092200875
1349494339.6226 0.99136513 -0.097619697 0.0036999383 0.047303081 0.0038383584 0.047519095 0.99281174 -0.092863329
1359490566.0377 0.99129653 -0.098161191 0.0037129838 0.047652677 0.0038462598 0.047941547 0.99265063 -0.093416214
1369486792.4528 0.99104124 -0.098792464 0.0037314389 0.048012417 0.0038495902 0.048275881 0.99244499 -0.093886256
1379483018.8679 0.99076259 -0.099301182 0.0037672268 0.048436642 0.0038845199 0.048653949 0.99241942 -0.094245985
1389479245.283 0.99036801 -0.099945068 0.0038061235 0.048856739 0.0038925596 0.049042989 0.99237365 -0.095070094
1399475471.6981 0.9899348 -0.10029143 0.0038423389 0.049194552 0.0039014611 0.049434513 0.99255836 -0.095673114
1409471698.1132 0.98961473 -0.10062379 0.0038696588 0.049582504 0.0039745439 0.049805012 0.99253625 -0.09656436
1419467924.5283 0.9893961 -0.10091338 0.0039132657 0.049986981 0.0040154383 0.050218381 0.99232268 -0.097242266
1429464150.9434 0.98923677 -0.10149667 0.0039570089 0.050415263 0.0040428918 0.050635114 0.99231243 -0.097816914
1439460377.3585 0.98949671 -0.10181789 0.0040340973 0.05084309 0.0041289981 0.051095877 0.99196959 -0.098175824
1449456603.7736 0.98944497 -0.10241759 0.0041619819 0.051296458 0.0042249663 0.05152946 0.99185014 -0.098475188
1459452830.1887 0.98941529 -0.1032998 0.0043232106 0.051730327 0.0043894779 0.05193286 0.99199665 -0.098866612
1469449056.6038 0.98946226 -0.103973 0.0044764094 0.052075591 0.0045419037 0.052324608 0.99222934 -0.099552363
1479445283.0189 0.98922616 -0.10456432 0.0045858822 0.052401796 0.0046292208 0.052638035 0.9922722 -0.10055791
1489441509.434 0.9891904 -0.10515788 0.0047347471 0.052699849 0.0048376992 0.05297745 0.99206764 -0.10141733
1499437735.8491 0.98897827 -0.10546967 0.0048996788 0.053030394 0.0048807841 0.053248428 0.99204731 -0.10229778
1509433962.2642 0.98896235 -0.10593942 0.0049826698 0.053291328 0.0049886196 0.053567473 0.99177015 -0.10302489
1519430188.6792 0.98916769 -0.10654956 0.0050518606 0.053589132 0.0050408989 0.053841691 0.99174118 -0.10351661
1529426415.0943 0.98908323 -0.10720566 0.0050866995 0.053856909 0.0050981045 0.054194897 0.99153858 -0.10407114
1539422641.5094 0.98911172 -0.10807148 0.0051566963 0.054198295 0.0051478273 0.054496784 0.9917013 -0.10450018
1549418867.9245 0.98890263 -0.10887377 0.0052680187 0.054496333 0.0052133873 0.054781757 0.99183798 -0.10525958
1559415094.3396 0.9887653 -0.10956174 0.0052996296 0.054843232 0.0053068865 0.055137925 0.99203116 -0.10591382
1569411320.7547 0.98863596 -0.11047246 0.0053147748 0.055087268 0.0053177448 0.055424742 0.99190658 -0.10672276
1579407547.1698 0.98852426 -0.1109236 0.0053432425 0.055417527 0.0053930636 0.055726398 0.99152571 -0.10762358
1589403773.5849 0.98850918 -0.11152816 0.0053610653 0.05569303 0.0053616092 0.056059644 0.9913286 -0.10836324
1599400000 0.98849672 -0.11202216 0.0054018721 0.056080088 0.0053938758 0.056374911 0.99092311 -0.10880578
1609396226.4151 0.98837793 -0.11266984 0.0053843036 0.056432996 0.0053505236 0.056730341 0.9906491 -0.1094422
1619392452.8302 0.98842871 -0.11331019 0.0054156724 0.056801245 0.0053790044 0.057093658 0.99068058 -0.10988548
1629388679.2453 0.98811013 -0.11404854 0.0054589715 0.057141285 0.0054128002 0.057456546 0.99093604 -0.11043569
1639384905.6604 0.98784029 -0.11474399 0.0054529463 0.057538074 0.005397554 0.057883512 0.9911136 -0.11127684
1649381132.0755 0.98772514 -0.11537787 0.0054934602 0.057924721 0.0054427516 0.058248762 0.99117136 -0.11221004
1659377358.4906 0.98745263 -0.1162194 0.0055056103 0.058302902 0.0054723546 0.058675446 0.99102497 -0.11307755
1669373584.9057 0.98735404 -0.11661438 0.0055603446 0.058689643 0.0055866987 0.059052449 0.99081326 -0.11378764
1679369811.3208 0.98743081 -0.11743699 0.0056177378 0.059082817 0.0055795275 0.059449591 0.99046987 -0.11437249
1689366037.7358 0.98737466 -0.11799657 0.0056856479 0.059462465 0.0056419503 0.059872925 0.99027765 -0.11463362
1699362264.1509 0.98754042 -0.11869 0.0057453411 0.059863679 0.005706545 0.060311787 0.99046218 -0.11509205
1709358490.566 0.98734736 -0.11937045 0.0057813525 0.060248777 0.0058071529 0.060734056 0.99052244 -0.11570278
1719354716.9811 0.98709261 -0.11999926 0.0058707669 0.060695745 0.0058907364 0.061110891 0.99056864 -0.1164349
1729350943.3962 0.9867782 -0.12064067 0.006009711 0.061067335 0.005982032 0.061477754 0.99051178 -0.11745548
