!Keysight Technologies,N5222B,MY61253708,A.15.00.15
!Date: Wednesday, June 19, 2024 09:35:31
!Correction: S11(C  2-Port  ) 
!S21(C  2-Port  ) 
!S12(C  2-Port  ) 
!S22(C  2-Port  ) 
!S2P File: Measurements: S11, S21, S12, S22:
# Hz S  RI   R 50
10000000 0.99859941 -0.0025087595 -0.00020518004 4.016787e-005 -0.00017420296 0.00077231287 0.99829358 -0.00096052885
19996226.415094 0.99892664 -0.0024403036 1.6775448e-007 0.00054953725 -0.00010229889 0.00061529217 0.99885792 -0.0025401711
29992452.830189 0.99981499 -0.0024380088 2.3134024e-005 0.00095852994 5.1820214e-005 0.00098402123 0.99950379 -0.0027604997
39988679.245283 1.0000801 -0.0030368865 -6.5911881e-006 0.0013545621 -3.1170202e-007 0.0013578987 0.99966192 -0.0031786561
49984905.660377 1.0002078 -0.0037520826 2.0916341e-005 0.0016305934 2.0192238e-005 0.00168893 0.99978971 -0.0037134588
59981132.075472 1.0003728 -0.0046234727 -1.4614197e-006 0.0020072451 2.3687957e-005 0.0020282576 0.99976778 -0.0042841434
69977358.490566 1.0001706 -0.005182704 2.3742152e-005 0.0023421613 2.5894595e-005 0.0023604184 0.99972194 -0.0047889464
79973584.90566 0.99993002 -0.0057120323 4.0628598e-005 0.0026926124 1.1514174e-005 0.0027040932 0.99933356 -0.0052980781
89969811.320755 0.99991572 -0.0058628917 -1.6398844e-005 0.0030271802 1.289288e-005 0.0030129896 0.99955416 -0.0055839121
99966037.735849 1.0001243 -0.0065917373 1.1044904e-005 0.0033263389 4.2363245e-005 0.0033679442 0.99962646 -0.0063758343
109962264.15094 1.0001435 -0.0075431168 2.5957706e-005 0.0036918505 3.3928955e-005 0.0036825077 0.9996323 -0.0071668178
119958490.56604 1.0001093 -0.0084206462 3.2382319e-005 0.0039699683 4.0987157e-005 0.0040389043 0.9996593 -0.0080808997
129954716.98113 1.0001212 -0.0094172359 5.2525778e-005 0.0043258131 1.591153e-005 0.0043705879 0.9996382 -0.0089493692
139950943.39623 1.0000057 -0.010218278 2.9421601e-005 0.0046394304 3.057727e-005 0.0047089574 0.99955779 -0.0097060334
149947169.81132 0.99991596 -0.010912895 7.1348855e-005 0.0049981182 5.088374e-005 0.005011179 0.99950761 -0.010334462
159943396.22642 0.99987954 -0.011467367 6.2834006e-005 0.0053209672 5.167257e-005 0.0053715198 0.99957871 -0.010783672
169939622.64151 0.99982655 -0.011789694 7.5584685e-005 0.0056615351 5.4393662e-005 0.005704226 0.99962378 -0.011228636
179935849.0566 0.99996442 -0.012116581 4.110334e-005 0.0060036778 7.5678807e-005 0.006038995 0.9995659 -0.011641234
189932075.4717 1.0000619 -0.012855262 0.00010974915 0.0063156695 8.5035106e-005 0.0063940929 0.99971974 -0.012201071
199928301.88679 0.99999338 -0.013691425 9.57913e-005 0.0066610184 0.00012182212 0.0067111189 0.99962431 -0.013082474
209924528.30189 0.99980098 -0.0143518 8.6166896e-005 0.0069663194 9.2128757e-005 0.0070415013 0.999385 -0.013739303
219920754.71698 0.99981779 -0.015144944 0.00011941837 0.0073299296 9.4826799e-005 0.0073967855 0.99930137 -0.014416575
229916981.13208 0.99958104 -0.016068995 0.00013549789 0.0076315627 0.00012769201 0.0077258823 0.99926484 -0.015269756
239913207.54717 0.99949193 -0.016632084 0.00013438948 0.0079850554 0.00013287039 0.0080550453 0.99916452 -0.015949765
249909433.96226 0.99948502 -0.017311841 0.00013987464 0.0083144512 0.00014227047 0.0083768005 0.99931204 -0.016595751
259905660.37736 0.99964279 -0.017913073 0.00020770216 0.0085939728 0.00012399955 0.0087024234 0.99950504 -0.01714915
269901886.79245 0.99976349 -0.018563256 0.00017851999 0.0090175215 0.00013669208 0.009043619 0.99983996 -0.017905533
279898113.20755 0.99976742 -0.019153193 9.9378172e-005 0.0093692206 0.00018752553 0.0094045578 0.99965453 -0.018567458
289894339.62264 0.99961042 -0.019901276 0.00018302118 0.0096268132 0.00020742882 0.0097056217 0.99955618 -0.01936397
299890566.03774 0.99972796 -0.02048862 0.0001935917 0.0099914391 0.00021076645 0.010084779 0.99936628 -0.019792795
309886792.45283 0.99951923 -0.020995043 0.00020367198 0.010336034 0.00016415294 0.010419619 0.9992367 -0.020311981
319883018.86792 0.99956012 -0.021631807 0.000237206 0.010629463 0.00027363654 0.010732125 0.99940836 -0.020692289
329879245.28302 0.99952877 -0.022506088 0.00027791737 0.010950531 0.00022626994 0.011077968 0.99941635 -0.021523505
339875471.69811 0.99945056 -0.023137435 0.00024919526 0.011295707 0.00024100346 0.011452838 0.99926478 -0.022258811
349871698.11321 0.99954414 -0.024103642 0.00026881765 0.011631555 0.00027761096 0.01174629 0.99934721 -0.023270994
359867924.5283 0.99937129 -0.024851918 0.00030503282 0.011926556 0.00026395917 0.012066514 0.99931455 -0.02407977
369864150.9434 0.99961913 -0.025659978 0.00031822897 0.012298557 0.00032352866 0.012426006 0.99933553 -0.024870753
379860377.35849 0.99959099 -0.026272759 0.00032715593 0.01262114 0.00034787599 0.012698326 0.99928313 -0.02546075
389856603.77358 0.99947876 -0.026916564 0.00032600621 0.012960041 0.0003358121 0.013066265 0.99926484 -0.025858879
399852830.18868 0.99921983 -0.027471811 0.00036892481 0.013266496 0.00035998272 0.013404412 0.99930638 -0.026394457
409849056.60377 0.99915075 -0.027873224 0.00035131251 0.013642984 0.00039800094 0.013743691 0.99933249 -0.026914271
419845283.01887 0.99913234 -0.028392375 0.0004216833 0.013944471 0.00036063325 0.014070745 0.99935853 -0.027437061
429841509.43396 0.99928617 -0.0291062 0.00040060515 0.014269371 0.00043036696 0.014400535 0.99956489 -0.028225094
439837735.84906 0.99918461 -0.029988885 0.00044072047 0.014600642 0.00045163871 0.014740718 0.99933529 -0.029182836
449833962.26415 0.99894893 -0.030730277 0.00045615854 0.014910183 0.00045122532 0.015090177 0.9989934 -0.02998665
459830188.67925 0.99885243 -0.031409681 0.00050894311 0.015259048 0.00044558011 0.015388472 0.99876809 -0.030853957
469826415.09434 0.99878216 -0.032213062 0.00046329666 0.015610586 0.00046782382 0.015741097 0.99858427 -0.031372458
479822641.50943 0.99868554 -0.032742232 0.00047786883 0.015939211 0.00049374183 0.016087689 0.99868912 -0.03179355
489818867.92453 0.99882358 -0.033289284 0.00050376821 0.016307812 0.00054645166 0.016431479 0.99893194 -0.032363713
499815094.33962 0.9988749 -0.03396228 0.00056264922 0.016608251 0.00054660067 0.016738972 0.99916047 -0.032964885
509811320.75472 0.99900675 -0.03430967 0.00057119725 0.016938306 0.00060112821 0.017034609 0.99924505 -0.033717722
519807547.16981 0.99897885 -0.034828752 0.00057444768 0.017248973 0.00059973914 0.017412595 0.99929953 -0.034688503
529803773.58491 0.99884474 -0.035482943 0.00061017554 0.017596709 0.00057543442 0.017739581 0.9989903 -0.035175294
539800000 0.99893618 -0.03616257 0.00060831639 0.017957004 0.00060372893 0.018045017 0.99883395 -0.035918921
549796226.41509 0.99882281 -0.037026197 0.0006051478 0.018279376 0.0006242902 0.018412933 0.99863094 -0.036309093
559792452.83019 0.9986372 -0.037742585 0.00068109762 0.018555719 0.00067248009 0.018738676 0.99860764 -0.036807567
569788679.24528 0.99855173 -0.038405389 0.00068621989 0.018925823 0.00067243678 0.019115008 0.99869287 -0.037617654
579784905.66038 0.99845415 -0.039028905 0.00075711904 0.019283872 0.00074360997 0.019428613 0.99882454 -0.038305789
589781132.07547 0.99860084 -0.039633304 0.00077892002 0.019608352 0.00075712427 0.019768154 0.99890411 -0.039207548
599777358.49057 0.99865556 -0.040267169 0.00080365129 0.019922938 0.00077951327 0.020154368 0.99897373 -0.0399625
609773584.90566 0.99886292 -0.04103481 0.00076138967 0.020261439 0.00080765423 0.020464623 0.99876177 -0.040898267
619769811.32075 0.9988848 -0.041646779 0.00085474784 0.020562209 0.00086305104 0.02075471 0.99870384 -0.04140991
629766037.73585 0.99882752 -0.042331278 0.00088977069 0.0208806 0.00091851689 0.021052852 0.99845833 -0.04186371
639762264.15094 0.99855733 -0.043012321 0.00091549405 0.021198999 0.00090030557 0.021409526 0.99846476 -0.042348206
649758490.56604 0.99834919 -0.043614477 0.00092613464 0.021546641 0.00094186654 0.021702461 0.99848211 -0.042777061
659754716.98113 0.99834764 -0.044218332 0.00088002626 0.021917451 0.00093186554 0.022043442 0.99851346 -0.043364257
669750943.39623 0.99833059 -0.044624299 0.00096037565 0.022237869 0.00095529389 0.022409862 0.9986133 -0.044197083
679747169.81132 0.99841279 -0.045463271 0.0009946049 0.02255816 0.0010192851 0.022735089 0.99857998 -0.045155577
689743396.22642 0.99849093 -0.046150506 0.0010307012 0.02286512 0.0010324232 0.023081362 0.99834746 -0.046020657
699739622.64151 0.99859643 -0.046963573 0.0010945164 0.023217764 0.0010695141 0.023381174 0.99827671 -0.046755731
709735849.0566 0.99857408 -0.047827892 0.0011144163 0.023533471 0.0011271186 0.023728512 0.9980529 -0.047369786
719732075.4717 0.99846733 -0.048549384 0.0011118813 0.023846302 0.0011398685 0.024052495 0.99808776 -0.047969311
729728301.88679 0.99833453 -0.049111992 0.0011936203 0.0241675 0.0012021894 0.024400732 0.99817449 -0.04841429
739724528.30189 0.99815291 -0.049741596 0.0012130337 0.024492104 0.001214107 0.024697671 0.99831843 -0.049024612
749720754.71698 0.99822623 -0.050272748 0.0012721238 0.0248169 0.0012383671 0.025047667 0.99839449 -0.049793452
759716981.13208 0.99824417 -0.050774902 0.0012868699 0.025143342 0.0012881747 0.025360275 0.99835736 -0.050552994
769713207.54717 0.99816531 -0.05146271 0.0013054265 0.025449118 0.0013312893 0.025687993 0.99805635 -0.051217616
779709433.96226 0.99837357 -0.052137304 0.0013379033 0.025792116 0.0013706944 0.025995895 0.99784839 -0.051871892
789705660.37736 0.99812287 -0.053071439 0.0013993382 0.026117247 0.0013511498 0.026338294 0.99762887 -0.052534729
799701886.79245 0.99813771 -0.053851992 0.0013944693 0.026415698 0.0014122808 0.026675686 0.99754894 -0.053141952
809698113.20755 0.9980548 -0.054418534 0.0014222311 0.02672342 0.0014649455 0.027009198 0.99751765 -0.053696856
819694339.62264 0.99790412 -0.055107147 0.0014672871 0.027065154 0.0014520744 0.027318452 0.99762082 -0.054266393
829690566.03774 0.99788773 -0.055782735 0.0014878009 0.027365027 0.0014748406 0.027649686 0.99791312 -0.055202872
839686792.45283 0.99790972 -0.056181014 0.0015056627 0.027718093 0.0015170099 0.027999219 0.99794883 -0.055958003
849683018.86792 0.99801022 -0.056699686 0.0015505173 0.028059663 0.0015803997 0.028307263 0.99787068 -0.056758419
859679245.28302 0.99806529 -0.057497025 0.0016280403 0.028385838 0.0016123429 0.028618954 0.99758321 -0.057407767
869675471.69811 0.99788803 -0.058250606 0.0016503995 0.028690021 0.0016376385 0.02895366 0.99729824 -0.057885885
879671698.11321 0.99787164 -0.058870904 0.0016728109 0.029003797 0.0016707166 0.029263407 0.99724758 -0.058314785
889667924.5283 0.9977181 -0.059775978 0.0016879877 0.029314948 0.0016971584 0.02959205 0.99710095 -0.058794111
899664150.9434 0.99749446 -0.060468823 0.0017063068 0.029623613 0.0017245049 0.029921651 0.99714184 -0.059485793
909660377.35849 0.99754769 -0.061058417 0.0017272932 0.029950421 0.0017613899 0.030222539 0.99730355 -0.060313582
919656603.77358 0.99759698 -0.061747625 0.0017566956 0.030256433 0.0017554685 0.03055756 0.99727017 -0.061256394
929652830.18868 0.99758661 -0.062509775 0.0017924383 0.030557591 0.0018278761 0.030884178 0.99712342 -0.062076479
939649056.60377 0.99769163 -0.063152313 0.0018015066 0.030905649 0.0018071337 0.031202015 0.99702787 -0.062808782
949645283.01887 0.99764371 -0.063996419 0.0018176142 0.03122516 0.0018329251 0.031522214 0.99677986 -0.063421451
959641509.43396 0.99768996 -0.064632922 0.0018393099 0.03161208 0.0018777577 0.031900547 0.9966625 -0.063873112
969637735.84906 0.99753898 -0.065364093 0.0018881112 0.031973455 0.0019106921 0.032258119 0.99672592 -0.064221382
979633962.26415 0.9974069 -0.066001162 0.0019512973 0.032270875 0.0019893053 0.03254116 0.99673539 -0.064906925
989630188.67925 0.99748266 -0.066589922 0.0019634031 0.032566428 0.0020170799 0.03290718 0.99686658 -0.065504402
999626415.09434 0.99754143 -0.067251503 0.0020189108 0.03289891 0.0020345245 0.033224095 0.99685919 -0.066378027
1009622641.5094 0.99751151 -0.067885995 0.0020630527 0.033227935 0.0020967852 0.03356532 0.99663532 -0.067164302
1019618867.9245 0.99756277 -0.068761021 0.0020802845 0.03357172 0.0021691211 0.033883683 0.99643284 -0.068039179
1029615094.3396 0.99760616 -0.069641441 0.0021420363 0.033864163 0.0021977723 0.034166299 0.99607718 -0.068632603
1039611320.7547 0.99761969 -0.070483655 0.0021751728 0.034213126 0.0022069523 0.034504712 0.99606633 -0.069278538
1049607547.1698 0.99740791 -0.071337439 0.0022114727 0.034477014 0.0022523263 0.034822512 0.99599648 -0.069771089
1059603773.5849 0.99728131 -0.07207188 0.002228939 0.034792811 0.0022897562 0.035099261 0.99603403 -0.070429265
1069600000 0.99711061 -0.072731107 0.002255843 0.035106324 0.0022722855 0.035460152 0.99616343 -0.071129501
1079596226.4151 0.99710304 -0.073385932 0.002245822 0.035446238 0.0023245509 0.03576304 0.99619544 -0.071894214
1089592452.8302 0.99711019 -0.073972136 0.0022744481 0.035742186 0.0023391824 0.036094114 0.99609143 -0.0726825
1099588679.2453 0.99718761 -0.074646115 0.0023143198 0.036084067 0.0023544971 0.036439434 0.99568611 -0.073273629
1109584905.6604 0.99727213 -0.075514168 0.0023319423 0.036400795 0.0023826072 0.036775414 0.99552763 -0.073782772
1119581132.0755 0.99727499 -0.076518789 0.0023230282 0.036770947 0.0024071368 0.037119143 0.99538147 -0.074205101
1129577358.4906 0.99707484 -0.077216774 0.0023670942 0.037132643 0.0024495367 0.03749441 0.9952358 -0.074727833
1139573584.9057 0.99677885 -0.078068495 0.00240447 0.037452642 0.0025170213 0.037818067 0.99533331 -0.075296134
1149569811.3208 0.99672294 -0.078935146 0.002476674 0.037807517 0.0025686272 0.038152661 0.99540293 -0.076112971
1159566037.7358 0.99652517 -0.079707026 0.0025478248 0.038082264 0.002628101 0.038450569 0.99555147 -0.077033162
1169562264.1509 0.9964335 -0.080313802 0.0024925917 0.038403705 0.0026381314 0.038765036 0.99535877 -0.077926576
1179558490.566 0.99632138 -0.080990881 0.0025138021 0.038764808 0.0026484232 0.039172698 0.99525249 -0.078594312
1189554716.9811 0.99633527 -0.081795454 0.0025719982 0.039118715 0.0026959004 0.039492223 0.99498147 -0.0791789
1199550943.3962 0.99627829 -0.082633048 0.0026072934 0.039474402 0.0027481653 0.039807178 0.99477029 -0.079583466
1209547169.8113 0.99608308 -0.083513469 0.0026683845 0.039810561 0.0027524959 0.040153917 0.99475378 -0.079878658
1219543396.2264 0.9959048 -0.084370077 0.0026985263 0.040154476 0.0028412817 0.04052316 0.99478382 -0.080268025
1229539622.6415 0.99568081 -0.08519128 0.0028004386 0.0404948 0.0029054713 0.040902574 0.99491262 -0.080976158
1239535849.0566 0.99523979 -0.085789412 0.0028270716 0.040778607 0.0029389523 0.041153889 0.99500734 -0.081912875
1249532075.4717 0.99494416 -0.086523831 0.0028715613 0.04110036 0.0030807573 0.041452605 0.99482679 -0.08274138
1259528301.8868 0.99480546 -0.086901128 0.0029187743 0.041442167 0.0030921083 0.041796148 0.99458468 -0.083674043
1269524528.3019 0.99465913 -0.08776176 0.0030044802 0.041735031 0.0031829234 0.042091902 0.99437815 -0.084243059
1279520754.717 0.99439073 -0.088420972 0.0030593993 0.042032991 0.003208475 0.042391852 0.99415249 -0.084775448
1289516981.1321 0.9942373 -0.089221597 0.0030908808 0.042313088 0.0032457057 0.042678274 0.99418879 -0.085322917
1299513207.5472 0.99386644 -0.090149313 0.0031130351 0.042629328 0.003223408 0.042997494 0.99428988 -0.085725963
1309509433.9623 0.99343276 -0.090773225 0.0030964389 0.042940155 0.0032549817 0.043283891 0.99443775 -0.086433321
1319505660.3774 0.99308068 -0.091485918 0.0031292299 0.043275774 0.0032911915 0.043612711 0.99437225 -0.08707349
1329501886.7925 0.99277723 -0.09208402 0.003117064 0.04361733 0.0032873638 0.043953344 0.99441862 -0.087938488
1339498113.2075 0.99250579 -0.092691034 0.0031579277 0.04393547 0.0033157198 0.044272549 0.994021 -0.088698238
1349494339.6226 0.99232322 -0.093269132 0.0031449934 0.04426676 0.0032988945 0.044586606 0.99362868 -0.089356139
1359490566.0377 0.99218035 -0.093842834 0.0031476021 0.044631205 0.0033126716 0.044967238 0.99343157 -0.089858741
1369486792.4528 0.99192369 -0.094352901 0.0031673508 0.045017175 0.0032839943 0.045312192 0.99331099 -0.090278238
1379483018.8679 0.99171615 -0.094955146 0.0031925107 0.045392059 0.0032863286 0.045645803 0.99324298 -0.090648308
1389479245.283 0.99132311 -0.095480323 0.0032279287 0.045730218 0.0033482052 0.046038736 0.99326521 -0.091352284
1399475471.6981 0.99099249 -0.095767885 0.0032691434 0.04610179 0.0033657122 0.046410143 0.99345267 -0.09198162
1409471698.1132 0.99062568 -0.096263818 0.0033155705 0.046430707 0.0034135457 0.046765469 0.99334615 -0.092798688
1419467924.5283 0.99046504 -0.096494138 0.0032973699 0.046867296 0.0034251716 0.047128152 0.99327159 -0.093477517
1429464150.9434 0.99036282 -0.096977204 0.0033470429 0.047244176 0.0034357347 0.047565408 0.99314582 -0.094077379
1439460377.3585 0.99047202 -0.097381309 0.003436151 0.047724545 0.0035123536 0.048024107 0.99293721 -0.094430581
1449456603.7736 0.99047899 -0.097961843 0.0035560988 0.048107486 0.0036177589 0.048392501 0.99279773 -0.094793767
1459452830.1887 0.9904784 -0.098653227 0.003706757 0.048494741 0.0037682559 0.048777726 0.99287146 -0.095113903
1469449056.6038 0.99049693 -0.09932515 0.0038599968 0.048832715 0.0038845344 0.0491376 0.99319667 -0.095745534
1479445283.0189 0.99038559 -0.09987171 0.003965172 0.049115185 0.003989609 0.049439076 0.99321383 -0.096628428
1489441509.434 0.9903124 -0.10040295 0.0040862001 0.049400665 0.0041491892 0.049736686 0.99312592 -0.097505093
1499437735.8491 0.99012256 -0.10076588 0.0042067934 0.049730867 0.0042678863 0.050011851 0.99299651 -0.098358482
1509433962.2642 0.99014568 -0.10130056 0.0043232637 0.049985178 0.0042966083 0.050311066 0.99284029 -0.099026963
1519430188.6792 0.9902156 -0.10183844 0.004344685 0.050266258 0.0043880492 0.050591033 0.99262321 -0.099643141
1529426415.0943 0.99024451 -0.10246816 0.0044486746 0.050543927 0.0044488348 0.050840054 0.9924922 -0.10005122
1539422641.5094 0.99020934 -0.10329045 0.0044837366 0.050826684 0.0044700606 0.051158935 0.99256027 -0.10054227
1549418867.9245 0.99006289 -0.10402451 0.0045395922 0.051088728 0.0045558093 0.051469833 0.99285471 -0.10121772
1559415094.3396 0.98998189 -0.1047028 0.0046058912 0.051406756 0.004587248 0.051753506 0.9930017 -0.10186255
1569411320.7547 0.98986125 -0.10546285 0.0046289023 0.051686507 0.0046599805 0.052036062 0.99286282 -0.10271989
1579407547.1698 0.98974794 -0.10584471 0.0046168934 0.05191341 0.0046203304 0.052377049 0.99263257 -0.10349746
1589403773.5849 0.98975337 -0.10657364 0.0046404917 0.05223494 0.0046762694 0.052589104 0.99230051 -0.10425183
1599400000 0.98968589 -0.10695767 0.0046503637 0.052538808 0.0046209572 0.052907698 0.99191552 -0.10470116
1609396226.4151 0.98960131 -0.10767987 0.0046443972 0.052893315 0.0046294201 0.053272691 0.99171066 -0.1052875
1619392452.8302 0.98962057 -0.10827896 0.0046518333 0.053216793 0.0046464838 0.053623058 0.99174172 -0.10566527
1629388679.2453 0.98942733 -0.10900167 0.0046651661 0.05354603 0.0046536345 0.053983804 0.99197334 -0.10623264
1639384905.6604 0.98922473 -0.10964233 0.004632974 0.053905051 0.0046513411 0.05433245 0.99218082 -0.1070469
1649381132.0755 0.9890604 -0.11024579 0.0046724696 0.054259729 0.0046707615 0.054688185 0.99219131 -0.10800469
1659377358.4906 0.98883307 -0.1111092 0.0046901517 0.054659523 0.0047029965 0.055066273 0.99213803 -0.10884714
1669373584.9057 0.98871082 -0.11153275 0.004757904 0.05501594 0.0047371211 0.055452876 0.99191898 -0.10951044
1679369811.3208 0.98881167 -0.11215824 0.0047735805 0.055388063 0.0047700386 0.055838536 0.99159276 -0.11000752
1689366037.7358 0.98884237 -0.1128577 0.0048131607 0.055842854 0.0047860444 0.056225412 0.99144006 -0.11028114
1699362264.1509 0.98890293 -0.11342983 0.004926132 0.056130085 0.0048822621 0.056606479 0.99161971 -0.11081401
1709358490.566 0.98882389 -0.11404411 0.0049140295 0.056489479 0.0049479231 0.056954827 0.99172199 -0.11127447
1719354716.9811 0.98853374 -0.11463785 0.0049864389 0.056861892 0.0049623139 0.057391006 0.99168563 -0.11204246
1729350943.3962 0.98833537 -0.11523262 0.0050743502 0.057289228 0.0050540231 0.057772983 0.99170518 -0.11279675
