!Keysight Technologies,N5222B,MY61253708,A.15.00.15
!Date: Wednesday, June 19, 2024 09:49:11
!Correction: S11(C  2-Port  ) 
!S21(C  2-Port  ) 
!S12(C  2-Port  ) 
!S22(C  2-Port  ) 
!S2P File: Measurements: S11, S21, S12, S22:
# Hz S  RI   R 50
10000000 0.99868011 -0.002543956 -0.00011350605 0.00029967303 0.00041862257 0.0002250481 0.99842989 -0.0015989542
19996226.415094 0.99901527 -0.0032917261 -3.2732409e-005 0.00066551066 3.2465672e-005 0.00071970135 0.99953675 -0.0034640431
29992452.830189 0.99970734 -0.0023908019 -5.1770054e-005 0.00099715474 1.0516029e-005 0.00098137883 0.99938112 -0.0027233064
39988679.245283 1.0000885 -0.0030255318 3.4443874e-005 0.0013342666 -2.3571483e-006 0.0013374821 0.99961269 -0.0030682981
49984905.660377 1.0002005 -0.0037311018 1.2847537e-005 0.0016517374 -8.9672976e-006 0.0016650823 0.99981153 -0.0036701262
59981132.075472 1.0004066 -0.0045476556 -2.2287481e-005 0.0020085205 4.1232619e-005 0.0020643882 0.99983299 -0.0042286217
69977358.490566 1.000193 -0.0051047597 -5.7980651e-007 0.0023563507 3.8328286e-005 0.0023175525 0.99960858 -0.004740214
79973584.90566 0.99995512 -0.0057303011 -7.8763114e-006 0.0026745819 2.3708097e-005 0.002689478 0.99939334 -0.0052789748
89969811.320755 0.99997276 -0.0058523417 3.9582956e-005 0.0029777945 1.9098283e-005 0.0029599692 0.99956203 -0.0055464804
99966037.735849 1.0001822 -0.0066120774 1.301046e-005 0.0032969632 1.7589773e-005 0.0033180281 0.99961084 -0.006311968
109962264.15094 1.0002139 -0.0074818134 3.6671874e-005 0.0036820148 1.8106773e-005 0.0036678696 0.99963063 -0.0071276277
119958490.56604 1.0002154 -0.0083610117 2.6816502e-005 0.0039636567 2.1420652e-005 0.0040037925 0.99965978 -0.0079831779
129954716.98113 1.0001495 -0.0093121231 4.7463807e-005 0.0043020425 2.5716843e-005 0.0043543917 0.99964428 -0.0088757575
139950943.39623 1.0001235 -0.010083459 3.9401333e-005 0.0046424828 5.119307e-005 0.0046572643 0.99956608 -0.0096281879
149947169.81132 0.9999904 -0.010777116 4.623807e-005 0.0049668164 3.0703377e-005 0.0049973908 0.99953747 -0.010246605
159943396.22642 0.99995744 -0.011321843 4.7489768e-005 0.0053198412 5.5361772e-005 0.0053298767 0.99960113 -0.010727495
169939622.64151 0.99986416 -0.011733428 8.723425e-005 0.0056415531 6.1888946e-005 0.0056705088 0.99964374 -0.011148691
179935849.0566 1.0000131 -0.012002617 5.2443938e-005 0.0059445631 8.5260137e-005 0.0059891688 0.99950188 -0.011572808
189932075.4717 1.0001156 -0.012797207 7.1756076e-005 0.0062624635 8.6990418e-005 0.0063463715 0.9997586 -0.012066722
199928301.88679 1.0000848 -0.01365146 9.2851813e-005 0.0066278661 0.00010995497 0.0066697383 0.99964142 -0.012956738
209924528.30189 0.99983895 -0.014179274 7.958326e-005 0.0069586653 0.00012059242 0.0070030955 0.99943495 -0.013613224
219920754.71698 0.99993676 -0.01498878 0.00010592747 0.0073059825 0.00011821091 0.0073375655 0.99931097 -0.014257938
229916981.13208 0.99968427 -0.015894562 0.00012401771 0.0076170806 0.0001052185 0.0076738209 0.99926805 -0.01507017
239913207.54717 0.99954075 -0.016561788 0.00011937847 0.0079404041 0.00012440923 0.0080057336 0.99926859 -0.015805271
249909433.96226 0.9995845 -0.017148852 0.00013914588 0.0082715871 0.00015797908 0.0083254157 0.99929988 -0.016410291
259905660.37736 0.99968135 -0.017756969 0.00012334669 0.0086091124 0.00017927494 0.0086624315 0.99950969 -0.016987473
269901886.79245 0.99978507 -0.018401682 0.00013981853 0.0089577949 0.0001581579 0.0089828577 0.99984425 -0.017692074
279898113.20755 0.99986088 -0.019007042 0.00019505084 0.0092855757 0.00017863419 0.0093132583 0.99969721 -0.018457487
289894339.62264 0.99984705 -0.019804001 0.00020109164 0.0096187936 0.00019276561 0.0096558277 0.99959153 -0.019132704
299890566.03774 0.99975735 -0.020313412 0.0001971242 0.0099303089 0.00015887409 0.0099521438 0.99936014 -0.019573599
309886792.45283 0.99951971 -0.020785727 0.00019770698 0.010231676 0.0001955753 0.010325253 0.99922162 -0.020050533
319883018.86792 0.99966288 -0.021396518 0.00021217903 0.010617482 0.00021025445 0.010704385 0.99932313 -0.020496666
329879245.28302 0.99972737 -0.022259176 0.00023385976 0.010959331 0.00021545216 0.011006433 0.99945706 -0.021364421
339875471.69811 0.9996019 -0.023097381 0.00026553706 0.011289705 0.00024011207 0.011328691 0.99939042 -0.022129193
349871698.11321 0.99972653 -0.023801655 0.00030446681 0.011615595 0.00028603175 0.011677947 0.99935508 -0.023005724
359867924.5283 0.99954754 -0.024691671 0.00026235217 0.011944647 0.00029589003 0.011988193 0.99933016 -0.023864269
369864150.9434 0.99964148 -0.025432557 0.00029371283 0.012251135 0.00027533248 0.012328206 0.99934578 -0.024608612
379860377.35849 0.99961847 -0.026152566 0.00031124824 0.012576175 0.00030393805 0.012647877 0.99917984 -0.025312141
389856603.77358 0.99948156 -0.026733965 0.00034946902 0.012865416 0.00030190544 0.012970233 0.99922496 -0.025699854
399852830.18868 0.99930286 -0.027321309 0.00041067693 0.013241658 0.00034078769 0.013310412 0.99932104 -0.026225328
409849056.60377 0.99928558 -0.027783869 0.00038504542 0.013593413 0.00038355929 0.013643874 0.99934 -0.026746068
419845283.01887 0.99915487 -0.028254062 0.00039599603 0.013859191 0.00040237466 0.013981294 0.99928737 -0.027293354
429841509.43396 0.99931633 -0.028772384 0.00037263054 0.014196813 0.00039866287 0.01433306 0.99951792 -0.027978957
439837735.84906 0.99919772 -0.029819354 0.00040720135 0.014535433 0.00044889038 0.014623762 0.99932796 -0.028971598
449833962.26415 0.99904442 -0.030533105 0.0004340196 0.014862362 0.00045698369 0.014966248 0.99898094 -0.029740453
459830188.67925 0.9988603 -0.03120029 0.0004507578 0.015192591 0.00044857943 0.015263349 0.9987607 -0.030504107
469826415.09434 0.99878716 -0.03197071 0.00044956245 0.015526051 0.0004338026 0.015633028 0.99851167 -0.031070948
479822641.50943 0.99880028 -0.032532759 0.00051366352 0.015884539 0.00049787294 0.015990403 0.99855733 -0.031571403
489818867.92453 0.99884754 -0.033065468 0.00050614215 0.016207373 0.0005529765 0.016306525 0.99888372 -0.032070637
499815094.33962 0.99892408 -0.033651948 0.00055755069 0.016530422 0.00057325186 0.016626691 0.99913198 -0.032701164
509811320.75472 0.99898875 -0.034003451 0.00056119764 0.016830301 0.00054963026 0.016960567 0.99918461 -0.033486128
519807547.16981 0.99895841 -0.034590125 0.0005710097 0.017187463 0.00057282485 0.017283633 0.99920601 -0.034222782
529803773.58491 0.99886048 -0.035188138 0.00058631133 0.017523963 0.00058821123 0.01762365 0.99899662 -0.034811825
539800000 0.99896574 -0.035864815 0.00064688246 0.017880352 0.00061373366 0.017954558 0.99882823 -0.035543233
549796226.41509 0.99883616 -0.036717176 0.00063928962 0.018202454 0.00065356912 0.018304212 0.99873036 -0.03601408
559792452.83019 0.99862832 -0.037396729 0.00064384192 0.018518088 0.00067640468 0.018632751 0.99858266 -0.036443293
569788679.24528 0.99853694 -0.038014144 0.00071887951 0.018838249 0.00070762588 0.018972386 0.99873072 -0.037267417
579784905.66038 0.99850309 -0.038653456 0.00067586149 0.019154226 0.00072296918 0.019272463 0.99879509 -0.037975922
589781132.07547 0.99859202 -0.039242357 0.00075410958 0.019503104 0.00075516198 0.019607794 0.99894726 -0.038833588
599777358.49057 0.99871063 -0.039914817 0.00078838877 0.019829212 0.00076735392 0.019967888 0.99894679 -0.039649516
609773584.90566 0.9988125 -0.040623792 0.00083051762 0.020146027 0.00080227031 0.020275906 0.9987902 -0.040483605
619769811.32075 0.99895662 -0.041370541 0.000815826 0.020455586 0.00086242193 0.020610087 0.99875712 -0.041007727
629766037.73585 0.99884272 -0.041957587 0.00087267347 0.020777617 0.00087723322 0.020900978 0.99858487 -0.041478962
639762264.15094 0.99869353 -0.042625308 0.0008553986 0.021103457 0.00091330684 0.021232583 0.99844003 -0.042029604
649758490.56604 0.99860495 -0.043235675 0.00091527542 0.021451605 0.00090520736 0.021528438 0.99853837 -0.04246828
659754716.98113 0.99844456 -0.043670833 0.00089515001 0.021780517 0.00088459905 0.021909194 0.99856669 -0.042960495
669750943.39623 0.99841893 -0.044253618 0.00095458794 0.022111576 0.00090891356 0.022228237 0.9986192 -0.04377988
679747169.81132 0.99846822 -0.044989891 0.00098535314 0.02245917 0.00097418379 0.022606106 0.99854869 -0.044712424
689743396.22642 0.99857062 -0.045771152 0.0010123383 0.022787422 0.00102193 0.022928417 0.99839556 -0.045668095
699739622.64151 0.99871051 -0.046562821 0.0010531144 0.023094414 0.0010536229 0.023242995 0.99838853 -0.046348929
709735849.0566 0.99868804 -0.047407225 0.0011102954 0.023444314 0.0011045032 0.023565181 0.99813938 -0.046933301
719732075.4717 0.99855232 -0.048191547 0.0011379691 0.023755033 0.0011452041 0.023884876 0.9981913 -0.047523648
729728301.88679 0.99849069 -0.048734218 0.0011939071 0.024072297 0.0011602174 0.024211332 0.99825799 -0.047971636
739724528.30189 0.99837148 -0.049385533 0.0012228969 0.024370648 0.0011841203 0.024511261 0.99838048 -0.048705071
749720754.71698 0.9982267 -0.049975976 0.0012374562 0.024683386 0.0012278417 0.024858741 0.99837381 -0.049401224
759716981.13208 0.9982841 -0.050438374 0.0012624171 0.025006112 0.0012598196 0.025187826 0.99836636 -0.050152957
769713207.54717 0.99822187 -0.051108062 0.0012926357 0.025359195 0.0013260534 0.025472598 0.99814367 -0.050819725
779709433.96226 0.99836278 -0.051786549 0.0013024588 0.025674418 0.0013233442 0.025809545 0.99793243 -0.051460098
789705660.37736 0.99821907 -0.052662253 0.0013640197 0.025988469 0.0013634702 0.026161518 0.99764431 -0.052213818
799701886.79245 0.99817348 -0.05340451 0.0013838392 0.026326736 0.0013938537 0.026478104 0.99755567 -0.052764386
809698113.20755 0.99812841 -0.054019243 0.0014045276 0.026662365 0.0014114107 0.026803974 0.99758416 -0.053183779
819694339.62264 0.99795991 -0.054630041 0.0014347797 0.026943618 0.0014445395 0.027110478 0.9977144 -0.05377844
829690566.03774 0.9979195 -0.055204988 0.0014753966 0.027255408 0.0014730021 0.027435679 0.99795055 -0.054709703
839686792.45283 0.99793506 -0.05574134 0.0014569308 0.027582748 0.0015098564 0.027756769 0.99795288 -0.055517882
849683018.86792 0.99810928 -0.056405656 0.0015107363 0.027944254 0.0015528023 0.028101854 0.99785805 -0.05623021
859679245.28302 0.99809134 -0.057136565 0.0015491704 0.028253503 0.0015480872 0.028449347 0.99758208 -0.056890965
869675471.69811 0.99803025 -0.057809144 0.0016027763 0.028568221 0.0016054381 0.028751191 0.99730408 -0.057423264
879671698.11321 0.99799973 -0.058423929 0.0016531799 0.028891137 0.0016599155 0.029064894 0.997316 -0.057890177
889667924.5283 0.99780136 -0.059320509 0.0016481886 0.029193234 0.0016827928 0.029386334 0.99715137 -0.058355868
899664150.9434 0.99757338 -0.05997327 0.0016878247 0.029490635 0.0016914029 0.029716149 0.99716139 -0.058913678
909660377.35849 0.9975704 -0.060642943 0.0017111828 0.029816568 0.0017152866 0.030038828 0.99733913 -0.059811488
919656603.77358 0.99770588 -0.061267689 0.0017226501 0.03013272 0.0017539044 0.030361531 0.9973734 -0.060670495
929652830.18868 0.99765146 -0.062006921 0.0017612912 0.030449513 0.0017823968 0.030643852 0.99715662 -0.061589122
939649056.60377 0.99783534 -0.062619895 0.0017557116 0.0307515 0.0017928155 0.030978648 0.99702752 -0.06227529
949645283.01887 0.99775666 -0.063464805 0.0017505854 0.031116011 0.0018026847 0.031330347 0.99678373 -0.062884085
959641509.43396 0.99770361 -0.064188302 0.0018101456 0.031448912 0.0018225992 0.031662278 0.99672693 -0.063371599
969637735.84906 0.99765515 -0.06480509 0.0018636985 0.031814519 0.0018710457 0.032019205 0.99676836 -0.06378141
979633962.26415 0.99751681 -0.065547012 0.0019169834 0.032101173 0.0019166761 0.032354157 0.99680096 -0.064373016
989630188.67925 0.99750847 -0.066067785 0.0019611884 0.032422829 0.0019529201 0.032667767 0.99696189 -0.064953774
999626415.09434 0.99758554 -0.06676811 0.0019952375 0.032730617 0.0019911779 0.032990679 0.99685967 -0.065805942
1009622641.5094 0.99761087 -0.067424506 0.002005294 0.033085093 0.0020527039 0.033354744 0.99678099 -0.066591904
1019618867.9245 0.99765408 -0.068224862 0.0020889295 0.033427332 0.002104817 0.033640869 0.99646318 -0.067407578
1029615094.3396 0.99766189 -0.069087386 0.0021066144 0.033739824 0.00212966 0.033938996 0.99614775 -0.068030149
1039611320.7547 0.99763501 -0.069895983 0.0021390691 0.034017224 0.0021729404 0.03424985 0.99608934 -0.068670958
1049607547.1698 0.99755257 -0.070843019 0.002186557 0.034324519 0.002209346 0.034582123 0.99609476 -0.069320127
1059603773.5849 0.99744159 -0.07152158 0.0021855198 0.034644283 0.0022409158 0.034876619 0.99606717 -0.069804132
1069600000 0.99727613 -0.072181463 0.0021987464 0.034942165 0.0022360524 0.035221592 0.99624258 -0.070594788
1079596226.4151 0.99719602 -0.072848231 0.002226511 0.035292093 0.002296119 0.035531435 0.99621654 -0.071291842
1089592452.8302 0.99730957 -0.073497206 0.0022406597 0.035636 0.0022953153 0.035848834 0.9961893 -0.072036207
1099588679.2453 0.99740839 -0.074139863 0.0022679586 0.035938792 0.002311727 0.036204584 0.99587917 -0.072651446
1109584905.6604 0.99739683 -0.074963793 0.0022891723 0.036271989 0.0023452556 0.036534194 0.99569607 -0.073171437
1119581132.0755 0.99731451 -0.075963825 0.0022965516 0.036617894 0.0023815972 0.036888532 0.99540424 -0.073651165
1129577358.4906 0.99720228 -0.076628983 0.002345046 0.036970377 0.0024121143 0.037241105 0.99533904 -0.07404682
1139573584.9057 0.99691975 -0.077596843 0.0023881616 0.037308067 0.0024409061 0.037553664 0.99543393 -0.074734688
1149569811.3208 0.99685013 -0.078330815 0.0024338914 0.037615739 0.0025145793 0.037893984 0.99552858 -0.075428739
1159566037.7358 0.99662387 -0.079043388 0.0024741003 0.037908562 0.0025149928 0.038191002 0.99565542 -0.076436877
1169562264.1509 0.99645454 -0.079736888 0.0024891272 0.038258262 0.0025535766 0.03854648 0.99545342 -0.077283353
1179558490.566 0.99646038 -0.080571339 0.0024762896 0.038600221 0.0026019779 0.038900752 0.995336 -0.078001045
1189554716.9811 0.99644393 -0.081250042 0.0025535729 0.038929291 0.0026323171 0.039225236 0.99503732 -0.078512847
1199550943.3962 0.99634874 -0.082093298 0.0025702883 0.039312452 0.0027134828 0.039556533 0.99491727 -0.078938395
1209547169.8113 0.99619013 -0.082949117 0.002619152 0.039628182 0.0027041063 0.039891727 0.99484342 -0.079257607
1219543396.2264 0.99601674 -0.083766714 0.0026630615 0.039990563 0.0028007706 0.040225282 0.99484742 -0.07966888
1229539622.6415 0.9957478 -0.084504575 0.0027237013 0.040307328 0.0028283689 0.040564995 0.99504137 -0.080323011
1239535849.0566 0.9954685 -0.085134923 0.0027911533 0.040625177 0.0029158769 0.040869091 0.99509746 -0.081203103
1249532075.4717 0.99514109 -0.085823074 0.0028549472 0.04095763 0.0029853047 0.041152105 0.99503571 -0.082052544
1259528301.8868 0.9950068 -0.086349308 0.0028994493 0.041293032 0.0030270796 0.041504778 0.99471641 -0.082892984
1269524528.3019 0.99482059 -0.087076545 0.0029749647 0.041588672 0.0031174999 0.041808043 0.99453157 -0.083590448
1279520754.717 0.99447525 -0.087796718 0.0030036273 0.041849915 0.0031537316 0.042101361 0.99426812 -0.084185101
1289516981.1321 0.99433994 -0.088608384 0.003011656 0.042158309 0.0031667072 0.04236063 0.99432838 -0.084571898
1299513207.5472 0.99404806 -0.089436829 0.0030474663 0.042476024 0.0031702761 0.042704802 0.99435318 -0.084984869
1309509433.9623 0.99362826 -0.090163618 0.0030533653 0.042764522 0.0031716777 0.043010335 0.99454653 -0.085724428
1319505660.3774 0.99325007 -0.090922937 0.0030609947 0.043135583 0.0031850571 0.043304872 0.99454176 -0.086390823
1329501886.7925 0.99298543 -0.091579974 0.0030564331 0.043460347 0.0032151919 0.043620307 0.99450481 -0.087322831
1339498113.2075 0.99267125 -0.092050493 0.0031137988 0.043750066 0.003214906 0.043960951 0.9941842 -0.088066638
1349494339.6226 0.99254584 -0.092666768 0.0031173727 0.044082422 0.0032164836 0.044308171 0.99379885 -0.088603064
1359490566.0377 0.99244952 -0.093214184 0.0031024255 0.044453394 0.0032281671 0.044639252 0.9936856 -0.089127243
1369486792.4528 0.99224555 -0.093743205 0.0031270888 0.044848599 0.0032506008 0.044982567 0.99343336 -0.089605421
1379483018.8679 0.99193799 -0.094214067 0.0031205011 0.045181185 0.0032360971 0.04534056 0.99349028 -0.089975968
1389479245.283 0.99162883 -0.094804078 0.0032000337 0.045528002 0.0032955837 0.045724303 0.99342704 -0.090601593
1399475471.6981 0.99124086 -0.095089287 0.0032109041 0.045892335 0.0032806806 0.046082191 0.99361259 -0.091320515
1409471698.1132 0.99088526 -0.095531821 0.0032388873 0.046266068 0.0033427761 0.046473566 0.99364132 -0.092142835
1419467924.5283 0.9906798 -0.095938832 0.0032689795 0.046661973 0.0033361595 0.046843223 0.99348491 -0.092900455
1429464150.9434 0.99063247 -0.096405864 0.003316937 0.047066174 0.0033737347 0.047215298 0.99332011 -0.093346417
1439460377.3585 0.99071312 -0.096796617 0.0034028683 0.047521211 0.0034500007 0.047641791 0.993159 -0.093755245
1449456603.7736 0.99072701 -0.097322896 0.0035047876 0.04788278 0.0035602599 0.048061077 0.99300295 -0.094085991
1459452830.1887 0.9907465 -0.097983062 0.0036200266 0.048312467 0.0036644563 0.048464574 0.99310523 -0.09437412
1469449056.6038 0.99081314 -0.098640233 0.0037773969 0.048627712 0.0038228594 0.048806224 0.99336958 -0.095021456
1479445283.0189 0.99064302 -0.099310905 0.0038914236 0.048905589 0.003912271 0.049091499 0.99340647 -0.095936894
1489441509.434 0.99060577 -0.099765748 0.0040349383 0.049230367 0.0040954985 0.049418587 0.99326724 -0.096820712
1499437735.8491 0.99038815 -0.10007706 0.0041625295 0.049508035 0.0041719992 0.049688112 0.99318236 -0.097625285
1509433962.2642 0.99042475 -0.10053803 0.0042317347 0.04977477 0.0042376216 0.04996815 0.99302262 -0.098311529
1519430188.6792 0.99049497 -0.10119599 0.0042891353 0.050032258 0.0043058097 0.050207518 0.99284697 -0.098885566
1529426415.0943 0.99048913 -0.10186085 0.0043563005 0.050310317 0.0043571517 0.050536737 0.99280035 -0.099327862
1539422641.5094 0.99052435 -0.10266937 0.004399484 0.050640304 0.0044133016 0.050839692 0.99286139 -0.09982831
1549418867.9245 0.99033874 -0.10343663 0.0044741211 0.050897948 0.0045001274 0.051122807 0.99309874 -0.10049202
1559415094.3396 0.99023259 -0.10408589 0.0045171976 0.05117505 0.0045466311 0.0514194 0.99322641 -0.10114422
1569411320.7547 0.9901185 -0.10485634 0.0045460872 0.051451098 0.0045100721 0.051685296 0.99310452 -0.10195521
1579407547.1698 0.99002242 -0.10527483 0.0045700939 0.051706374 0.0045939405 0.051974487 0.9927153 -0.10280842
1589403773.5849 0.98992932 -0.10592297 0.0045954268 0.052034512 0.0046218149 0.052298959 0.99259853 -0.10340217
1599400000 0.98993123 -0.10636404 0.0045496644 0.052342039 0.0045464607 0.052572913 0.99212724 -0.10395554
1609396226.4151 0.98988867 -0.10701372 0.0045577586 0.05267984 0.0045597884 0.052892562 0.99198157 -0.10451847
1619392452.8302 0.98983192 -0.10762826 0.0045857355 0.05300799 0.0045726784 0.053259835 0.9918955 -0.10489717
1629388679.2453 0.98966402 -0.1082752 0.0045960248 0.053348232 0.0045286417 0.053621098 0.99222583 -0.10543707
1639384905.6604 0.98943752 -0.10895287 0.0046079643 0.053696897 0.0045411466 0.053965479 0.99236065 -0.10633178
1649381132.0755 0.9893297 -0.10965088 0.0045978334 0.054054499 0.0045809094 0.054352634 0.99240702 -0.10718337
1659377358.4906 0.98912525 -0.11043516 0.0046357475 0.054434627 0.0046289507 0.054712377 0.99236691 -0.10802999
1669373584.9057 0.98901641 -0.11086519 0.0046830876 0.054800317 0.0046529011 0.055073116 0.99204046 -0.10870263
1679369811.3208 0.98909128 -0.1115613 0.0046929186 0.055136178 0.0047057094 0.055467881 0.99189365 -0.10920006
1689366037.7358 0.98899841 -0.11216679 0.004740173 0.055533893 0.0047553349 0.055851858 0.99171579 -0.10957095
1699362264.1509 0.98920488 -0.11275436 0.0048489291 0.055923171 0.0047913408 0.056233928 0.99191362 -0.1100567
1709358490.566 0.98912311 -0.11338739 0.0048577171 0.05630422 0.0048498437 0.056605924 0.99189901 -0.11054265
1719354716.9811 0.98883069 -0.11398149 0.0049187019 0.056615695 0.0048645847 0.056984786 0.99195254 -0.11118862
