!Keysight Technologies,N5222B,MY61253708,A.15.00.15
!Date: Wednesday, June 19, 2024 10:22:03
!Correction: S11(C  2-Port  ) 
!S21(C  2-Port  ) 
!S12(C  2-Port  ) 
!S22(C  2-Port  ) 
!S2P File: Measurements: S11, S21, S12, S22:
# Hz S  RI   R 50
10000000 0.9982239 -0.0031775832 8.9316003e-005 0.00022999379 -0.00013924789 6.6884793e-005 0.9984585 -0.0015491247
19996226.415094 0.99990106 -0.0024098158 -6.8818917e-006 0.00073076051 7.8523415e-005 0.0005835488 1.000157 -0.0024025142
29992452.830189 0.99960089 -0.0024859905 5.9902814e-005 0.00094999903 5.7128491e-005 0.00099046482 0.99952912 -0.0026824474
39988679.245283 1.0000379 -0.0030154288 -4.9629016e-006 0.0013658402 3.2182579e-006 0.0013233299 0.99970698 -0.0031025559
49984905.660377 1.0001925 -0.0036419034 -9.7735319e-006 0.0016459035 1.7635815e-005 0.001606031 0.99992031 -0.00364241
59981132.075472 1.0003588 -0.004511714 2.3800123e-005 0.001941618 6.063492e-006 0.0019847464 0.99990439 -0.0041359365
69977358.490566 1.0001268 -0.0051235352 2.6015838e-005 0.0023032136 3.553382e-005 0.0022668734 0.99973845 -0.0047148969
79973584.90566 0.99989414 -0.0057034791 1.6276841e-005 0.0026284014 1.1708122e-005 0.0026510262 0.99939662 -0.0051215291
89969811.320755 0.99990594 -0.0056944788 2.1967571e-005 0.0029647863 -4.80772e-006 0.002943371 0.99964321 -0.005345732
99966037.735849 1.0001388 -0.0064630806 2.536719e-005 0.0032709613 1.4161982e-005 0.0032765821 0.99977857 -0.0061214417
109962264.15094 1.0001543 -0.0073545426 1.8264982e-005 0.003587499 4.2712956e-005 0.0036165973 0.99975246 -0.0068929046
119958490.56604 1.000154 -0.0082436204 4.1891239e-005 0.0039201914 2.6014168e-005 0.0039434042 0.99978411 -0.0077364743
129954716.98113 1.0001392 -0.0092181265 1.7902697e-005 0.0042461623 3.8534519e-005 0.0042552403 0.99979258 -0.0086227953
139950943.39623 1.0000577 -0.010019746 6.7642541e-006 0.0045746453 4.7600552e-005 0.0045893625 0.99968159 -0.0093106087
149947169.81132 0.99992526 -0.010652602 5.3879106e-005 0.0049339794 4.9376395e-005 0.0049094567 0.99964321 -0.0099281967
159943396.22642 0.9998709 -0.011225432 5.5459095e-005 0.0052382872 5.3609256e-005 0.0052372795 0.99970937 -0.010375023
169939622.64151 0.99985784 -0.011548489 6.003218e-005 0.0055573708 5.4339762e-005 0.0055759139 0.9997527 -0.010787942
179935849.0566 0.99990809 -0.01185897 7.4182986e-005 0.0058655296 7.3837698e-005 0.0058955126 0.99967963 -0.011185557
189932075.4717 1.0000219 -0.012647271 0.00010733632 0.0062000472 0.00010123127 0.006225206 0.99987113 -0.011688262
199928301.88679 0.9998858 -0.013446599 6.9541624e-005 0.0065292064 8.5728709e-005 0.0065504867 0.99979419 -0.012607962
209924528.30189 0.99974519 -0.013943523 8.0533791e-005 0.0068736658 8.4964209e-005 0.0068503628 0.99958122 -0.013253614
219920754.71698 0.99989235 -0.014728546 0.00011856738 0.0072053149 0.00011307793 0.0071899407 0.99943101 -0.01384604
229916981.13208 0.99967682 -0.015636772 0.00012904103 0.007548599 0.00012893626 0.0075151715 0.99940854 -0.014622867
239913207.54717 0.99951649 -0.016345937 0.00013020875 0.0078123747 0.00010484604 0.0078486968 0.99940938 -0.015324926
249909433.96226 0.99951875 -0.016893148 0.00014868402 0.0081607364 0.00013378984 0.0081696734 0.99947733 -0.015928745
259905660.37736 0.99961209 -0.017520279 0.00014114287 0.0085055623 0.00012236368 0.0084990822 0.99968266 -0.016430408
269901886.79245 0.99970806 -0.018113986 0.00019741431 0.008819432 0.00017383508 0.0088212574 1.0000333 -0.01707913
279898113.20755 0.99983376 -0.018758178 0.00013889698 0.0091759963 0.00020732684 0.0091829952 0.9998613 -0.017885745
289894339.62264 0.9998188 -0.019676954 0.00016064197 0.0094577605 0.00018024165 0.009446959 0.99979413 -0.018645972
299890566.03774 0.99978495 -0.02008608 0.00020076521 0.0097960094 0.00020987354 0.0098014055 0.99952281 -0.019071519
309886792.45283 0.99950409 -0.0206175 0.0002013609 0.010145971 0.00022045593 0.010148924 0.99939567 -0.019458629
319883018.86792 0.99965358 -0.021247804 0.00021363422 0.010433627 0.00025391346 0.01047562 0.99956739 -0.019991815
329879245.28302 0.99968851 -0.021974951 0.00021416973 0.010785901 0.00023514265 0.010781744 0.99971795 -0.020744622
339875471.69811 0.99944925 -0.022733852 0.00024036912 0.011150924 0.00025192089 0.011127669 0.99960554 -0.021548606
349871698.11321 0.99971449 -0.023542166 0.0002820252 0.011466004 0.00025468739 0.01147159 0.99965972 -0.0224998
359867924.5283 0.99950433 -0.024326205 0.00028117187 0.011760289 0.00029429467 0.011740454 0.9995805 -0.023358345
369864150.9434 0.99969119 -0.025152624 0.00027619954 0.012083577 0.00029741996 0.012132072 0.99962217 -0.024108648
379860377.35849 0.99959469 -0.025735393 0.00034641521 0.012396483 0.0003003641 0.012421352 0.99952346 -0.024830014
389856603.77358 0.9994415 -0.026373506 0.00031107059 0.01274273 0.00034384336 0.012733025 0.99948037 -0.025294691
399852830.18868 0.9993059 -0.026979923 0.00037699845 0.013081567 0.00037133088 0.013049629 0.99949795 -0.025783986
409849056.60377 0.99922282 -0.027483789 0.00035904322 0.013390992 0.00036709048 0.013384568 0.99948806 -0.026340265
419845283.01887 0.99922734 -0.027840614 0.00037830649 0.013708215 0.00039448682 0.013761664 0.99932718 -0.026840866
429841509.43396 0.9993276 -0.028604418 0.00042619836 0.014043583 0.00039725518 0.014046027 0.99951386 -0.027629852
439837735.84906 0.99919522 -0.029450983 0.00045878196 0.014347475 0.00041123701 0.01436306 0.99921423 -0.028608099
449833962.26415 0.99893701 -0.030288756 0.00043132529 0.014643749 0.00043735746 0.014663517 0.99875969 -0.029379994
459830188.67925 0.9988091 -0.030929893 0.00043356558 0.014997404 0.00045888871 0.014981885 0.99847347 -0.030018896
469826415.09434 0.9987002 -0.031606346 0.00043066777 0.015316918 0.00044709025 0.015327049 0.99818599 -0.030519068
479822641.50943 0.99864483 -0.03215076 0.00044379476 0.015676709 0.00049249968 0.015677098 0.99817371 -0.030836195
489818867.92453 0.99884462 -0.032672942 0.00054366607 0.015956996 0.00054288283 0.016021186 0.99845874 -0.031252295
499815094.33962 0.99883139 -0.033305496 0.00055917492 0.01630605 0.00055174576 0.016335906 0.99879712 -0.031773537
509811320.75472 0.99892861 -0.033661775 0.0005650479 0.016604204 0.00055511016 0.01664318 0.998905 -0.032576833
519807547.16981 0.99878097 -0.034151942 0.00061449641 0.016920932 0.00055949762 0.016966304 0.99891782 -0.033229142
529803773.58491 0.99879217 -0.0347431 0.00056652445 0.017242828 0.00058902986 0.0172721 0.9986462 -0.033742428
539800000 0.99891293 -0.035423711 0.00056979898 0.017629409 0.0006180529 0.017623708 0.99848771 -0.034400016
549796226.41509 0.99884576 -0.036270469 0.00058802776 0.017954597 0.00062942365 0.017935144 0.99837577 -0.03476274
559792452.83019 0.99861985 -0.036919892 0.00066414382 0.018214468 0.00065025501 0.018294735 0.99838769 -0.035268098
569788679.24528 0.99847889 -0.037560344 0.00067699375 0.018580094 0.00067237671 0.018602254 0.99856049 -0.035981506
579784905.66038 0.99848509 -0.038193688 0.00069443381 0.018866295 0.0006737659 0.018883221 0.99870133 -0.03663604
589781132.07547 0.99866033 -0.038813233 0.00073783007 0.019222606 0.00073901005 0.019240227 0.99885309 -0.03753832
599777358.49057 0.9987309 -0.039418608 0.00074857846 0.019559957 0.00072086696 0.019605821 0.99890411 -0.038305223
609773584.90566 0.99881744 -0.040232778 0.00075583463 0.019905604 0.00077411742 0.019916674 0.99881911 -0.039113738
619769811.32075 0.99890125 -0.040813923 0.00079356646 0.020198807 0.00084598456 0.020212036 0.99882436 -0.039691776
629766037.73585 0.99881172 -0.041496515 0.00085771736 0.020510472 0.00086629577 0.020533415 0.9986558 -0.04011175
639762264.15094 0.99866861 -0.042128727 0.00089071342 0.020829441 0.00086853351 0.020851547 0.99852854 -0.040603861
649758490.56604 0.99859869 -0.042716697 0.00087476801 0.021136515 0.00084575312 0.021175036 0.99857366 -0.040997267
659754716.98113 0.99835473 -0.043210268 0.00090094656 0.021441702 0.00086387619 0.021505306 0.99871963 -0.041656077
669750943.39623 0.99838746 -0.043788463 0.00090266531 0.021810429 0.000919763 0.021851212 0.99881828 -0.042403162
679747169.81132 0.99843854 -0.044424735 0.00094643654 0.022186751 0.00092858681 0.022164397 0.99872649 -0.043335371
689743396.22642 0.99855268 -0.045255959 0.00097358879 0.022482511 0.00099694636 0.022521596 0.99862003 -0.044264793
699739622.64151 0.99864089 -0.046083212 0.001016289 0.022792961 0.0010243263 0.022825267 0.99859178 -0.045037955
709735849.0566 0.99865186 -0.046904281 0.0010908392 0.023101877 0.0010586297 0.023160664 0.99834222 -0.045688443
719732075.4717 0.99861664 -0.04769963 0.0010958975 0.023431167 0.0011049714 0.023439268 0.99838507 -0.046231687
729728301.88679 0.99844754 -0.048149347 0.0011237171 0.023743106 0.0011135433 0.02379458 0.99844599 -0.046750665
739724528.30189 0.9983446 -0.048779562 0.0011484446 0.024060288 0.0011667898 0.024076056 0.99855959 -0.047396332
749720754.71698 0.99820554 -0.049288467 0.0012062355 0.02439557 0.0012046909 0.024420463 0.99860328 -0.048127651
759716981.13208 0.99830008 -0.049815923 0.0012019901 0.02470657 0.0012118695 0.024725862 0.99856412 -0.04886809
769713207.54717 0.99825621 -0.050602853 0.0012383321 0.025026048 0.001246905 0.025048515 0.99830949 -0.049614847
779709433.96226 0.99839038 -0.051237218 0.0012724207 0.025325909 0.0013110556 0.025373243 0.99799526 -0.050238296
789705660.37736 0.99821734 -0.052012593 0.0013231812 0.025648447 0.0013145711 0.025700577 0.9978112 -0.050993711
799701886.79245 0.99815863 -0.052890629 0.0013293 0.025982792 0.0013375003 0.025996765 0.9976455 -0.051524162
809698113.20755 0.99812418 -0.053466678 0.0013835032 0.026277333 0.0013285233 0.026350971 0.99760932 -0.0519941
819694339.62264 0.99790567 -0.054107159 0.0014145044 0.026572799 0.0013619824 0.026641365 0.99773324 -0.052537501
829690566.03774 0.99794292 -0.054602444 0.0014159987 0.026892647 0.0014185589 0.026950438 0.99797231 -0.053388208
839686792.45283 0.99800026 -0.055124491 0.0014237408 0.027209198 0.0014666589 0.027284041 0.99798584 -0.054271311
849683018.86792 0.99802554 -0.055726364 0.0015019297 0.027566414 0.0014751635 0.027597474 0.9978683 -0.054906107
859679245.28302 0.99801832 -0.056411922 0.0015178416 0.027839629 0.0015140632 0.027923552 0.99760342 -0.055532783
869675471.69811 0.99796462 -0.057178706 0.0015767608 0.028187141 0.0015468933 0.028245572 0.99724263 -0.056078672
879671698.11321 0.99786246 -0.057885803 0.0016069782 0.028492585 0.0015839176 0.028544584 0.99724042 -0.056466177
889667924.5283 0.99765599 -0.058593005 0.0016172081 0.028783618 0.0015952317 0.028847469 0.99708331 -0.056948185
899664150.9434 0.9975794 -0.059259057 0.0016334848 0.02910291 0.0016216971 0.02913839 0.99712741 -0.057500929
909660377.35849 0.9975481 -0.059978276 0.001611691 0.029420543 0.0016442896 0.029505879 0.99723101 -0.058355823
919656603.77358 0.99764097 -0.060576335 0.0016850992 0.029736597 0.0016909693 0.029800819 0.99721563 -0.059152856
929652830.18868 0.99762654 -0.061291873 0.0017307475 0.030069258 0.0016935933 0.030106885 0.99710858 -0.060072571
939649056.60377 0.99780345 -0.061863899 0.0017083632 0.030363051 0.001687251 0.030405119 0.99698973 -0.060696095
949645283.01887 0.99779522 -0.062623233 0.0016956617 0.030678939 0.0017009149 0.030761624 0.99677461 -0.061224189
959641509.43396 0.99770147 -0.063373893 0.0017433465 0.031051651 0.001771735 0.031112328 0.99663478 -0.061754197
969637735.84906 0.99759901 -0.064090848 0.0017994987 0.031411953 0.0018053167 0.031445131 0.9966749 -0.062065482
979633962.26415 0.99743158 -0.064882785 0.0018478876 0.031681217 0.0018483072 0.031751763 0.9966802 -0.062679388
989630188.67925 0.99749041 -0.065319657 0.0018961662 0.032006528 0.001881849 0.03209807 0.99698669 -0.063285351
999626415.09434 0.99755371 -0.065951467 0.0019106092 0.032336179 0.0019014226 0.032392129 0.99687362 -0.064076245
1009622641.5094 0.99752551 -0.066525906 0.001935381 0.032643374 0.0019471128 0.032736618 0.99674034 -0.064901933
1019618867.9245 0.99760771 -0.067419127 0.0020274641 0.032966599 0.0020318786 0.033054046 0.99650961 -0.065707147
1029615094.3396 0.99762255 -0.068269461 0.002061463 0.033284381 0.0020600455 0.033340558 0.99616849 -0.066279739
1039611320.7547 0.99763352 -0.069130629 0.0021124128 0.033577714 0.0020919489 0.033650201 0.99610889 -0.06687957
1049607547.1698 0.99751168 -0.070075274 0.0021121241 0.033870507 0.002091662 0.033947807 0.99610847 -0.067477562
1059603773.5849 0.99740046 -0.070709914 0.0021420531 0.034163348 0.0021315468 0.034233756 0.99615371 -0.067995727
1069600000 0.99722397 -0.071312666 0.0021275822 0.034489796 0.002133728 0.03457259 0.99626142 -0.068693817
1079596226.4151 0.99720591 -0.071975432 0.0021602144 0.034801498 0.0021838844 0.03491411 0.99626517 -0.069438055
1089592452.8302 0.99723899 -0.072580367 0.0021625599 0.035141677 0.0021956153 0.035218954 0.99624169 -0.070217252
1099588679.2453 0.99728692 -0.073225409 0.0021809917 0.035462976 0.0021963771 0.03554672 0.99594212 -0.070790857
1109584905.6604 0.99739474 -0.074059471 0.0022445424 0.035799388 0.0022354517 0.035865191 0.99578047 -0.071353704
1119581132.0755 0.99742466 -0.074980155 0.0022073789 0.036132932 0.0022593527 0.03622115 0.99556494 -0.07177487
1129577358.4906 0.99722672 -0.075763464 0.0022624526 0.036471866 0.0022907685 0.036571611 0.99546492 -0.072245628
1139573584.9057 0.99697667 -0.076625884 0.0023001414 0.03681023 0.0023632841 0.036920451 0.99555016 -0.072896898
1149569811.3208 0.99688828 -0.077510364 0.0023667198 0.037087277 0.0023927402 0.03721033 0.99570149 -0.073556662
1159566037.7358 0.99665952 -0.078158826 0.0023947181 0.037419155 0.0024283165 0.037504122 0.99577534 -0.074577332
1169562264.1509 0.99644756 -0.078721374 0.002409324 0.037734412 0.0024378076 0.03784468 0.99566817 -0.075390697
1179558490.566 0.99658239 -0.079496846 0.0024119737 0.038104113 0.0024746126 0.038187888 0.9955197 -0.07605198
1189554716.9811 0.99646455 -0.080181211 0.0024354793 0.038427066 0.0025591273 0.038492344 0.99521327 -0.076587051
1199550943.3962 0.99641538 -0.081050605 0.0025057103 0.03876102 0.0025561154 0.038850226 0.99505305 -0.077029705
1209547169.8113 0.99628693 -0.081976041 0.0024935463 0.039111335 0.0025751283 0.039158322 0.99495375 -0.077366263
1219543396.2264 0.99605376 -0.082782075 0.0025852695 0.039448746 0.0026402087 0.039538976 0.99504286 -0.077687547
1229539622.6415 0.99582887 -0.083485574 0.0026736818 0.039792217 0.0026837531 0.039866436 0.99525666 -0.07840845
1239535849.0566 0.99559778 -0.084231049 0.0027058683 0.040087238 0.0027589696 0.040167943 0.99533975 -0.079311103
1249532075.4717 0.99534708 -0.0848355 0.002744843 0.040409699 0.0028601589 0.04047564 0.99510962 -0.080189653
1259528301.8868 0.99505448 -0.085335165 0.0028017405 0.04071413 0.0028945673 0.040773984 0.99487519 -0.081007361
1269524528.3019 0.99495035 -0.086081326 0.0028690193 0.041023053 0.0029788874 0.041060694 0.99465871 -0.081690043
1279520754.717 0.9946003 -0.086772978 0.0029058883 0.041308288 0.0030204812 0.041357391 0.9944846 -0.082185395
1289516981.1321 0.99450874 -0.087629437 0.002939404 0.041621529 0.0030156411 0.041615907 0.99450988 -0.082636237
1299513207.5472 0.99420059 -0.08844018 0.0029389579 0.041896746 0.0030416269 0.041948199 0.9946084 -0.082989275
1309509433.9623 0.99376059 -0.089136973 0.0029817633 0.042195246 0.0030702269 0.04223609 0.9947651 -0.083772048
1319505660.3774 0.993388 -0.089888334 0.0029551825 0.042567879 0.0030648308 0.042534705 0.99474913 -0.084328264
1329501886.7925 0.9931519 -0.09047845 0.0029911306 0.042838071 0.003061112 0.042884946 0.99476707 -0.085350841
1339498113.2075 0.99281931 -0.09107843 0.0030035274 0.043165874 0.0030911798 0.043171592 0.9944253 -0.085984707
1349494339.6226 0.99268538 -0.091612391 0.0029957178 0.043497983 0.0030734395 0.043533266 0.99402702 -0.08661852
1359490566.0377 0.99269605 -0.092185557 0.0029925182 0.043872014 0.0030598827 0.043814484 0.99384588 -0.087136805
1369486792.4528 0.99242175 -0.092759848 0.0030120611 0.044235587 0.003108806 0.044180345 0.99364138 -0.087537318
1379483018.8679 0.99216199 -0.093319111 0.003025372 0.044579227 0.0030803692 0.0445695 0.99372691 -0.087844506
1389479245.283 0.99184442 -0.093789905 0.0030890163 0.044989821 0.0031533763 0.044902314 0.99366057 -0.088525832
1399475471.6981 0.99140024 -0.094201148 0.003093021 0.045297075 0.0031393431 0.045280952 0.99389738 -0.089211792
1409471698.1132 0.99113667 -0.094533071 0.0031334609 0.045640055 0.0031725699 0.04564878 0.99389189 -0.089989677
1419467924.5283 0.99087518 -0.094839424 0.0031415084 0.046024617 0.0031725233 0.046010137 0.99372524 -0.090743482
1429464150.9434 0.99077123 -0.095258057 0.0031960327 0.046433993 0.0032183062 0.046384357 0.99359536 -0.091274738
1439460377.3585 0.99096465 -0.095726371 0.0032735253 0.046882264 0.0032679215 0.046855673 0.99338031 -0.091686964
1449456603.7736 0.9909544 -0.096350685 0.0033645174 0.047269396 0.0034224913 0.047206763 0.99318564 -0.091962561
1459452830.1887 0.99089277 -0.096987039 0.0035004932 0.047659904 0.003496781 0.047630742 0.99338549 -0.092279553
1469449056.6038 0.99100554 -0.097613871 0.0036454024 0.047974017 0.0036283154 0.047927644 0.99365747 -0.092972338
1479445283.0189 0.99085069 -0.098203465 0.0037821713 0.048260912 0.0037822484 0.048273925 0.99369889 -0.09383411
1489441509.434 0.99076486 -0.098797053 0.0038844813 0.048606444 0.0038978029 0.048526641 0.99357295 -0.094678998
1499437735.8491 0.99063027 -0.099136502 0.0040287133 0.048849944 0.0040036887 0.048816551 0.99354297 -0.095544487
1509433962.2642 0.9906615 -0.099643394 0.0041109202 0.049101375 0.0040905997 0.049113657 0.99329919 -0.09621042
1519430188.6792 0.9906776 -0.10014567 0.0041584112 0.049383949 0.0041523557 0.049338888 0.99316669 -0.096779674
1529426415.0943 0.99069333 -0.10077375 0.0042017233 0.049668618 0.0041717682 0.049644664 0.99310803 -0.09713763
1539422641.5094 0.99064702 -0.10163169 0.004260696 0.049964081 0.0042473767 0.049924489 0.99315965 -0.097637899
1549418867.9245 0.9904893 -0.10244077 0.0043629445 0.050217912 0.0042935461 0.050244585 0.99338579 -0.098366082
1559415094.3396 0.99039173 -0.10315013 0.0043784045 0.050494611 0.0043190215 0.050512899 0.99351323 -0.099039733
1569411320.7547 0.99029899 -0.10391642 0.004399118 0.050799556 0.004365583 0.050803728 0.99342489 -0.099913731
1579407547.1698 0.99019527 -0.10437517 0.0044354284 0.051044542 0.004390059 0.05109787 0.99313259 -0.10068609
1589403773.5849 0.99009788 -0.10489732 0.0044265185 0.051376581 0.0043914691 0.051328562 0.99291104 -0.10139257
1599400000 0.99014831 -0.10533974 0.0044241734 0.051638376 0.0043874728 0.0516546 0.99248326 -0.10181087
1609396226.4151 0.99010527 -0.10609534 0.0044022091 0.051975787 0.0043731043 0.051968385 0.99234706 -0.10232002
1619392452.8302 0.99008787 -0.10661897 0.0044252686 0.052272968 0.0043341964 0.052289397 0.99232471 -0.1027447
1629388679.2453 0.98983496 -0.10736123 0.0044570826 0.052623793 0.0043555852 0.052660801 0.99256629 -0.10322422
1639384905.6604 0.98964322 -0.10789838 0.004461397 0.052994356 0.0043639489 0.053021237 0.99280912 -0.10412554
1649381132.0755 0.98940742 -0.10856897 0.0044549368 0.053332902 0.004413249 0.053382747 0.99278915 -0.10500008
1659377358.4906 0.98919928 -0.109393 0.0044764001 0.053701464 0.0044336878 0.053732827 0.99274683 -0.10586444
1669373584.9057 0.98916513 -0.10974602 0.0044944775 0.054050073 0.0044546714 0.054085627 0.99240214 -0.10654595
1679369811.3208 0.98929727 -0.11048332 0.004552613 0.054420307 0.0044914186 0.054477438 0.99225903 -0.10697824
1689366037.7358 0.98922336 -0.11113906 0.0046096928 0.054806404 0.0044983774 0.054850049 0.99206507 -0.10737282
1699362264.1509 0.9893682 -0.11159953 0.0046390872 0.055142451 0.0045367135 0.055207942 0.99234557 -0.10782616
1709358490.566 0.98925376 -0.11231311 0.0046779048 0.055517823 0.0046038572 0.055620078 0.99224186 -0.10839988
1719354716.9811 0.98899353 -0.11292461 0.0047258083 0.055893693 0.0046520829 0.055938117 0.99231935 -0.10904965
1729350943.3962 0.98871875 -0.1135191 0.0047741365 0.056291256 0.0047590584 0.056364361 0.99238282 -0.10984933
