!Keysight Technologies,N5222B,MY61253708,A.15.00.15
!Date: Wednesday, June 19, 2024 09:21:19
!Correction: S11(C  2-Port  ) 
!S21(C  2-Port  ) 
!S12(C  2-Port  ) 
!S22(C  2-Port  ) 
!S2P File: Measurements: S11, S21, S12, S22:
# Hz S  RI   R 50
10000000 0.99870026 -0.0023615658 -9.3098875e-005 0.00090980041 -4.11949e-005 0.00040064161 0.99852544 -0.0012089014
19996226.415094 0.99893099 -0.0022195578 5.2034418e-005 0.00065839465 3.9544859e-005 0.00062762125 0.99935305 -0.0022168756
29992452.830189 0.99967003 -0.0024393797 5.0904782e-005 0.00097535405 1.1076045e-005 0.0010004485 0.99952328 -0.0026770532
39988679.245283 1.000029 -0.0030486137 2.664038e-005 0.0013274483 1.092696e-005 0.0013976337 0.99968016 -0.0031266212
49984905.660377 1.0001525 -0.0037501752 2.1109357e-005 0.0017117552 -1.2467033e-005 0.001736982 0.9998008 -0.0036780536
59981132.075472 1.0002629 -0.0046149492 -2.3323228e-006 0.0020511791 -1.5729165e-005 0.0020387331 0.9997189 -0.0042779446
69977358.490566 1.0001152 -0.0052687097 2.5770329e-005 0.0023672658 1.1096166e-005 0.0023655274 0.99963796 -0.0048278756
79973584.90566 0.99987125 -0.0057737529 3.5533449e-005 0.0027047456 1.0328367e-005 0.0026691316 0.99934161 -0.0053194165
89969811.320755 0.99986732 -0.0059313476 8.3653722e-006 0.0030451599 3.4025754e-005 0.0030477378 0.99957436 -0.0055884123
99966037.735849 1.0000857 -0.0066985339 2.6073947e-005 0.0033858365 2.7545553e-005 0.0034092506 0.99964082 -0.0063843578
109962264.15094 1.000047 -0.0076277554 9.0505928e-006 0.0037236209 2.7543341e-005 0.003742255 0.99962616 -0.0072406679
119958490.56604 1.0001367 -0.0086197555 3.3308286e-005 0.0040609851 3.2306416e-005 0.0040800208 0.99962366 -0.0081426203
129954716.98113 1.0000457 -0.0095940232 3.6226702e-005 0.0043832413 5.0628674e-005 0.0044244095 0.99965811 -0.0090396404
139950943.39623 1.0000197 -0.010424562 5.9642291e-005 0.0047290353 4.4709275e-005 0.0047539384 0.99955302 -0.0097659715
149947169.81132 0.99984759 -0.01107496 6.3276384e-005 0.0050826464 5.9736893e-005 0.0051001208 0.9994722 -0.01038298
159943396.22642 0.99981332 -0.011578619 8.3753839e-005 0.0054163425 6.0349237e-005 0.005434474 0.99958038 -0.010855049
169939622.64151 0.9997834 -0.012031965 7.4421871e-005 0.0057364781 6.4229418e-005 0.005792975 0.99964136 -0.011265531
179935849.0566 0.99987662 -0.012313664 0.00012601388 0.0060856193 8.4000058e-005 0.0061232764 0.99957955 -0.011661232
189932075.4717 0.99995434 -0.013078809 7.4519543e-005 0.0064055324 8.233916e-005 0.0064767478 0.99977124 -0.012231827
199928301.88679 0.99990332 -0.013971001 8.2277576e-005 0.0067233709 0.00010851957 0.0067791743 0.99967206 -0.013171822
209924528.30189 0.99968714 -0.014615148 0.00010381592 0.007077659 0.00011633697 0.0071346103 0.99939257 -0.013899803
219920754.71698 0.99973482 -0.015428662 0.00011632941 0.0073863491 0.0001139224 0.0074723647 0.99925423 -0.014584333
229916981.13208 0.99947143 -0.016283333 0.00013030507 0.0077662482 0.00014093122 0.0078119407 0.99922371 -0.015332609
239913207.54717 0.99938494 -0.016992986 0.00013641204 0.0080816522 0.00014376121 0.0081671439 0.99918324 -0.016051192
249909433.96226 0.99941456 -0.017611295 0.00015872344 0.0084025608 0.00014725025 0.0085009215 0.99926454 -0.016659558
259905660.37736 0.99952894 -0.018233955 0.00015597558 0.0087450175 0.00015407708 0.0089195305 0.99948955 -0.01735872
269901886.79245 0.99962711 -0.01884754 0.00021499209 0.0090942057 0.00021546998 0.0092130322 0.99983203 -0.017942756
279898113.20755 0.99978799 -0.019484043 0.0001356774 0.009435527 0.00020965864 0.0094821099 0.99964589 -0.018662408
289894339.62264 0.99969703 -0.020287424 0.00019839732 0.0097923828 0.00023714127 0.0098441131 0.9995566 -0.019497663
299890566.03774 0.99963284 -0.020800978 0.00023403787 0.010091653 0.00020483159 0.010206358 0.99936688 -0.019839585
309886792.45283 0.99934787 -0.021432355 0.00023216696 0.010419544 0.0002326942 0.010525671 0.99920374 -0.020334832
319883018.86792 0.99932528 -0.022099406 0.00022279052 0.010780303 0.00025143614 0.010898168 0.99932361 -0.020919055
329879245.28302 0.99935573 -0.022904664 0.00025198376 0.011106374 0.00026133982 0.011191398 0.99937016 -0.021671891
339875471.69811 0.9992848 -0.023565546 0.00027853914 0.011462339 0.00026668049 0.011585533 0.99931592 -0.022486292
349871698.11321 0.99946362 -0.024372637 0.00026987097 0.01179213 0.0003309946 0.011921041 0.99934483 -0.023387522
359867924.5283 0.99931604 -0.025229216 0.0003343923 0.01213517 0.00032290677 0.012238925 0.99927163 -0.02429992
369864150.9434 0.99944639 -0.025959104 0.00029851263 0.012493384 0.00032097031 0.012545411 0.99935985 -0.025004745
379860377.35849 0.99944896 -0.026702881 0.00034343591 0.012809064 0.00033201836 0.012939397 0.99923623 -0.025736481
389856603.77358 0.99922705 -0.02726239 0.00038437359 0.013140021 0.00040423218 0.013169335 0.99915242 -0.026204914
399852830.18868 0.99914128 -0.027896494 0.000362508 0.013485954 0.00036020298 0.01354922 0.9992516 -0.026664108
409849056.60377 0.99909878 -0.028316682 0.00039656871 0.013779533 0.00040465788 0.013943601 0.99925882 -0.027132843
419845283.01887 0.99909985 -0.028716803 0.00039364584 0.014144086 0.00040653301 0.014284417 0.99925995 -0.027591765
429841509.43396 0.99915051 -0.029440224 0.00042780628 0.014454849 0.00041248882 0.014593039 0.99941528 -0.028466761
439837735.84906 0.99904799 -0.030286595 0.00046430272 0.014807952 0.0004809387 0.014966958 0.99922675 -0.029467374
449833962.26415 0.9990015 -0.03117612 0.00047198171 0.015113623 0.00050655846 0.015249069 0.99885917 -0.030230314
459830188.67925 0.99889863 -0.031856924 0.00048306026 0.015492873 0.0004552165 0.015590301 0.99868178 -0.031010121
469826415.09434 0.99881029 -0.032699674 0.00049607689 0.015790809 0.00047401711 0.015938815 0.99836886 -0.031595677
479822641.50943 0.99881232 -0.033331722 0.0005010122 0.01615124 0.00051503745 0.016293284 0.9984467 -0.032019846
489818867.92453 0.99885005 -0.033858538 0.00055122003 0.016508877 0.00058828481 0.016633404 0.99876213 -0.032535583
499815094.33962 0.9989503 -0.034427494 0.00061157998 0.016832702 0.00058829505 0.016967062 0.99902201 -0.033129781
509811320.75472 0.99898815 -0.034961253 0.00060913898 0.017144762 0.00060436118 0.017278399 0.99919367 -0.033947323
519807547.16981 0.99895555 -0.035446644 0.00059553096 0.017440345 0.00064391037 0.01763529 0.99915916 -0.034702957
529803773.58491 0.99896717 -0.036108404 0.0006236732 0.017782677 0.00060454849 0.017956223 0.9988901 -0.035269141
539800000 0.99896324 -0.036902905 0.00060468516 0.018111076 0.0006003771 0.018303405 0.99871141 -0.036002129
549796226.41509 0.99879569 -0.037699401 0.00071429694 0.018490814 0.00068221474 0.018652974 0.99859428 -0.036511272
559792452.83019 0.99864966 -0.038481653 0.00070680957 0.018870275 0.00068739895 0.018992912 0.99846852 -0.037007898
569788679.24528 0.99839896 -0.039121985 0.00067993021 0.019184079 0.00070360396 0.019344812 0.99856871 -0.03774491
579784905.66038 0.99837357 -0.039705426 0.00074692839 0.019535989 0.00072411983 0.019669656 0.99871629 -0.038463749
589781132.07547 0.99851549 -0.040322363 0.00078546721 0.019906536 0.0007720599 0.020018969 0.99884164 -0.039363325
599777358.49057 0.9986456 -0.040977299 0.00082240067 0.020215809 0.00081808586 0.020396002 0.99886942 -0.04014492
609773584.90566 0.99883115 -0.04172137 0.00087456079 0.020515187 0.00083815621 0.020694042 0.99875456 -0.041031823
619769811.32075 0.9988544 -0.042444944 0.00091007492 0.020862978 0.00085438648 0.021011341 0.99872297 -0.041557878
629766037.73585 0.99867451 -0.04312849 0.00094643421 0.021175202 0.00097519532 0.021320658 0.99849135 -0.042088687
639762264.15094 0.99849236 -0.043721512 0.00091934577 0.021464285 0.0009453157 0.021670666 0.99831271 -0.042529866
649758490.56604 0.99833584 -0.044307873 0.00096948957 0.021788746 0.00095174275 0.022000812 0.99839163 -0.042983726
659754716.98113 0.99816966 -0.044876546 0.0009803595 0.022127585 0.00097383838 0.022387154 0.99839479 -0.043621659
669750943.39623 0.99819922 -0.045425296 0.00099431397 0.022526598 0.00099167228 0.022732601 0.99859381 -0.044427365
679747169.81132 0.99821806 -0.04612498 0.0010162075 0.022851976 0.0010221276 0.023052294 0.99854147 -0.045395769
689743396.22642 0.99833912 -0.046946645 0.0010696268 0.02319009 0.0010699611 0.023403661 0.99832624 -0.046263248
699739622.64151 0.99840456 -0.047763854 0.0011551352 0.023509966 0.0011288505 0.02373179 0.99825096 -0.047002822
709735849.0566 0.99840575 -0.048616059 0.0011812878 0.023854285 0.0011733357 0.024040675 0.99799734 -0.047557712
719732075.4717 0.99835956 -0.049373597 0.0012091198 0.024172697 0.001192288 0.024362611 0.99809867 -0.04818505
729728301.88679 0.99822319 -0.049909979 0.0012348397 0.024484031 0.0012068003 0.024707634 0.99809873 -0.048656195
739724528.30189 0.99809158 -0.050486147 0.0012553125 0.024825916 0.0012462689 0.025043616 0.99822509 -0.049365908
749720754.71698 0.99800676 -0.051064178 0.0013041259 0.025148964 0.0013023028 0.025363011 0.99833196 -0.050054878
759716981.13208 0.99803555 -0.051573753 0.0013186373 0.025479268 0.0013226727 0.025692206 0.99823844 -0.050852329
769713207.54717 0.99795961 -0.052208632 0.0013419874 0.025794696 0.0013646269 0.026043536 0.99803662 -0.051499605
779709433.96226 0.9981491 -0.052940778 0.0013995502 0.026167829 0.001378236 0.02635999 0.99778301 -0.052113336
789705660.37736 0.99803245 -0.053860068 0.0014450522 0.0264319 0.0014408976 0.026698394 0.99752319 -0.052874774
799701886.79245 0.99798143 -0.054601669 0.0014255075 0.026758876 0.0014541745 0.027012471 0.99732429 -0.05348596
809698113.20755 0.99791515 -0.055322856 0.0014569748 0.027090153 0.001474716 0.027332429 0.99742711 -0.053931519
819694339.62264 0.99779308 -0.055892169 0.0015130891 0.027437001 0.0015103421 0.027669432 0.99758756 -0.054576993
829690566.03774 0.99771798 -0.056569874 0.0015449608 0.027766876 0.0015191138 0.028024346 0.99779552 -0.055503041
839686792.45283 0.99789166 -0.057008952 0.0015551397 0.028091175 0.0016012276 0.028347364 0.99786305 -0.05635938
849683018.86792 0.99793369 -0.057640933 0.0016102577 0.028439701 0.0016226799 0.028649997 0.99777097 -0.057097249
859679245.28302 0.99794513 -0.058321387 0.0016241409 0.028759204 0.0016515013 0.029012535 0.99744427 -0.057693541
869675471.69811 0.99780881 -0.059117109 0.0017113499 0.029092547 0.0016831839 0.029329013 0.99712443 -0.058179289
879671698.11321 0.99782717 -0.059876896 0.0017001218 0.029418692 0.001720007 0.029641362 0.99712175 -0.058608569
889667924.5283 0.99752975 -0.060647249 0.0017557014 0.029717108 0.0017436836 0.029987223 0.99696994 -0.059139162
899664150.9434 0.99733377 -0.061335474 0.0017733602 0.030033158 0.0018148059 0.030333284 0.99700624 -0.059768319
909660377.35849 0.99739498 -0.062102854 0.0017835107 0.030373763 0.0018038019 0.030614087 0.99714392 -0.060676321
919656603.77358 0.99745768 -0.062736884 0.0018226416 0.030649649 0.0018316139 0.030960107 0.99714023 -0.061619774
929652830.18868 0.99746221 -0.063454211 0.0018657036 0.030996848 0.001869522 0.031271659 0.99694848 -0.062487781
939649056.60377 0.99767172 -0.064063996 0.0018517571 0.031358577 0.001879341 0.031597637 0.99686134 -0.063183278
949645283.01887 0.99757475 -0.064974859 0.0018566992 0.031674225 0.0018987851 0.031946067 0.99658114 -0.06377551
959641509.43396 0.99751633 -0.065580964 0.0018945029 0.032031488 0.0019673491 0.032305654 0.99653685 -0.064264238
969637735.84906 0.99739325 -0.06636855 0.0019450998 0.032405064 0.0019731279 0.032694217 0.99656343 -0.064562082
979633962.26415 0.99726075 -0.067060933 0.0020253861 0.03269868 0.002032761 0.032965411 0.99652237 -0.065257281
989630188.67925 0.99724579 -0.067605257 0.0020409403 0.032994553 0.0020961724 0.033342723 0.99677342 -0.065905035
999626415.09434 0.99727684 -0.068231225 0.0021009129 0.033348761 0.0021222197 0.033706587 0.9966917 -0.066761523
1009622641.5094 0.99734408 -0.068863764 0.002101426 0.033684075 0.0021235747 0.034039788 0.99655712 -0.067498237
1019618867.9245 0.99738669 -0.069695055 0.0021779705 0.03401475 0.0022100736 0.034344364 0.99631304 -0.068402976
1029615094.3396 0.99740171 -0.070654452 0.0022424841 0.034327101 0.0022546947 0.034634855 0.99594569 -0.068981171
1039611320.7547 0.9974432 -0.071526468 0.0022298153 0.034650937 0.0022920351 0.034950834 0.99585229 -0.069616854
1049607547.1698 0.99730158 -0.072588727 0.0023002443 0.034952041 0.0023359489 0.03527737 0.99581599 -0.070241518
1059603773.5849 0.99704611 -0.073096037 0.0023066076 0.035247784 0.0023393501 0.035574879 0.99583095 -0.070799351
1069600000 0.99692053 -0.073835939 0.0023187771 0.035565268 0.0023883134 0.035910871 0.99602592 -0.071602106
1079596226.4151 0.99694806 -0.074500576 0.0023486465 0.03590098 0.0023976965 0.036262628 0.99600136 -0.072286002
1089592452.8302 0.99687701 -0.07516098 0.0023601409 0.036253452 0.0024325587 0.036592696 0.9959355 -0.073029846
1099588679.2453 0.99696434 -0.07581538 0.0023825839 0.036555924 0.0024708938 0.036915973 0.99558389 -0.07362783
1109584905.6604 0.99705899 -0.076601118 0.0024283957 0.036929831 0.0024622176 0.037272491 0.99531972 -0.074284181
1119581132.0755 0.99708003 -0.077568263 0.0024344083 0.037297182 0.0025024214 0.037597194 0.99512649 -0.074615911
1129577358.4906 0.99688458 -0.078421444 0.002492113 0.037612423 0.0025430787 0.037957881 0.99501258 -0.075035721
1139573584.9057 0.99659002 -0.079230815 0.0024975063 0.037961006 0.0025971988 0.038316946 0.99508345 -0.075766176
1149569811.3208 0.99649704 -0.080176592 0.0025805787 0.038303018 0.0026749831 0.038637493 0.99521738 -0.076540992
1159566037.7358 0.99631608 -0.080850482 0.0025723223 0.038577296 0.0026859688 0.038998775 0.99538916 -0.077538729
1169562264.1509 0.99604142 -0.081498057 0.0026142858 0.038883783 0.0027036555 0.039281748 0.9951722 -0.0783813
1179558490.566 0.99606496 -0.082242966 0.0026460916 0.039280444 0.0027438365 0.039646473 0.99503028 -0.079064071
1189554716.9811 0.99614882 -0.082882613 0.0026768902 0.039634552 0.0027772924 0.040003154 0.99474651 -0.079550683
1199550943.3962 0.99596214 -0.083751857 0.0027033836 0.040012024 0.0028320085 0.040318806 0.99459922 -0.079981148
1209547169.8113 0.99581343 -0.084724188 0.0027914196 0.040339801 0.0028591948 0.040676352 0.99450827 -0.080264315
1219543396.2264 0.99562997 -0.085561246 0.0028342791 0.04069151 0.0029189563 0.041053131 0.99461001 -0.080688432
1229539622.6415 0.9952662 -0.086409241 0.0028847232 0.041007418 0.0030136909 0.04138007 0.99471211 -0.081453741
1239535849.0566 0.99510986 -0.087007761 0.0029558521 0.041322347 0.0030688364 0.041686758 0.99480897 -0.082432628
1249532075.4717 0.9947561 -0.087665088 0.0030046233 0.041694585 0.0031573409 0.041985329 0.9946267 -0.083295025
1259528301.8868 0.99459422 -0.088266373 0.0030648392 0.041965146 0.0031857044 0.042325072 0.99429357 -0.084162235
1269524528.3019 0.99437225 -0.089049965 0.0031002499 0.042298719 0.0032887496 0.042635158 0.994169 -0.084804207
1279520754.717 0.99407953 -0.089712895 0.0031731036 0.042583648 0.0033134958 0.042910188 0.99386466 -0.085324638
1289516981.1321 0.99392724 -0.09057048 0.0031848811 0.042865448 0.0033417363 0.04325055 0.99400121 -0.085716337
1299513207.5472 0.99354577 -0.091372401 0.0031928122 0.043246806 0.0033614431 0.043577693 0.9941417 -0.086050689
1309509433.9623 0.99309462 -0.092076913 0.0032303147 0.043520175 0.0033492493 0.043867316 0.99419481 -0.086870536
1319505660.3774 0.99274147 -0.092837244 0.0032483274 0.04385107 0.0033633001 0.044184662 0.9942252 -0.087437823
1329501886.7925 0.99248725 -0.093500733 0.0032789391 0.04418648 0.0033935234 0.044528134 0.99425906 -0.088524967
1339498113.2075 0.99220026 -0.09398964 0.003295064 0.044510473 0.0034155026 0.044816319 0.99381638 -0.089231998
1349494339.6226 0.99195373 -0.09458407 0.0032728715 0.044860959 0.0033674492 0.045182519 0.99342638 -0.089813471
1359490566.0377 0.99193931 -0.095066249 0.0032575317 0.045213863 0.0034182128 0.045539685 0.99325478 -0.090318054
1369486792.4528 0.99161983 -0.095717937 0.0032700142 0.045578543 0.0034554917 0.045888081 0.99304384 -0.090848953
1379483018.8679 0.99136621 -0.096285015 0.0033252456 0.045959562 0.0034210419 0.046235509 0.99306691 -0.091138475
1389479245.283 0.9910357 -0.096833974 0.0033799876 0.046362437 0.0034950469 0.046624064 0.99301684 -0.091903716
1399475471.6981 0.99062532 -0.097260863 0.0033915006 0.046711847 0.0034983885 0.046987079 0.99318147 -0.092524469
1409471698.1132 0.99039513 -0.097633436 0.0034495124 0.047096953 0.0035110041 0.047368184 0.99321294 -0.093353964
1419467924.5283 0.99012411 -0.097916663 0.0034499727 0.047451764 0.0035385806 0.047713906 0.99297583 -0.094097733
1429464150.9434 0.98990941 -0.09828639 0.0034462176 0.047818482 0.0035849474 0.048152126 0.99292225 -0.09456563
1439460377.3585 0.99008387 -0.098776251 0.0035766251 0.048324093 0.0036672512 0.048578825 0.99275136 -0.094991505
1449456603.7736 0.99022651 -0.099291325 0.0036862418 0.048710398 0.0037726192 0.049005579 0.99260664 -0.095332921
1459452830.1887 0.9901644 -0.099989682 0.0037751198 0.049150668 0.0038539786 0.049397085 0.99266803 -0.095567703
1469449056.6038 0.99011302 -0.10068053 0.0040135011 0.049460296 0.0040206099 0.049776144 0.99293292 -0.096240222
1479445283.0189 0.99005866 -0.1013708 0.0040879929 0.049743652 0.0041471007 0.050049502 0.99299461 -0.097142845
1489441509.434 0.9898895 -0.10186476 0.0042755883 0.050101325 0.0042984784 0.050348878 0.99280429 -0.098067254
1499437735.8491 0.98974395 -0.1022346 0.0043267421 0.050340146 0.0043598618 0.050680589 0.99267745 -0.098958939
1509433962.2642 0.98971343 -0.10273261 0.0044482844 0.050638244 0.0044686468 0.050923213 0.99255288 -0.099656165
1519430188.6792 0.98989344 -0.10323775 0.0045086611 0.050909553 0.0045362413 0.051230587 0.99242878 -0.10016072
1529426415.0943 0.98982018 -0.10381186 0.0045529772 0.051232845 0.0045847073 0.051525377 0.99231672 -0.10061061
1539422641.5094 0.98985761 -0.10467446 0.00460367 0.051515989 0.0046187202 0.051803239 0.99241388 -0.10103119
1549418867.9245 0.98971128 -0.10557264 0.004711167 0.051782355 0.004716238 0.052143753 0.99267137 -0.10175814
1559415094.3396 0.98962337 -0.10611328 0.0047478788 0.052049786 0.0047680475 0.052406527 0.99276078 -0.1024057
1569411320.7547 0.98940945 -0.10693942 0.0047974288 0.052321717 0.0048073623 0.052687481 0.99270946 -0.10327472
1579407547.1698 0.98932743 -0.10749483 0.0047949464 0.052630313 0.0048222886 0.053017054 0.99226165 -0.10417281
1589403773.5849 0.98935616 -0.10802144 0.004816724 0.052964486 0.0047813915 0.053325281 0.99214947 -0.10490671
1599400000 0.98927724 -0.10852876 0.0047985855 0.053236511 0.0048227143 0.053605344 0.99167657 -0.1053319
1609396226.4151 0.98921269 -0.10921785 0.004801007 0.053559341 0.0047978992 0.053972781 0.99148214 -0.1058787
1619392452.8302 0.98915994 -0.10974753 0.0047813915 0.05387672 0.0048000216 0.054274306 0.99144554 -0.10627499
1629388679.2453 0.98899317 -0.11044106 0.0048142895 0.054276414 0.0047966354 0.054677572 0.99176413 -0.1068393
1639384905.6604 0.9888097 -0.11112024 0.0048148222 0.054599714 0.0048337225 0.055053685 0.99196965 -0.10761557
1649381132.0755 0.98850042 -0.11176822 0.0048445296 0.054967426 0.0048587769 0.055433635 0.99198902 -0.10858524
1659377358.4906 0.98826867 -0.11263689 0.004878005 0.055375263 0.004888691 0.055776052 0.99187195 -0.10952142
1669373584.9057 0.98831916 -0.11307651 0.004906449 0.055730172 0.0049223434 0.056156248 0.99162084 -0.11016797
1679369811.3208 0.98834759 -0.11367458 0.0049436446 0.056131154 0.0049685352 0.056529738 0.99139792 -0.11063328
1689366037.7358 0.98843408 -0.11436379 0.0050403867 0.056515127 0.004946854 0.056909516 0.99125981 -0.11098254
1699362264.1509 0.98848844 -0.11491868 0.0050744899 0.056886401 0.0050381934 0.057312258 0.99132335 -0.11142984
1709358490.566 0.98833841 -0.1155598 0.005125151 0.057252359 0.0050999513 0.057695039 0.99140543 -0.11192231
1719354716.9811 0.98803389 -0.11623216 0.005184371 0.057622112 0.0051784106 0.058100685 0.99142361 -0.1126771
