!Keysight Technologies,N5222B,MY61253708,A.15.00.15
!Date: Wednesday, June 19, 2024 08:51:05
!Correction: S11(C  2-Port  ) 
!S21(C  2-Port  ) 
!S12(C  2-Port  ) 
!S22(C  2-Port  ) 
!S2P File: Measurements: S11, S21, S12, S22:
# Hz S  RI   R 50
10000000 0.99868739 -0.0024696589 8.9279492e-005 0.00045142477 -2.5659683e-005 0.00039741868 0.99883103 -0.0010486543
19996226.415094 0.99908441 -0.0020079613 3.5226694e-005 0.00091059401 2.9571907e-005 0.0007421539 0.99936259 -0.002073884
29992452.830189 0.99964267 -0.0025155246 1.9513012e-005 0.0010385597 4.6461704e-005 0.0011534115 0.9995352 -0.0027531087
39988679.245283 1.0000205 -0.0032063723 6.5343891e-005 0.0014601002 -5.6984602e-005 0.001479955 0.99966973 -0.0033275038
49984905.660377 1.000109 -0.004034996 -6.7919027e-006 0.0018887231 2.815912e-006 0.0018838854 0.99975365 -0.0038674772
59981132.075472 1.0002085 -0.004788816 4.525471e-006 0.0022319329 -2.2779452e-005 0.0022624596 0.99969834 -0.0045021474
69977358.490566 1.0000029 -0.0053765569 -1.8189676e-006 0.0025702938 7.6636934e-006 0.0025779263 0.99956673 -0.005006142
79973584.90566 0.99980283 -0.005987376 3.3154152e-005 0.0030021849 2.8913724e-005 0.0029380538 0.99936825 -0.0055336952
89969811.320755 0.99979389 -0.0062575042 -4.8419461e-006 0.0033141088 2.6569236e-005 0.0033311602 0.99947786 -0.0059547722
99966037.735849 0.99994791 -0.0070013851 3.8121361e-005 0.0036994678 4.2767613e-005 0.0037195738 0.99956018 -0.0067258775
109962264.15094 1.0000113 -0.0079970211 3.4350145e-005 0.0040723574 2.761936e-005 0.0040995469 0.99953294 -0.0076279938
119958490.56604 1.0000379 -0.0090407729 2.3754081e-005 0.0044697719 2.3860252e-005 0.004472998 0.9996109 -0.0085353553
129954716.98113 1.0000465 -0.010088533 5.3740689e-005 0.0048256777 6.202748e-005 0.0048495578 0.99961042 -0.0094998479
139950943.39623 0.99992567 -0.010943618 8.4202053e-005 0.0051920479 6.5402564e-005 0.0051856218 0.99947 -0.010339303
149947169.81132 0.99976397 -0.011697501 6.5691536e-005 0.0055474043 6.5502711e-005 0.0055828774 0.99941552 -0.010954738
159943396.22642 0.99976563 -0.012176096 6.6981884e-005 0.0059280507 7.256167e-005 0.005953351 0.99952221 -0.01142627
169939622.64151 0.99976134 -0.012568459 8.1706501e-005 0.0063037868 9.8935445e-005 0.0063402308 0.99959743 -0.011897586
179935849.0566 0.99988055 -0.012976974 0.00010396191 0.0066467915 9.4727846e-005 0.0066729398 0.99955153 -0.012309343
189932075.4717 0.99991906 -0.013709605 9.681005e-005 0.0070547247 0.00010558125 0.0070598014 0.99972308 -0.012985229
199928301.88679 0.99988133 -0.014580905 0.00011728751 0.0073967613 0.00011768984 0.0074273846 0.99963552 -0.013921738
209924528.30189 0.99958289 -0.015405506 0.00011534744 0.0077708457 0.00012613763 0.007823932 0.99938643 -0.014656171
219920754.71698 0.99958682 -0.01637575 0.00014507771 0.0081240665 0.00015121326 0.008171645 0.99919391 -0.015459597
229916981.13208 0.99930692 -0.017204732 0.00015424425 0.0085001094 0.00016235304 0.0085543543 0.99905741 -0.016290635
239913207.54717 0.99914759 -0.017846623 0.00019263066 0.0088707134 0.000174302 0.0089388797 0.99903917 -0.016988257
249909433.96226 0.99922824 -0.018530607 0.0001861318 0.0092547722 0.00019927812 0.0092802988 0.99917263 -0.017661482
259905660.37736 0.99939024 -0.019176632 0.00017328374 0.0096145859 0.00018259464 0.0096617658 0.99934959 -0.018203259
269901886.79245 0.99964142 -0.019835755 0.00022818125 0.010017002 0.00019807951 0.010084432 0.99972075 -0.019005641
279898113.20755 0.99971682 -0.020621508 0.0002223053 0.010358982 0.00019639009 0.010435879 0.99960017 -0.019866079
289894339.62264 0.99959683 -0.021389127 0.00023550773 0.010760155 0.00027988711 0.010776825 0.99948376 -0.02062133
299890566.03774 0.99945736 -0.021961153 0.00022163312 0.011117849 0.00028665806 0.011175958 0.99923486 -0.021138221
309886792.45283 0.9991309 -0.022594817 0.00024962961 0.011470013 0.00029980484 0.011532453 0.99904519 -0.021692209
319883018.86792 0.99917901 -0.023280144 0.00026251981 0.011808068 0.00028404035 0.011878677 0.9990927 -0.022195995
329879245.28302 0.99907851 -0.024003178 0.00032762205 0.012205569 0.00030884193 0.012278762 0.99914688 -0.022863865
339875471.69811 0.99899572 -0.024718806 0.00034566759 0.012568897 0.00028616469 0.012651379 0.99914759 -0.023616619
349871698.11321 0.99934536 -0.025599688 0.00036496855 0.012966986 0.00034241145 0.01302866 0.99914217 -0.024698943
359867924.5283 0.99901855 -0.026495367 0.00040023448 0.013337294 0.00036301604 0.013383549 0.99912167 -0.025607705
369864150.9434 0.99937582 -0.02738139 0.00037694629 0.013718625 0.00040463125 0.013745601 0.9991529 -0.026474267
379860377.35849 0.99931115 -0.028152421 0.00041818433 0.014070377 0.00042029214 0.014149074 0.99908036 -0.02711989
389856603.77358 0.99920475 -0.028665304 0.00044761691 0.014401304 0.00048737042 0.014497285 0.9990809 -0.027632684
399852830.18868 0.99890101 -0.029383093 0.00047394587 0.014798639 0.0004488593 0.014860473 0.99909693 -0.028141886
409849056.60377 0.99886185 -0.029851995 0.0004758838 0.015154611 0.00045925457 0.015224206 0.99912381 -0.028566271
419845283.01887 0.99889535 -0.030222476 0.00046708155 0.015496049 0.00053588022 0.015596903 0.99914134 -0.029139549
429841509.43396 0.99889576 -0.030970991 0.00052240491 0.015894525 0.00051775249 0.016001899 0.9993304 -0.030047983
439837735.84906 0.99885887 -0.031914502 0.00059363851 0.016239028 0.00055843918 0.016287435 0.99911487 -0.03107442
449833962.26415 0.99883533 -0.032796264 0.00056254072 0.016566532 0.00059787976 0.016680488 0.99875468 -0.031904548
459830188.67925 0.99865985 -0.03359139 0.00058360212 0.01694354 0.00057138503 0.017053314 0.99862909 -0.032722145
469826415.09434 0.99864233 -0.034522325 0.00058686221 0.017366627 0.00060333405 0.017463742 0.99840033 -0.033343285
479822641.50943 0.9985202 -0.035163321 0.0006161863 0.017750805 0.00062543596 0.017821921 0.99847841 -0.033842914
489818867.92453 0.99859047 -0.035690129 0.0006602183 0.018072829 0.00067393482 0.018191589 0.99873161 -0.0344688
499815094.33962 0.99865454 -0.036224544 0.00070241001 0.018451611 0.00070494879 0.018552979 0.99903858 -0.035109669
509811320.75472 0.99877471 -0.036758877 0.00069792994 0.018782426 0.00072537409 0.018862922 0.99908853 -0.035993408
519807547.16981 0.99882197 -0.037375152 0.00074495515 0.019209186 0.00070314063 0.019270048 0.99914825 -0.036820859
529803773.58491 0.99876094 -0.038140416 0.0007373495 0.019541418 0.00076706894 0.019672232 0.9988547 -0.037490577
539800000 0.99874735 -0.03879936 0.00079466263 0.019971216 0.00080188969 0.020050701 0.99863815 -0.038207769
549796226.41509 0.99852943 -0.039747059 0.00082513876 0.020301107 0.0008354215 0.02040768 0.99850899 -0.038817197
559792452.83019 0.9982971 -0.040372759 0.00090036448 0.020679791 0.00085126422 0.020777863 0.99824238 -0.039246589
569788679.24528 0.99812222 -0.041271478 0.00086128805 0.020994747 0.00082168868 0.021139435 0.99838746 -0.040103406
579784905.66038 0.99811423 -0.041897051 0.00093868002 0.02138016 0.0008756076 0.02155461 0.99858046 -0.040828392
589781132.07547 0.99826753 -0.042553425 0.00093831774 0.021754747 0.00093332119 0.021923564 0.99869013 -0.04174906
599777358.49057 0.99835128 -0.043223143 0.0010003587 0.022159303 0.00099072419 0.022264838 0.99881244 -0.042646259
609773584.90566 0.99855286 -0.044090446 0.0010477435 0.022508368 0.0010290358 0.022679731 0.99854678 -0.043555625
619769811.32075 0.99860811 -0.044816494 0.0011345772 0.022869892 0.0011111796 0.022974199 0.99847519 -0.044104785
629766037.73585 0.99843252 -0.045441866 0.0011521699 0.023217537 0.001133983 0.023325965 0.99821234 -0.044608772
639762264.15094 0.99816382 -0.046034515 0.0011461859 0.023547502 0.0011605714 0.023690611 0.99807394 -0.045145139
649758490.56604 0.9980287 -0.046710536 0.001153186 0.023929156 0.0011429545 0.024057157 0.99816072 -0.045567364
659754716.98113 0.99779218 -0.047266573 0.0011709444 0.024292611 0.0012153499 0.024427835 0.99820542 -0.046148181
669750943.39623 0.99780655 -0.047834545 0.0012065005 0.02465494 0.0011917586 0.02481463 0.99829096 -0.046973467
679747169.81132 0.99783367 -0.048625946 0.0012307228 0.025064636 0.0012263646 0.025229145 0.9982475 -0.048095502
689743396.22642 0.99799055 -0.049503356 0.0013146512 0.025395097 0.001284021 0.025566427 0.99801612 -0.049032569
699739622.64151 0.9981997 -0.050342798 0.0013605617 0.025800457 0.0013687862 0.025931129 0.99805743 -0.049766779
709735849.0566 0.99808019 -0.051323123 0.0014175253 0.026146075 0.0013878583 0.026314912 0.99768591 -0.050483182
719732075.4717 0.9980197 -0.05197829 0.0014272444 0.026445122 0.0014353553 0.026636759 0.99774259 -0.051044673
729728301.88679 0.99778157 -0.052581012 0.0014875932 0.026819192 0.0014412664 0.026976082 0.99782366 -0.051493138
739724528.30189 0.99768716 -0.053234369 0.0015204605 0.027219817 0.0014998605 0.027371649 0.99804962 -0.052263945
749720754.71698 0.99760413 -0.053725913 0.0015735123 0.027572755 0.0015707477 0.027721081 0.99804473 -0.052948564
759716981.13208 0.99764347 -0.054297119 0.0015835762 0.027912492 0.0015912596 0.02811311 0.99799001 -0.053739369
769713207.54717 0.99753058 -0.054958761 0.001629225 0.028249588 0.0016583046 0.028456241 0.99771982 -0.054561585
779709433.96226 0.99776798 -0.055809356 0.0016591966 0.0286557 0.0016845911 0.028835097 0.99743664 -0.055195104
789705660.37736 0.99756813 -0.056785285 0.0017245645 0.029012511 0.001737291 0.029140223 0.99715579 -0.056024671
799701886.79245 0.99758804 -0.057609081 0.0017754352 0.029363181 0.0017524771 0.029528433 0.99701542 -0.056605667
809698113.20755 0.99746847 -0.058272555 0.0017648051 0.029683342 0.0017700321 0.029888544 0.99712247 -0.057094693
819694339.62264 0.9972322 -0.058952048 0.0017963047 0.030060478 0.0018004919 0.030266354 0.99720907 -0.057820469
829690566.03774 0.99733877 -0.059523463 0.0018366855 0.030432697 0.0018515056 0.030614648 0.99743599 -0.058695257
839686792.45283 0.99735713 -0.060026646 0.0018729111 0.030780274 0.0018881029 0.030992784 0.9975751 -0.059612691
849683018.86792 0.99753338 -0.060814545 0.0019269751 0.03116392 0.0019407417 0.031328488 0.99748993 -0.060347356
859679245.28302 0.99750733 -0.061410487 0.0019647973 0.03151039 0.0019553797 0.031725492 0.99715281 -0.061025381
869675471.69811 0.99738008 -0.062304616 0.0020656986 0.031856336 0.0020138407 0.032080695 0.99679565 -0.061667025
879671698.11321 0.9973197 -0.063042499 0.0020866189 0.032221265 0.0020708067 0.032393888 0.99683303 -0.062104497
889667924.5283 0.99704707 -0.063921928 0.0021041222 0.032552391 0.0021256404 0.032779511 0.99659085 -0.062570035
899664150.9434 0.9968096 -0.064658225 0.0021241279 0.032935347 0.0021315077 0.033129904 0.99667418 -0.063237906
909660377.35849 0.99678767 -0.06540361 0.0021866541 0.033273522 0.002174404 0.033491697 0.99677366 -0.06432122
919656603.77358 0.99684781 -0.066089496 0.0022389619 0.033647038 0.0022380557 0.033848614 0.99673545 -0.065190658
929652830.18868 0.99687719 -0.066895962 0.0022557713 0.033977862 0.0022808015 0.034209162 0.99655902 -0.066182971
939649056.60377 0.99717021 -0.067603409 0.0022954643 0.034354951 0.0022896919 0.03453543 0.99642289 -0.066909164
949645283.01887 0.99706447 -0.068414375 0.0023144239 0.034704518 0.0022880901 0.034905709 0.99620193 -0.06745781
959641509.43396 0.99708259 -0.069113225 0.0023310846 0.035088174 0.0023222733 0.03531041 0.99610931 -0.068019867
969637735.84906 0.99682605 -0.06992656 0.0024052449 0.035478052 0.0023965491 0.035718214 0.99611807 -0.068353623
979633962.26415 0.99665999 -0.070649765 0.0024422067 0.035851698 0.0024765837 0.036059678 0.99616867 -0.069082297
989630188.67925 0.99666095 -0.071237683 0.0024775863 0.036181491 0.0024881754 0.036409024 0.99634373 -0.069690853
999626415.09434 0.99672735 -0.071869314 0.0025162045 0.036530904 0.0025307685 0.036797889 0.99627006 -0.070617855
1009622641.5094 0.9966538 -0.072560206 0.0025469568 0.036933247 0.0025733858 0.037182972 0.9960506 -0.071530446
1019618867.9245 0.99677956 -0.073462605 0.0026260898 0.037281491 0.0026749861 0.037501287 0.99568301 -0.072457582
1029615094.3396 0.99681181 -0.07454747 0.0026976597 0.037606198 0.0027182754 0.037857592 0.99536717 -0.073038936
1039611320.7547 0.9967888 -0.075496733 0.0027311193 0.037972279 0.0027617374 0.038205266 0.99527854 -0.073837996
1049607547.1698 0.9966141 -0.07641536 0.0027945112 0.038330242 0.0028371848 0.038578764 0.99529123 -0.074344993
1059603773.5849 0.99639946 -0.077109933 0.0028464375 0.038612392 0.002862148 0.03890951 0.99532527 -0.074933201
1069600000 0.99609578 -0.077751398 0.0028383452 0.038971428 0.0029034317 0.039249599 0.99540317 -0.075698048
1079596226.4151 0.99605829 -0.078416236 0.0028691473 0.039326981 0.0029605064 0.039626386 0.99540102 -0.076485746
1089592452.8302 0.99611157 -0.078997701 0.0029260777 0.039716061 0.0029644584 0.03997305 0.99533105 -0.07729578
1099588679.2453 0.99615628 -0.079746753 0.0029222965 0.040076625 0.0029586665 0.040314998 0.99484205 -0.077891022
1109584905.6604 0.99630988 -0.080638185 0.0029552178 0.04044044 0.0030243145 0.040708821 0.99473852 -0.07848458
1119581132.0755 0.99622065 -0.081713766 0.0029674256 0.040808387 0.0030571129 0.041104093 0.99451029 -0.078977369
1129577358.4906 0.99605799 -0.082494617 0.0030588787 0.041202877 0.0031031407 0.041503914 0.99436772 -0.079495519
1139573584.9057 0.99577892 -0.083493054 0.003111057 0.041583795 0.0031796945 0.041868288 0.99444425 -0.080258161
1149569811.3208 0.99565417 -0.084360294 0.0032019233 0.041931584 0.0032308241 0.04224794 0.99455076 -0.080997601
1159566037.7358 0.99545366 -0.085082084 0.0032006279 0.042261768 0.0032801665 0.042561863 0.99463153 -0.082079262
1169562264.1509 0.99518526 -0.085821062 0.0032098964 0.04260353 0.0033409707 0.04291977 0.99449742 -0.082897604
1179558490.566 0.9952023 -0.086439572 0.0032597969 0.043027617 0.0033783773 0.043328162 0.99429196 -0.083603889
1189554716.9811 0.99517161 -0.087217897 0.0032912567 0.043405157 0.0034150686 0.043666348 0.99399871 -0.084169984
1199550943.3962 0.99511528 -0.088138402 0.0033454951 0.043804288 0.0034601092 0.044063039 0.99386859 -0.084553003
1209547169.8113 0.99488717 -0.089076057 0.0034118993 0.044157639 0.0035149129 0.044392597 0.99370599 -0.084888935
1219543396.2264 0.99463135 -0.089909121 0.0034721009 0.044570107 0.0035928278 0.044850919 0.99384171 -0.085408449
1229539622.6415 0.99432158 -0.090863526 0.0035596341 0.04488885 0.0036603138 0.045176007 0.99388653 -0.086096674
1239535849.0566 0.99406445 -0.091601312 0.0036257431 0.045232922 0.0037571993 0.04552222 0.99396211 -0.08718136
1249532075.4717 0.99372458 -0.092280015 0.0036980177 0.04561476 0.0038361449 0.045883808 0.99376929 -0.088016905
1259528301.8868 0.9935869 -0.092849374 0.0037469566 0.04594757 0.0038636681 0.04621534 0.99351102 -0.088992
1269524528.3019 0.99339676 -0.093593895 0.003836276 0.046351038 0.0039678495 0.046578825 0.99327427 -0.089670151
1279520754.717 0.99306232 -0.094316021 0.0039070132 0.046584368 0.003998924 0.046883516 0.99304223 -0.090266921
1289516981.1321 0.99287331 -0.095207155 0.0039460361 0.046950795 0.0040440597 0.047170471 0.99304855 -0.090630919
1299513207.5472 0.99248445 -0.096026927 0.0039563738 0.04731033 0.0040666759 0.047526777 0.99313635 -0.091141343
1309509433.9623 0.99211609 -0.096843094 0.0039576543 0.047668181 0.0041307835 0.047862373 0.99327797 -0.091844067
1319505660.3774 0.99166411 -0.097556382 0.0039609009 0.048016086 0.0041368911 0.048226908 0.99327302 -0.092584774
1329501886.7925 0.99137962 -0.098191738 0.0040208008 0.048377816 0.004170008 0.048555195 0.99328113 -0.093548715
1339498113.2075 0.99109638 -0.098773956 0.0040653432 0.048749633 0.0041992906 0.048927147 0.99285114 -0.094317436
1349494339.6226 0.99086958 -0.099380538 0.0040350771 0.049110636 0.0041643651 0.049324051 0.9923833 -0.0949651
1359490566.0377 0.99071795 -0.1001167 0.0040615872 0.049521446 0.0042258091 0.049695298 0.99223745 -0.095563114
1369486792.4528 0.99056363 -0.10058549 0.00409282 0.049927261 0.0042565819 0.05009041 0.9919951 -0.095977753
1379483018.8679 0.99026698 -0.10123641 0.0041463464 0.050322935 0.0042227465 0.050450929 0.99204153 -0.096368089
1389479245.283 0.9898389 -0.1018433 0.0042055082 0.050683122 0.0043044575 0.050881758 0.991925 -0.097150415
1399475471.6981 0.98945999 -0.10220006 0.0042126738 0.051065877 0.0043034535 0.051285878 0.99220264 -0.097844213
1409471698.1132 0.98904717 -0.10258179 0.0042742183 0.051543206 0.0043978258 0.05171562 0.9922139 -0.098735802
1419467924.5283 0.98888165 -0.10279724 0.0043039806 0.051889099 0.0044076834 0.0520842 0.9919287 -0.099454135
1429464150.9434 0.98873508 -0.10335207 0.0043752212 0.05234972 0.0043970942 0.052542925 0.99187362 -0.099927992
1439460377.3585 0.98890531 -0.1038634 0.0044721514 0.052834321 0.0045298627 0.052997004 0.99169046 -0.10035489
1449456603.7736 0.98898685 -0.10442221 0.0045573628 0.053275056 0.0046099564 0.053422697 0.99142838 -0.1007264
1459452830.1887 0.98893774 -0.1052658 0.0047510881 0.053695947 0.0047481097 0.053863026 0.99158508 -0.10114545
1469449056.6038 0.98891801 -0.10594586 0.0049127582 0.054092504 0.004914714 0.054256614 0.99181885 -0.1018416
1479445283.0189 0.98875684 -0.10664332 0.0050210385 0.054363318 0.0050732391 0.054576337 0.99186611 -0.10272929
1489441509.434 0.98865235 -0.10719505 0.0051820837 0.054692954 0.0052104369 0.054944187 0.99170095 -0.10374412
1499437735.8491 0.98843306 -0.10752067 0.005298961 0.055029802 0.0053350013 0.055238429 0.991557 -0.10461935
1509433962.2642 0.98846918 -0.108048 0.0054232432 0.055338085 0.0054077134 0.055567693 0.99138623 -0.10529001
1519430188.6792 0.9884963 -0.10856667 0.0054386742 0.055650298 0.0054678638 0.055837147 0.99129605 -0.10588467
1529426415.0943 0.98853123 -0.10925198 0.005551748 0.055965051 0.0055613648 0.056164637 0.99114931 -0.10637698
1539422641.5094 0.98857373 -0.11018904 0.0056196805 0.056299351 0.0056308168 0.056509659 0.99129421 -0.10682676
1549418867.9245 0.98839176 -0.11099344 0.0057119112 0.056615241 0.0056849476 0.056860499 0.99145114 -0.10759945
1559415094.3396 0.98818624 -0.11173636 0.0057836827 0.056915428 0.0057081878 0.057146754 0.99145389 -0.10823295
1569411320.7547 0.98797172 -0.11259599 0.0058079427 0.057211678 0.0057850825 0.057448871 0.99144602 -0.1092186
1579407547.1698 0.98795265 -0.11299121 0.0058270665 0.05752641 0.0058583878 0.057825811 0.99105543 -0.11000833
1589403773.5849 0.98788017 -0.11370575 0.0058547035 0.057888549 0.0058364291 0.058086395 0.99073553 -0.11084765
1599400000 0.98782635 -0.11418062 0.0058717076 0.058200311 0.005822394 0.058474805 0.99036503 -0.11131221
1609396226.4151 0.98784626 -0.11480157 0.0058637373 0.058582 0.0058136918 0.058798045 0.99015468 -0.11180069
1619392452.8302 0.98780447 -0.11552554 0.0059184674 0.058941193 0.0058567487 0.059205748 0.99019158 -0.11238638
1629388679.2453 0.98759854 -0.11620003 0.0059006885 0.059343256 0.0058657769 0.059606109 0.99036968 -0.11286265
1639384905.6604 0.98731834 -0.11695381 0.0059591285 0.059695806 0.0058928658 0.060078155 0.99064684 -0.11372269
1649381132.0755 0.98701715 -0.11763963 0.0059676934 0.06011638 0.0059615206 0.060436219 0.99062473 -0.11487794
1659377358.4906 0.98678505 -0.11843485 0.0060374886 0.060538307 0.0059879422 0.060855944 0.99048436 -0.11568716
1669373584.9057 0.98679245 -0.11895517 0.0060891542 0.06098387 0.0060520321 0.061245382 0.99014717 -0.11640627
1679369811.3208 0.98681688 -0.11970241 0.0061355233 0.061313733 0.0060699619 0.061680123 0.98989946 -0.11688773
1689366037.7358 0.98680973 -0.12028158 0.006180618 0.061749272 0.0061630923 0.062093355 0.98970616 -0.11722261
1699362264.1509 0.98697495 -0.12100303 0.0062723458 0.062161122 0.0062289312 0.062561214 0.98985213 -0.11770137
1709358490.566 0.9867959 -0.12176573 0.0064003561 0.062523417 0.0063325437 0.062946327 0.98986149 -0.11832878
1719354716.9811 0.98650324 -0.12235448 0.0064636134 0.062986627 0.0064151511 0.06330464 0.9898653 -0.11911193
1729350943.3962 0.98609149 -0.12295046 0.0065106302 0.063398376 0.0065177809 0.063770108 0.98989785 -0.1199986
