!Keysight Technologies,N5222B,MY61253708,A.15.00.15
!Date: Wednesday, June 19, 2024 09:51:12
!Correction: S11(C  2-Port  ) 
!S21(C  2-Port  ) 
!S12(C  2-Port  ) 
!S22(C  2-Port  ) 
!S2P File: Measurements: S11, S21, S12, S22:
# Hz S  RI   R 50
10000000 0.99861884 -0.0028296411 -0.00012423329 5.5505665e-005 0.00017412443 0.00025104714 0.99882364 -0.0014073551
19996226.415094 0.99947941 -0.0035175085 -1.8218969e-005 0.00064729864 3.0218478e-005 0.00056374993 1.0001177 -0.0034725964
29992452.830189 0.99967504 -0.0025494993 6.3832558e-006 0.00095079723 -5.331049e-005 0.00099807489 0.99949121 -0.0025776923
39988679.245283 1.0000246 -0.0029796362 -3.2121461e-005 0.0013280269 1.0153744e-006 0.0013488211 0.99962777 -0.0031181127
49984905.660377 1.0001653 -0.0036814809 -1.094566e-005 0.001670223 8.9833629e-006 0.0016848361 0.99985468 -0.0036045611
59981132.075472 1.0003508 -0.004593581 -3.6716228e-006 0.0019786644 1.6490638e-005 0.0019679952 0.99979448 -0.004252255
69977358.490566 1.000158 -0.0051154569 -2.149311e-005 0.0023341749 1.4086792e-005 0.0023357468 0.99972939 -0.0047112219
79973584.90566 0.99996448 -0.0057730079 5.5411248e-005 0.002643581 1.7267419e-005 0.0026590973 0.99940336 -0.0052153468
89969811.320755 0.99991989 -0.0058000684 1.4483929e-005 0.0029727337 2.5922898e-005 0.0029758289 0.99966323 -0.0054388344
99966037.735849 1.0001323 -0.0065896064 4.8784888e-005 0.0033148259 -7.192546e-006 0.0033254144 0.99970466 -0.0062423944
109962264.15094 1.0001514 -0.0074779987 3.8639933e-005 0.0036266921 3.0151743e-005 0.003666054 0.99967659 -0.007052511
119958490.56604 1.0001501 -0.0083858967 4.3209875e-005 0.0039817882 3.7670019e-005 0.0039996053 0.99970114 -0.0078957379
129954716.98113 1.000139 -0.0093695223 4.3787179e-005 0.0043071127 4.7870446e-005 0.0043131597 0.99969494 -0.008769989
139950943.39623 1.0000665 -0.010125058 5.647623e-005 0.0046299109 3.467036e-005 0.0046612597 0.9996295 -0.0095125344
149947169.81132 0.99994576 -0.010828257 6.358372e-005 0.0049757729 4.1643856e-005 0.0049896883 0.99956292 -0.01010114
159943396.22642 0.99991965 -0.011409432 7.2819646e-005 0.0052803173 3.9087376e-005 0.0053184582 0.99964106 -0.010572374
169939622.64151 0.99986321 -0.011804871 7.343397e-005 0.0056262244 6.7523448e-005 0.0056586438 0.99971551 -0.011022776
179935849.0566 0.9999333 -0.012083888 7.9128193e-005 0.0059550828 7.8594079e-005 0.0059904428 0.99961072 -0.011420637
189932075.4717 1.0000192 -0.012840331 8.5934764e-005 0.0063064727 7.9898629e-005 0.0063333423 0.99982977 -0.011927009
199928301.88679 0.99995345 -0.013634235 8.5044419e-005 0.0066105104 7.6149125e-005 0.0066639083 0.99969918 -0.012791812
209924528.30189 0.99968266 -0.014187098 9.1981259e-005 0.0069593 0.00010710349 0.0070021669 0.99948865 -0.013509005
219920754.71698 0.99990821 -0.015013635 0.00011187629 0.0072897449 0.00010448974 0.0073263347 0.9993782 -0.014101297
229916981.13208 0.99965161 -0.015903711 0.00011766213 0.0075751524 0.00013424293 0.0076657454 0.99936974 -0.01487115
239913207.54717 0.99950546 -0.016553815 0.00012089526 0.0079294769 0.00012506526 0.00796506 0.9993515 -0.015608786
249909433.96226 0.99957371 -0.017191201 0.00013574958 0.0082523944 0.00014952756 0.0083149895 0.99943966 -0.016248822
259905660.37736 0.99958324 -0.017798871 0.00013286574 0.008590173 0.00012581842 0.0086578671 0.99958187 -0.016745478
269901886.79245 0.99973691 -0.018323019 0.00019105128 0.0089052701 0.00017477386 0.0090024639 0.99996364 -0.017485633
279898113.20755 0.9998579 -0.019246951 0.00018811109 0.0092792772 0.00016091811 0.0093089491 0.99976635 -0.018172741
289894339.62264 0.99973905 -0.019773602 0.00014701067 0.0095630921 0.00017958973 0.0096168732 0.99966419 -0.018929303
299890566.03774 0.99971497 -0.020368665 0.00024266611 0.0098882793 0.00019147224 0.009975113 0.99943691 -0.019440472
309886792.45283 0.99947965 -0.020940959 0.00020045601 0.010268115 0.00022803689 0.010324979 0.99933743 -0.019819245
319883018.86792 0.99955589 -0.021576494 0.00022060797 0.010578417 0.0002241903 0.010622108 0.99949503 -0.020358831
329879245.28302 0.9994812 -0.022347808 0.00024283305 0.010912807 0.00022234023 0.011012658 0.99971491 -0.021054
339875471.69811 0.99948531 -0.023101896 0.00030707265 0.01125495 0.00025982852 0.011315209 0.99953586 -0.021913819
349871698.11321 0.99964118 -0.023869425 0.00029069046 0.011554861 0.00025983108 0.011606517 0.99952936 -0.022770286
359867924.5283 0.99939948 -0.024612308 0.00031543802 0.011864312 0.00026879506 0.011961922 0.99947721 -0.023728073
369864150.9434 0.99947786 -0.025339186 0.00031722989 0.012216742 0.00032708514 0.012309591 0.99951106 -0.024412304
379860377.35849 0.99950546 -0.026090562 0.00029829796 0.012565967 0.00036769686 0.012623936 0.99941945 -0.025163069
389856603.77358 0.99948168 -0.026646346 0.000339285 0.012879746 0.0003151861 0.012967249 0.99941927 -0.025571346
399852830.18868 0.99923301 -0.027271837 0.00036237156 0.013223305 0.00035321107 0.013282862 0.99939239 -0.026138723
409849056.60377 0.99917698 -0.027699154 0.00037348777 0.013532317 0.00038105113 0.013616886 0.99933374 -0.026625562
419845283.01887 0.99926335 -0.028179049 0.00040808041 0.013852057 0.00043277349 0.01391012 0.99937522 -0.027142227
429841509.43396 0.99935424 -0.028906375 0.00041401573 0.014187368 0.00041968282 0.014253184 0.99952364 -0.027909607
439837735.84906 0.99918771 -0.029756844 0.00044928235 0.014528949 0.00046407396 0.014612263 0.99926835 -0.028878555
449833962.26415 0.99910003 -0.030485272 0.00041735126 0.014824346 0.00044675637 0.014918903 0.9989087 -0.029615045
459830188.67925 0.99884534 -0.031242758 0.00042849453 0.015168377 0.00045456691 0.015268331 0.99866509 -0.030301988
469826415.09434 0.99886173 -0.032020628 0.00045009051 0.015488812 0.00046375021 0.015567753 0.9984085 -0.030874074
479822641.50943 0.99882054 -0.032548405 0.00049014133 0.015831109 0.00047385739 0.015965614 0.99843431 -0.031316265
489818867.92453 0.99895692 -0.03319633 0.00051199785 0.0161536 0.00052513694 0.016268287 0.9987095 -0.031759679
499815094.33962 0.99895585 -0.033790201 0.00055076601 0.016474631 0.00054584863 0.016607989 0.99893743 -0.032281339
509811320.75472 0.99902511 -0.034157556 0.00054744235 0.016816892 0.00057283678 0.016915023 0.9990983 -0.033105299
519807547.16981 0.99900401 -0.034772545 0.00060617831 0.017114596 0.00055490574 0.017239079 0.99911523 -0.03382951
529803773.58491 0.99895585 -0.035355985 0.00063123833 0.01749379 0.00056963135 0.017561609 0.99884284 -0.034308463
539800000 0.99903977 -0.036014095 0.00060782093 0.017862134 0.00061505171 0.01790229 0.9986847 -0.035023257
549796226.41509 0.99892163 -0.036845267 0.00066998648 0.018130034 0.00065520266 0.018286284 0.99860781 -0.03551805
559792452.83019 0.99865735 -0.037555993 0.00064796489 0.018470163 0.00065618753 0.018565433 0.9985075 -0.035920799
569788679.24528 0.99855089 -0.038202763 0.00066302111 0.018804576 0.00071792072 0.018905694 0.99871635 -0.036708176
579784905.66038 0.99854809 -0.038829908 0.00071437156 0.019153735 0.00070913229 0.019274654 0.99880302 -0.03745807
589781132.07547 0.99859583 -0.039416075 0.00077194069 0.019448046 0.0006977031 0.019535853 0.99889022 -0.038276106
599777358.49057 0.99871588 -0.040106833 0.00080970302 0.019780466 0.00079393573 0.019867379 0.99891353 -0.039052814
609773584.90566 0.99890769 -0.040801067 0.00083122158 0.020092208 0.00081379851 0.020231761 0.99879175 -0.039861985
619769811.32075 0.99892139 -0.041483849 0.00080906274 0.020424359 0.00084260479 0.020540362 0.99875647 -0.040501833
629766037.73585 0.99885404 -0.042166203 0.00084460154 0.020734617 0.00084039196 0.020860415 0.99868524 -0.040940911
639762264.15094 0.99861497 -0.042765006 0.00089344545 0.021062164 0.00089765503 0.021208214 0.99850291 -0.041405305
649758490.56604 0.99851817 -0.043409944 0.0009041233 0.021354236 0.0008941656 0.021478865 0.99860811 -0.041887075
659754716.98113 0.99836373 -0.0439412 0.00092998985 0.021732738 0.00089245569 0.021857463 0.99866843 -0.042434603
669750943.39623 0.99837697 -0.04434374 0.00092119863 0.022092428 0.00090549327 0.022214476 0.9986816 -0.043211818
679747169.81132 0.99845982 -0.045137443 0.00095073879 0.022414986 0.0009582222 0.022569893 0.99867135 -0.044158861
689743396.22642 0.99855757 -0.045936704 0.0010269647 0.022749666 0.0010223659 0.022854336 0.99854785 -0.045128852
699739622.64151 0.99865222 -0.046709359 0.0010490082 0.023056258 0.0010867361 0.023173066 0.99851453 -0.045758843
709735849.0566 0.9986077 -0.047647461 0.0011249192 0.023392426 0.001078124 0.023503195 0.99821639 -0.046421245
719732075.4717 0.99851942 -0.048243076 0.0011181105 0.023654595 0.0011151289 0.023845414 0.99825186 -0.047061861
729728301.88679 0.99849284 -0.048837721 0.001176741 0.02401026 0.0011441624 0.024156673 0.99828953 -0.047544807
739724528.30189 0.99829423 -0.049468845 0.0012119203 0.024314376 0.0011930712 0.024473753 0.9984678 -0.048184335
749720754.71698 0.99824136 -0.050076082 0.0012185965 0.024649478 0.0012014243 0.024794351 0.99848622 -0.048867971
759716981.13208 0.99827778 -0.050536662 0.0012662197 0.024987932 0.0012774281 0.025131417 0.99840945 -0.049620539
769713207.54717 0.99813044 -0.05126211 0.0012940085 0.025283055 0.0012819543 0.025456186 0.99822879 -0.050338745
779709433.96226 0.99846244 -0.051873975 0.0013269809 0.025642844 0.0013282314 0.025766728 0.9979558 -0.05099944
789705660.37736 0.99821132 -0.052684039 0.0013625976 0.025961328 0.0013588993 0.026089933 0.99769443 -0.051726341
799701886.79245 0.9981842 -0.053543299 0.0013757125 0.026270129 0.0013634246 0.02641768 0.99760807 -0.052286565
809698113.20755 0.9981305 -0.054141387 0.0013988824 0.026560333 0.0013842674 0.02676413 0.99763763 -0.052797019
819694339.62264 0.99794447 -0.054841727 0.0014479216 0.0269018 0.0014117407 0.027058553 0.99770635 -0.053359896
829690566.03774 0.99789602 -0.055400997 0.0014573112 0.02719957 0.0014823927 0.027374856 0.99788857 -0.054198444
839686792.45283 0.99795413 -0.055785835 0.0014829333 0.027542625 0.0015014228 0.027722761 0.99791694 -0.054971546
849683018.86792 0.99809468 -0.056550018 0.0014941441 0.027900828 0.0015589367 0.028022669 0.99786383 -0.055685259
859679245.28302 0.99812555 -0.057237774 0.0015397789 0.028201552 0.0015539238 0.02837662 0.99753457 -0.056389958
869675471.69811 0.99802369 -0.057958961 0.0015908368 0.028525751 0.0016060276 0.028677762 0.99726826 -0.05680269
879671698.11321 0.9979586 -0.05862239 0.0016327077 0.028835256 0.0016477087 0.028993966 0.99725109 -0.057349365
889667924.5283 0.99777395 -0.05941695 0.0016462244 0.029126287 0.0016597034 0.029325455 0.99707717 -0.057776958
899664150.9434 0.99763477 -0.060174048 0.0016713189 0.029433031 0.0016803518 0.029634992 0.9971385 -0.058370501
909660377.35849 0.99763525 -0.060800359 0.0016913051 0.029765802 0.0017202473 0.029950021 0.99729985 -0.059218079
919656603.77358 0.99772543 -0.061395779 0.0017178077 0.030114025 0.0017499714 0.030290518 0.99725598 -0.060132816
929652830.18868 0.99768406 -0.062160492 0.0017649569 0.030408749 0.0017728861 0.030597247 0.99707437 -0.060957432
939649056.60377 0.99785846 -0.062795103 0.0017497633 0.030708043 0.0017875228 0.030940253 0.99698836 -0.061662793
949645283.01887 0.99784923 -0.063594215 0.0017896806 0.031079622 0.0018168364 0.031286288 0.99673539 -0.062251601
959641509.43396 0.99767745 -0.064280748 0.0017877631 0.031424351 0.0018141819 0.03163255 0.99666667 -0.062736273
969637735.84906 0.99762863 -0.065036237 0.0018537967 0.031747792 0.0018597869 0.031948045 0.99667311 -0.063051462
979633962.26415 0.99754184 -0.065739058 0.0019002624 0.032064714 0.0019138146 0.032251149 0.99673176 -0.063725859
989630188.67925 0.99757874 -0.066292882 0.0019601136 0.032368906 0.0019493997 0.032597817 0.99696088 -0.064328223
999626415.09434 0.99753028 -0.066883683 0.001955362 0.032698993 0.0019990001 0.032939777 0.99687892 -0.065085679
1009622641.5094 0.99762851 -0.067492679 0.0020154277 0.033041496 0.0020383913 0.03328719 0.99674934 -0.065944925
1019618867.9245 0.99769229 -0.068362087 0.0020350814 0.033364158 0.0021245242 0.033593137 0.99648196 -0.066717669
1029615094.3396 0.99764615 -0.069226652 0.0020887554 0.033649348 0.0021417486 0.033874426 0.99617124 -0.067308009
1039611320.7547 0.99770164 -0.070100695 0.0021480555 0.033984352 0.0021659015 0.03421016 0.99613893 -0.067936182
1049607547.1698 0.99753749 -0.07095331 0.0021543177 0.034262855 0.0021726692 0.034511589 0.99606651 -0.068568274
1059603773.5849 0.99743229 -0.071641445 0.0022034384 0.034549654 0.0022148797 0.03481276 0.99601823 -0.069116026
1069600000 0.9972055 -0.072299093 0.002201383 0.034885217 0.0022428455 0.035132024 0.99621111 -0.069790632
1079596226.4151 0.99723858 -0.073003069 0.0022036447 0.035203181 0.0022842772 0.035472963 0.99624437 -0.070594221
1089592452.8302 0.99729586 -0.073683262 0.0022413572 0.035558771 0.0022823978 0.03578696 0.99616128 -0.0712744
1099588679.2453 0.99733573 -0.074302703 0.0022515357 0.035867736 0.0023069084 0.036129519 0.99588358 -0.071896166
1109584905.6604 0.99744964 -0.075208887 0.0022613974 0.036189355 0.0023164153 0.036442041 0.99567902 -0.072481945
1119581132.0755 0.99734771 -0.075987428 0.0022671144 0.036503989 0.0023472472 0.036823288 0.99553978 -0.07289204
1129577358.4906 0.99718696 -0.076781154 0.0023233443 0.036905169 0.0023958031 0.037154209 0.99542665 -0.07333979
1139573584.9057 0.99696255 -0.07762596 0.002365496 0.037233546 0.0024576457 0.037484027 0.99546695 -0.073992074
1149569811.3208 0.99679613 -0.07847748 0.002411548 0.037575006 0.0024948332 0.037808325 0.99556214 -0.074739121
1159566037.7358 0.99661893 -0.079217732 0.0024719452 0.037876189 0.0025384091 0.038127854 0.99567282 -0.075732499
1169562264.1509 0.99652159 -0.079899251 0.0024281219 0.038173635 0.0025423393 0.038477696 0.99553192 -0.076556146
1179558490.566 0.99648815 -0.080612496 0.0024709639 0.038540788 0.0025725581 0.03879999 0.99539053 -0.077240556
1189554716.9811 0.9964295 -0.08139807 0.0025141323 0.038888212 0.0026107868 0.039145384 0.99514568 -0.07777074
1199550943.3962 0.99646127 -0.082210779 0.002579093 0.039251473 0.0026712436 0.039483771 0.99494612 -0.078189969
1209547169.8113 0.99625307 -0.083053619 0.0026400043 0.039545409 0.0027213553 0.039785672 0.99482346 -0.078539863
1219543396.2264 0.99609357 -0.083867565 0.0026398911 0.039910249 0.0027579749 0.040146589 0.99492407 -0.078923181
1229539622.6415 0.99564737 -0.084609866 0.0027167108 0.040220119 0.002841793 0.040499829 0.99503899 -0.07959342
1239535849.0566 0.9954915 -0.085288018 0.0027949009 0.040571321 0.0028663082 0.040811073 0.99518627 -0.080498993
1249532075.4717 0.99520999 -0.085993603 0.0028320237 0.040859323 0.0029645134 0.04109773 0.99504906 -0.081264645
1259528301.8868 0.99508911 -0.086524695 0.0028764531 0.041183129 0.0030099116 0.041427135 0.9947958 -0.082121581
1269524528.3019 0.99484497 -0.087259531 0.0029666517 0.041511547 0.0031089019 0.041727576 0.99459046 -0.082838416
1279520754.717 0.99449921 -0.08788646 0.0029915662 0.04178429 0.00314084 0.042012606 0.99430722 -0.083345279
1289516981.1321 0.99435878 -0.088734478 0.0030101184 0.042073358 0.0031588571 0.042288709 0.99436188 -0.083807915
1299513207.5472 0.99406004 -0.089635223 0.0030337013 0.042411387 0.0031404886 0.042615451 0.99445248 -0.084220141
1309509433.9623 0.99363792 -0.090346798 0.0030249134 0.042711146 0.0032091234 0.042950965 0.99458957 -0.085033581
1319505660.3774 0.99328172 -0.091099069 0.0030569071 0.043059804 0.00315696 0.043272622 0.99468219 -0.085571721
1329501886.7925 0.99301076 -0.091763288 0.0030644573 0.04336581 0.0032059513 0.043556802 0.99461043 -0.086541951
1339498113.2075 0.99276155 -0.092222422 0.0030883318 0.0436888 0.0032276269 0.043871678 0.9941653 -0.087279737
1349494339.6226 0.9925468 -0.092780583 0.0030634454 0.044002026 0.003194653 0.044215016 0.99390703 -0.087841332
1359490566.0377 0.99242127 -0.093196839 0.0030753873 0.044168469 0.0031894855 0.044474363 0.99369884 -0.088304847
1369486792.4528 0.99229693 -0.09364143 0.0030577164 0.04457457 0.0032318505 0.044824898 0.993559 -0.088656515
1379483018.8679 0.99192685 -0.094205029 0.0030786942 0.044922199 0.003238746 0.045192227 0.99349296 -0.089035377
1389479245.283 0.99164915 -0.094781548 0.0031586047 0.045270711 0.0032343585 0.045552183 0.99350595 -0.089706838
1399475471.6981 0.99126953 -0.095098555 0.003124563 0.045636572 0.003264809 0.045940995 0.99368763 -0.090395868
1409471698.1132 0.99097043 -0.095582366 0.0031980691 0.046004746 0.0032815426 0.046300072 0.99369681 -0.091198817
1419467924.5283 0.99079418 -0.095845997 0.0031833434 0.046377055 0.0033143591 0.046674989 0.99352098 -0.0918926
1429464150.9434 0.99062735 -0.096355706 0.0032644905 0.046769813 0.0033373442 0.047044132 0.99343729 -0.092525661
1439460377.3585 0.99083257 -0.09684068 0.0033180043 0.047259364 0.0033940896 0.047473252 0.99322873 -0.092786342
1449456603.7736 0.99081528 -0.097303942 0.0034398101 0.047640651 0.0035379129 0.047858167 0.99308813 -0.093169093
1459452830.1887 0.99082577 -0.097989678 0.0035827644 0.048005741 0.0036457572 0.048266567 0.99325848 -0.093403816
1469449056.6038 0.99084085 -0.098654181 0.0037481133 0.048310317 0.0037775179 0.048633743 0.99345499 -0.094023854
1479445283.0189 0.99064678 -0.099157691 0.0038497224 0.048616175 0.0039555812 0.04889819 0.99348909 -0.094954558
1489441509.434 0.99066001 -0.099749386 0.0039813928 0.048927974 0.0040943157 0.049212255 0.99342829 -0.095803529
1499437735.8491 0.99048579 -0.10007718 0.0040905774 0.049216881 0.0041543432 0.049489014 0.99336457 -0.09665364
1509433962.2642 0.99048758 -0.10059196 0.0041771932 0.049509153 0.0041949237 0.049773905 0.99305779 -0.09742862
1519430188.6792 0.9906075 -0.10109931 0.0042339321 0.04973666 0.0042727552 0.050027493 0.99293965 -0.097881347
1529426415.0943 0.99053717 -0.10187125 0.0043108929 0.050046869 0.004325565 0.050353706 0.99289584 -0.098347396
1539422641.5094 0.99066031 -0.10265129 0.004374736 0.050343867 0.0043777814 0.050622743 0.99300534 -0.098793186
1549418867.9245 0.99035096 -0.10341874 0.0044416767 0.050595507 0.0044310689 0.05092622 0.99324161 -0.099594817
1559415094.3396 0.99028558 -0.10404667 0.0044580642 0.050938487 0.0044497903 0.051179141 0.99329311 -0.10024011
1569411320.7547 0.99017823 -0.10482122 0.0045094471 0.051172473 0.0045133047 0.051505432 0.99326968 -0.10099857
1579407547.1698 0.99008006 -0.10532267 0.0045236303 0.051424317 0.0045163841 0.051820684 0.99295002 -0.10180861
1589403773.5849 0.99007869 -0.10584107 0.0045119971 0.051704876 0.0045119226 0.052081052 0.99277568 -0.10251346
1599400000 0.98997128 -0.10635129 0.0045034578 0.052006766 0.0045145992 0.052357025 0.99237263 -0.10303566
1609396226.4151 0.98994434 -0.10703333 0.0045120772 0.052339926 0.0044694999 0.05271586 0.99222541 -0.10349132
1619392452.8302 0.98994184 -0.1076124 0.0045024138 0.052710854 0.0045230035 0.053057015 0.99208516 -0.10383561
1629388679.2453 0.98965359 -0.10832804 0.0044945255 0.053036153 0.0045067426 0.05339887 0.99238861 -0.10447803
1639384905.6604 0.98949915 -0.1088585 0.00454643 0.053407658 0.0045182789 0.053764615 0.99267823 -0.10536482
1649381132.0755 0.9892686 -0.10950992 0.0045370683 0.053673025 0.0045462139 0.054179277 0.99262416 -0.1062355
1659377358.4906 0.9890871 -0.11042333 0.0045833066 0.054086089 0.0046038348 0.054511204 0.992612 -0.10709807
1669373584.9057 0.9890067 -0.11086217 0.0046128351 0.054486655 0.0046205027 0.054849148 0.99232274 -0.10774422
1679369811.3208 0.98915219 -0.11155891 0.00465196 0.0548421 0.0046369983 0.055228811 0.99203348 -0.10831371
1689366037.7358 0.9891156 -0.1121276 0.0047166161 0.055216819 0.0046632718 0.055649593 0.99193013 -0.10856414
1699362264.1509 0.9892022 -0.11261749 0.0047541698 0.05559168 0.0047518509 0.056012847 0.99223089 -0.10905661
1709358490.566 0.9891153 -0.11327724 0.004810635 0.055960245 0.0047760131 0.056394562 0.99212968 -0.10955673
1719354716.9811 0.98881966 -0.11394456 0.0048306547 0.056330331 0.0048572533 0.056781095 0.99217582 -0.11021885
1729350943.3962 0.98856056 -0.11454901 0.0049089249 0.0567021 0.0049256235 0.057189755 0.99212748 -0.11108774
