!Keysight Technologies,N5222B,MY61253708,A.15.00.15
!Date: Wednesday, June 19, 2024 08:48:37
!Correction: S11(C  2-Port  ) 
!S21(C  2-Port  ) 
!S12(C  2-Port  ) 
!S22(C  2-Port  ) 
!S2P File: Measurements: S11, S21, S12, S22:
# Hz S  RI   R 50
10000000 0.99832946 -0.002169013 0.00014023794 0.00058180047 0.00039433929 0.00072227296 0.99845725 -0.0010471046
19996226.415094 0.99914902 -0.0020326972 6.0791936e-005 0.0009146852 2.4812383e-005 0.00082111626 0.99928719 -0.0021883845
29992452.830189 0.99972904 -0.0026156902 -5.8519188e-005 0.0011264089 1.6514154e-005 0.0011726448 0.99954557 -0.0027650297
39988679.245283 1.000048 -0.0031634867 8.9723762e-006 0.0015263149 -1.0098549e-005 0.0015102513 0.99962819 -0.0033209771
49984905.660377 1.0001538 -0.0040251017 2.9209536e-005 0.0019527019 1.1652999e-005 0.0018786134 0.99973524 -0.003947705
59981132.075472 1.0002544 -0.0049125552 7.3103001e-006 0.0022625932 6.0342019e-005 0.0023260466 0.99978876 -0.0044742823
69977358.490566 1.0000255 -0.0054258611 4.4725326e-005 0.0026497529 5.1542374e-006 0.0026359565 0.99961507 -0.0049911998
79973584.90566 0.99976629 -0.0059984326 3.3006305e-005 0.0029785996 3.3951015e-005 0.0029893587 0.99939513 -0.005589366
89969811.320755 0.99975455 -0.0063093305 4.9796537e-005 0.0034280489 9.279931e-006 0.0034218861 0.99944383 -0.0059997141
99966037.735849 0.99993908 -0.0070580095 6.6761859e-006 0.0037771 3.6565587e-005 0.0038261043 0.99952692 -0.006782338
109962264.15094 0.99998766 -0.0080136508 4.8519461e-005 0.0041443626 3.5102537e-005 0.0041633761 0.99955159 -0.0076859593
119958490.56604 1.0000536 -0.0091061592 4.2303465e-005 0.0045509934 6.1587431e-005 0.0045539625 0.99958509 -0.0086191297
129954716.98113 1.0000126 -0.010164887 6.0157734e-005 0.0049116747 6.1035971e-005 0.0049408874 0.9995715 -0.0096235871
139950943.39623 0.99990124 -0.011064693 5.4292963e-005 0.0052732602 9.1363676e-005 0.005302438 0.999493 -0.010391146
149947169.81132 0.99977028 -0.011769265 8.9974841e-005 0.0056732548 6.8124384e-005 0.005700334 0.99942482 -0.011026055
159943396.22642 0.99970305 -0.012296915 9.0475194e-005 0.0060399454 7.3534902e-005 0.0060647009 0.99949193 -0.011519104
169939622.64151 0.99975419 -0.012702763 9.1658556e-005 0.0064455322 9.7345852e-005 0.0064385799 0.99960345 -0.011989348
179935849.0566 0.99983251 -0.012985766 0.00010935823 0.0068075242 0.00010645972 0.0068478435 0.99951053 -0.012421787
189932075.4717 0.99990261 -0.013848364 0.0001255658 0.007189644 0.00010871654 0.0071820137 0.99966389 -0.013125479
199928301.88679 0.9998365 -0.014771432 0.0001099701 0.0075713685 0.00010448811 0.007574297 0.99958652 -0.014009297
209924528.30189 0.99958456 -0.015531614 0.00013714877 0.0079219509 0.00013118365 0.0079505518 0.99933606 -0.014864653
219920754.71698 0.99952215 -0.01654011 0.00016870536 0.008292947 0.00017092656 0.0083411904 0.99918592 -0.015645623
229916981.13208 0.99930823 -0.017376512 0.00015704194 0.0086712232 0.00014238339 0.0086999908 0.99904728 -0.016384393
239913207.54717 0.99915695 -0.018026087 0.00016724439 0.0090356376 0.00017066389 0.009078227 0.99906164 -0.01710527
249909433.96226 0.9992218 -0.018751472 0.00017541507 0.0094187353 0.0001965838 0.0094538378 0.9991594 -0.017819017
259905660.37736 0.99931377 -0.019400984 0.00022107223 0.0098188929 0.00015697721 0.0098360498 0.99934912 -0.018434137
269901886.79245 0.99952006 -0.01999256 0.00022085127 0.010155896 0.00019311463 0.010218293 0.99964076 -0.019104272
279898113.20755 0.99961257 -0.020764485 0.00019351928 0.010570937 0.00024744961 0.010548705 0.9995653 -0.019947022
289894339.62264 0.99954355 -0.021533906 0.0002553598 0.010984831 0.0002594972 0.010961674 0.99951649 -0.020780802
299890566.03774 0.99947166 -0.022220224 0.00024228427 0.011288431 0.00026816782 0.011384038 0.99924743 -0.021241754
309886792.45283 0.99910003 -0.022778369 0.00028768566 0.011689309 0.00027867116 0.011698273 0.99908829 -0.021818399
319883018.86792 0.99904114 -0.023464799 0.00029255636 0.012046184 0.00028484873 0.012153089 0.99909455 -0.022357196
329879245.28302 0.99908483 -0.024237961 0.00031996751 0.012478561 0.00031124335 0.012516208 0.99911046 -0.023079425
339875471.69811 0.99891108 -0.024955958 0.00038247649 0.012838801 0.00034806447 0.012903417 0.99915475 -0.023929916
349871698.11321 0.99914533 -0.02586776 0.00041358452 0.013183704 0.00035494007 0.013253921 0.99910617 -0.024886578
359867924.5283 0.99913085 -0.026747972 0.00037386594 0.013550826 0.00042311801 0.013575945 0.99912953 -0.02588883
369864150.9434 0.99934256 -0.027586728 0.00042215805 0.013986337 0.00039182766 0.014006011 0.99917555 -0.026685804
379860377.35849 0.99922407 -0.028386906 0.00045678718 0.014323129 0.00042028399 0.014371214 0.99904931 -0.027357638
389856603.77358 0.9990406 -0.028884113 0.00046533206 0.014658292 0.00046834443 0.014697644 0.99898636 -0.027863979
399852830.18868 0.99889112 -0.029551268 0.00045493525 0.015085937 0.00048608333 0.015156772 0.99907798 -0.028405339
409849056.60377 0.99886531 -0.030105799 0.00050891354 0.015450024 0.00049831951 0.015512889 0.99913388 -0.028904505
419845283.01887 0.99881577 -0.030441433 0.0005324618 0.01581927 0.00053315377 0.015853615 0.9991855 -0.029505432
429841509.43396 0.99890769 -0.031301349 0.00054730428 0.016210955 0.00056147901 0.016294729 0.99926317 -0.030299038
439837735.84906 0.99872392 -0.032185614 0.00063042226 0.016558558 0.00059922389 0.016622219 0.99910057 -0.031232342
449833962.26415 0.99874824 -0.033129811 0.00061717024 0.016891811 0.00058415299 0.016991571 0.9986884 -0.032150328
459830188.67925 0.99866205 -0.03395319 0.00060525909 0.017270043 0.00057797879 0.017332723 0.99861211 -0.033049881
469826415.09434 0.99860215 -0.034804583 0.00061857421 0.017669858 0.00058990717 0.017740155 0.99838459 -0.033656359
479822641.50943 0.99847078 -0.035416313 0.00065892143 0.018051516 0.00062643876 0.018108509 0.99841762 -0.034105748
489818867.92453 0.99854481 -0.036010951 0.00068599917 0.018444803 0.00071083475 0.018527959 0.99866402 -0.034786373
499815094.33962 0.99863601 -0.03660965 0.00073395297 0.018832229 0.0007417053 0.018875625 0.99899238 -0.03540343
509811320.75472 0.99885231 -0.037056915 0.00077841687 0.019161491 0.00074956275 0.019283704 0.99916929 -0.03631901
519807547.16981 0.99875063 -0.037696719 0.00077533722 0.019556804 0.00079250662 0.019638367 0.99911541 -0.037164807
529803773.58491 0.9986527 -0.03841719 0.00078013539 0.019925056 0.00079606939 0.019978346 0.99880981 -0.037827939
539800000 0.99867415 -0.039219096 0.00078421086 0.020299083 0.00079390896 0.02035377 0.99858624 -0.038523048
549796226.41509 0.99840027 -0.040133297 0.00083681848 0.0206629 0.00083701871 0.020755913 0.99828881 -0.039061248
559792452.83019 0.99808216 -0.04097873 0.00086610392 0.021068504 0.00090504438 0.021151662 0.99823928 -0.039629012
569788679.24528 0.99796027 -0.041604251 0.00089645851 0.021461787 0.0008939798 0.021546852 0.99836069 -0.040422231
579784905.66038 0.99800771 -0.042286322 0.00096483971 0.021790765 0.00092130201 0.021935832 0.99858868 -0.041169971
589781132.07547 0.99812984 -0.042986304 0.00096511841 0.022161895 0.00098516885 0.022283331 0.99866307 -0.042169511
599777358.49057 0.99833971 -0.043653637 0.0010031862 0.022562021 0.0010116762 0.022662831 0.99864775 -0.043021888
609773584.90566 0.99849713 -0.044512607 0.0010810446 0.022976089 0.0010849449 0.023103893 0.99853504 -0.043918356
619769811.32075 0.99850857 -0.045226395 0.0011598319 0.023305265 0.0011909716 0.023447556 0.99842042 -0.04450202
629766037.73585 0.99827802 -0.045899868 0.0012164349 0.023630731 0.001187209 0.023745622 0.99811387 -0.044997931
639762264.15094 0.99809361 -0.04654558 0.0012019803 0.023958221 0.0011894908 0.024104694 0.99802589 -0.045475706
649758490.56604 0.99791616 -0.047129527 0.0011952273 0.024334457 0.0011672326 0.02450813 0.9981755 -0.045955077
659754716.98113 0.99778211 -0.047669947 0.0012431936 0.024743725 0.0012294557 0.02486065 0.99812287 -0.046586573
669750943.39623 0.99780768 -0.04817012 0.0012672925 0.025132244 0.0012517562 0.025290933 0.99826801 -0.047479153
679747169.81132 0.99770963 -0.049037751 0.0013200066 0.025537279 0.0012715056 0.025673078 0.99814332 -0.048507195
689743396.22642 0.99789715 -0.049970597 0.0013289899 0.025915312 0.0013623619 0.026089486 0.99796289 -0.049479455
699739622.64151 0.99806529 -0.050808817 0.0013859011 0.026263284 0.0013901014 0.026369598 0.99785858 -0.050274074
709735849.0566 0.99804443 -0.051748097 0.0014764452 0.026626 0.0014675895 0.026751511 0.99760664 -0.050925948
719732075.4717 0.99796456 -0.052490652 0.0014820928 0.027000185 0.001503489 0.027093302 0.99775493 -0.051529139
729728301.88679 0.99775636 -0.053081602 0.0015460681 0.027366567 0.0015207734 0.027467823 0.99774265 -0.051986307
739724528.30189 0.99761504 -0.053760335 0.0015656315 0.027683208 0.0015680525 0.027881738 0.99797916 -0.052684084
749720754.71698 0.99745756 -0.054279596 0.0015994417 0.028045848 0.0015929895 0.028239161 0.99800515 -0.053429514
759716981.13208 0.99759376 -0.054848135 0.0016646115 0.028438456 0.0016437517 0.028588437 0.99788868 -0.054256082
769713207.54717 0.99751401 -0.055556685 0.0016840883 0.028809166 0.001685461 0.028935807 0.99760479 -0.055003405
779709433.96226 0.99766558 -0.056241557 0.0017241619 0.029194316 0.0017356179 0.029324234 0.9973014 -0.055725489
789705660.37736 0.99748451 -0.057271302 0.0017532734 0.029561585 0.0017726989 0.02968324 0.99705833 -0.056496531
799701886.79245 0.99750829 -0.058205396 0.0018548919 0.029890623 0.0018319441 0.030042812 0.99697316 -0.057137817
809698113.20755 0.99737304 -0.058778554 0.0018677944 0.030279413 0.0018325867 0.03043163 0.99702209 -0.05762668
819694339.62264 0.99719179 -0.059533373 0.0018565585 0.030608613 0.0018848637 0.030779459 0.99721873 -0.058283478
829690566.03774 0.99720418 -0.060076714 0.0019387593 0.030990124 0.0019275006 0.031180162 0.99743247 -0.059165329
839686792.45283 0.99731231 -0.060631841 0.0019324133 0.031352628 0.0019767471 0.031522211 0.99746406 -0.06013009
849683018.86792 0.9973231 -0.061315127 0.0020004155 0.031740256 0.0019851546 0.031899035 0.99733168 -0.060895048
859679245.28302 0.99742496 -0.062084168 0.0020256992 0.032106787 0.0020221984 0.032285877 0.99708432 -0.06151253
869675471.69811 0.99732965 -0.062901348 0.002105521 0.03248395 0.0021002553 0.032619569 0.99665296 -0.062106758
879671698.11321 0.99718833 -0.063631319 0.0021627573 0.032829776 0.0021326523 0.033013001 0.99666452 -0.062602684
889667924.5283 0.99692869 -0.064495891 0.0021866448 0.033164501 0.002174357 0.033345465 0.99645412 -0.063109398
899664150.9434 0.99667925 -0.065296769 0.0022304058 0.033547875 0.0022244733 0.033729039 0.9965083 -0.063870311
909660377.35849 0.99664116 -0.066081718 0.0022916258 0.033890814 0.0022319593 0.03409024 0.99666637 -0.06478411
919656603.77358 0.99684215 -0.066787019 0.0022965414 0.034247927 0.0023132707 0.034439612 0.99666703 -0.065804482
929652830.18868 0.99680018 -0.067468762 0.0023430418 0.034605086 0.0023623202 0.034805581 0.99651504 -0.066735536
939649056.60377 0.99700761 -0.068165898 0.0023617605 0.034953084 0.0023688385 0.035178095 0.99637038 -0.067541301
949645283.01887 0.99697232 -0.069052055 0.0023622541 0.035333831 0.0024000639 0.035544913 0.99609804 -0.068089619
959641509.43396 0.99684173 -0.069799036 0.0024158033 0.035753477 0.0024003051 0.035951026 0.99597681 -0.068596244
969637735.84906 0.99673963 -0.070584178 0.0024775397 0.036118723 0.0024697781 0.036326233 0.99604821 -0.069001079
979633962.26415 0.99648768 -0.071333535 0.0025215328 0.036473185 0.0025428126 0.036705323 0.99603498 -0.069655716
989630188.67925 0.99649674 -0.071857154 0.0025760718 0.03683703 0.0025671264 0.037074223 0.99625123 -0.070286661
999626415.09434 0.9966222 -0.072570533 0.0026236773 0.037208088 0.0026284307 0.037414372 0.99611127 -0.071289152
1009622641.5094 0.99659473 -0.073280349 0.002670411 0.03759991 0.0026912447 0.037842561 0.99596179 -0.072129115
1019618867.9245 0.99669433 -0.074174017 0.0027063545 0.037982289 0.0027574641 0.038206041 0.99568003 -0.07306847
1029615094.3396 0.99663711 -0.075200796 0.0028144494 0.038348291 0.0028160252 0.038572904 0.9952668 -0.073732913
1039611320.7547 0.99663955 -0.076212257 0.0028577419 0.038689449 0.002868549 0.038917974 0.99520564 -0.074390888
1049607547.1698 0.99641192 -0.077114254 0.0028963755 0.039001133 0.0029022552 0.039272774 0.99513215 -0.075080797
1059603773.5849 0.99638975 -0.077813953 0.0029493235 0.039349262 0.0029869592 0.039605454 0.99519372 -0.075689048
1069600000 0.99598294 -0.078455508 0.0029636454 0.039685823 0.0030039214 0.039965685 0.99534726 -0.076351672
1079596226.4151 0.99593657 -0.07909853 0.0029987833 0.040068816 0.0030723242 0.040307011 0.9952898 -0.07712847
1089592452.8302 0.99597228 -0.079770654 0.0030302675 0.040461995 0.0030776691 0.040692888 0.99525601 -0.077907979
1099588679.2453 0.99604481 -0.080443054 0.0030566007 0.040790621 0.0030919313 0.041062228 0.99483502 -0.078564256
1109584905.6604 0.99605137 -0.081354856 0.0030603558 0.041182999 0.0031430833 0.041451704 0.99455345 -0.079117209
1119581132.0755 0.99607617 -0.082358442 0.0030982173 0.041581742 0.0031771483 0.041817486 0.99432993 -0.079668164
1129577358.4906 0.99590766 -0.083299786 0.0031856354 0.041977916 0.0032321066 0.042226486 0.99421144 -0.080180556
1139573584.9057 0.99558419 -0.08434841 0.0032284819 0.042359192 0.0033023423 0.042599909 0.99437213 -0.080925792
1149569811.3208 0.99547374 -0.085168906 0.003312828 0.042711012 0.0033884614 0.042980745 0.99443728 -0.081722729
1159566037.7358 0.99520183 -0.085852712 0.0033350661 0.0430535 0.0034154169 0.043300871 0.99453557 -0.08278811
1169562264.1509 0.99512017 -0.086509526 0.0033559091 0.043396331 0.0034403503 0.04363969 0.99434608 -0.083661139
1179558490.566 0.99501652 -0.087325305 0.0033724359 0.04381378 0.0034945295 0.044092484 0.99422693 -0.084341228
1189554716.9811 0.99497885 -0.088074595 0.0034349998 0.044182524 0.003544081 0.044439953 0.99393606 -0.084902406
1199550943.3962 0.99496806 -0.088938653 0.0034659766 0.044618219 0.0036171954 0.044831067 0.99375725 -0.085287184
1209547169.8113 0.99474633 -0.08990103 0.003554971 0.044954985 0.0036398368 0.04517436 0.99363387 -0.085727915
1219543396.2264 0.99455935 -0.090708554 0.003608909 0.04536403 0.0037481538 0.045582615 0.99364042 -0.086122587
1229539622.6415 0.9942044 -0.091568023 0.0036757756 0.045720097 0.003853932 0.045968153 0.99380612 -0.086904764
1239535849.0566 0.99393785 -0.092411429 0.0037528751 0.046074383 0.0038962672 0.046339031 0.99384773 -0.087962747
1249532075.4717 0.99359632 -0.093070254 0.0038437464 0.046462953 0.0039666146 0.046697747 0.99365437 -0.08871375
1259528301.8868 0.99337125 -0.093641967 0.0039021783 0.04682304 0.003998328 0.04702612 0.99347568 -0.089756608
1269524528.3019 0.99324048 -0.094446898 0.0039796643 0.047180157 0.0041658729 0.047386296 0.99318182 -0.09051457
1279520754.717 0.9929381 -0.095250912 0.004042353 0.04748106 0.0041800071 0.047678147 0.99286699 -0.091082059
1289516981.1321 0.99278158 -0.096092492 0.0041118935 0.047827926 0.0042073578 0.048038334 0.99300325 -0.091503978
1299513207.5472 0.99244106 -0.096922606 0.0041146278 0.048180219 0.0042611994 0.048347604 0.99303156 -0.091906458
1309509433.9623 0.9918986 -0.097693741 0.0041296324 0.048543524 0.0042833351 0.04870801 0.99320745 -0.092644736
1319505660.3774 0.9914937 -0.098448992 0.0041398043 0.048892211 0.0042708479 0.049100745 0.99314064 -0.093385383
1329501886.7925 0.99115634 -0.099146038 0.0041833986 0.049270473 0.0043183751 0.049450003 0.99312693 -0.094385028
1339498113.2075 0.9909218 -0.099668384 0.0042205583 0.049622193 0.0043498483 0.049789902 0.99272597 -0.095097095
1349494339.6226 0.99065053 -0.10025268 0.0042004865 0.04998884 0.0043467293 0.050185166 0.99232531 -0.09583424
1359490566.0377 0.99058473 -0.10085401 0.0042493474 0.050391868 0.0043450985 0.050561193 0.99208617 -0.09639585
1369486792.4528 0.99034494 -0.10156274 0.0042591356 0.050814509 0.0043668393 0.05096392 0.99184436 -0.096894056
1379483018.8679 0.9900009 -0.10218643 0.0043214657 0.0512335 0.0044099214 0.051378176 0.99187148 -0.097276971
1389479245.283 0.98959309 -0.10270637 0.0044072624 0.051651418 0.0044714194 0.051783543 0.99184018 -0.098070025
1399475471.6981 0.98917878 -0.10319859 0.0044149775 0.052071668 0.0044817738 0.052164741 0.99202824 -0.098687679
1409471698.1132 0.98892844 -0.10351992 0.0044608037 0.052452505 0.0045728944 0.052610483 0.9920519 -0.099602498
1419467924.5283 0.98869771 -0.10379326 0.0045285504 0.0528377 0.0045751315 0.053026412 0.99181503 -0.10028434
1429464150.9434 0.9884879 -0.10428986 0.0045485012 0.053305306 0.0046123918 0.053466253 0.99164605 -0.10089013
1439460377.3585 0.98867625 -0.10475177 0.0046587233 0.053789478 0.0047395853 0.053909898 0.99147499 -0.10130392
1449456603.7736 0.98870975 -0.10541046 0.0047719283 0.054240581 0.0048030755 0.054296218 0.99128085 -0.10158508
1459452830.1887 0.98869216 -0.10621798 0.0049346797 0.054641739 0.0049645957 0.054814197 0.99139935 -0.10200951
1469449056.6038 0.98871678 -0.10691971 0.0050847176 0.055044144 0.0050988682 0.055197038 0.99156731 -0.10266882
1479445283.0189 0.98848015 -0.10765934 0.0052463007 0.055360314 0.0052738143 0.055538736 0.99164945 -0.10367617
1489441509.434 0.98830032 -0.10814613 0.0053905491 0.055731684 0.0054186061 0.055894297 0.99145675 -0.10465232
1499437735.8491 0.9881978 -0.10850847 0.0055402964 0.056024678 0.0055278186 0.056200013 0.99135947 -0.1055108
1509433962.2642 0.98815072 -0.10905863 0.0056099938 0.056304567 0.0056121857 0.056499377 0.99118263 -0.10624209
1519430188.6792 0.98828 -0.10955384 0.0057274159 0.056652114 0.0056920517 0.056819197 0.99097979 -0.10685813
1529426415.0943 0.98820615 -0.11028093 0.0058006346 0.056995988 0.0057577472 0.057106942 0.99090004 -0.10732362
1539422641.5094 0.98826391 -0.1111744 0.0058424431 0.057303276 0.0058047581 0.057490233 0.99101573 -0.10778587
1549418867.9245 0.98809618 -0.11208549 0.0059246533 0.057639614 0.0059019225 0.057833292 0.99120259 -0.10856356
1559415094.3396 0.98798364 -0.11276665 0.0059979297 0.057988361 0.0059362352 0.058137827 0.99140489 -0.10929501
1569411320.7547 0.98775554 -0.11358488 0.0060428958 0.058233954 0.0059909457 0.058486328 0.99123138 -0.11017992
1579407547.1698 0.98768079 -0.11415934 0.0060577113 0.058608916 0.0060054492 0.058830161 0.99083114 -0.11090863
1589403773.5849 0.98757166 -0.11474347 0.0061199404 0.058904968 0.0060314331 0.059159845 0.99055862 -0.11187977
1599400000 0.9875477 -0.11523291 0.0061170943 0.059290636 0.0060820989 0.059495062 0.99013686 -0.11230719
1609396226.4151 0.98751241 -0.11593138 0.0061224224 0.059608135 0.0060677589 0.059846327 0.98996902 -0.11285602
1619392452.8302 0.98754227 -0.11665097 0.0061229877 0.060042609 0.0060854182 0.060244881 0.98999679 -0.11334482
1629388679.2453 0.98729891 -0.11739692 0.0061797872 0.060431361 0.0060978383 0.060619563 0.99021941 -0.11390147
1639384905.6604 0.98696423 -0.11807202 0.0061855614 0.060809661 0.00612636 0.061097361 0.9904412 -0.11484114
1649381132.0755 0.98673493 -0.11880103 0.0062028039 0.061186336 0.0061800946 0.061500058 0.99037707 -0.11571234
1659377358.4906 0.98652506 -0.11957383 0.0062425137 0.061590657 0.006223781 0.061911453 0.99034607 -0.11677238
1669373584.9057 0.98645616 -0.12010967 0.006321426 0.062056564 0.0062798657 0.062321197 0.98997009 -0.11737674
1679369811.3208 0.98653507 -0.12071334 0.0063951071 0.062470715 0.0063264184 0.062724724 0.98970675 -0.11792722
1689366037.7358 0.98652053 -0.12139773 0.0064574275 0.062923662 0.0064156819 0.063106194 0.98953009 -0.11822924
1699362264.1509 0.98664027 -0.12220487 0.0065332064 0.063245751 0.0064656446 0.063617423 0.98970032 -0.11873601
1709358490.566 0.98646641 -0.12282445 0.0065783923 0.063696727 0.0065900758 0.064025231 0.98965991 -0.11943284
1719354716.9811 0.9861722 -0.12352887 0.006731404 0.064130351 0.0066369679 0.064438179 0.9897238 -0.12015408
1729350943.3962 0.98582363 -0.12417558 0.0068163481 0.064538412 0.0067848861 0.064853176 0.98967612 -0.12107453
