!Keysight Technologies,N5222B,MY61253708,A.15.00.15
!Date: Wednesday, June 19, 2024 08:38:08
!Correction: S11(C  2-Port  ) 
!S21(C  2-Port  ) 
!S12(C  2-Port  ) 
!S22(C  2-Port  ) 
!S2P File: Measurements: S11, S21, S12, S22:
# Hz S  RI   R 50
10000000 0.99855 -0.0023697615 0.0001805924 0.00079545489 2.0650201e-005 0.00062218559 0.9987725 -0.0016244352
19996226.415094 0.99910772 -0.0025445521 2.5867426e-005 0.0012470544 2.1595799e-005 0.0010334876 0.99925315 -0.0025303066
29992452.830189 0.99970442 -0.0032265782 0.00012421928 0.0017983974 2.6011548e-005 0.0017832771 0.99956375 -0.00344491
39988679.245283 1.0000564 -0.0041374415 1.5198282e-005 0.0023334806 2.6698195e-005 0.002330465 0.99963808 -0.0041867793
49984905.660377 1.0001121 -0.005101949 5.3075841e-005 0.002955168 3.669539e-005 0.002929471 0.99975681 -0.0049610138
59981132.075472 1.0002502 -0.0061504543 2.42776e-005 0.0035631009 2.2348249e-005 0.0035172086 0.99965078 -0.0056800246
69977358.490566 0.9999693 -0.0068773124 0.00011390019 0.00413098 4.1702704e-005 0.0040559578 0.99958235 -0.0064485837
79973584.90566 0.99975514 -0.0076386333 8.6895539e-005 0.0047334451 7.3478441e-005 0.0046274615 0.99933994 -0.0071667731
89969811.320755 0.99968112 -0.0082797706 8.4768282e-005 0.0053465469 7.6014083e-005 0.0052498253 0.99939269 -0.0078306794
99966037.735849 0.99984109 -0.0092106313 9.7561046e-005 0.0059070201 8.5654901e-005 0.0058366037 0.99940532 -0.008829549
109962264.15094 0.9999103 -0.010386825 0.00013586832 0.0064996905 0.00013272697 0.0063950918 0.99941951 -0.0098709315
119958490.56604 0.99994445 -0.011687756 0.00014624582 0.0070955148 0.00014345837 0.0069847796 0.99942148 -0.011029214
129954716.98113 0.99984908 -0.01296109 0.00015908293 0.0076783276 0.00016483921 0.0075566862 0.99943495 -0.012231261
139950943.39623 0.99973857 -0.014010157 0.00016544762 0.0082619078 0.00018784612 0.0081545776 0.99929214 -0.013230471
149947169.81132 0.99961138 -0.01492247 0.00020602089 0.0088642882 0.00019535422 0.0087220632 0.99925256 -0.014067799
159943396.22642 0.99954087 -0.015656412 0.00025401404 0.0094456486 0.00023405347 0.0092958743 0.99931872 -0.014726907
169939622.64151 0.99955219 -0.016228147 0.00025355269 0.010021098 0.00024405075 0.0098889256 0.99941057 -0.015377581
179935849.0566 0.99957693 -0.016814798 0.0003068042 0.01062519 0.00028674142 0.010463768 0.99933189 -0.016011149
189932075.4717 0.99961364 -0.017789483 0.00031807693 0.011210725 0.00028009899 0.011059863 0.99950212 -0.0169577
199928301.88679 0.99954671 -0.018963814 0.00038702786 0.011809628 0.0003472541 0.011606982 0.99935228 -0.018005043
209924528.30189 0.9992851 -0.019964188 0.00039094093 0.012385285 0.0003859048 0.012230309 0.99913657 -0.019108087
219920754.71698 0.9989441 -0.021073222 0.00072201993 0.01293915 0.0006677513 0.012739219 0.99859774 -0.020029217
229916981.13208 0.99887985 -0.022173196 0.00046339817 0.013485821 0.00043707388 0.013285354 0.99869603 -0.020952016
239913207.54717 0.9988125 -0.023066679 0.00048368773 0.014076965 0.00047715951 0.013872588 0.99868041 -0.021896672
249909433.96226 0.99882215 -0.023951352 0.00053395284 0.014658344 0.0005115103 0.014457674 0.99880391 -0.022791892
259905660.37736 0.99892497 -0.024734646 0.00056964858 0.015223365 0.0005380623 0.015049051 0.99894035 -0.023626655
269901886.79245 0.99921453 -0.025702387 0.00057070027 0.015870655 0.00058456208 0.015612346 0.99930263 -0.024517551
279898113.20755 0.99937421 -0.026554778 0.00070274551 0.016414886 0.00061880052 0.016224924 0.99925691 -0.025461912
289894339.62264 0.99904585 -0.027563095 0.00068366528 0.017019659 0.00065536797 0.016783794 0.99903768 -0.026536524
299890566.03774 0.99898839 -0.028481394 0.00075398153 0.017555172 0.00066464953 0.017376708 0.9987641 -0.027301788
309886792.45283 0.99863529 -0.029372185 0.00077673979 0.018186493 0.00079054246 0.017914157 0.99856687 -0.028043292
319883018.86792 0.9984113 -0.030189276 0.00082308054 0.018741619 0.00080533559 0.018561438 0.99856311 -0.02874133
329879245.28302 0.99846554 -0.031103224 0.00093747023 0.019319855 0.00088170543 0.019043982 0.99861753 -0.029661089
339875471.69811 0.99839383 -0.032015935 0.00099515053 0.019916819 0.00092728948 0.019676054 0.99853468 -0.03071297
349871698.11321 0.99859864 -0.033106357 0.00096584577 0.020496774 0.0009241472 0.020196695 0.99855399 -0.031828493
359867924.5283 0.9983623 -0.034240812 0.0010469295 0.021117032 0.00096909702 0.020806324 0.99850857 -0.0330531
369864150.9434 0.99853981 -0.03528741 0.0011257906 0.02165986 0.0010556164 0.021368261 0.99856538 -0.033988327
379860377.35849 0.99842435 -0.036196545 0.0011498784 0.022255234 0.0011233767 0.021952091 0.9983905 -0.034932673
389856603.77358 0.99833292 -0.037069798 0.0012060245 0.022807583 0.0012093429 0.022483528 0.99831545 -0.035625726
399852830.18868 0.99799824 -0.037820607 0.0013064072 0.023363864 0.0012129219 0.023100967 0.99832553 -0.036309272
409849056.60377 0.99801201 -0.038484599 0.0013645201 0.023970379 0.001272326 0.023660393 0.99831343 -0.037012946
419845283.01887 0.99791145 -0.039171755 0.0013760151 0.024541188 0.0013119476 0.024245648 0.99827021 -0.03780067
429841509.43396 0.99793589 -0.04009974 0.0014681211 0.025092512 0.0014386214 0.024803933 0.99836814 -0.038773656
439837735.84906 0.99788415 -0.041268885 0.0015433796 0.025693534 0.001502808 0.025343634 0.99813753 -0.039964817
449833962.26415 0.9977752 -0.042393714 0.0016049547 0.026254509 0.0015415498 0.025895368 0.99774927 -0.041023284
459830188.67925 0.99766743 -0.043481886 0.0016843695 0.026845517 0.0015696716 0.026450526 0.99758732 -0.042094022
469826415.09434 0.99757892 -0.04456839 0.0017347918 0.027453523 0.0016008476 0.027063537 0.99729007 -0.04291901
479822641.50943 0.99735415 -0.045379058 0.0017693632 0.027980732 0.0017115769 0.027651221 0.99728203 -0.043621689
489818867.92453 0.99744928 -0.046153277 0.0018806513 0.028578687 0.0017845603 0.028194502 0.99755144 -0.04441452
499815094.33962 0.99744534 -0.046828061 0.0019320687 0.029095832 0.0018663341 0.028732851 0.99783033 -0.045200765
509811320.75472 0.99759287 -0.047544636 0.0020091026 0.029668098 0.0019146892 0.029290842 0.99797553 -0.046373338
519807547.16981 0.99742949 -0.048447013 0.0020829756 0.030258283 0.0019816877 0.029904451 0.99786532 -0.047330767
529803773.58491 0.99737549 -0.049313515 0.00205913 0.030871544 0.0020392966 0.030435048 0.99753666 -0.048204929
539800000 0.99725056 -0.050358936 0.002193307 0.031432852 0.0021006041 0.031055614 0.99723005 -0.049118251
549796226.41509 0.99696589 -0.051382899 0.002292512 0.032020252 0.0021687178 0.031624105 0.99693274 -0.04980129
559792452.83019 0.99671495 -0.052381873 0.0023482423 0.032617956 0.0022334931 0.032153137 0.99677968 -0.05061233
569788679.24528 0.99644601 -0.053346395 0.0024432484 0.033148728 0.0023252536 0.032709748 0.99692297 -0.051559836
579784905.66038 0.99647892 -0.054158479 0.0025506841 0.03376535 0.0024013533 0.033287805 0.99704462 -0.05242449
589781132.07547 0.99652159 -0.054940432 0.0026519187 0.034294128 0.0024779998 0.033876326 0.99716854 -0.05364278
599777358.49057 0.99655861 -0.055948794 0.0027024699 0.034872182 0.0025896952 0.034427606 0.99707723 -0.054727584
609773584.90566 0.99680567 -0.05699487 0.0027960332 0.035467304 0.0026818945 0.03501479 0.99689317 -0.055799328
619769811.32075 0.99680412 -0.057872325 0.0029273992 0.036014371 0.0027928203 0.035570759 0.99673891 -0.056546777
629766037.73585 0.99640369 -0.05874911 0.0029958673 0.036556501 0.0029009935 0.036057331 0.99649668 -0.057211936
639762264.15094 0.99614656 -0.059626698 0.0030888091 0.037117302 0.0029903208 0.036583826 0.99619263 -0.057916299
649758490.56604 0.99591422 -0.060454562 0.0031327605 0.037612997 0.003018653 0.037165631 0.99627846 -0.058570087
659754716.98113 0.99577385 -0.061204493 0.0032151155 0.038242653 0.0030864645 0.037729815 0.99631673 -0.059399635
669750943.39623 0.99573791 -0.061942279 0.0032879012 0.038826294 0.0031457851 0.038347352 0.99625146 -0.060418636
679747169.81132 0.99564582 -0.062909499 0.0033834092 0.039411992 0.0032365429 0.038891558 0.99621212 -0.06169828
689743396.22642 0.99571824 -0.064002067 0.0034896173 0.039992493 0.0033522146 0.039464962 0.99590015 -0.062858075
699739622.64151 0.995839 -0.065135866 0.003596684 0.040527999 0.0034441203 0.039993126 0.99578631 -0.063815653
709735849.0566 0.99583042 -0.066233143 0.0037152453 0.04108119 0.0035882478 0.040535465 0.9954679 -0.064615071
719732075.4717 0.9955222 -0.067168742 0.0038389927 0.041647878 0.0036706533 0.0411046 0.99553287 -0.065409422
729728301.88679 0.99535978 -0.06795764 0.0038659535 0.042188905 0.0037420001 0.041676566 0.9954952 -0.066039115
739724528.30189 0.9951883 -0.068641633 0.004028012 0.042755663 0.0038852375 0.042250987 0.99558628 -0.066950366
749720754.71698 0.99501723 -0.069412395 0.0041328957 0.043306489 0.0039869952 0.042802293 0.99558055 -0.067884415
759716981.13208 0.99491394 -0.07022059 0.0042477883 0.043851405 0.0040575769 0.043331321 0.99544036 -0.068876833
769713207.54717 0.99483585 -0.07120204 0.0043179197 0.044418659 0.0041428078 0.043890581 0.99514866 -0.069845706
779709433.96226 0.9949047 -0.072030395 0.0043842029 0.045012135 0.0042747809 0.044423506 0.99476159 -0.070729308
789705660.37736 0.99477917 -0.073297113 0.0045526829 0.045555577 0.0043804999 0.044999689 0.99443042 -0.071637452
799701886.79245 0.99466646 -0.074357986 0.0046489183 0.046102807 0.0044507701 0.045516104 0.9942807 -0.072511047
809698113.20755 0.9944911 -0.075158358 0.004767403 0.046650562 0.0045455978 0.046084706 0.99432093 -0.073182479
819694339.62264 0.99430168 -0.076170757 0.0048351903 0.047201931 0.0046451455 0.046639055 0.99435633 -0.074080095
829690566.03774 0.9942714 -0.076868147 0.0049346052 0.047731515 0.0047353655 0.047213402 0.99461681 -0.075160205
839686792.45283 0.9941861 -0.077537596 0.0050235242 0.048367515 0.0048581418 0.047762655 0.99460578 -0.076266736
849683018.86792 0.99423158 -0.078408211 0.0051410422 0.048910458 0.0049652238 0.048344962 0.99436885 -0.077215493
859679245.28302 0.99417204 -0.079416931 0.0052881707 0.049487714 0.0050635822 0.048864365 0.9940176 -0.078077108
869675471.69811 0.99400145 -0.080414683 0.005434487 0.050043732 0.0052063763 0.04941912 0.99357486 -0.078796625
879671698.11321 0.99376732 -0.081414297 0.0055888542 0.050613239 0.0053693973 0.050016232 0.99341762 -0.079527259
889667924.5283 0.99334133 -0.082520902 0.0057170196 0.051193692 0.0055363812 0.050599974 0.99312973 -0.080250442
899664150.9434 0.9929924 -0.083507299 0.0059564654 0.05171039 0.0057324357 0.051129818 0.99298692 -0.081137538
909660377.35849 0.99282807 -0.084114313 0.0061676903 0.052005861 0.005908506 0.051448513 0.99301279 -0.082058474
919656603.77358 0.99297887 -0.084968716 0.0061048223 0.052461755 0.0058674486 0.051933497 0.99302679 -0.083189666
929652830.18868 0.9930343 -0.085976303 0.0061294623 0.053030558 0.0058890693 0.052458905 0.99289995 -0.08428213
939649056.60377 0.99321353 -0.08681649 0.0061322786 0.053622883 0.0059378352 0.053024422 0.99267888 -0.085241824
949645283.01887 0.99307072 -0.087857671 0.0061865719 0.054223258 0.0060093454 0.053585269 0.99242204 -0.086006202
959641509.43396 0.99289542 -0.088886976 0.0063151233 0.054834843 0.0060963724 0.054183863 0.9922297 -0.086714864
969637735.84906 0.99274319 -0.089793056 0.0064474307 0.055437099 0.006221842 0.054812409 0.99222022 -0.087270886
979633962.26415 0.99245697 -0.090761498 0.0065960861 0.055949092 0.0063799042 0.055317655 0.99213392 -0.088120915
989630188.67925 0.99233645 -0.091460779 0.0066929068 0.056497376 0.006475525 0.055921044 0.99228126 -0.089023516
999626415.09434 0.99229068 -0.092421919 0.0068023764 0.057043955 0.0065730624 0.056464583 0.99221456 -0.090128332
1009622641.5094 0.99228024 -0.093262076 0.0069154371 0.057638638 0.0067234915 0.05705604 0.99187011 -0.091212153
1019618867.9245 0.99225932 -0.09439338 0.0070722359 0.058228925 0.0069066943 0.057608176 0.99149609 -0.092322052
1029615094.3396 0.99217868 -0.095611006 0.0072471257 0.058774833 0.0070419647 0.058096804 0.99101067 -0.093145788
1039611320.7547 0.99210942 -0.096819967 0.0073793791 0.059315082 0.0071266554 0.058641143 0.99091697 -0.093975991
1049607547.1698 0.99182945 -0.097921103 0.007507422 0.059823845 0.0072608199 0.059184618 0.99081862 -0.09477298
1059603773.5849 0.99157071 -0.098810315 0.0076273791 0.060315192 0.0073923972 0.059723929 0.99070591 -0.095576376
1069600000 0.99126983 -0.099542469 0.0077370089 0.060871635 0.0075117499 0.060257282 0.99078727 -0.096480221
1079596226.4151 0.9910447 -0.1004149 0.0078624552 0.061403982 0.0076280292 0.060766131 0.99066573 -0.09744741
1089592452.8302 0.99101025 -0.10118258 0.0079550799 0.061958969 0.0077855503 0.061302535 0.99045396 -0.098407447
1099588679.2453 0.99091125 -0.10205606 0.0080771372 0.062497083 0.0078352652 0.061833993 0.99005973 -0.099179715
1109584905.6604 0.99097931 -0.10317691 0.0081848633 0.063065313 0.0079793716 0.0624035 0.98969078 -0.099989548
1119581132.0755 0.99085456 -0.10444448 0.008328069 0.06361521 0.0081209559 0.062970035 0.98942333 -0.10066352
1129577358.4906 0.99055552 -0.10559174 0.0084754117 0.064210676 0.0082588587 0.063549824 0.98917365 -0.10135686
1139573584.9057 0.99010491 -0.10670421 0.0086401366 0.064747915 0.0084448084 0.064073361 0.98921776 -0.10222644
1149569811.3208 0.98989165 -0.10769321 0.0087687578 0.065285176 0.0085555445 0.064586014 0.98925799 -0.10323997
1159566037.7358 0.98965144 -0.10859552 0.0088836234 0.065775432 0.0086943749 0.065119058 0.98919517 -0.10442305
1169562264.1509 0.98935586 -0.1093435 0.0089697745 0.066292509 0.0088140536 0.065629624 0.98900592 -0.10543844
1179558490.566 0.98917836 -0.11026108 0.0090597477 0.066863202 0.0089306412 0.066161878 0.98871732 -0.10633198
1189554716.9811 0.98916554 -0.11117896 0.0092140865 0.06743928 0.0090872366 0.066723645 0.98833901 -0.107003
1199550943.3962 0.98897731 -0.11224574 0.0093704555 0.067994133 0.0091880336 0.067254737 0.98807538 -0.10761341
1209547169.8113 0.9886688 -0.11340788 0.0095146056 0.068540849 0.0093311667 0.067783162 0.98794395 -0.10813433
1219543396.2264 0.98839325 -0.11447555 0.0096617769 0.069124423 0.0094911288 0.06838125 0.98792791 -0.10875517
1229539622.6415 0.98803413 -0.11554047 0.0098252818 0.069670431 0.0096365046 0.068953469 0.98802966 -0.1097205
1239535849.0566 0.98758686 -0.11646006 0.0099639725 0.070195593 0.0098153707 0.069468081 0.98802471 -0.11093163
1249532075.4717 0.98712599 -0.11737461 0.010121607 0.070741802 0.0099646859 0.069968536 0.98773611 -0.1119503
1259528301.8868 0.98692846 -0.11803043 0.010282453 0.071288817 0.010108633 0.070487976 0.98733115 -0.11309105
1269524528.3019 0.9866786 -0.11905172 0.010470342 0.071808875 0.010297371 0.070970327 0.98701769 -0.11395812
1279520754.717 0.9862479 -0.12001169 0.010653872 0.07229948 0.010452893 0.07145083 0.98661089 -0.11465937
1289516981.1321 0.98593318 -0.12106442 0.010746805 0.072819069 0.010566007 0.071922317 0.98659396 -0.11528599
1299513207.5472 0.98547041 -0.12201497 0.010893125 0.073360965 0.010692755 0.072476417 0.98659861 -0.11586052
1309509433.9623 0.98488605 -0.12291491 0.010964384 0.073855117 0.010822103 0.072964855 0.98668844 -0.11681741
1319505660.3774 0.98433411 -0.12380576 0.011079702 0.074410781 0.010920823 0.073520526 0.98661053 -0.11768892
1329501886.7925 0.98399413 -0.12461787 0.011248682 0.074950039 0.011023052 0.07404457 0.98640168 -0.11888066
1339498113.2075 0.98368156 -0.12543833 0.011381548 0.07543242 0.011171142 0.074505828 0.98590517 -0.11973768
1349494339.6226 0.98326647 -0.12614718 0.011430466 0.075994425 0.011268417 0.075072974 0.98538774 -0.12065506
1359490566.0377 0.98315871 -0.12699983 0.011586674 0.076595433 0.011361877 0.075583041 0.9850508 -0.12133542
1369486792.4528 0.98287261 -0.12780523 0.011683941 0.07718344 0.0114167 0.076145023 0.98475522 -0.12194839
1379483018.8679 0.98243099 -0.12863415 0.011852385 0.077756532 0.011541079 0.076722279 0.98476946 -0.12254305
1389479245.283 0.98191005 -0.12944198 0.012018338 0.078304991 0.01172133 0.077289432 0.98468709 -0.12349436
1399475471.6981 0.98144245 -0.12989935 0.012119334 0.07889615 0.011811394 0.077852622 0.98473769 -0.12441745
1409471698.1132 0.98096538 -0.13040175 0.012302853 0.079419874 0.011959413 0.078419738 0.98459214 -0.12530965
1419467924.5283 0.98069572 -0.13088448 0.012402302 0.080002643 0.012094676 0.079040907 0.984281 -0.12618887
1429464150.9434 0.98047662 -0.13145611 0.012573075 0.080627039 0.012203962 0.079607815 0.98414481 -0.12698597
1439460377.3585 0.9805215 -0.13221528 0.012742917 0.081311204 0.012394684 0.080239721 0.9837476 -0.12756234
1449456603.7736 0.98045492 -0.13303004 0.012987804 0.081941426 0.012589766 0.080810614 0.98350275 -0.1279833
1459452830.1887 0.98034084 -0.13398197 0.013229497 0.082495369 0.012795474 0.081415951 0.9835552 -0.1284858
1469449056.6038 0.98011917 -0.13495663 0.01353764 0.083074376 0.013056116 0.082007177 0.98349172 -0.12939617
1479445283.0189 0.97987866 -0.13581485 0.013761641 0.083528474 0.013306494 0.082516372 0.98353368 -0.13063031
1489441509.434 0.97965455 -0.13639396 0.013989754 0.084090926 0.013573756 0.083046988 0.98321569 -0.13168579
1499437735.8491 0.97941047 -0.13695511 0.014221193 0.084516324 0.013818176 0.083495267 0.9830935 -0.13276881
1509433962.2642 0.97931063 -0.13759744 0.014484338 0.085019387 0.013972608 0.083946988 0.98272866 -0.13369414
1519430188.6792 0.97930259 -0.13832185 0.014639894 0.085461475 0.01416849 0.084401697 0.98251665 -0.13428125
1529426415.0943 0.97914672 -0.13915449 0.014819413 0.085979804 0.014312882 0.084891707 0.98235321 -0.13494596
1539422641.5094 0.9790864 -0.14025207 0.01502277 0.086472109 0.014488302 0.085413679 0.98237431 -0.1356017
1549418867.9245 0.97874314 -0.14131516 0.015244897 0.086971663 0.014707175 0.085887134 0.98248237 -0.13647678
1559415094.3396 0.97850645 -0.14209846 0.015421249 0.087433383 0.014843736 0.08640331 0.98244393 -0.13736033
1569411320.7547 0.97820032 -0.14304839 0.015584944 0.087880351 0.015017563 0.086816855 0.98210561 -0.13837831
1579407547.1698 0.97797388 -0.1437597 0.015709726 0.088268533 0.01517562 0.087309361 0.98165572 -0.13938603
1589403773.5849 0.9778831 -0.14453605 0.015772197 0.088744275 0.015281662 0.087772377 0.98127282 -0.14033312
1599400000 0.97769642 -0.14508575 0.015855962 0.089242809 0.015290149 0.088240243 0.98090953 -0.14097258
1609396226.4151 0.97761828 -0.1460129 0.015976023 0.089776136 0.015386217 0.088737741 0.98069113 -0.14163062
1619392452.8302 0.97748452 -0.14696917 0.0161005 0.090359107 0.015486609 0.089290559 0.98057187 -0.14230952
1629388679.2453 0.97707391 -0.14777416 0.016230743 0.090939306 0.015593924 0.089868739 0.98063946 -0.14304182
1639384905.6604 0.97667009 -0.14862287 0.01638945 0.091503911 0.015762337 0.090501375 0.98081946 -0.14412215
1649381132.0755 0.97646785 -0.14954364 0.016492773 0.09203057 0.015915196 0.091060273 0.98065943 -0.14529032
1659377358.4906 0.97612572 -0.15052742 0.016655702 0.092674434 0.01607538 0.091670349 0.98041964 -0.14637768
1669373584.9057 0.9759165 -0.1511634 0.016812263 0.093210667 0.016205505 0.092203759 0.97996932 -0.14728463
1679369811.3208 0.97584403 -0.1520061 0.016977234 0.093792573 0.016435996 0.092805073 0.97961777 -0.14790267
1689366037.7358 0.97575057 -0.15291488 0.017163824 0.094353616 0.016554773 0.093405724 0.97928351 -0.14835936
1699362264.1509 0.97571564 -0.15379645 0.017425677 0.094945133 0.016738333 0.093989402 0.97941405 -0.14907753
1709358490.566 0.97547585 -0.15466955 0.017609138 0.095542431 0.016930994 0.094542384 0.97923952 -0.14978869
1719354716.9811 0.97493964 -0.15550664 0.017790034 0.096076518 0.017186563 0.095080905 0.97919184 -0.15078637
1729350943.3962 0.9744857 -0.15624771 0.018053336 0.096656948 0.017403238 0.09569443 0.97903723 -0.15190506
1739347169.8113 0.97429031 -0.15675372 0.018312048 0.09719266 0.017664213 0.09624932 0.97877729 -0.15299217
1749343396.2264 0.97401243 -0.15717778 0.018527742 0.097684368 0.017894749 0.096749179 0.97840822 -0.15390009
