!Keysight Technologies,N5222B,MY61253708,A.15.00.15
!Date: Wednesday, June 19, 2024 10:28:05
!Correction: S11(C  2-Port  ) 
!S21(C  2-Port  ) 
!S12(C  2-Port  ) 
!S22(C  2-Port  ) 
!S2P File: Measurements: S11, S21, S12, S22:
# Hz S  RI   R 50
10000000 0.99822181 -0.0031372011 -0.00020760583 0.00024270081 0.00018368859 0.00026255019 0.99835777 -0.0015961528
19996226.415094 1.0000743 -0.0023002326 0.00014802866 0.0005682389 0.00013851598 0.00058672822 0.99996412 -0.0022757053
29992452.830189 0.9997406 -0.0025485456 -4.5966008e-006 0.00098446535 7.539356e-005 0.00099313236 0.99943781 -0.002692312
39988679.245283 1.000122 -0.0030319542 3.2761163e-006 0.0013361386 -6.9592061e-006 0.001293044 0.99968559 -0.0031429082
49984905.660377 1.0002687 -0.0035958886 2.3887027e-005 0.0016146081 3.8334168e-005 0.0016237728 0.99989355 -0.0036100447
59981132.075472 1.0004258 -0.0044891238 6.1785395e-005 0.0019278171 3.5892066e-005 0.0019375391 0.99988848 -0.0042062402
69977358.490566 1.0002325 -0.0050625876 -9.082989e-006 0.0022997276 1.7207949e-005 0.0022662107 0.9997254 -0.0047537144
79973584.90566 0.99999273 -0.0055921078 1.7505954e-005 0.0026249434 -1.3830955e-005 0.0025949664 0.99932277 -0.005204767
89969811.320755 0.99997008 -0.0056042373 2.2614142e-005 0.0029279389 4.1235937e-005 0.0029197219 0.99960005 -0.0053688884
99966037.735849 1.0002289 -0.006391257 1.9274303e-006 0.0032629906 1.5376077e-005 0.0032341729 0.99970055 -0.0061373562
109962264.15094 1.0003065 -0.0072877556 4.3243985e-005 0.0035622076 2.9709016e-005 0.0035821686 0.99968922 -0.0069158971
119958490.56604 1.0002887 -0.0081833899 2.9911171e-005 0.0038980315 3.1571602e-005 0.0038868217 0.99973643 -0.0077762008
129954716.98113 1.0002577 -0.0091581047 2.1185726e-005 0.0042028683 3.8975384e-005 0.0042251665 0.99974346 -0.0087002814
139950943.39623 1.0001798 -0.0099392217 2.9102564e-005 0.0045249704 4.4384913e-005 0.004535954 0.9996354 -0.0094313584
149947169.81132 1.0000205 -0.010606706 5.0146831e-005 0.0048479796 5.445932e-005 0.0048809978 0.99958539 -0.0099977851
159943396.22642 0.99996114 -0.011117101 5.4358039e-005 0.0051774615 3.4197466e-005 0.0051781293 0.9996618 -0.01045078
169939622.64151 0.99993306 -0.011476964 6.2307343e-005 0.0055094771 5.9559767e-005 0.0055203801 0.9996748 -0.010877922
179935849.0566 0.99999303 -0.011727661 7.6204655e-005 0.0058206031 6.6377805e-005 0.0058420999 0.99955952 -0.011262953
189932075.4717 1.0001528 -0.012488723 8.7060966e-005 0.0061451271 7.8253448e-005 0.0061880136 0.99982649 -0.01171118
199928301.88679 1.0000473 -0.013292491 8.3910767e-005 0.0064679291 9.3278242e-005 0.0064690011 0.99972695 -0.012625039
209924528.30189 0.99986345 -0.013849735 9.5244148e-005 0.0068016006 9.9628698e-005 0.0068114046 0.99944556 -0.01327312
219920754.71698 0.99994206 -0.014627188 0.00010832748 0.0071345768 0.00010512234 0.0071272152 0.99937928 -0.013902456
229916981.13208 0.99974322 -0.015468627 0.00013024919 0.0074493373 0.00012397859 0.0074611856 0.99938089 -0.014704317
239913207.54717 0.99957752 -0.016151421 0.000125201 0.0077510728 0.00014067486 0.0077835722 0.99929416 -0.015425313
249909433.96226 0.9996466 -0.016748369 0.00014785375 0.0080892397 0.00014750194 0.0081006428 0.99940288 -0.015913486
259905660.37736 0.99967235 -0.017323971 0.00014641602 0.0084496932 0.00014505256 0.0084669804 0.99962842 -0.016500294
269901886.79245 0.99985296 -0.017866403 0.00016068737 0.0087638702 0.00014943862 0.0087524047 1.0000074 -0.017221481
279898113.20755 0.99997127 -0.018584624 0.00022824458 0.0090827839 0.00016486901 0.0091062449 0.9998486 -0.017977312
289894339.62264 0.99999261 -0.01942578 0.00017412705 0.0093843397 0.00018186402 0.0093921702 0.99976408 -0.018825322
299890566.03774 0.99994385 -0.019925773 0.00019395351 0.009716399 0.00017626537 0.0097473124 0.99948096 -0.019238204
309886792.45283 0.99967128 -0.020337321 0.00015925814 0.010045601 0.00021735107 0.010044217 0.99933314 -0.019555353
319883018.86792 0.99971384 -0.021007866 0.00019512326 0.010336626 0.00024468731 0.010405169 0.99943906 -0.020083576
329879245.28302 0.99963105 -0.021823615 0.000223557 0.01068208 0.00020582089 0.010703168 0.99960983 -0.020847082
339875471.69811 0.99962288 -0.022507004 0.00024369254 0.010989809 0.00025408494 0.011034689 0.99946952 -0.02153416
349871698.11321 0.99985081 -0.023440897 0.00025643734 0.011334869 0.00023651985 0.011355937 0.99954361 -0.022453189
359867924.5283 0.99959922 -0.024100453 0.0002943431 0.011634432 0.00027674483 0.011693889 0.99944955 -0.023440272
369864150.9434 0.99981457 -0.025025159 0.00031503104 0.011991152 0.00030167517 0.011977585 0.99947524 -0.024097323
379860377.35849 0.99967843 -0.025704697 0.00027979934 0.012291794 0.00027695182 0.012321815 0.99936849 -0.024823353
389856603.77358 0.99960649 -0.02619043 0.00032276753 0.012593809 0.00033964822 0.012670329 0.99939466 -0.025225878
399852830.18868 0.99940336 -0.026925832 0.00035383133 0.012932881 0.00034256047 0.012936973 0.99943137 -0.025654942
409849056.60377 0.99923992 -0.027358027 0.00036641335 0.013271359 0.00032246951 0.01329072 0.99944162 -0.026217228
419845283.01887 0.99923337 -0.027793676 0.0003816369 0.013580667 0.00037397863 0.013601606 0.99931705 -0.026752949
429841509.43396 0.99926919 -0.028462291 0.00036905613 0.0138919 0.00040134462 0.013951584 0.99954093 -0.027496606
439837735.84906 0.99913192 -0.029312164 0.00041751447 0.014238635 0.00041469303 0.014258765 0.99929273 -0.028464586
449833962.26415 0.9989118 -0.030072391 0.00041848421 0.014530903 0.00043493416 0.014551977 0.99884534 -0.029259443
459830188.67925 0.99874604 -0.030774534 0.00042337086 0.014838668 0.00040775584 0.014863557 0.99867988 -0.029928178
469826415.09434 0.99858248 -0.031471819 0.00040429411 0.015163103 0.00043081539 0.015205161 0.99846065 -0.030429184
479822641.50943 0.99853557 -0.031964608 0.0004800288 0.015484656 0.00049686851 0.015566366 0.9984591 -0.030814573
489818867.92453 0.99863386 -0.032458633 0.00052159093 0.015838532 0.00050454913 0.015854616 0.99874401 -0.031297743
499815094.33962 0.99867892 -0.033002496 0.00050515775 0.01615073 0.00051285792 0.016185632 0.99900186 -0.031878561
509811320.75472 0.99880379 -0.033339683 0.00057297113 0.016476616 0.00054853433 0.016514743 0.99922431 -0.032683518
519807547.16981 0.99872398 -0.033755779 0.00057428842 0.01678355 0.00056655705 0.016838875 0.99915534 -0.033407837
529803773.58491 0.99876082 -0.03432852 0.00057682348 0.017131567 0.00056259008 0.017108321 0.99889719 -0.033902138
539800000 0.9987601 -0.035040557 0.00061019883 0.017463274 0.00058464054 0.017477581 0.99880505 -0.034546331
549796226.41509 0.99867535 -0.035815746 0.0005625654 0.017758386 0.00058190478 0.017824749 0.9986257 -0.035038501
559792452.83019 0.99848819 -0.036568254 0.0006035855 0.018065676 0.00064106099 0.018131465 0.99859989 -0.035538733
569788679.24528 0.99846095 -0.037109494 0.00064502051 0.018417098 0.00066703279 0.018440774 0.99874026 -0.036233932
579784905.66038 0.99837261 -0.037691921 0.00069165241 0.018740321 0.00065087643 0.018765619 0.99888068 -0.036939397
589781132.07547 0.9985649 -0.038226396 0.00076533109 0.019062711 0.00070053525 0.019067407 0.99900025 -0.037842423
599777358.49057 0.99873865 -0.038871467 0.00076031405 0.019387241 0.00074728951 0.019423839 0.99901003 -0.038547069
609773584.90566 0.99880898 -0.039620183 0.00076507428 0.019718146 0.00078307849 0.019742386 0.99886513 -0.039478101
619769811.32075 0.99893886 -0.040362507 0.00078375963 0.020019572 0.00080469297 0.020096654 0.9988898 -0.039956361
629766037.73585 0.99884033 -0.040951967 0.00084047392 0.020313943 0.0008384157 0.020344682 0.99863625 -0.040463328
639762264.15094 0.99863839 -0.041557387 0.00085289613 0.020640213 0.00082795578 0.020672932 0.99847686 -0.040912107
649758490.56604 0.99857616 -0.042170778 0.00090245437 0.020940674 0.00086158887 0.020990558 0.99861515 -0.041317925
659754716.98113 0.9984591 -0.042628378 0.00083320867 0.02126593 0.00084768794 0.021348163 0.99869466 -0.041903645
669750943.39623 0.99843544 -0.043130875 0.00087252166 0.02160557 0.00088761188 0.021678403 0.9987731 -0.042617977
679747169.81132 0.99846405 -0.043858804 0.00092736725 0.021945823 0.0009219182 0.022002185 0.99875885 -0.043663293
689743396.22642 0.9986887 -0.044808894 0.0010026507 0.022273712 0.00097786449 0.022336019 0.99856371 -0.044590622
699739622.64151 0.99880183 -0.045497805 0.00098993909 0.022591559 0.00099901482 0.022641279 0.99852586 -0.045276046
709735849.0566 0.99873281 -0.046396576 0.0010828938 0.022887213 0.0010687077 0.022952719 0.9983083 -0.045894086
719732075.4717 0.99861217 -0.047098726 0.0010784636 0.023198292 0.0010657064 0.023264971 0.9983294 -0.046454966
729728301.88679 0.99859524 -0.047611326 0.0011389116 0.023527708 0.001086819 0.023607943 0.99838364 -0.046914935
739724528.30189 0.99843466 -0.048315719 0.0011460823 0.023827244 0.0011258801 0.023888784 0.99858654 -0.047545686
749720754.71698 0.99836564 -0.048809171 0.0011848514 0.024132814 0.0012144758 0.024210373 0.9986304 -0.048202366
759716981.13208 0.99835569 -0.049352288 0.0011890344 0.024453212 0.0012167515 0.024544284 0.99859077 -0.048990577
769713207.54717 0.99825847 -0.050109088 0.0012153024 0.024761895 0.0012346255 0.024820345 0.99828851 -0.049735397
779709433.96226 0.99842101 -0.050707255 0.0012494641 0.025075309 0.0012407125 0.025157146 0.99803156 -0.050424654
789705660.37736 0.99829596 -0.051602393 0.0012958059 0.025390722 0.0012845332 0.025465429 0.99777234 -0.051051021
799701886.79245 0.99829108 -0.052394181 0.0012970436 0.025712762 0.001292049 0.025766458 0.99762923 -0.051615804
809698113.20755 0.99815953 -0.052953124 0.0013557822 0.026019832 0.0012983785 0.02608335 0.99768084 -0.052091733
819694339.62264 0.99792826 -0.053591788 0.0013800445 0.026333455 0.0013196408 0.026383866 0.99779141 -0.052616179
829690566.03774 0.99794722 -0.054181904 0.0014013788 0.026632305 0.0013993932 0.026720585 0.99806285 -0.053532451
839686792.45283 0.99795014 -0.054578632 0.0014022365 0.026949003 0.001433217 0.027021501 0.99812198 -0.054294556
849683018.86792 0.99804944 -0.055139393 0.0014640519 0.027283514 0.001467518 0.02735028 0.99794269 -0.054985113
859679245.28302 0.99807113 -0.055916071 0.0014970936 0.02758674 0.0014797915 0.02766951 0.99767202 -0.055646449
869675471.69811 0.99796999 -0.056650072 0.0015623895 0.027934058 0.00152821 0.028013542 0.99733746 -0.056148499
879671698.11321 0.99787462 -0.057290573 0.0015622943 0.028215772 0.0015412869 0.02829079 0.99732578 -0.056581512
889667924.5283 0.99768597 -0.058109224 0.0015986906 0.028511889 0.0015884973 0.028631952 0.99719906 -0.057008654
899664150.9434 0.99748504 -0.058731049 0.0015841322 0.028816011 0.0016012406 0.028904218 0.99725199 -0.057599485
909660377.35849 0.99749815 -0.05941397 0.0016269726 0.029136371 0.0016107559 0.029214341 0.99736446 -0.058480218
919656603.77358 0.99762893 -0.060009807 0.0016400949 0.029440578 0.0016412283 0.029546443 0.99740165 -0.059368864
929652830.18868 0.99760747 -0.060724527 0.0016919021 0.029762436 0.0016864548 0.029849753 0.99724704 -0.060199976
939649056.60377 0.99781275 -0.061302632 0.001679427 0.030068809 0.0016931733 0.030170802 0.99716944 -0.060875207
949645283.01887 0.99775773 -0.062132541 0.0016673579 0.030380514 0.0016938391 0.030486401 0.9968909 -0.061449427
959641509.43396 0.99766052 -0.062805653 0.0017127693 0.030752242 0.0017000027 0.03084375 0.99684 -0.061902553
969637735.84906 0.9975782 -0.063453406 0.0017509172 0.031098679 0.0017549302 0.03116769 0.99683392 -0.062232792
979633962.26415 0.99736953 -0.064199969 0.0018291709 0.031354036 0.0018359905 0.031485174 0.99689525 -0.062833309
989630188.67925 0.99744499 -0.064675599 0.0018491074 0.031711385 0.0018564845 0.031818025 0.9970578 -0.063466281
999626415.09434 0.99748224 -0.065275073 0.0018746899 0.032025993 0.0018772474 0.032142743 0.99700385 -0.064243346
1009622641.5094 0.99753916 -0.065858513 0.0019018017 0.032326784 0.0019515967 0.032445259 0.99688441 -0.065115213
1019618867.9245 0.99764144 -0.066717103 0.0019437699 0.032647189 0.0020071901 0.03276439 0.99663389 -0.065942094
1029615094.3396 0.99759829 -0.067637205 0.0020110058 0.03296423 0.0020444663 0.033040177 0.99621391 -0.066486835
1039611320.7547 0.9977293 -0.068440974 0.0020418316 0.033254292 0.0020615375 0.033367746 0.99622512 -0.067082733
1049607547.1698 0.99752182 -0.069348358 0.0020932348 0.033560485 0.002057452 0.033656497 0.99622965 -0.067671835
1059603773.5849 0.99740589 -0.070032269 0.0021001203 0.033811934 0.002115923 0.033978011 0.99620682 -0.068203419
1069600000 0.99720287 -0.070569307 0.0020750258 0.034164164 0.0021224031 0.034289561 0.9964447 -0.068965673
1079596226.4151 0.99718767 -0.071217433 0.0020971834 0.034459688 0.0021269228 0.034598969 0.99641019 -0.069668233
1089592452.8302 0.99723208 -0.07181114 0.0021143025 0.03481219 0.0021835435 0.034908466 0.99635315 -0.070385784
1099588679.2453 0.99727702 -0.07248494 0.0021388661 0.035102434 0.0021644812 0.035223465 0.99603832 -0.071009338
1109584905.6604 0.99739623 -0.073327586 0.0021599606 0.035466161 0.0021931967 0.035558887 0.99578887 -0.071514025
1119581132.0755 0.99746215 -0.074284956 0.0021717409 0.035784841 0.0022015106 0.035904232 0.99564201 -0.071998179
1129577358.4906 0.99723053 -0.075049758 0.0022166539 0.036147553 0.0022708829 0.036260553 0.99553317 -0.072470039
1139573584.9057 0.99706674 -0.075952262 0.0022595702 0.036449656 0.0023181662 0.036582969 0.9956063 -0.073116153
1149569811.3208 0.99689984 -0.076755337 0.0023229523 0.036751859 0.0023425492 0.036882449 0.99575412 -0.073834926
1159566037.7358 0.99673468 -0.077401847 0.0023568291 0.03704964 0.0024077399 0.037186876 0.9959209 -0.074757874
1169562264.1509 0.99655747 -0.07800132 0.0023523699 0.037385691 0.0023901109 0.037487183 0.99573171 -0.075565517
1179558490.566 0.99657065 -0.078704886 0.0023414232 0.037728611 0.0024384477 0.037877209 0.99554259 -0.076253936
1189554716.9811 0.9965803 -0.079474092 0.002401758 0.038064107 0.0024769958 0.038189556 0.99529183 -0.076825291
1199550943.3962 0.99649465 -0.080286801 0.0024358667 0.038381349 0.0025437325 0.038525902 0.99510682 -0.077197582
1209547169.8113 0.99628711 -0.081202999 0.0024671601 0.038727127 0.0025629792 0.03881377 0.99507368 -0.077471107
1219543396.2264 0.99607897 -0.082004249 0.0025257943 0.039083675 0.0026038997 0.03922838 0.99517429 -0.07787776
1229539622.6415 0.99583769 -0.082729131 0.0026168507 0.039396808 0.0026471671 0.039509661 0.99532706 -0.078569829
1239535849.0566 0.99555427 -0.083436817 0.002675877 0.039675891 0.0027160905 0.039807081 0.99545836 -0.079521745
1249532075.4717 0.9952991 -0.084035419 0.0026937192 0.039998345 0.0027612986 0.040130708 0.99525613 -0.08028166
1259528301.8868 0.99513447 -0.084579587 0.0027258433 0.040362075 0.0028594155 0.040413775 0.99504209 -0.081167847
1269524528.3019 0.99503195 -0.085253179 0.0028178617 0.040651415 0.0029222053 0.040734939 0.99480492 -0.081820905
1279520754.717 0.99472064 -0.085990652 0.002857747 0.040924817 0.0029548719 0.040969614 0.99450499 -0.08232671
1289516981.1321 0.99457425 -0.086745679 0.0028612167 0.041185427 0.0029677078 0.041242551 0.99464029 -0.082777321
1299513207.5472 0.99427557 -0.08766216 0.0029034894 0.04149951 0.002936611 0.041579358 0.99476945 -0.08311668
1309509433.9623 0.99383128 -0.088275105 0.0029008687 0.041791331 0.0030105915 0.041866679 0.9948498 -0.083909065
1319505660.3774 0.99352932 -0.089072004 0.0028869398 0.042146619 0.0030098362 0.042205982 0.9948433 -0.084498823
1329501886.7925 0.99320149 -0.089643687 0.0029166881 0.042433444 0.0030132625 0.04249724 0.9948827 -0.085489243
1339498113.2075 0.99291426 -0.090230018 0.0029393062 0.042787705 0.0030060159 0.042824756 0.99449021 -0.086189151
1349494339.6226 0.99281794 -0.090806752 0.0028789043 0.04307716 0.0030143503 0.043124601 0.99414492 -0.086730279
1359490566.0377 0.99272764 -0.091330588 0.0029147398 0.043443032 0.002999749 0.043473162 0.99394882 -0.087278843
1369486792.4528 0.99255657 -0.091870189 0.0029380815 0.043818686 0.0030233627 0.04385595 0.99381495 -0.087679058
1379483018.8679 0.99224943 -0.092413247 0.0029583334 0.044181425 0.0030225704 0.044179354 0.99385875 -0.088011593
1389479245.283 0.99189961 -0.092969656 0.0029938836 0.044505682 0.0030768253 0.04454416 0.99385172 -0.088672549
1399475471.6981 0.99155104 -0.093282849 0.0030079223 0.0448572 0.0030684248 0.044880215 0.99400264 -0.089410186
1409471698.1132 0.99123937 -0.093726166 0.0030372571 0.045237679 0.0030882747 0.045263864 0.9940207 -0.090241104
1419467924.5283 0.99106181 -0.09396854 0.0030853283 0.045609802 0.003093617 0.045601789 0.99380177 -0.09086597
1429464150.9434 0.99088955 -0.09441492 0.0030678287 0.045993038 0.0031614807 0.046025269 0.99373507 -0.091411561
1439460377.3585 0.99107975 -0.094923243 0.0031637894 0.046450965 0.0032295892 0.046458334 0.9934513 -0.0917999
1449456603.7736 0.991032 -0.095472962 0.0032864334 0.046835747 0.0033460865 0.04679697 0.99333274 -0.092134789
1459452830.1887 0.99109972 -0.09613505 0.003438767 0.047215603 0.0034373868 0.047213107 0.99349761 -0.092506051
1469449056.6038 0.99107635 -0.096836418 0.0035950011 0.047525052 0.0035845265 0.047554288 0.99367785 -0.09315148
1479445283.0189 0.99098444 -0.097410835 0.0037000084 0.047796093 0.0037053092 0.04785002 0.99377704 -0.093996495
1489441509.434 0.99095333 -0.097955078 0.0038271956 0.04814966 0.0038517136 0.048146218 0.99365711 -0.094911993
1499437735.8491 0.99078166 -0.098280579 0.0039415881 0.048419915 0.0039337371 0.048403643 0.99356782 -0.095652163
1509433962.2642 0.99070734 -0.098828003 0.0040158257 0.048634239 0.0040268423 0.048669871 0.99342954 -0.096376956
1519430188.6792 0.99086612 -0.099303812 0.0041009486 0.048958555 0.0040640067 0.048934959 0.99325031 -0.096871436
1529426415.0943 0.99077654 -0.10000798 0.0041421186 0.049205989 0.0041027628 0.049221486 0.99317819 -0.097360075
1539422641.5094 0.99081898 -0.10074694 0.0041990201 0.04952348 0.0041664159 0.049536157 0.99329507 -0.097780757
1549418867.9245 0.9906413 -0.10158198 0.0042566461 0.049781792 0.0042263186 0.049782436 0.99352193 -0.098580852
1559415094.3396 0.99056387 -0.10223743 0.0043224357 0.050032802 0.0042313412 0.05011598 0.99360895 -0.099108577
1569411320.7547 0.99041593 -0.10306224 0.0043464424 0.050290488 0.0042775283 0.050336402 0.99358481 -0.099986374
1579407547.1698 0.99034095 -0.10347854 0.0043463307 0.050548609 0.0043161223 0.050640121 0.99311429 -0.10084628
1589403773.5849 0.99026537 -0.10408121 0.0043806564 0.05085139 0.0043099411 0.050937213 0.99296659 -0.10151353
1599400000 0.99030995 -0.104462 0.0043348512 0.051126923 0.0043219971 0.051201466 0.99250764 -0.10201377
1609396226.4151 0.99022365 -0.10514661 0.0043113548 0.051450707 0.0042909211 0.051507905 0.99238771 -0.10242191
1619392452.8302 0.99021089 -0.10574639 0.0043333136 0.051804595 0.0042988192 0.051893339 0.99239182 -0.10289279
1629388679.2453 0.98997951 -0.10645124 0.00432791 0.052139699 0.0042588748 0.052227508 0.99260545 -0.10345712
1639384905.6604 0.98977119 -0.10702327 0.0043400996 0.052490864 0.0043040281 0.0525962 0.99284714 -0.10424224
1649381132.0755 0.98959148 -0.10770091 0.0043976307 0.052797504 0.0043142941 0.052954346 0.99284059 -0.10519546
1659377358.4906 0.98944157 -0.10851565 0.0043529812 0.05320172 0.0043500364 0.053285148 0.99276543 -0.10603282
1669373584.9057 0.9892785 -0.10887352 0.0044224253 0.053536806 0.0043527498 0.05368318 0.99241906 -0.10660511
1679369811.3208 0.98940217 -0.10958201 0.0044654487 0.053884193 0.004383726 0.05399866 0.99223232 -0.10717326
1689366037.7358 0.98935151 -0.11018884 0.0045159925 0.054252058 0.0044140182 0.05434189 0.99206519 -0.10747311
1699362264.1509 0.98961562 -0.11075746 0.0045433361 0.054624509 0.0044785161 0.054784011 0.99227792 -0.10791768
1709358490.566 0.98937213 -0.11146042 0.0046236096 0.054998223 0.0045294203 0.055145308 0.99229109 -0.10843365
1719354716.9811 0.98920441 -0.112095 0.0046402514 0.055362128 0.0046032649 0.055561483 0.99235344 -0.10913253
