!Keysight Technologies,N5222B,MY61253708,A.15.00.15
!Date: Wednesday, June 19, 2024 10:41:30
!Correction: S11(C  2-Port  ) 
!S21(C  2-Port  ) 
!S12(C  2-Port  ) 
!S22(C  2-Port  ) 
!S2P File: Measurements: S11, S21, S12, S22:
# Hz S  RI   R 50
10000000 0.99847811 -0.0034021437 -0.0002462613 0.00027254963 0.0002000817 0.00027944829 0.99833918 -0.0021694601
19996226.415094 0.99982578 -0.0023049116 -2.614918e-005 0.00068547635 -0.00012028405 0.00061831076 0.99981236 -0.0023812652
29992452.830189 0.99952203 -0.0025562644 6.2173582e-005 0.00096036616 3.6196434e-006 0.00099535123 0.99931538 -0.0027323365
39988679.245283 1.0000447 -0.0030425042 -3.2033495e-005 0.0012889458 -1.3145022e-005 0.0013372985 0.99970263 -0.0031217933
49984905.660377 1.000232 -0.0036922097 -4.3474953e-005 0.0015993421 2.467935e-005 0.0016113775 0.99995196 -0.0037105083
59981132.075472 1.0004544 -0.0045095384 1.1523778e-005 0.0019116539 1.7844257e-005 0.0019361349 0.9999401 -0.004260391
69977358.490566 1.0002509 -0.0050748046 4.9704708e-005 0.0022678461 -7.5368262e-006 0.0022501557 0.99980247 -0.0048319176
79973584.90566 0.99989831 -0.0056444705 2.9285438e-005 0.0025827938 -2.7896604e-006 0.0025776436 0.99936825 -0.0052143335
89969811.320755 0.99993682 -0.0056988597 1.5916536e-005 0.0029143682 2.3376197e-007 0.0028945594 0.99956977 -0.0053916574
99966037.735849 1.0001191 -0.0063748658 -1.1340773e-005 0.0032410268 2.2977998e-005 0.0032019692 0.99969649 -0.006137386
109962264.15094 1.0002053 -0.0072498918 1.2771168e-005 0.0035504343 1.7883081e-005 0.0035348977 0.99969459 -0.0069020391
119958490.56604 1.0002018 -0.0081616938 2.4831039e-005 0.0038700136 2.977252e-005 0.0038863509 0.99976122 -0.0077757835
129954716.98113 1.0002323 -0.0091595054 3.8802973e-005 0.0041802521 3.2916432e-005 0.0042051193 0.99978328 -0.0087012053
139950943.39623 1.0001466 -0.0099742059 3.890357e-005 0.0045255823 3.861697e-005 0.0045078923 0.99966204 -0.0094252825
149947169.81132 1.0000279 -0.01062572 4.3963781e-005 0.0048422851 4.7942856e-005 0.0048383037 0.99960184 -0.010007769
159943396.22642 0.99993855 -0.011079043 5.2097021e-005 0.0051670745 5.1394105e-005 0.0051628938 0.99967498 -0.010446906
169939622.64151 0.99994904 -0.011451863 6.1634113e-005 0.0055057132 5.1489391e-005 0.005503085 0.99971777 -0.010845922
179935849.0566 1.0000007 -0.011603832 6.7654299e-005 0.0057960493 4.7424575e-005 0.0058183884 0.99960625 -0.011204839
189932075.4717 1.0001091 -0.012392312 8.0334488e-005 0.0061051021 7.4412907e-005 0.006141521 0.99980879 -0.011692077
199928301.88679 1.0000432 -0.013194382 7.5727119e-005 0.0064356322 8.6833839e-005 0.0064397343 0.99971569 -0.012562275
209924528.30189 0.99983943 -0.013800561 8.8647357e-005 0.0067713982 8.7404391e-005 0.0067706895 0.99949181 -0.013204366
219920754.71698 0.9998917 -0.014597893 0.00010761945 0.0071344376 8.8608358e-005 0.0071288403 0.99940354 -0.013823718
229916981.13208 0.99968362 -0.015445858 0.00012631202 0.0074171945 0.00010417472 0.007433577 0.99941695 -0.014660865
239913207.54717 0.99951762 -0.016107235 0.00012271579 0.0077155596 0.00012451441 0.0077629392 0.99931997 -0.015370699
249909433.96226 0.99958122 -0.016710937 0.00012594298 0.0080615561 0.00014073169 0.0080648419 0.99940509 -0.015903652
259905660.37736 0.99970484 -0.017216116 0.00012428127 0.008389079 0.00017515058 0.0083414353 0.99966121 -0.016446263
269901886.79245 0.99987364 -0.017949477 0.00018424785 0.0087193195 0.00013401755 0.0086970888 1.0000807 -0.017174706
279898113.20755 0.9999916 -0.018578082 0.00015927129 0.0089817867 0.00019612606 0.0090674022 0.99996549 -0.017881945
289894339.62264 0.99995255 -0.019293934 0.00020561134 0.0093343221 0.00020233169 0.0093254149 0.99990833 -0.018698364
299890566.03774 0.99990159 -0.019882947 0.00020983908 0.0096882293 0.00018635113 0.0097467992 0.99946851 -0.019149512
309886792.45283 0.99963158 -0.020323463 0.00023355498 0.0099894423 0.0001920858 0.010021755 0.99941599 -0.019569516
319883018.86792 0.9996922 -0.020981938 0.00020463299 0.010293161 0.0001928471 0.010360698 0.99946451 -0.02000314
329879245.28302 0.99967408 -0.021695346 0.0002274639 0.010670306 0.00023809774 0.010669263 0.99955142 -0.020724684
339875471.69811 0.99959326 -0.022463821 0.00024509651 0.010978167 0.00023366488 0.010993828 0.99955857 -0.021515563
349871698.11321 0.99983835 -0.023349404 0.00026924559 0.011297597 0.00025528087 0.011311944 0.99962264 -0.022452921
359867924.5283 0.99970472 -0.024135262 0.00028227456 0.011578903 0.00026784418 0.011633753 0.9996016 -0.023355663
369864150.9434 0.99986476 -0.024931788 0.00029827747 0.011902575 0.0003001946 0.011929123 0.99951124 -0.024131924
379860377.35849 0.99968368 -0.025667295 0.00029106205 0.012250541 0.00031007617 0.012274999 0.99941957 -0.024735034
389856603.77358 0.99955434 -0.026224494 0.00032543065 0.012527346 0.0003127777 0.012566209 0.99939674 -0.025176078
399852830.18868 0.99933177 -0.026876837 0.00032869168 0.012878815 0.0003320924 0.012907197 0.99947399 -0.025621593
409849056.60377 0.99922401 -0.027335521 0.00031771464 0.013210569 0.00033825898 0.013241599 0.99946678 -0.026145384
419845283.01887 0.99925399 -0.027771175 0.00037150271 0.013506634 0.0003737309 0.013547494 0.99939412 -0.026685476
429841509.43396 0.99923855 -0.028439552 0.00036628218 0.013864476 0.00039936556 0.01388598 0.99953961 -0.027510703
439837735.84906 0.99903059 -0.029333726 0.00040451926 0.014143988 0.00043660658 0.014192006 0.99927992 -0.028464392
449833962.26415 0.99883103 -0.03012678 0.00043655327 0.014502043 0.00042374013 0.01450127 0.99889225 -0.029241681
459830188.67925 0.99856889 -0.030796856 0.00042205071 0.014787929 0.00041544484 0.014822483 0.99866486 -0.029852659
469826415.09434 0.99846768 -0.031469256 0.0004360592 0.015134814 0.0004674755 0.015155802 0.99834245 -0.03039977
479822641.50943 0.99837089 -0.031875111 0.00048428122 0.015450877 0.00046222913 0.015505614 0.99842966 -0.030806281
489818867.92453 0.99838793 -0.03233856 0.00048331311 0.01576101 0.00050504645 0.015809629 0.99869597 -0.031198561
499815094.33962 0.99847478 -0.03284353 0.00051277643 0.016087374 0.00053209951 0.016094606 0.99895483 -0.031772345
509811320.75472 0.99861425 -0.033193633 0.00054804212 0.016375165 0.00050278683 0.016432546 0.99911338 -0.032485127
519807547.16981 0.99855572 -0.033668756 0.00056597404 0.016741714 0.00057906145 0.016732739 0.99905097 -0.033180058
529803773.58491 0.99853301 -0.034077615 0.00057987357 0.017026121 0.00055221235 0.017080504 0.99887121 -0.033745319
539800000 0.99862731 -0.034805894 0.00059628091 0.017388614 0.00056150509 0.017382214 0.99873137 -0.034323856
549796226.41509 0.99853897 -0.035611302 0.00061243214 0.017670278 0.00057825353 0.017734643 0.99863964 -0.034869224
559792452.83019 0.99833673 -0.036309659 0.0006299559 0.017998245 0.00064578652 0.018010527 0.9984135 -0.03531602
569788679.24528 0.99822211 -0.036927909 0.00063284067 0.018323608 0.00063028419 0.018354928 0.99866712 -0.036072642
579784905.66038 0.99828804 -0.037451826 0.00067705312 0.018638507 0.00067376439 0.018697791 0.99881577 -0.036764652
589781132.07547 0.99842966 -0.038033873 0.00070045982 0.018935092 0.00071033277 0.019002946 0.99899662 -0.037593842
599777358.49057 0.99858129 -0.038703114 0.00075680856 0.019269869 0.00077251717 0.019320169 0.99906796 -0.038410276
609773584.90566 0.99877608 -0.039458916 0.00075864763 0.019625174 0.0007530523 0.019659709 0.99888635 -0.039237581
619769811.32075 0.998909 -0.039997697 0.00079987338 0.019937582 0.00079011731 0.019983422 0.99885356 -0.039771467
629766037.73585 0.99870312 -0.040689856 0.00083736423 0.020256376 0.00082707126 0.020246446 0.99861825 -0.040247321
639762264.15094 0.99861783 -0.0413865 0.00085589779 0.020521222 0.00081269699 0.020607999 0.99856102 -0.040711045
649758490.56604 0.99844748 -0.041927338 0.00085241487 0.020826831 0.00085311197 0.020895641 0.99862522 -0.041092932
659754716.98113 0.99833703 -0.042409599 0.00087370537 0.021167543 0.00085687172 0.02123821 0.99866831 -0.041638017
669750943.39623 0.99844259 -0.042895555 0.00089553976 0.02153372 0.00085907755 0.021593934 0.99882615 -0.042406797
679747169.81132 0.9984107 -0.04365506 0.00094190333 0.021875752 0.00089183752 0.021906869 0.99878353 -0.043406397
689743396.22642 0.99864197 -0.044491529 0.00097281765 0.0222001 0.00095915981 0.022212561 0.99860883 -0.044311494
699739622.64151 0.99877262 -0.045273572 0.0010037143 0.022507619 0.00096034911 0.022550857 0.99852681 -0.045033038
709735849.0566 0.99873364 -0.046159066 0.0010812319 0.022813201 0.0010561558 0.022842722 0.99825943 -0.045692369
719732075.4717 0.99860156 -0.046878636 0.0010456555 0.023100991 0.0011090273 0.023154546 0.99837202 -0.046248674
729728301.88679 0.99857306 -0.047434926 0.0010976465 0.023428515 0.0010746419 0.023484819 0.99840182 -0.046670884
739724528.30189 0.99841464 -0.04809694 0.0011117877 0.023730284 0.0011325143 0.023831364 0.9985944 -0.047334298
749720754.71698 0.99833512 -0.048571721 0.0011900975 0.024059245 0.0011642282 0.024113968 0.9985981 -0.047984421
759716981.13208 0.99831986 -0.049077541 0.0012127683 0.024376135 0.0011913236 0.024421234 0.99856615 -0.048791736
769713207.54717 0.99816126 -0.049752235 0.001196159 0.024662526 0.0012288773 0.024708113 0.99826026 -0.049502045
779709433.96226 0.99832392 -0.050437547 0.001228195 0.024975553 0.0012382475 0.025053611 0.99805117 -0.050194927
789705660.37736 0.99822497 -0.05143404 0.0012731496 0.025296181 0.0012846822 0.025375044 0.99779993 -0.050847769
799701886.79245 0.99821305 -0.052174091 0.0013121637 0.025605312 0.0012806989 0.025659624 0.99763757 -0.05144015
809698113.20755 0.99806142 -0.052788407 0.0013417304 0.025919367 0.0013135856 0.026002461 0.99768722 -0.051860154
819694339.62264 0.99787182 -0.053446412 0.0013865628 0.026236398 0.0013540965 0.026295697 0.9977985 -0.05246684
829690566.03774 0.99784899 -0.053993374 0.0014028437 0.026551086 0.0013982598 0.02661535 0.99801672 -0.053295583
839686792.45283 0.99790347 -0.054382592 0.0014073364 0.026852891 0.001404745 0.026936989 0.99807924 -0.054086179
849683018.86792 0.9979201 -0.054959282 0.0014523857 0.027168876 0.0014538032 0.027223486 0.99789226 -0.054815426
859679245.28302 0.99798858 -0.055672973 0.0014604721 0.027513092 0.0014663935 0.027569037 0.99763274 -0.055325001
869675471.69811 0.99789178 -0.056441158 0.0014973888 0.027810099 0.001509578 0.027863789 0.997298 -0.055896282
879671698.11321 0.99780667 -0.057038009 0.0015673565 0.028083913 0.0015534932 0.028168594 0.99731714 -0.05634556
889667924.5283 0.99764478 -0.057799429 0.0015645027 0.028370626 0.0015542302 0.028491281 0.99708456 -0.056787729
899664150.9434 0.99742734 -0.058491975 0.0015662061 0.02871605 0.001584528 0.028785482 0.9972024 -0.057370067
909660377.35849 0.99743557 -0.059081838 0.0016265921 0.029017594 0.0016029966 0.029078502 0.99742287 -0.058278009
919656603.77358 0.99746627 -0.059735522 0.0016474775 0.029332936 0.0016296036 0.029412434 0.99734849 -0.05913353
929652830.18868 0.99752975 -0.06042251 0.001662028 0.029610774 0.001657011 0.029701199 0.99727291 -0.05994907
939649056.60377 0.99774837 -0.061014712 0.0016655158 0.029932421 0.0016486617 0.030021347 0.99708492 -0.060653925
949645283.01887 0.99765301 -0.061874658 0.0016686334 0.030267168 0.0016797933 0.030344216 0.99684656 -0.061166108
959641509.43396 0.99761444 -0.062423378 0.0016830722 0.030620407 0.001708474 0.030732643 0.99680293 -0.061631054
969637735.84906 0.99749959 -0.063180178 0.0017417502 0.030970786 0.0017755488 0.03105554 0.99684066 -0.061912566
979633962.26415 0.99731845 -0.063838527 0.001795046 0.031253144 0.0017938246 0.031337593 0.99687308 -0.062554337
989630188.67925 0.9973284 -0.064367592 0.0018383674 0.03158256 0.0018235575 0.031681631 0.99707013 -0.063170254
999626415.09434 0.99742693 -0.064928025 0.0018526614 0.031911686 0.0018570973 0.031986758 0.99703074 -0.063964307
1009622641.5094 0.99746305 -0.065559596 0.0018887836 0.032209784 0.0019436623 0.032332946 0.99687672 -0.064797238
1019618867.9245 0.99754459 -0.066345245 0.001936378 0.032525264 0.0019818926 0.032619592 0.99663109 -0.065615252
1029615094.3396 0.99757063 -0.067282408 0.0019859187 0.032839783 0.002013471 0.032923125 0.99633169 -0.066156596
1039611320.7547 0.99763453 -0.068143308 0.0020328425 0.033158246 0.0020203423 0.033212915 0.99622416 -0.06688118
1049607547.1698 0.99752849 -0.06900771 0.0020399825 0.033416919 0.0020285898 0.033523805 0.99627125 -0.067357667
1059603773.5849 0.99742079 -0.069602579 0.0020821868 0.033702284 0.0020840541 0.033798352 0.99625212 -0.067873806
1069600000 0.99720085 -0.070229918 0.002066317 0.034001067 0.0021061124 0.03412674 0.99645352 -0.068594009
1079596226.4151 0.99717563 -0.070883773 0.0020570201 0.034329217 0.0021108119 0.034446023 0.99646199 -0.069330789
1089592452.8302 0.99716389 -0.071523398 0.0020988723 0.034663953 0.0021558488 0.034751114 0.99641615 -0.070078641
1099588679.2453 0.99724698 -0.072149843 0.0020971764 0.034983456 0.0021545589 0.035071846 0.99602556 -0.070651233
1109584905.6604 0.99739218 -0.073005587 0.0021373983 0.035305999 0.0021962719 0.035424192 0.99586129 -0.071218237
1119581132.0755 0.99732608 -0.0739526 0.0021410668 0.035637271 0.0022036405 0.035778407 0.9956724 -0.071663171
1129577358.4906 0.99725437 -0.07471028 0.0022070818 0.03599561 0.0022462402 0.036114644 0.9955343 -0.072073817
1139573584.9057 0.99698067 -0.075608671 0.0022221627 0.036297023 0.0022809301 0.036433943 0.99568146 -0.072723389
1149569811.3208 0.99686027 -0.076374516 0.0023021172 0.036609389 0.0023566475 0.036714334 0.9958148 -0.07346683
1159566037.7358 0.9966709 -0.07707271 0.0023285598 0.03690258 0.0023578582 0.037015107 0.99595296 -0.074461579
1169562264.1509 0.99653184 -0.077698618 0.0023442842 0.037225928 0.0023884457 0.037338149 0.99576575 -0.075259984
1179558490.566 0.99646717 -0.07850267 0.0023414753 0.037575338 0.0024033908 0.037710905 0.99560583 -0.075941741
1189554716.9811 0.9964841 -0.079091966 0.0023625912 0.037907444 0.0024686912 0.038035963 0.99537951 -0.076417476
1199550943.3962 0.99641728 -0.079971641 0.0024096314 0.03826452 0.0024902485 0.038359538 0.99518889 -0.076882124
1209547169.8113 0.99625731 -0.080839783 0.002446779 0.038598161 0.0025239233 0.038642135 0.99510831 -0.077172205
1219543396.2264 0.99611121 -0.081632152 0.002523053 0.038925346 0.0026000589 0.039022997 0.99517864 -0.077541143
1229539622.6415 0.995839 -0.082437187 0.0025672298 0.03923212 0.0026391912 0.039357338 0.9953407 -0.078216612
1239535849.0566 0.99556863 -0.083163977 0.0026363377 0.039530613 0.0027052648 0.03969337 0.99547553 -0.079184383
1249532075.4717 0.99536026 -0.083714902 0.0026630587 0.039869919 0.0027869295 0.039942093 0.99536103 -0.079978228
1259528301.8868 0.99511546 -0.084227741 0.0027145352 0.040165931 0.0028378274 0.040238261 0.99509966 -0.080782056
1269524528.3019 0.99498707 -0.085004181 0.0027842019 0.040505543 0.0028924625 0.040543463 0.99486732 -0.081483543
1279520754.717 0.99463618 -0.085644662 0.0028243768 0.040746409 0.0029420953 0.040783569 0.99458736 -0.082055539
1289516981.1321 0.99456513 -0.086510032 0.0028480031 0.041024983 0.0029520281 0.041102897 0.99464917 -0.082367182
1299513207.5472 0.99417734 -0.087268889 0.0028444473 0.041333154 0.0029440634 0.041415803 0.99479103 -0.08279708
1309509433.9623 0.9937939 -0.0879893 0.0028623445 0.041645318 0.0029530376 0.041715823 0.99495238 -0.083492249
1319505660.3774 0.99340403 -0.088705793 0.0028457241 0.041961152 0.0029725013 0.042010475 0.99495941 -0.084152713
1329501886.7925 0.993204 -0.089364052 0.0028684232 0.042295493 0.0029762946 0.042338978 0.99496031 -0.08509928
1339498113.2075 0.99294025 -0.089844137 0.002916201 0.042613797 0.0030020224 0.042612929 0.99459648 -0.085786611
1349494339.6226 0.99273181 -0.09038496 0.0029032039 0.042914201 0.0029911525 0.042980067 0.99420696 -0.086377054
1359490566.0377 0.99274755 -0.091013759 0.002888767 0.04326658 0.0029751658 0.043315478 0.9939661 -0.086899519
1369486792.4528 0.99243903 -0.091551244 0.0028921077 0.043633074 0.0029894067 0.043655682 0.99381727 -0.087382048
1379483018.8679 0.99223292 -0.092119873 0.0029306386 0.043996144 0.0030029719 0.043997854 0.99389541 -0.087639794
1389479245.283 0.99187362 -0.092712969 0.0029612128 0.044352368 0.0030250344 0.044348661 0.9938693 -0.088369906
1399475471.6981 0.99150109 -0.093075126 0.0029746536 0.044695865 0.0030486081 0.044678506 0.99406505 -0.08898893
1409471698.1132 0.99121797 -0.09340065 0.0029828576 0.045054261 0.0030462854 0.045055803 0.99409932 -0.089796081
1419467924.5283 0.99100059 -0.093625426 0.0030263159 0.045422435 0.0030774074 0.045465983 0.99391323 -0.090582669
1429464150.9434 0.99085122 -0.094011277 0.0030542035 0.045837946 0.003119221 0.045826793 0.99387407 -0.091072738
1439460377.3585 0.99101335 -0.094545439 0.0031724833 0.046260159 0.0031887302 0.046238154 0.99357599 -0.091424972
1449456603.7736 0.99105507 -0.095160544 0.0032424368 0.046641979 0.0032958686 0.046636388 0.99343377 -0.091801926
1459452830.1887 0.99101329 -0.095793813 0.003394261 0.047074109 0.0033987593 0.047021613 0.99358368 -0.092067182
1469449056.6038 0.99113667 -0.096462578 0.0035503646 0.047355875 0.0035228729 0.047363006 0.99376744 -0.092692882
1479445283.0189 0.9909783 -0.097140029 0.0036627676 0.047642142 0.0036768024 0.047671799 0.99386549 -0.093688719
1489441509.434 0.99086046 -0.097609907 0.0038114488 0.047928229 0.0037911218 0.047940992 0.99369931 -0.094518155
1499437735.8491 0.99068308 -0.097920507 0.0038732737 0.048209399 0.0038875528 0.048233896 0.99377239 -0.095338136
1509433962.2642 0.99070919 -0.098527014 0.0039884001 0.04847154 0.0039583147 0.048474215 0.99344873 -0.096011043
1519430188.6792 0.99087751 -0.09890154 0.0040633716 0.048719376 0.0040285587 0.048740596 0.99331301 -0.096590728
1529426415.0943 0.99076533 -0.0995709 0.0040760934 0.049040802 0.004074607 0.049032874 0.99329674 -0.097007543
1539422641.5094 0.99086076 -0.10043225 0.0041434322 0.049317833 0.0041200402 0.04932382 0.99339288 -0.097409785
1549418867.9245 0.99059033 -0.10127448 0.0042144451 0.04955259 0.0041847462 0.049581438 0.99363005 -0.098133385
1559415094.3396 0.99048293 -0.1018672 0.0042834692 0.049849372 0.0042040013 0.049879104 0.99376476 -0.098789662
1569411320.7547 0.99042767 -0.10262108 0.0042810775 0.05012976 0.0042561423 0.050145559 0.99363029 -0.099576324
1579407547.1698 0.99029946 -0.10317038 0.0043049892 0.050360113 0.0042680101 0.050433576 0.99330157 -0.10043049
1589403773.5849 0.99027127 -0.10376894 0.0043393783 0.05065082 0.0043085627 0.050756954 0.99310333 -0.10124311
1599400000 0.99023914 -0.10416609 0.0043167351 0.050926827 0.0042455802 0.051013663 0.99270034 -0.10166427
1609396226.4151 0.99019659 -0.10478581 0.0042897258 0.051258005 0.0042666579 0.051281251 0.99253333 -0.10214143
1619392452.8302 0.99018961 -0.10538056 0.0042714272 0.051582806 0.0042236447 0.051642597 0.9924159 -0.10258034
1629388679.2453 0.98992503 -0.10607588 0.0043385308 0.051921453 0.0042464007 0.052006863 0.99276048 -0.10303247
1639384905.6604 0.98967487 -0.10669354 0.0042995601 0.052305598 0.0042877942 0.052379079 0.99294972 -0.10387773
1649381132.0755 0.98959219 -0.10743049 0.004328059 0.052617937 0.0042657796 0.052719623 0.99296242 -0.10477379
1659377358.4906 0.98938262 -0.10811901 0.0043206681 0.052942269 0.0042952374 0.053066388 0.99294126 -0.10564941
1669373584.9057 0.98930103 -0.10847938 0.0043725022 0.053343285 0.004326066 0.053412277 0.99266499 -0.10626303
1679369811.3208 0.98937619 -0.10917351 0.0044389125 0.053716742 0.0043145325 0.053824812 0.99230605 -0.1067102
1689366037.7358 0.98939914 -0.10987654 0.0044657029 0.054114994 0.0043764468 0.054176539 0.9922595 -0.1071021
1699362264.1509 0.98950022 -0.1103774 0.0044634668 0.054446913 0.0044380305 0.054524396 0.99232459 -0.10750413
1709358490.566 0.98946524 -0.11109568 0.0045498963 0.05481229 0.0044880649 0.054894485 0.99239153 -0.10808101
1719354716.9811 0.98913002 -0.11172596 0.0045715254 0.055128232 0.0045362841 0.055236876 0.99253279 -0.10860127
