!Keysight Technologies,N5222B,MY61253708,A.15.00.15
!Date: Wednesday, June 19, 2024 10:35:28
!Correction: S11(C  2-Port  ) 
!S21(C  2-Port  ) 
!S12(C  2-Port  ) 
!S22(C  2-Port  ) 
!S2P File: Measurements: S11, S21, S12, S22:
# Hz S  RI   R 50
10000000 0.99805188 -0.0033250749 0.00012220354 0.00040752249 6.9291731e-005 0.00040946246 0.99871516 -0.0017494559
19996226.415094 0.99977565 -0.0023774803 2.8938695e-005 0.00059831759 4.5240537e-005 0.00054817472 0.99990672 -0.0023032427
29992452.830189 0.99958521 -0.0024969578 -1.8092251e-005 0.0010092108 -6.0458275e-005 0.00096608966 0.99934143 -0.0027267635
39988679.245283 1.0000702 -0.0030860156 6.9626112e-006 0.0013041648 2.9517207e-005 0.0013185063 0.99979585 -0.0030740052
49984905.660377 1.0002804 -0.003684938 2.2154418e-005 0.0016171851 2.7649861e-005 0.0016647704 0.9999063 -0.0036315322
59981132.075472 1.000478 -0.0045705438 2.646452e-005 0.0018841 2.5855668e-005 0.001953539 0.99993336 -0.0041346252
69977358.490566 1.0002387 -0.0051139537 1.4642716e-005 0.0022411353 2.042147e-005 0.0022872863 0.99974883 -0.0047198776
79973584.90566 0.99993294 -0.0056978166 1.4590332e-005 0.0025386475 7.1731629e-006 0.0026299539 0.99943411 -0.0051343441
89969811.320755 0.99992281 -0.0056986213 -5.3627882e-006 0.0029112031 7.9395249e-006 0.0029239007 0.99964935 -0.0052689612
99966037.735849 1.0001273 -0.0064579248 5.0940434e-006 0.0032324828 2.3299712e-005 0.0032459344 0.99974 -0.0060552359
109962264.15094 1.0002007 -0.0073599666 2.3969566e-005 0.0035520301 1.6553618e-005 0.0035667482 0.99977231 -0.0068700165
119958490.56604 1.0002503 -0.0082228184 3.2368465e-005 0.0038810112 3.2208976e-005 0.0038955419 0.99981272 -0.0077291429
129954716.98113 1.0002158 -0.0092386007 4.3321867e-005 0.0041978187 3.963802e-005 0.0041988492 0.9998014 -0.0085966885
139950943.39623 1.00016 -0.010047166 4.3273612e-005 0.0045250822 4.0625018e-005 0.0045308331 0.99971324 -0.0093317702
149947169.81132 0.99999231 -0.010701329 4.2028027e-005 0.0048466465 4.5453897e-005 0.0048539652 0.99962831 -0.0098917782
159943396.22642 0.9999311 -0.011247426 6.4983265e-005 0.0051862448 5.107699e-005 0.0051906337 0.99972433 -0.010334015
169939622.64151 0.99992537 -0.01155293 7.6930679e-005 0.0055093477 4.7133188e-005 0.0055220108 0.99977934 -0.010728925
179935849.0566 1.0000126 -0.011793494 6.3852523e-005 0.0058118291 6.713008e-005 0.0058351429 0.99968702 -0.011069804
189932075.4717 1.0000949 -0.012590349 6.1501749e-005 0.0061320169 8.759764e-005 0.0061631845 0.9999159 -0.011623412
199928301.88679 0.99999237 -0.013351589 7.8566838e-005 0.0064740479 8.3303079e-005 0.0064964369 0.99981904 -0.012484968
209924528.30189 0.99974865 -0.013873398 9.5325522e-005 0.0067990436 9.1849128e-005 0.0068091531 0.99961597 -0.013187692
219920754.71698 0.99990129 -0.014675766 0.00010284013 0.0071084676 8.8939909e-005 0.0071281483 0.99947512 -0.013795435
229916981.13208 0.9996779 -0.015547723 0.00012245658 0.0074427556 0.00011244719 0.0074572638 0.99938041 -0.014514953
239913207.54717 0.99960518 -0.016251892 0.00014285736 0.0077541093 0.00010898858 0.0077717016 0.99938744 -0.01523626
249909433.96226 0.99959314 -0.016850531 0.00014598179 0.0080601126 0.0001394772 0.00809584 0.99950904 -0.015799135
259905660.37736 0.99962479 -0.017461002 0.00016331207 0.008409936 0.00013101334 0.0084021455 0.99974465 -0.016292125
269901886.79245 0.99994278 -0.018000498 0.00016914529 0.0087685669 0.00014701544 0.0087355897 1.0000523 -0.017046303
279898113.20755 1.0000938 -0.01871413 0.00022164267 0.0090779942 0.00015692273 0.0090366909 0.99991012 -0.017766491
289894339.62264 0.99992555 -0.019519955 0.00014925376 0.0093856752 0.0001570615 0.0093870331 0.99995106 -0.018490523
299890566.03774 0.99978948 -0.020004958 0.00015266822 0.0096906237 0.00019853655 0.0097216656 0.99952418 -0.018922925
309886792.45283 0.99962389 -0.020577222 0.0001911149 0.010024698 0.00021798874 0.010009537 0.99944693 -0.019355789
319883018.86792 0.99960649 -0.021219492 0.00020895526 0.010361412 0.00023090467 0.010359993 0.99962908 -0.019884318
329879245.28302 0.99959099 -0.021832764 0.0002381769 0.010676304 0.00021158671 0.01070344 0.99978602 -0.020548552
339875471.69811 0.99957669 -0.02264443 0.00026252633 0.010989917 0.00023607293 0.011015871 0.99968654 -0.021390826
349871698.11321 0.99972272 -0.023438692 0.0002539421 0.011311756 0.00026354683 0.011339495 0.99973476 -0.022342205
359867924.5283 0.99960518 -0.024248153 0.00030190637 0.011636038 0.00027921423 0.011668452 0.99968541 -0.023339719
369864150.9434 0.99978501 -0.025041372 0.00029561576 0.011946831 0.00026838435 0.011976776 0.99972451 -0.024025589
379860377.35849 0.99969447 -0.025841817 0.00031406363 0.012281883 0.00032064272 0.012300706 0.99963671 -0.024690002
389856603.77358 0.99954379 -0.026313066 0.00032357825 0.012601236 0.00033086911 0.012630323 0.99952877 -0.025224686
399852830.18868 0.99931216 -0.026960224 0.00035056425 0.012930594 0.00032430142 0.012923555 0.99959815 -0.025691122
409849056.60377 0.999264 -0.027370127 0.00038244552 0.013238186 0.00034483679 0.01325405 0.99953634 -0.026191838
419845283.01887 0.9993006 -0.02776888 0.00040174741 0.013548298 0.00036437856 0.013616683 0.99941254 -0.026822865
429841509.43396 0.99930114 -0.02850005 0.00042428309 0.013886616 0.0003971085 0.013916908 0.99956828 -0.02750659
439837735.84906 0.99912208 -0.02933 0.00042346318 0.014191767 0.00044731901 0.01425387 0.99925494 -0.02856639
449833962.26415 0.99892825 -0.030145764 0.00043451181 0.014524106 0.00043413136 0.014519511 0.99869734 -0.02934888
459830188.67925 0.99871218 -0.030830592 0.00043478562 0.014817813 0.00044166762 0.014888022 0.99839771 -0.029933244
469826415.09434 0.99867308 -0.031540185 0.0004588021 0.01515929 0.00039853575 0.015197821 0.99808747 -0.030369014
479822641.50943 0.99858278 -0.032029964 0.00046500424 0.01549001 0.00047586346 0.015531626 0.99809486 -0.030712269
489818867.92453 0.99864632 -0.032565922 0.00051419111 0.015826505 0.00051882258 0.01587249 0.99837375 -0.031115204
499815094.33962 0.99876487 -0.033092856 0.00052501401 0.016122568 0.00052943686 0.016160483 0.99861419 -0.031641841
509811320.75472 0.99888039 -0.033370785 0.00055359828 0.016448773 0.00053111441 0.016470624 0.99881417 -0.032389242
519807547.16981 0.99882329 -0.034037232 0.0005418756 0.016763743 0.00055703986 0.016807301 0.99882627 -0.033023804
529803773.58491 0.99877346 -0.034494638 0.00050279312 0.017072069 0.00056666555 0.017094688 0.9985857 -0.033513039
539800000 0.99884367 -0.035166129 0.00061207963 0.017419618 0.00057592266 0.017432867 0.9985019 -0.034073398
549796226.41509 0.99876255 -0.035959989 0.00058464892 0.017712632 0.00062242663 0.017780414 0.99834913 -0.034485608
559792452.83019 0.99851954 -0.036692739 0.00062786415 0.018059609 0.00061673298 0.018151719 0.99829185 -0.03493008
569788679.24528 0.99842417 -0.037359089 0.00067323865 0.018412229 0.00062601641 0.018461291 0.99855566 -0.035626233
579784905.66038 0.99844933 -0.037854001 0.0006982818 0.018705245 0.00066864723 0.018767642 0.99870759 -0.03631331
589781132.07547 0.99849319 -0.038436621 0.00069068093 0.019011097 0.00070669688 0.019074846 0.99881673 -0.037219882
599777358.49057 0.99865246 -0.039135516 0.00074362755 0.019343711 0.00074748602 0.019414291 0.99897075 -0.037982613
609773584.90566 0.99880922 -0.039785042 0.00074665202 0.01968384 0.00075074937 0.01975213 0.99881405 -0.03879194
619769811.32075 0.99893022 -0.040528148 0.00079583563 0.020009086 0.00079047075 0.020068884 0.99876511 -0.039321244
629766037.73585 0.99879742 -0.041215301 0.00081298593 0.020321293 0.00081251562 0.020340744 0.99855506 -0.039820611
639762264.15094 0.9986335 -0.041827589 0.00085355877 0.020605046 0.00082674716 0.02062807 0.99851191 -0.040251121
649758490.56604 0.99856436 -0.042383611 0.00087059848 0.02091244 0.00083286921 0.020996943 0.99860483 -0.040628806
659754716.98113 0.99836707 -0.042893678 0.00086174347 0.021255117 0.00087066181 0.021303361 0.99871039 -0.041249365
669750943.39623 0.9984991 -0.04333958 0.00090170885 0.021585906 0.00085488614 0.021639748 0.99884754 -0.042006254
679747169.81132 0.99843544 -0.044124506 0.00092497026 0.021939572 0.00091264618 0.021946913 0.99882156 -0.043030903
689743396.22642 0.99858534 -0.044991881 0.00096284784 0.022261048 0.00099864043 0.022313185 0.99865532 -0.043955922
699739622.64151 0.99871683 -0.045760781 0.00099019147 0.022556521 0.0010110298 0.022631692 0.99860179 -0.044687688
709735849.0566 0.9987281 -0.04659687 0.0010285862 0.022844639 0.0010381211 0.022944044 0.99833566 -0.045346901
719732075.4717 0.99858814 -0.047317654 0.0011054818 0.02319218 0.0010773642 0.023234641 0.99844766 -0.045919538
729728301.88679 0.99850142 -0.047868967 0.0010836441 0.023462918 0.0011078659 0.023564832 0.99850768 -0.046349227
739724528.30189 0.998402 -0.048487455 0.0011020931 0.023810353 0.0011259797 0.023875434 0.99869353 -0.04699038
749720754.71698 0.99829388 -0.048973396 0.0011858293 0.024108788 0.0011685388 0.024212599 0.99866623 -0.047721252
759716981.13208 0.99836183 -0.049545288 0.0011755507 0.024431948 0.0011595823 0.024485961 0.99864662 -0.048534364
769713207.54717 0.99829096 -0.050280064 0.0012017144 0.024749873 0.0012051268 0.024810407 0.99832833 -0.049253345
779709433.96226 0.99835718 -0.050897203 0.0012571899 0.025057493 0.0012312047 0.025120668 0.99809688 -0.049907647
789705660.37736 0.99825948 -0.051714838 0.0012902161 0.025368441 0.0012833523 0.025456151 0.99779338 -0.050679535
799701886.79245 0.99822032 -0.052539796 0.0013039047 0.025683764 0.0013100645 0.025764864 0.99769998 -0.051185846
809698113.20755 0.99810106 -0.053126529 0.0013408808 0.026020013 0.0013265109 0.026097488 0.99767816 -0.051583707
819694339.62264 0.99796748 -0.053781688 0.0013661138 0.026305515 0.0013545845 0.026391108 0.99779934 -0.052224934
829690566.03774 0.99788982 -0.054437846 0.0013900986 0.026618827 0.00138079 0.026703574 0.99798405 -0.05304274
839686792.45283 0.99794996 -0.054694027 0.0014133109 0.026928607 0.0014161915 0.027003596 0.9980197 -0.053848147
849683018.86792 0.99801427 -0.055375941 0.0014476178 0.027277485 0.0014241184 0.027333466 0.99786228 -0.054600701
859679245.28302 0.99802285 -0.056093991 0.0015054392 0.02755418 0.0014930544 0.027650557 0.99759781 -0.055193514
869675471.69811 0.9979614 -0.056792796 0.0015254458 0.027898341 0.0015410418 0.027989637 0.99721849 -0.055643976
879671698.11321 0.99787891 -0.057404403 0.0015344736 0.02819257 0.0015460362 0.028293004 0.99714023 -0.056060009
889667924.5283 0.99771845 -0.058201224 0.0015734211 0.028482072 0.0015734294 0.028589509 0.99701488 -0.056491017
899664150.9434 0.99755383 -0.058932722 0.0016001593 0.028756049 0.001596991 0.028881041 0.99708903 -0.057072401
909660377.35849 0.99749672 -0.059593469 0.0016234941 0.029097177 0.0016049207 0.029194517 0.99722779 -0.057947785
919656603.77358 0.99762475 -0.060187116 0.0016554804 0.029418157 0.0016563833 0.02954804 0.99723661 -0.058849052
929652830.18868 0.99767804 -0.060848117 0.0016769441 0.029715531 0.0016644821 0.029832195 0.99713856 -0.059615105
939649056.60377 0.99780172 -0.061473042 0.0016989438 0.030028673 0.0016831765 0.030120235 0.99692947 -0.06031546
949645283.01887 0.99775618 -0.062354252 0.0016702941 0.030363923 0.0016784458 0.03046073 0.9966861 -0.060792189
959641509.43396 0.9977212 -0.062932223 0.001719215 0.030703537 0.0017231358 0.030829106 0.99663711 -0.061282486
969637735.84906 0.99759591 -0.063620567 0.0017361715 0.031037662 0.0017918181 0.031155165 0.99672782 -0.061578512
979633962.26415 0.99744737 -0.064372286 0.001826637 0.031353723 0.0018389274 0.031453826 0.99671471 -0.062183917
989630188.67925 0.99749529 -0.064857125 0.0018523335 0.031690564 0.0018405775 0.031783253 0.99689084 -0.062809527
999626415.09434 0.99756551 -0.065418243 0.0018758364 0.031982053 0.0018876335 0.032102492 0.99686915 -0.063598633
1009622641.5094 0.99757826 -0.066090077 0.0018847254 0.032298286 0.0019123787 0.032422129 0.9967519 -0.064462125
1019618867.9245 0.99765259 -0.066951782 0.0019743452 0.032639235 0.0019784239 0.03275007 0.9965077 -0.065259665
1029615094.3396 0.99768496 -0.067848414 0.0020011561 0.032926388 0.0020285696 0.033034101 0.99617654 -0.065829009
1039611320.7547 0.99769938 -0.068646282 0.0020411126 0.033210266 0.0020366563 0.033348016 0.99608189 -0.066391051
1049607547.1698 0.99760085 -0.069563814 0.0020546969 0.033504508 0.0020398677 0.033624995 0.99612349 -0.066981755
1059603773.5849 0.99744546 -0.070161819 0.002089235 0.033790514 0.0021023368 0.033971053 0.99616796 -0.067448765
1069600000 0.9972617 -0.070809215 0.0021030167 0.034130566 0.0021334346 0.034245774 0.99634051 -0.06816572
1079596226.4151 0.99722356 -0.071438767 0.0020935661 0.034441091 0.0021374933 0.03458143 0.99633723 -0.069005407
1089592452.8302 0.99725723 -0.07201907 0.0021334691 0.034761436 0.0021684375 0.034880642 0.99631977 -0.069650948
1099588679.2453 0.99729729 -0.07269755 0.002143072 0.035067029 0.0021806806 0.035206165 0.99601555 -0.070315212
1109584905.6604 0.99739605 -0.07359834 0.0021356493 0.035405919 0.0021751085 0.035537213 0.99565578 -0.070889726
1119581132.0755 0.99737751 -0.074467108 0.0021812515 0.03573877 0.0022027506 0.035883039 0.99558973 -0.071213067
1129577358.4906 0.99722022 -0.075240582 0.0021932833 0.036089286 0.002269445 0.03624418 0.99549598 -0.071650803
1139573584.9057 0.99703556 -0.076153845 0.0022380352 0.036394995 0.0023143915 0.036551427 0.9955765 -0.072354913
1149569811.3208 0.99684769 -0.076926336 0.0023077847 0.03673045 0.0023878072 0.036859259 0.995745 -0.073057115
1159566037.7358 0.99668795 -0.077603966 0.0023530759 0.037015989 0.0024026344 0.037174206 0.99589622 -0.07407701
1169562264.1509 0.99656391 -0.078208476 0.0023554713 0.037349723 0.0023974814 0.037484974 0.99565518 -0.074891418
1179558490.566 0.99650538 -0.078985021 0.0023369228 0.037683677 0.0024318269 0.037829034 0.99553198 -0.075670071
1189554716.9811 0.99648631 -0.079696983 0.0023820801 0.038016554 0.002489795 0.038172361 0.99527264 -0.076112062
1199550943.3962 0.99649256 -0.080485821 0.002433287 0.03837024 0.0025171936 0.038477987 0.99512494 -0.076484859
1209547169.8113 0.99634558 -0.081349656 0.0024673557 0.038684588 0.0025537545 0.038802814 0.9950372 -0.07676816
1219543396.2264 0.9962005 -0.082127944 0.0024981387 0.039024547 0.0025844937 0.039157782 0.99516356 -0.077169031
1229539622.6415 0.99588406 -0.082925886 0.0025990792 0.039347179 0.0026622266 0.03946485 0.99529767 -0.077928811
1239535849.0566 0.99567652 -0.083610028 0.002646449 0.039656222 0.0027332371 0.039802674 0.99539155 -0.078786761
1249532075.4717 0.99530679 -0.084323816 0.002702035 0.039952483 0.0027919987 0.040076766 0.99522859 -0.079653665
1259528301.8868 0.99520618 -0.084786087 0.0027373042 0.040308543 0.0028439946 0.040392652 0.99496549 -0.080528438
1269524528.3019 0.99500275 -0.085531563 0.0028105546 0.04060968 0.0029388731 0.040689249 0.99473768 -0.081203371
1279520754.717 0.99474716 -0.086223654 0.0028616027 0.040868133 0.0029695462 0.04097132 0.99452662 -0.081718296
1289516981.1321 0.99464345 -0.087022781 0.0028632451 0.041155487 0.0030113161 0.041222207 0.99456328 -0.082078248
1299513207.5472 0.99427235 -0.087855458 0.0028740782 0.041441612 0.0029737372 0.041572098 0.99467945 -0.082456887
1309509433.9623 0.9938345 -0.088500395 0.0028686887 0.041761994 0.0029810043 0.041847009 0.99479175 -0.08318691
1319505660.3774 0.99353611 -0.089274421 0.002882231 0.042052656 0.002962607 0.042164676 0.99483567 -0.08379674
1329501886.7925 0.99325037 -0.089870691 0.0028990302 0.042414643 0.0030018203 0.042466126 0.99485534 -0.084748358
1339498113.2075 0.99302924 -0.09038645 0.0029518027 0.042695884 0.0030185385 0.042780258 0.99443203 -0.085468948
1349494339.6226 0.99283433 -0.091054551 0.002921578 0.043042023 0.0029908596 0.043119602 0.99412137 -0.086043924
1359490566.0377 0.99269664 -0.091568112 0.0029213671 0.043409299 0.0030063763 0.043485615 0.99388313 -0.086513281
1369486792.4528 0.99258667 -0.09215191 0.0029252563 0.043739233 0.0030091396 0.043812566 0.99374169 -0.086914718
1379483018.8679 0.99228722 -0.092636056 0.0029537249 0.044128384 0.0030223355 0.044132721 0.99377948 -0.087336928
1389479245.283 0.99191606 -0.093209863 0.0029962789 0.044468328 0.0030429661 0.044524208 0.99372566 -0.087965965
1399475471.6981 0.99151707 -0.0935359 0.0030038618 0.044785697 0.0030849706 0.044833414 0.9939785 -0.088674337
1409471698.1132 0.99126524 -0.093944862 0.0030508223 0.045181725 0.0030916955 0.045223285 0.99398428 -0.089503035
1419467924.5283 0.9911623 -0.09424895 0.0030438937 0.045537923 0.0031103324 0.045607232 0.99379647 -0.090216279
1429464150.9434 0.99096835 -0.094671726 0.0030989926 0.04593996 0.0031462386 0.045950018 0.99370545 -0.090769321
1439460377.3585 0.99111509 -0.095119372 0.0031553144 0.04638486 0.0031721219 0.046435665 0.99352968 -0.091076955
1449456603.7736 0.99113595 -0.095682457 0.0032847216 0.046773639 0.0033230428 0.046802931 0.99340004 -0.091420889
1459452830.1887 0.99113232 -0.096398622 0.0033990834 0.04718148 0.0034162886 0.047202967 0.99346948 -0.091679037
1469449056.6038 0.99116743 -0.097110301 0.0035589729 0.047516387 0.0036112936 0.047526643 0.99369931 -0.092387944
1479445283.0189 0.99100423 -0.097670376 0.0036981448 0.047762632 0.0036959618 0.047815543 0.99375904 -0.093310624
1489441509.434 0.99090862 -0.098199069 0.0038272776 0.048067521 0.0038186144 0.048175201 0.99369299 -0.094143629
1499437735.8491 0.99080598 -0.09851408 0.003932897 0.048347849 0.0039398335 0.048408203 0.99365246 -0.095012754
1509433962.2642 0.99078047 -0.099062346 0.0040215272 0.048621744 0.0040021562 0.048669182 0.99344188 -0.095670655
1519430188.6792 0.99081779 -0.099554092 0.0040721688 0.048897825 0.0040452704 0.04891023 0.99333096 -0.096150219
1529426415.0943 0.99079287 -0.10022172 0.0041057821 0.049142905 0.0041121263 0.049199097 0.99322993 -0.096608877
1539422641.5094 0.99084246 -0.10097659 0.0041562645 0.0494137 0.0041961586 0.049491592 0.9933235 -0.09711352
1549418867.9245 0.99070734 -0.10178734 0.0042416388 0.049730334 0.0042054048 0.049768861 0.99362892 -0.0978802
1559415094.3396 0.99061751 -0.10252693 0.0042606667 0.049985234 0.0042653698 0.050090365 0.99372566 -0.098451585
1569411320.7547 0.99039483 -0.1032172 0.0043342663 0.050214447 0.0042715659 0.050339941 0.99358517 -0.099268228
1579407547.1698 0.99038607 -0.10378334 0.0043191211 0.050498147 0.0042992588 0.050639175 0.99324155 -0.10014825
1589403773.5849 0.99020672 -0.10430485 0.0043193903 0.050810859 0.0043743495 0.0508812 0.99303055 -0.10084903
1599400000 0.99024761 -0.10476905 0.0043601152 0.051085122 0.0042796666 0.051170189 0.99262971 -0.1012938
1609396226.4151 0.99021733 -0.10537247 0.004334379 0.051357415 0.0042673247 0.051488928 0.9924469 -0.10174304
1619392452.8302 0.99015415 -0.10599431 0.0043290369 0.05174955 0.004276948 0.051843002 0.99249679 -0.10213435
1629388679.2453 0.98996353 -0.10663188 0.0043401942 0.052086208 0.0042601153 0.052199237 0.99270773 -0.10269397
1639384905.6604 0.98976368 -0.10737646 0.0043308353 0.052411381 0.0042917654 0.052556418 0.99294215 -0.10349212
1649381132.0755 0.98953021 -0.10798731 0.004323002 0.052766982 0.0043269061 0.052895579 0.99295211 -0.10444745
1659377358.4906 0.98939312 -0.10874331 0.0043829978 0.053146821 0.0043169595 0.05326397 0.99287546 -0.10533562
1669373584.9057 0.98931789 -0.10919116 0.0043947236 0.053498745 0.0043617692 0.053650539 0.99259377 -0.10597911
1679369811.3208 0.9894098 -0.10978371 0.0044306079 0.053859938 0.0043552741 0.053980734 0.99239564 -0.10655972
1689366037.7358 0.98934245 -0.11049819 0.0044511575 0.054218851 0.0044093821 0.05436787 0.99214995 -0.10683191
1699362264.1509 0.98963159 -0.11104324 0.0045335609 0.054603867 0.0044694375 0.054737777 0.99243283 -0.10724357
1709358490.566 0.98941159 -0.1117119 0.0045713633 0.05491979 0.0045051668 0.055088248 0.99242777 -0.10774702
1719354716.9811 0.98914599 -0.11227065 0.0046222601 0.055327509 0.0046044774 0.055464655 0.99249548 -0.10848668
1729350943.3962 0.98886907 -0.11289057 0.0046792496 0.055729587 0.0046282262 0.055826914 0.99253643 -0.10932985
