!Keysight Technologies,N5222B,MY61253708,A.15.00.15
!Date: Wednesday, June 19, 2024 10:30:46
!Correction: S11(C  2-Port  ) 
!S21(C  2-Port  ) 
!S12(C  2-Port  ) 
!S22(C  2-Port  ) 
!S2P File: Measurements: S11, S21, S12, S22:
# Hz S  RI   R 50
10000000 0.99831808 -0.0030193925 -0.00021557625 0.00043696768 0.00025066684 0.00010490532 0.99808139 -0.0019552708
19996226.415094 0.99989879 -0.0023089945 -1.956374e-005 0.0005596971 0.00013574277 0.00069398031 0.99997139 -0.00227952
29992452.830189 0.99968243 -0.0025427639 -1.0055257e-005 0.0010660701 -1.5791447e-006 0.00099521759 0.99927479 -0.0027197003
39988679.245283 1.0001079 -0.0030543953 -3.2026423e-005 0.0013131937 -2.5670597e-006 0.0013372129 0.99963188 -0.0030783713
49984905.660377 1.000239 -0.0036627054 -1.924613e-005 0.0016440827 -1.0186923e-006 0.0016248524 0.99989235 -0.0036627352
59981132.075472 1.0004412 -0.0045269728 2.7421629e-005 0.0019233357 2.3380038e-005 0.0019270384 0.99987042 -0.0042608678
69977358.490566 1.0002806 -0.0050530769 -8.2755505e-006 0.0022769272 -6.6319881e-006 0.0022727374 0.99970829 -0.0046857428
79973584.90566 0.99995267 -0.00560233 -2.4109962e-005 0.002573208 -1.1502882e-005 0.0025642747 0.99932218 -0.0052366555
89969811.320755 0.99991798 -0.0056992471 2.1713786e-005 0.002924134 -2.3114262e-005 0.0029181875 0.9995532 -0.0053505301
99966037.735849 1.0001922 -0.0063664317 1.9670231e-005 0.0032200131 4.365982e-005 0.0032213652 0.99965376 -0.006181404
109962264.15094 1.0002335 -0.0072697401 2.2077817e-005 0.0035701506 7.4746786e-006 0.0035958425 0.99967223 -0.0069450885
119958490.56604 1.0002781 -0.0081717372 5.0556031e-005 0.0038735745 1.5933532e-005 0.003879305 0.9997161 -0.0077846348
129954716.98113 1.0002359 -0.0091328919 2.891745e-005 0.0042204834 3.7553371e-005 0.0041994457 0.99970359 -0.008692503
139950943.39623 1.0001566 -0.0099703427 3.37909e-005 0.0045251679 3.7535065e-005 0.0045300624 0.99961931 -0.0094523542
149947169.81132 1.0000445 -0.010598451 3.6447309e-005 0.0048797275 4.6543777e-005 0.004865359 0.99956357 -0.01001066
159943396.22642 0.999982 -0.01113078 4.883972e-005 0.0051811282 4.686811e-005 0.0051712594 0.99962735 -0.010489315
169939622.64151 0.99993569 -0.011486545 5.5691344e-005 0.0055025625 6.5026979e-005 0.005498739 0.99966055 -0.010881908
179935849.0566 1.0000062 -0.011689544 6.1650178e-005 0.005826449 8.6502638e-005 0.0058358191 0.99961483 -0.011244237
189932075.4717 1.0001291 -0.012437105 7.6383352e-005 0.0061426759 7.1180053e-005 0.0061541051 0.99975264 -0.011778176
199928301.88679 1.0001121 -0.013292044 4.9766386e-005 0.0064733108 5.1512616e-005 0.0064702048 0.99965394 -0.01263684
209924528.30189 0.99980456 -0.013835385 9.6975476e-005 0.00679253 8.5066073e-005 0.0068108332 0.99948841 -0.013235778
219920754.71698 0.99997449 -0.014667004 0.00011226255 0.0071166139 9.7812386e-005 0.0071573537 0.99939722 -0.013886809
229916981.13208 0.99970746 -0.015536278 0.00011851825 0.0074166753 0.00010404247 0.0074674292 0.9993754 -0.014741331
239913207.54717 0.99962157 -0.016178647 0.00013011655 0.0077641113 0.00013594558 0.0077874847 0.99927282 -0.015435588
249909433.96226 0.99960887 -0.016755402 0.00014173868 0.0080939978 0.00014101225 0.0080969399 0.9993363 -0.015972644
259905660.37736 0.99976766 -0.017345488 0.00014195917 0.0084267035 0.00014232472 0.0084097702 0.99957263 -0.016472489
269901886.79245 0.99995857 -0.017960235 0.00017264311 0.0087500867 0.00017531379 0.008741769 1.0000024 -0.017162874
279898113.20755 1.0000144 -0.018637568 0.00018647825 0.0090754163 0.00017154589 0.0090972362 0.99982554 -0.018014699
289894339.62264 0.99996328 -0.01931113 0.00021011429 0.0093905274 0.0001822426 0.0093847401 0.99975812 -0.018768668
299890566.03774 0.99983275 -0.019863456 0.00023277523 0.0096873119 0.00021595368 0.0097470479 0.99948835 -0.019150168
309886792.45283 0.99961865 -0.020391569 0.00020445272 0.0099931117 0.0002088364 0.010055035 0.99924892 -0.019593716
319883018.86792 0.99970245 -0.020942271 0.00017620903 0.01030831 0.00022453628 0.010354883 0.99938291 -0.020074099
329879245.28302 0.99977297 -0.021793664 0.00020363415 0.010677105 0.00020524394 0.010669961 0.99955624 -0.020808339
339875471.69811 0.99948704 -0.022561491 0.00025759346 0.010969476 0.00025900337 0.011014047 0.99949384 -0.021575071
349871698.11321 0.99974191 -0.02334857 0.00024202699 0.011332756 0.00024873344 0.011320553 0.99951088 -0.022507906
359867924.5283 0.99965656 -0.024151087 0.00030751061 0.011681736 0.0002846201 0.011661928 0.99946821 -0.02342692
369864150.9434 0.99989325 -0.024978369 0.00031068549 0.011960221 0.00027458696 0.011976869 0.99948525 -0.024130285
379860377.35849 0.99976939 -0.025724828 0.0002890497 0.012274067 0.00029550144 0.012308504 0.99931777 -0.024757072
389856603.77358 0.99956781 -0.026355147 0.00033376087 0.012635624 0.00032192608 0.012589484 0.99935883 -0.025251716
399852830.18868 0.99939817 -0.026911169 0.00035328511 0.012923434 0.00037070317 0.012917526 0.99941546 -0.025715023
409849056.60377 0.99925929 -0.027386786 0.00033650972 0.013196291 0.00036848942 0.013242245 0.99942601 -0.026186882
419845283.01887 0.9991228 -0.027827561 0.00038422272 0.013551067 0.00037308503 0.013595402 0.99937713 -0.026703328
429841509.43396 0.9992553 -0.028404295 0.00040198583 0.013883032 0.00039169285 0.013926269 0.99951249 -0.027508259
439837735.84906 0.99908894 -0.029362544 0.00044099521 0.014215037 0.00044815184 0.01425558 0.99926817 -0.028442815
449833962.26415 0.99891448 -0.030132174 0.00039286166 0.014516391 0.00043247314 0.014542792 0.99887896 -0.029299885
459830188.67925 0.99871004 -0.030808002 0.00043945108 0.014859455 0.00041942345 0.014865601 0.99869663 -0.029929101
469826415.09434 0.99861306 -0.031490088 0.0004423405 0.015169799 0.00042883493 0.01522359 0.99837828 -0.030459285
479822641.50943 0.99846399 -0.03199017 0.00046828517 0.015479353 0.00047529815 0.015566131 0.99845028 -0.03082794
489818867.92453 0.99850965 -0.032438278 0.00050999131 0.015789436 0.00051571429 0.015844434 0.99877787 -0.031332135
499815094.33962 0.99858338 -0.033002883 0.00052552857 0.016130298 0.00054544862 0.016175603 0.99900877 -0.031844586
509811320.75472 0.99874151 -0.033280544 0.00055000687 0.016442977 0.00054453901 0.016490236 0.99916893 -0.032630432
519807547.16981 0.99870592 -0.033836901 0.00056505064 0.016787676 0.00055251364 0.016786352 0.99906623 -0.03338322
529803773.58491 0.9986428 -0.034316629 0.00058407197 0.017082248 0.00057113124 0.017158367 0.99888265 -0.033920795
539800000 0.99869335 -0.03491132 0.00059301499 0.017424842 0.00060263602 0.017473588 0.99872333 -0.034485489
549796226.41509 0.9986738 -0.035744876 0.00059731957 0.017730312 0.00064790621 0.017786611 0.99857533 -0.034999132
559792452.83019 0.99848783 -0.036493987 0.00061377697 0.018070783 0.00064561609 0.018118724 0.99852562 -0.035478413
569788679.24528 0.99840075 -0.037112743 0.00066870404 0.018365294 0.000636274 0.018412223 0.99871469 -0.036208659
579784905.66038 0.99837464 -0.037592374 0.00068969873 0.018735718 0.00065519102 0.018755274 0.99881768 -0.036875695
589781132.07547 0.99851924 -0.038309842 0.00073293876 0.01901295 0.00068442337 0.019110562 0.99894476 -0.037813872
599777358.49057 0.99872613 -0.038865358 0.00075295195 0.0193491 0.00069312192 0.019409887 0.99894881 -0.038551688
609773584.90566 0.99881029 -0.039594941 0.00077868579 0.019731976 0.000749311 0.019732786 0.99890321 -0.039363425
619769811.32075 0.99898142 -0.040266961 0.00080835959 0.019989779 0.00082842819 0.020050334 0.99886382 -0.039957434
629766037.73585 0.99882543 -0.040906906 0.00080885459 0.020329002 0.00083968695 0.02030769 0.99857324 -0.04043296
639762264.15094 0.99862897 -0.041569248 0.00085881096 0.020600121 0.00084873103 0.020642875 0.99845076 -0.040918902
649758490.56604 0.99851286 -0.042132482 0.00086186221 0.020923899 0.00083858846 0.02100686 0.99855012 -0.041312665
659754716.98113 0.99842554 -0.042571783 0.00084768981 0.021248721 0.00083661731 0.021308232 0.99868029 -0.041863441
669750943.39623 0.99846953 -0.043103278 0.00089384615 0.021607868 0.00089483336 0.021643568 0.99873382 -0.042650163
679747169.81132 0.99844307 -0.043909878 0.00088968838 0.021926552 0.00091650174 0.021956569 0.99870855 -0.043606959
689743396.22642 0.99864793 -0.044716388 0.00097946543 0.022234995 0.00096505973 0.022311084 0.99857676 -0.044595003
699739622.64151 0.99878669 -0.045529634 0.0010004602 0.022583697 0.0010138974 0.022621188 0.99847138 -0.04521364
709735849.0566 0.998734 -0.046321243 0.0010425646 0.02283485 0.0010408828 0.022898192 0.99815309 -0.04584258
719732075.4717 0.99861181 -0.047100633 0.0011011818 0.023186738 0.0010680049 0.023182299 0.99831504 -0.046387076
729728301.88679 0.9985112 -0.047601044 0.0010819826 0.023464544 0.0010893643 0.023566987 0.99830878 -0.046832114
739724528.30189 0.99845099 -0.048230723 0.0011370648 0.023803372 0.0011189054 0.023862815 0.99854583 -0.047565073
749720754.71698 0.99835908 -0.048794925 0.0011947625 0.024135001 0.0011874032 0.024185281 0.99858344 -0.048198134
759716981.13208 0.99835908 -0.049294591 0.001195915 0.024390269 0.0012099389 0.024502542 0.99855936 -0.048988879
769713207.54717 0.99821812 -0.050030172 0.0012066178 0.024742747 0.0012296727 0.024829736 0.99826854 -0.049671382
779709433.96226 0.99837917 -0.050617974 0.0012558792 0.025034327 0.001269531 0.025119793 0.99802834 -0.050309874
789705660.37736 0.99823666 -0.05157581 0.0013070414 0.025378998 0.001283762 0.025376817 0.99773979 -0.051015496
799701886.79245 0.99817401 -0.052442759 0.0012899088 0.025688466 0.0012910133 0.025784235 0.99759138 -0.051548779
809698113.20755 0.99809963 -0.052988946 0.0013398074 0.026019299 0.00131002 0.026060579 0.99769145 -0.051995084
819694339.62264 0.99793184 -0.053613067 0.0013779714 0.026324708 0.0013332963 0.026374049 0.9977814 -0.052632064
829690566.03774 0.99783027 -0.054127723 0.0014260681 0.026620757 0.0014046868 0.026701838 0.99803138 -0.053480864
839686792.45283 0.99787909 -0.054562122 0.001400114 0.026921121 0.0014579426 0.027006064 0.99803472 -0.054245085
849683018.86792 0.99802697 -0.055230238 0.0014307296 0.027230036 0.0014486276 0.027357288 0.99789262 -0.05497168
859679245.28302 0.99800539 -0.055829376 0.0014869049 0.027599584 0.0014806883 0.027641367 0.99760187 -0.055618644
869675471.69811 0.99792457 -0.056619704 0.0015342049 0.027909372 0.0015217578 0.02792386 0.99730992 -0.056128353
879671698.11321 0.99784678 -0.057234261 0.0015419867 0.028184542 0.0015488395 0.02826879 0.99732691 -0.056479089
889667924.5283 0.99766779 -0.058007687 0.0015659751 0.028464772 0.0015784316 0.028573176 0.99708796 -0.056985617
899664150.9434 0.99740219 -0.058729172 0.0015958026 0.028775685 0.0015805522 0.028885163 0.99719679 -0.057564348
909660377.35849 0.99743998 -0.059303969 0.0016174098 0.029101316 0.0016354849 0.029182531 0.99736559 -0.058438018
919656603.77358 0.99760377 -0.059957206 0.0016491972 0.029439189 0.0016630399 0.029526267 0.99736899 -0.059277594
929652830.18868 0.99761391 -0.060665876 0.0016709603 0.029738152 0.0016525108 0.029827278 0.99723959 -0.060167819
939649056.60377 0.99776506 -0.06126976 0.0016930634 0.030027192 0.0016691433 0.030124225 0.99705899 -0.060885638
949645283.01887 0.99770713 -0.06208317 0.0016466453 0.030349353 0.0016928896 0.030467775 0.99683613 -0.06144077
959641509.43396 0.99760532 -0.062776566 0.0017294018 0.03070561 0.0017360346 0.030813435 0.99677473 -0.061831772
969637735.84906 0.9976263 -0.063346356 0.0017529167 0.031052774 0.0017744433 0.031134211 0.99678653 -0.062226772
979633962.26415 0.9974159 -0.064158797 0.0018258588 0.031369545 0.001826148 0.031440753 0.99685502 -0.062851228
989630188.67925 0.99736214 -0.064622819 0.0018543433 0.031673264 0.0018434841 0.031768687 0.99704468 -0.063423306
999626415.09434 0.9974817 -0.065232307 0.0018838868 0.031972721 0.0018864963 0.032125719 0.9970057 -0.064252436
1009622641.5094 0.99753147 -0.065876678 0.0019185385 0.032308664 0.0019219159 0.032424547 0.9968794 -0.065097541
1019618867.9245 0.99760467 -0.066596359 0.001935306 0.032619871 0.0020075059 0.032744613 0.99658269 -0.065911368
1029615094.3396 0.99760008 -0.067572743 0.0020116782 0.032955192 0.0020333836 0.033010107 0.99627239 -0.066443652
1039611320.7547 0.99760407 -0.068380207 0.0020509679 0.033221003 0.0020501362 0.033322759 0.99621081 -0.067102253
1049607547.1698 0.99748343 -0.069301561 0.0020736649 0.033505201 0.0020639785 0.033619035 0.99622637 -0.067636497
1059603773.5849 0.99742919 -0.069899261 0.0021054158 0.033814162 0.0021245237 0.033924844 0.99622285 -0.068168402
1069600000 0.99726033 -0.070534021 0.0020961361 0.034129344 0.0021124147 0.034248013 0.99639726 -0.068863988
1079596226.4151 0.9971838 -0.071162045 0.0020872853 0.034458689 0.0021166503 0.03455567 0.99649954 -0.069690168
1089592452.8302 0.99722868 -0.071811497 0.0021348139 0.034771781 0.0021643378 0.034864783 0.99636239 -0.070365876
1099588679.2453 0.9973191 -0.072478771 0.0021287743 0.035080813 0.0021904502 0.03519614 0.99604464 -0.070948809
1109584905.6604 0.99736428 -0.073252708 0.0021456089 0.035413824 0.0021996759 0.035525396 0.99581611 -0.071556076
1119581132.0755 0.99734312 -0.074212149 0.0022025444 0.035743251 0.0022105784 0.035850424 0.99560356 -0.071923062
1129577358.4906 0.99721372 -0.074960321 0.0022065639 0.036100682 0.002270475 0.036202975 0.99551827 -0.072328687
1139573584.9057 0.9970184 -0.075861543 0.0022492008 0.036399744 0.0023024688 0.03652418 0.99568653 -0.072964877
1149569811.3208 0.99687421 -0.076680675 0.0023233809 0.036711019 0.0023618729 0.036825702 0.99578667 -0.073784597
1159566037.7358 0.99667579 -0.077340961 0.0023233294 0.037039328 0.0023661098 0.037141629 0.99591434 -0.074728787
1169562264.1509 0.99657118 -0.078000516 0.0023510922 0.037366331 0.0024097618 0.037476212 0.9957273 -0.075519353
1179558490.566 0.99646574 -0.078734502 0.0023260342 0.037681516 0.0024192836 0.037811186 0.99558091 -0.076195404
1189554716.9811 0.99652225 -0.079444945 0.0023789639 0.038018487 0.0024821712 0.038137313 0.99530548 -0.076717615
1199550943.3962 0.9964745 -0.080238104 0.0024365447 0.038368557 0.0025264006 0.038464613 0.99515009 -0.077176243
1209547169.8113 0.99631816 -0.081128895 0.0024722051 0.038684573 0.0025365474 0.038772829 0.99502838 -0.077450112
1219543396.2264 0.99608833 -0.081934765 0.0025261212 0.039044846 0.0026204712 0.03916033 0.9951387 -0.077798024
1229539622.6415 0.99577397 -0.082720309 0.0025884453 0.039354492 0.0026496667 0.039489366 0.99526024 -0.078562856
1239535849.0566 0.99555653 -0.083392918 0.002657095 0.039667044 0.0027351137 0.039776653 0.99535418 -0.079449624
1249532075.4717 0.99531484 -0.084016122 0.0026898528 0.039971501 0.0027904049 0.040058248 0.99523926 -0.080288455
1259528301.8868 0.99517739 -0.084591776 0.0027287938 0.040294684 0.0028597843 0.040380199 0.99500042 -0.081120729
1269524528.3019 0.99501652 -0.085255027 0.0028019501 0.040572669 0.0029063448 0.040662654 0.99474084 -0.081782132
1279520754.717 0.99468142 -0.085955665 0.002853025 0.04089177 0.0029675409 0.040906299 0.99449807 -0.082320355
1289516981.1321 0.9945721 -0.086763948 0.0028653182 0.041177873 0.0029575443 0.041212715 0.99456877 -0.082718641
1299513207.5472 0.99424779 -0.08762297 0.0029065739 0.041459464 0.0029861405 0.041488379 0.9947716 -0.083072066
1309509433.9623 0.99385905 -0.088297039 0.0028702645 0.041747347 0.0029661767 0.041808829 0.99487162 -0.083767295
1319505660.3774 0.99344474 -0.088985026 0.0028821891 0.042069357 0.0029977476 0.042149361 0.99489522 -0.084446549
1329501886.7925 0.99319196 -0.089641035 0.0028848629 0.042388145 0.0029998776 0.042450834 0.99483228 -0.085423589
1339498113.2075 0.99290502 -0.09019503 0.0029418478 0.04272905 0.0030254805 0.042762555 0.99450606 -0.086134315
1349494339.6226 0.99281114 -0.090709589 0.0028871484 0.043034486 0.0029806579 0.043099489 0.99419945 -0.086703673
1359490566.0377 0.99268246 -0.091283232 0.0028992873 0.043412257 0.0029922761 0.043421745 0.99400866 -0.087203503
1369486792.4528 0.99247378 -0.091843456 0.0029210225 0.043771621 0.0030204579 0.043767106 0.99376988 -0.08764416
1379483018.8679 0.99223346 -0.092396937 0.002959786 0.044113893 0.0030349796 0.044131577 0.99380904 -0.087954447
1389479245.283 0.99195123 -0.092890948 0.002994176 0.044488482 0.0030291583 0.044478193 0.9938333 -0.088656336
1399475471.6981 0.99152315 -0.09329766 0.0029967763 0.044803746 0.0030731373 0.044826761 0.99403429 -0.089375138
1409471698.1132 0.99122518 -0.093690082 0.0030536794 0.045209717 0.0030926901 0.045210842 0.99400216 -0.090147175
1419467924.5283 0.99101889 -0.093944252 0.0030397717 0.045571465 0.0031040609 0.045592472 0.99385297 -0.090836465
1429464150.9434 0.99092871 -0.094421834 0.0030993577 0.045948964 0.0031556822 0.04594627 0.99374032 -0.091304719
1439460377.3585 0.99105585 -0.094905496 0.0031502433 0.046386309 0.0031865267 0.04638923 0.99349385 -0.09174946
1449456603.7736 0.99104756 -0.095389172 0.0032758927 0.046795461 0.0033272104 0.046774179 0.99342257 -0.092099816
1459452830.1887 0.99109507 -0.096155286 0.0034231041 0.047161553 0.0034054853 0.047176924 0.99351037 -0.092401087
1469449056.6038 0.99114466 -0.096773714 0.0035850899 0.047496982 0.0035721688 0.047513306 0.99368525 -0.093036771
1479445283.0189 0.9909904 -0.097420365 0.0036745151 0.047783468 0.0036881706 0.047780838 0.99381596 -0.093940422
1489441509.434 0.99088013 -0.097941637 0.0038180444 0.048117332 0.0038257502 0.048102744 0.99367535 -0.094786435
1499437735.8491 0.99073899 -0.098228872 0.0039415304 0.048355181 0.0039383247 0.048318513 0.99363947 -0.095632434
1509433962.2642 0.99072969 -0.098702073 0.0040051504 0.048609108 0.0039979937 0.048634559 0.993411 -0.096275814
1519430188.6792 0.99081886 -0.099225134 0.0040577836 0.048877571 0.0040452294 0.048874203 0.99328601 -0.096809298
1529426415.0943 0.99080533 -0.09996143 0.0041517895 0.049137 0.0040895883 0.049136657 0.99315667 -0.097281218
1539422641.5094 0.99082679 -0.10066765 0.0041487049 0.049440194 0.0041503874 0.049490079 0.99328279 -0.097713381
1549418867.9245 0.99071836 -0.10154466 0.0042500915 0.049731161 0.0042370753 0.04975418 0.99349368 -0.098442376
1559415094.3396 0.99055117 -0.10213169 0.0042711683 0.049996819 0.0042271595 0.050058112 0.99373078 -0.099118024
1569411320.7547 0.99042314 -0.10298344 0.0043607801 0.050241973 0.0042807069 0.050296087 0.99359262 -0.099965438
1579407547.1698 0.9902795 -0.10347974 0.0043451046 0.050533529 0.0042664893 0.050579514 0.9931879 -0.10068427
1589403773.5849 0.99029285 -0.1039913 0.0043260008 0.050800256 0.0043110978 0.050868906 0.99295145 -0.10146287
1599400000 0.9903487 -0.10444692 0.0043074442 0.05110503 0.0042902324 0.051162876 0.99258244 -0.10196859
1609396226.4151 0.99024916 -0.10506039 0.0043062931 0.051423475 0.0042620124 0.051478058 0.99241722 -0.10238878
1619392452.8302 0.99018407 -0.10568899 0.004366681 0.051721543 0.0042401683 0.051825263 0.9923383 -0.1028834
1629388679.2453 0.99002177 -0.10634637 0.0043547116 0.052125674 0.0042706095 0.052136041 0.99257767 -0.10331556
1639384905.6604 0.98982209 -0.10705522 0.0043355143 0.052468669 0.0042733867 0.052520137 0.99292004 -0.10411499
1649381132.0755 0.98961878 -0.10766286 0.0043479782 0.052768562 0.004315054 0.052865341 0.99290299 -0.10511097
1659377358.4906 0.9893856 -0.10849157 0.0043784156 0.053131111 0.0043602381 0.053229325 0.99282235 -0.10597047
1669373584.9057 0.98930377 -0.10888033 0.0043739546 0.053528432 0.0043306588 0.053603813 0.99251378 -0.10661016
1679369811.3208 0.98938376 -0.10958287 0.0044505717 0.053888071 0.0044129984 0.053938534 0.99231815 -0.10706154
1689366037.7358 0.98936653 -0.11018273 0.0044877455 0.054220147 0.0043937732 0.05429472 0.99215174 -0.10738569
1699362264.1509 0.98956364 -0.11073016 0.0045630606 0.054619025 0.0044372212 0.054722026 0.99238068 -0.10788941
1709358490.566 0.98937368 -0.11138931 0.0045799706 0.054937474 0.0045287088 0.055114333 0.99233323 -0.10837166
1719354716.9811 0.98918903 -0.11207333 0.0046253521 0.055302177 0.0045593288 0.055474281 0.99241239 -0.1090326
