!Keysight Technologies,N5222B,MY61253708,A.15.00.15
!Date: Wednesday, June 19, 2024 09:33:40
!Correction: S11(C  2-Port  ) 
!S21(C  2-Port  ) 
!S12(C  2-Port  ) 
!S22(C  2-Port  ) 
!S2P File: Measurements: S11, S21, S12, S22:
# Hz S  RI   R 50
10000000 0.99875981 -0.002469629 -0.00017033776 0.00020871787 0.00021006231 0.00062966248 0.99839842 -0.0011015534
19996226.415094 0.99881387 -0.0023624897 0.00011021626 0.00064270449 6.6603534e-006 0.00072159746 0.99906641 -0.0026510954
29992452.830189 0.99965787 -0.0024175644 -1.9359693e-005 0.0010416701 -9.8245117e-005 0.001061018 0.99943644 -0.0026161373
39988679.245283 1.0000277 -0.0029871166 3.8510567e-005 0.001308641 2.9590796e-005 0.0013243745 0.99980128 -0.0031191856
49984905.660377 1.0001433 -0.0036853552 4.3354812e-005 0.0016855857 1.1094031e-005 0.0017184316 0.99984717 -0.0036342442
59981132.075472 1.0003401 -0.0045797229 -1.9369239e-005 0.0019898952 -6.0624443e-006 0.0020077676 0.9998014 -0.0042222142
69977358.490566 1.0001119 -0.0051727891 -1.6935584e-005 0.0022985132 3.447221e-005 0.0023519304 0.99975383 -0.0047575049
79973584.90566 0.99977827 -0.0057506859 -5.4450938e-006 0.0026767333 4.0574232e-006 0.0026655837 0.99940526 -0.0052562952
89969811.320755 0.99990106 -0.0059249997 4.0683663e-006 0.0029875142 2.0775362e-005 0.0030303381 0.99961644 -0.0054602325
99966037.735849 1.000109 -0.0066586137 1.883076e-005 0.0033608517 3.3823075e-005 0.0033531948 0.99971771 -0.006288588
109962264.15094 1.000097 -0.007521823 3.0633586e-005 0.0036809181 3.3885764e-005 0.0036903778 0.99970937 -0.0071171522
119958490.56604 1.0001242 -0.0084963143 5.5516372e-005 0.0040001348 1.6500708e-005 0.0040297699 0.99971211 -0.007963717
129954716.98113 1.0000893 -0.0094556808 6.5184315e-005 0.0043116086 3.9516715e-005 0.0043675238 0.99970454 -0.0088462532
139950943.39623 0.99997175 -0.010272438 3.8744765e-005 0.0046489513 4.9722032e-005 0.0047194343 0.99962896 -0.0096102916
149947169.81132 0.99989283 -0.010954082 5.1947311e-005 0.0049895942 4.1485764e-005 0.0050362172 0.99959266 -0.010219455
159943396.22642 0.99984753 -0.011496305 5.9372978e-005 0.0053286338 5.2154763e-005 0.0053704185 0.9996779 -0.010677397
169939622.64151 0.99981171 -0.011888973 7.2620693e-005 0.0056630084 5.1856099e-005 0.0057079303 0.99972761 -0.011129566
179935849.0566 0.99986196 -0.012171358 6.8590511e-005 0.0060141166 7.6615135e-005 0.0060608764 0.99962813 -0.011524141
189932075.4717 1.0000204 -0.012922823 9.2633767e-005 0.0063570645 7.0209149e-005 0.0063645365 0.99986607 -0.012046546
199928301.88679 0.99995184 -0.013756543 0.00012320012 0.0066604936 8.5752341e-005 0.0067249183 0.99977762 -0.013007343
209924528.30189 0.99970025 -0.014382064 0.00011692184 0.0069963406 0.00012386276 0.0070452807 0.99951786 -0.013662651
219920754.71698 0.99975252 -0.015171617 9.6335541e-005 0.0073046545 0.00010571652 0.0073807463 0.99937916 -0.014275521
229916981.13208 0.99953759 -0.016113102 0.00012143236 0.0076392051 0.00013136421 0.007725209 0.99934292 -0.015086085
239913207.54717 0.99943107 -0.016705802 0.00013590019 0.0079585584 0.0001393587 0.0080446964 0.9992705 -0.015798252
249909433.96226 0.99946606 -0.017403901 0.00013701385 0.0083181933 0.0001572629 0.0083811097 0.99940419 -0.016436219
259905660.37736 0.9994818 -0.018023312 0.0001426097 0.0086193178 0.00012726197 0.0087248022 0.99950266 -0.017036051
269901886.79245 0.99976861 -0.018590942 0.00014391996 0.0089906463 0.00018559711 0.0090840925 0.99988246 -0.017725214
279898113.20755 0.99969655 -0.019336581 0.00016069692 0.0093136048 0.00017697061 0.0094195316 0.99980462 -0.018395618
289894339.62264 0.99976397 -0.020069242 0.00024005771 0.0096050762 0.00016891351 0.009739344 0.99968624 -0.019207209
299890566.03774 0.99968761 -0.02059415 0.00017443742 0.0099849263 0.00017599086 0.010011749 0.99942577 -0.019620776
309886792.45283 0.99947572 -0.021158256 0.00023755903 0.010320665 0.00022444781 0.010408696 0.99934107 -0.02003438
319883018.86792 0.99944103 -0.021817744 0.00021294411 0.010626623 0.00022731023 0.010750322 0.99951112 -0.020597309
329879245.28302 0.99945801 -0.022464067 0.00024827383 0.010955568 0.00026132073 0.011082853 0.99953288 -0.021377414
339875471.69811 0.99934816 -0.023148529 0.00027424667 0.011324076 0.00023987296 0.011424777 0.99949837 -0.022155032
349871698.11321 0.9994728 -0.024113804 0.0002497877 0.011608929 0.00026605674 0.011733739 0.99949652 -0.023035288
359867924.5283 0.99927497 -0.02474764 0.00026537338 0.011938035 0.00027054036 0.012097802 0.99938178 -0.023937166
369864150.9434 0.99946928 -0.025628567 0.00032231188 0.012297993 0.00035082363 0.012436648 0.99940574 -0.02463901
379860377.35849 0.99942386 -0.026377529 0.00036060903 0.012611995 0.00032449723 0.012739354 0.99939996 -0.025329471
389856603.77358 0.99940372 -0.026878387 0.00035035657 0.012974475 0.00033298042 0.013062697 0.99931383 -0.025814444
399852830.18868 0.99915779 -0.027542025 0.00033677462 0.013291677 0.00034051901 0.013426679 0.99939412 -0.026305348
409849056.60377 0.99913567 -0.027970096 0.00037247202 0.013594961 0.0004006344 0.01373178 0.99934417 -0.026810393
419845283.01887 0.99914217 -0.028391868 0.00039799884 0.013957708 0.00040385686 0.014089951 0.9993856 -0.027367413
429841509.43396 0.99925464 -0.029009521 0.00045252778 0.014312414 0.00041522132 0.014405906 0.99956405 -0.028119802
439837735.84906 0.99912125 -0.029962927 0.00046068104 0.014617723 0.00046630471 0.014735722 0.99933195 -0.029067174
449833962.26415 0.99902517 -0.030858845 0.00043567829 0.014868992 0.00044610631 0.015044748 0.99889839 -0.029875308
459830188.67925 0.99892884 -0.031510413 0.00045554293 0.015257113 0.00045989966 0.015369346 0.99867392 -0.030581206
469826415.09434 0.99891657 -0.03221038 0.0004534265 0.015641805 0.00047173584 0.015727878 0.99847293 -0.031131953
479822641.50943 0.99879479 -0.032904327 0.00050512445 0.015932737 0.00049261283 0.016093157 0.9985286 -0.031529561
489818867.92453 0.99885052 -0.033489794 0.00052187266 0.016292319 0.00055141933 0.016424848 0.99879789 -0.03214699
499815094.33962 0.99893707 -0.034115404 0.0005535814 0.016569363 0.00056581525 0.016749013 0.99909467 -0.032695323
509811320.75472 0.99901831 -0.03446465 0.00061326544 0.016873375 0.00057730044 0.017073767 0.99924058 -0.03348
519807547.16981 0.9990164 -0.035094857 0.00059084361 0.017249245 0.00060650473 0.017406756 0.99923027 -0.034221202
529803773.58491 0.99892879 -0.035627723 0.00059243478 0.017546732 0.00060430635 0.01776273 0.99888194 -0.034748435
539800000 0.99900669 -0.036334649 0.00060404418 0.017905517 0.00059046829 0.018037217 0.99879253 -0.035472915
549796226.41509 0.99878806 -0.037237316 0.0006306367 0.018285461 0.00064510899 0.018414181 0.99863702 -0.035890162
559792452.83019 0.99858665 -0.037977904 0.00069307629 0.018587414 0.00069115125 0.018731434 0.99861681 -0.036408186
569788679.24528 0.99850374 -0.038603991 0.00070062699 0.018924113 0.00070158998 0.019055095 0.99872047 -0.037180364
579784905.66038 0.99844235 -0.039219983 0.00075444835 0.019256765 0.00070700829 0.019427663 0.99887615 -0.037933215
589781132.07547 0.99864626 -0.039826691 0.00073898956 0.019614041 0.00076206587 0.019762149 0.99897325 -0.038819164
599777358.49057 0.99868399 -0.040426761 0.00074823201 0.019904494 0.00079620816 0.020116886 0.99894428 -0.039557725
609773584.90566 0.99886346 -0.041215159 0.00087439502 0.020225454 0.00082583085 0.020405818 0.99889737 -0.04042827
619769811.32075 0.9988215 -0.041902512 0.00089599378 0.020547507 0.00088181347 0.020753343 0.99878669 -0.04098767
629766037.73585 0.99867982 -0.042492509 0.00086778589 0.020862792 0.0008832505 0.021085169 0.9985944 -0.041468263
639762264.15094 0.99859828 -0.043232113 0.00089111365 0.021205446 0.00090022618 0.02140151 0.99848235 -0.041953787
649758490.56604 0.99836367 -0.043808594 0.00091850013 0.021473439 0.00091443164 0.021678891 0.9985826 -0.042387247
659754716.98113 0.99819934 -0.044261962 0.00088105723 0.02185633 0.00094662886 0.022052057 0.99858749 -0.043000191
669750943.39623 0.99822956 -0.044807911 0.00094521698 0.022216324 0.00093180314 0.022431396 0.9986999 -0.043789268
679747169.81132 0.99828571 -0.045606211 0.00096934347 0.022556607 0.00099903252 0.022786591 0.99869281 -0.044698425
689743396.22642 0.99839312 -0.046362311 0.0010269061 0.022901857 0.0010437882 0.023078633 0.99836767 -0.04566893
699739622.64151 0.99854219 -0.047244012 0.0010952028 0.023213182 0.001087849 0.023413576 0.99840832 -0.04633373
709735849.0566 0.99859536 -0.048062414 0.0011391178 0.023495799 0.0011141603 0.023725063 0.9981572 -0.046959966
719732075.4717 0.99842411 -0.048716486 0.0011691269 0.023847913 0.0011228914 0.024060708 0.99823093 -0.04758215
729728301.88679 0.99833989 -0.049280316 0.0011881813 0.024164695 0.0011790907 0.024338901 0.99827957 -0.048013002
739724528.30189 0.99823648 -0.049895912 0.0011920822 0.024480345 0.0011985884 0.024702253 0.99847132 -0.048653141
749720754.71698 0.99815321 -0.050389722 0.001251779 0.024789998 0.0012551248 0.025040325 0.998483 -0.049391016
759716981.13208 0.99814248 -0.050924599 0.0012885137 0.025121633 0.0013228627 0.025360571 0.99845874 -0.050167531
769713207.54717 0.9981246 -0.051689297 0.0012687836 0.025470924 0.0013185991 0.025697397 0.99821281 -0.0508641
779709433.96226 0.99826002 -0.052213669 0.0013247918 0.025799189 0.0013132064 0.026009118 0.99795741 -0.051526766
789705660.37736 0.99820065 -0.053207278 0.0013838336 0.026106715 0.0013810098 0.026327576 0.99765372 -0.052194327
799701886.79245 0.99812841 -0.053952724 0.0014048247 0.026407383 0.0013863314 0.026655156 0.99757171 -0.05276981
809698113.20755 0.99798459 -0.054549232 0.0014254563 0.026738675 0.0014260656 0.02698537 0.99751443 -0.053286389
819694339.62264 0.99783748 -0.055254072 0.00142247 0.027044864 0.0014696023 0.027326435 0.99768311 -0.05389452
829690566.03774 0.99784881 -0.055840701 0.0015038699 0.027368642 0.0014783992 0.027659595 0.99799132 -0.054719537
839686792.45283 0.99797374 -0.05640614 0.0014929683 0.027675193 0.0015296438 0.027966047 0.99802893 -0.055568814
849683018.86792 0.99803597 -0.056972429 0.0015368296 0.028044559 0.0015397957 0.028297003 0.99785936 -0.056311198
859679245.28302 0.99802774 -0.057704717 0.0015598172 0.028358594 0.0015769396 0.028625168 0.99751151 -0.056946337
869675471.69811 0.99796176 -0.05841893 0.0016431306 0.028690223 0.0016434994 0.028934568 0.99723911 -0.057462543
879671698.11321 0.99786931 -0.059067413 0.0016643164 0.029007658 0.001666981 0.029271828 0.99724543 -0.057874322
889667924.5283 0.99765682 -0.05990082 0.001662083 0.029312283 0.0016983552 0.029590603 0.99702835 -0.058365047
899664150.9434 0.99751258 -0.060615599 0.0017270269 0.029624552 0.0017299578 0.029948443 0.99713194 -0.058968425
909660377.35849 0.99753541 -0.061296627 0.0017438047 0.029945051 0.0017600125 0.0302356 0.99727589 -0.059854761
919656603.77358 0.99761438 -0.061988428 0.0017555179 0.03028097 0.001787228 0.030565776 0.99729663 -0.060769022
929652830.18868 0.99754983 -0.062725723 0.0017905021 0.030592714 0.001814873 0.030880347 0.99713194 -0.061619788
939649056.60377 0.99788606 -0.063334078 0.0017788149 0.030911649 0.0018043881 0.031185327 0.99698853 -0.062298954
949645283.01887 0.99778265 -0.064150311 0.0017954878 0.031238951 0.0018407662 0.031535998 0.9967941 -0.062934957
959641509.43396 0.99761176 -0.06484887 0.0018399805 0.031583484 0.0018621096 0.031895891 0.99669337 -0.063349992
969637735.84906 0.99754179 -0.065517515 0.0018702196 0.031956121 0.0019121161 0.032252781 0.99673331 -0.063791573
979633962.26415 0.99735355 -0.06631922 0.0019174304 0.032244675 0.0019827625 0.032556977 0.99672776 -0.064408541
989630188.67925 0.99749696 -0.066829562 0.0019612974 0.032549076 0.0019834498 0.032920547 0.99695885 -0.064947367
999626415.09434 0.99742186 -0.067413718 0.0020318264 0.032892846 0.0020243935 0.03323542 0.99688721 -0.065797836
1009622641.5094 0.99746805 -0.068064839 0.0020391997 0.033244088 0.0020783134 0.033574514 0.99667919 -0.066622436
1019618867.9245 0.99759686 -0.068914816 0.0020779013 0.033587918 0.0021582418 0.033884455 0.99644691 -0.067465857
1029615094.3396 0.9975754 -0.069873363 0.0021217866 0.033878349 0.0021764357 0.034198929 0.99608147 -0.068046927
1039611320.7547 0.99762821 -0.070714176 0.0021839719 0.034172878 0.0022390606 0.034483537 0.99603558 -0.068713129
1049607547.1698 0.9974544 -0.071667314 0.0021979446 0.03447504 0.0022324896 0.034825061 0.99603504 -0.069320038
1059603773.5849 0.9972806 -0.072323024 0.0022145743 0.03477291 0.002244914 0.035096936 0.99605179 -0.069874674
1069600000 0.9970423 -0.07286647 0.0022205235 0.035094202 0.0023007207 0.035462916 0.99620283 -0.070547849
1079596226.4151 0.99711663 -0.07355684 0.0022579967 0.035413146 0.0023279213 0.035792831 0.99621689 -0.071346901
1089592452.8302 0.99706542 -0.074262977 0.0022920407 0.035767443 0.0023589535 0.036126819 0.99616241 -0.072055906
1099588679.2453 0.99715787 -0.074838459 0.0023039393 0.036072746 0.0023354404 0.036445428 0.99582529 -0.072687358
1109584905.6604 0.99727833 -0.075680986 0.0023011677 0.036422238 0.002356736 0.036796007 0.99561977 -0.07328181
1119581132.0755 0.99727684 -0.076690197 0.0023379722 0.036759585 0.0024123834 0.037095241 0.99529564 -0.073670939
1129577358.4906 0.99706483 -0.077491522 0.0023721009 0.037126377 0.0024559963 0.037524939 0.99533165 -0.07406348
1139573584.9057 0.9967975 -0.078399122 0.0024168361 0.037465006 0.0024906946 0.037838221 0.99536848 -0.074715942
1149569811.3208 0.99670911 -0.079246089 0.0024877682 0.037780028 0.002544495 0.038132586 0.99546015 -0.075475067
1159566037.7358 0.99647546 -0.07989189 0.0025300542 0.038092691 0.0026054643 0.038452998 0.99559188 -0.076612532
1169562264.1509 0.99634069 -0.080561668 0.0025338903 0.038371265 0.002606526 0.038782664 0.99541807 -0.077299535
1179558490.566 0.99625981 -0.081275776 0.0025283231 0.038785111 0.00266594 0.039146569 0.99529564 -0.078029871
1189554716.9811 0.9962219 -0.082060158 0.0025562812 0.039129 0.0026631523 0.039465755 0.99501991 -0.078570068
1199550943.3962 0.99618369 -0.082881093 0.0025918018 0.03945376 0.0027539786 0.039790291 0.99480295 -0.078938931
1209547169.8113 0.99605191 -0.083734587 0.0026378762 0.039807938 0.0027663009 0.040155523 0.99477869 -0.079238698
1219543396.2264 0.99588263 -0.084550425 0.0027179918 0.040174715 0.0028005992 0.04052322 0.99484712 -0.079647273
1229539622.6415 0.99552608 -0.085399389 0.0027946718 0.040471114 0.002920039 0.040843286 0.99492633 -0.08042416
1239535849.0566 0.99533808 -0.08607471 0.0028101709 0.040808566 0.002957236 0.041165397 0.99504787 -0.08133015
1249532075.4717 0.99495745 -0.08669807 0.0028845025 0.04114563 0.0030370783 0.041477036 0.99489397 -0.082171895
1259528301.8868 0.99475598 -0.087245554 0.0029341839 0.041437641 0.0030868798 0.041793883 0.99466968 -0.08300826
1269524528.3019 0.99465185 -0.087961376 0.0030116346 0.041753255 0.003155889 0.042087074 0.99439144 -0.083698213
1279520754.717 0.99432504 -0.088688008 0.0030634063 0.04205576 0.0031874555 0.042387072 0.99415404 -0.084188357
1289516981.1321 0.99409527 -0.089456409 0.0030832468 0.042351957 0.003203718 0.042692047 0.99425626 -0.084661365
1299513207.5472 0.99375737 -0.090315282 0.0030611549 0.042669315 0.0032481309 0.042972319 0.99432051 -0.08501634
1309509433.9623 0.99340111 -0.091035545 0.0031083003 0.042951737 0.0032369532 0.043289058 0.99440706 -0.085756555
1319505660.3774 0.99304175 -0.091774881 0.0030875951 0.043285359 0.003205983 0.043620136 0.99449307 -0.086289838
1329501886.7925 0.99270213 -0.092442751 0.0031406339 0.043613501 0.0032579284 0.04391329 0.99444783 -0.087306321
1339498113.2075 0.99243027 -0.092930853 0.0031503364 0.043913648 0.0033109635 0.04426321 0.99410963 -0.088057309
1349494339.6226 0.99228132 -0.093488902 0.0031455206 0.044270921 0.0032789763 0.044579707 0.99377316 -0.088646159
1359490566.0377 0.99223924 -0.094114512 0.0031311009 0.044628687 0.0032999087 0.044941336 0.99346805 -0.089237332
1369486792.4528 0.9918586 -0.094663531 0.0031447457 0.04496593 0.0032729981 0.045294676 0.99337757 -0.08960554
1379483018.8679 0.99169576 -0.095183417 0.0031539036 0.04539087 0.0032702927 0.045656927 0.99333346 -0.089968525
1389479245.283 0.99134094 -0.095748812 0.0032438021 0.045750894 0.0033316109 0.046044961 0.99330926 -0.090650231
1399475471.6981 0.99092013 -0.096121371 0.0032271296 0.046114847 0.003322823 0.046375737 0.99351174 -0.091309905
1409471698.1132 0.99062824 -0.096585765 0.0033007397 0.046467006 0.0033800865 0.046764575 0.99352735 -0.092199467
1419467924.5283 0.99045014 -0.096731126 0.0033308994 0.04685466 0.0034041312 0.04714141 0.99336255 -0.092909843
1429464150.9434 0.99027598 -0.097217083 0.0033568628 0.047270998 0.0034650713 0.047543433 0.99322677 -0.093449444
1439460377.3585 0.99043214 -0.09766449 0.0034104232 0.047668371 0.003513908 0.047980338 0.99298537 -0.093725234
1449456603.7736 0.99042636 -0.09818536 0.0035460135 0.048086744 0.0036177421 0.048384804 0.99284506 -0.094050065
1459452830.1887 0.99046934 -0.098923892 0.0036760978 0.048458114 0.0037287958 0.048780859 0.99301887 -0.094447017
1469449056.6038 0.99048227 -0.099573523 0.0038226768 0.048824761 0.0038559716 0.049140587 0.99326944 -0.095039189
1479445283.0189 0.99038434 -0.10022418 0.0039388007 0.049093496 0.0039913328 0.049412832 0.9932676 -0.095898449
1489441509.434 0.9902457 -0.10072961 0.0040957313 0.049441289 0.0041426364 0.049723327 0.99321163 -0.096867383
1499437735.8491 0.99009866 -0.10093397 0.004163878 0.049689271 0.0042102486 0.050022781 0.99306494 -0.097641945
1509433962.2642 0.99006343 -0.10149847 0.004290821 0.049986813 0.0043085832 0.050278038 0.99291241 -0.098425224
1519430188.6792 0.99013078 -0.1020644 0.0043619256 0.05024723 0.0044196006 0.050546985 0.99275404 -0.098914742
1529426415.0943 0.9900825 -0.10273907 0.0043696444 0.050489422 0.0044070277 0.050868232 0.99264574 -0.099343657
1539422641.5094 0.99014711 -0.1036332 0.0044510504 0.05084873 0.0044631702 0.051201079 0.99284178 -0.099797159
1549418867.9245 0.9899953 -0.10434429 0.004537073 0.05114577 0.0045042047 0.051467948 0.9929716 -0.10053548
1559415094.3396 0.9898333 -0.10504958 0.0045619737 0.051397666 0.0045869183 0.051751353 0.99311107 -0.10116971
1569411320.7547 0.98984134 -0.10589285 0.0046187183 0.05165498 0.0046067396 0.05202223 0.99308431 -0.10197714
1579407547.1698 0.98960793 -0.10626146 0.0046089455 0.051898744 0.0046535833 0.052317686 0.99277306 -0.10278201
1589403773.5849 0.98958522 -0.10682327 0.0046363845 0.052229561 0.0046366826 0.052621648 0.99243623 -0.10346574
1599400000 0.98956782 -0.10734987 0.0046138763 0.052547265 0.0046449481 0.052920178 0.99202317 -0.10405537
1609396226.4151 0.98956591 -0.10791984 0.0046299016 0.052866574 0.0046190321 0.053229857 0.99188495 -0.1044797
1619392452.8302 0.98953807 -0.10857302 0.004656218 0.053188443 0.0046116542 0.053624295 0.99188864 -0.10498112
1629388679.2453 0.98925203 -0.10928151 0.0046745092 0.05352081 0.0046136994 0.053952433 0.99206477 -0.10542482
1639384905.6604 0.98905385 -0.10992081 0.0046487357 0.053848207 0.0046626218 0.054345511 0.99238461 -0.1063083
1649381132.0755 0.98881292 -0.11050549 0.0046642832 0.054259788 0.0046488419 0.054714642 0.99241555 -0.10727906
1659377358.4906 0.98874283 -0.11137587 0.0046779662 0.054664731 0.0047172792 0.055093139 0.99234343 -0.10812125
1669373584.9057 0.98865527 -0.11181642 0.0047204872 0.054993402 0.0047585843 0.055451356 0.99198633 -0.10876415
1679369811.3208 0.98873901 -0.11244389 0.0047268001 0.055410448 0.0047716796 0.055797067 0.99184382 -0.10930124
1689366037.7358 0.98872972 -0.11317083 0.0048181061 0.05579187 0.004831722 0.056228265 0.99169564 -0.10959706
1699362264.1509 0.9888432 -0.11372884 0.0048621763 0.05614166 0.0048919609 0.056582563 0.9918474 -0.11002144
1709358490.566 0.98876446 -0.11437237 0.0049190279 0.056485049 0.0049219299 0.057009425 0.99186003 -0.1106289
1719354716.9811 0.9884038 -0.11500376 0.0049370006 0.056878522 0.0049819872 0.057374746 0.99194241 -0.11132354
1729350943.3962 0.9881137 -0.11557573 0.0050693564 0.057254449 0.0050496366 0.05773617 0.99196965 -0.11218736
