!Keysight Technologies,N5222B,MY61253708,A.15.00.15
!Date: Wednesday, June 19, 2024 10:16:41
!Correction: S11(C  2-Port  ) 
!S21(C  2-Port  ) 
!S12(C  2-Port  ) 
!S22(C  2-Port  ) 
!S2P File: Measurements: S11, S21, S12, S22:
# Hz S  RI   R 50
10000000 0.99866521 -0.0031012595 6.774185e-005 0.0002993283 -7.7768404e-005 0.00041907234 0.99823534 -0.0015853941
19996226.415094 1.0000124 -0.0025492609 -0.00014025862 0.00063377165 -8.7690569e-005 0.00068192044 1.0002714 -0.0023215711
29992452.830189 0.99963158 -0.0024628639 1.1702999e-005 0.0010178383 1.7182552e-005 0.00099343946 0.99956787 -0.0026048422
39988679.245283 1.0001004 -0.0029733032 -8.0144091e-006 0.0012907035 -5.8852238e-005 0.0013070808 0.99973685 -0.0030334592
49984905.660377 1.0001855 -0.0036833584 -1.1588156e-005 0.0017194392 1.3725599e-005 0.0016479567 0.99989945 -0.0035623014
59981132.075472 1.000379 -0.0045181811 -9.6546137e-006 0.0019561725 7.0944079e-006 0.001948058 0.99993044 -0.0041411221
69977358.490566 1.0002266 -0.0051040687 -7.8101475e-006 0.0022591413 2.3764922e-005 0.0022697279 0.99983257 -0.0046936106
79973584.90566 0.99985337 -0.0057356656 8.6871441e-006 0.0026011444 2.1647429e-006 0.0026386925 0.99943924 -0.0051579177
89969811.320755 0.99995351 -0.0057827234 -6.952323e-006 0.0029243086 2.3341039e-005 0.0029708515 0.99968171 -0.0053434074
99966037.735849 1.0001901 -0.0065669268 2.119015e-005 0.0032392419 1.8363178e-005 0.0032891349 0.9997859 -0.0061577111
109962264.15094 1.0002202 -0.0074040741 2.8923445e-005 0.0035856306 2.4455367e-005 0.003611105 0.99979836 -0.0069376528
119958490.56604 1.0002139 -0.008251071 2.2564898e-005 0.0039212955 2.2339053e-005 0.0039461576 0.99980825 -0.0077377558
129954716.98113 1.0001498 -0.0092155635 3.8792146e-005 0.0042284112 2.110051e-005 0.0042561283 0.9998185 -0.0086115897
139950943.39623 1.000084 -0.010007357 3.8768398e-005 0.0045643807 5.7616562e-005 0.0045696786 0.99972993 -0.009329224
149947169.81132 0.99997783 -0.010682344 5.8408594e-005 0.0048887054 4.8541464e-005 0.0048992387 0.99968767 -0.0099352896
159943396.22642 0.9999373 -0.011228204 6.6019595e-005 0.0052255522 6.5426808e-005 0.0052155261 0.99974263 -0.010403752
169939622.64151 0.99990869 -0.011602148 7.7980047e-005 0.0055390717 6.6294102e-005 0.0055590416 0.9997769 -0.010827452
179935849.0566 0.99994439 -0.011853546 6.6991663e-005 0.0058757956 9.0314075e-005 0.0058833901 0.99970806 -0.011233538
189932075.4717 1.0000143 -0.012633055 6.7663612e-005 0.0062112412 7.3894626e-005 0.0062215058 0.99993455 -0.011710525
199928301.88679 0.99994612 -0.01345703 8.249341e-005 0.0065128375 0.00010847137 0.0065295468 0.99982166 -0.012629062
209924528.30189 0.9997561 -0.01394318 0.0001228035 0.0068657212 9.2992675e-005 0.0068466347 0.99958044 -0.013295844
219920754.71698 0.99992412 -0.014816552 0.00012430036 0.0071576117 9.2720846e-005 0.0071960595 0.99948168 -0.013869703
229916981.13208 0.99975008 -0.015633166 0.00010996545 0.0075139543 0.00012270804 0.0075142174 0.99951226 -0.014641136
239913207.54717 0.99961197 -0.016294494 0.00013363513 0.0077992459 0.00014348832 0.0078601791 0.99945092 -0.015344901
249909433.96226 0.99957234 -0.016885102 0.00012644334 0.0081315767 0.00012951251 0.0081766294 0.99953163 -0.015936226
259905660.37736 0.99972796 -0.017624557 0.00015301025 0.0084578041 0.00010685204 0.0084801205 0.99976492 -0.016457647
269901886.79245 0.99987078 -0.018201813 0.0001389269 0.0087711997 0.00017324917 0.0088458369 1.0000764 -0.017240882
279898113.20755 0.99996459 -0.018776312 0.00017241202 0.0090830401 0.00015785033 0.0091924872 0.99991608 -0.017944351
289894339.62264 0.99983346 -0.019582689 0.00021304842 0.009476589 0.00015987409 0.0095322523 0.99982661 -0.018631846
299890566.03774 0.99974084 -0.020111382 0.00018171314 0.0098018069 0.00018431596 0.0098349899 0.99954671 -0.019116849
309886792.45283 0.99957144 -0.020597421 0.00021022069 0.010082993 0.00023680314 0.010170103 0.99945039 -0.01951021
319883018.86792 0.99967706 -0.021229595 0.0002272781 0.010394968 0.00023172097 0.010470611 0.99965566 -0.019996911
329879245.28302 0.99961311 -0.021989822 0.00025900453 0.010757142 0.00021759374 0.010806812 0.99972761 -0.020807952
339875471.69811 0.99950701 -0.022742562 0.0002359387 0.011097702 0.00022037665 0.011091175 0.9996435 -0.02152849
349871698.11321 0.99963158 -0.023551673 0.00027005188 0.011410361 0.00025707646 0.011427365 0.99965012 -0.022465557
359867924.5283 0.99952722 -0.024337202 0.00025819056 0.011713216 0.00027193874 0.01178501 0.99964201 -0.02339533
369864150.9434 0.99963802 -0.02516228 0.00029752543 0.012081161 0.00029585301 0.012124177 0.9996559 -0.024146289
379860377.35849 0.99961394 -0.025877163 0.00034642871 0.012370775 0.00034255092 0.01243593 0.99958396 -0.024766073
389856603.77358 0.99940723 -0.026431799 0.00034924876 0.012691854 0.00032574637 0.012737798 0.99946696 -0.02529034
399852830.18868 0.99935549 -0.027082235 0.00034945086 0.013037981 0.00034728227 0.013070165 0.99955046 -0.025865167
409849056.60377 0.9992857 -0.027536893 0.00038709305 0.013337623 0.00036900397 0.013406394 0.99944419 -0.026392808
419845283.01887 0.99927652 -0.0279634 0.00041318126 0.013674924 0.00036456157 0.013716562 0.99940675 -0.026908845
429841509.43396 0.99935794 -0.028575629 0.00041685812 0.013983693 0.00040268898 0.014064582 0.99958676 -0.027636766
439837735.84906 0.99922711 -0.029510796 0.00040877436 0.014302621 0.00042829872 0.014365487 0.99927187 -0.028610945
449833962.26415 0.99906605 -0.030264735 0.00045775017 0.014609896 0.00043654814 0.014664957 0.99882084 -0.029343545
459830188.67925 0.99890172 -0.030879557 0.0004367521 0.014949855 0.00043732487 0.014995003 0.99859017 -0.029990852
469826415.09434 0.99888438 -0.031602085 0.00046224007 0.015290966 0.00044311862 0.015357763 0.99831158 -0.030509084
479822641.50943 0.99876541 -0.03212519 0.00049422635 0.015598488 0.00048341067 0.015706584 0.99822456 -0.030859128
489818867.92453 0.99884778 -0.032756031 0.00049578305 0.015956957 0.00051024044 0.016027434 0.99857301 -0.031336486
499815094.33962 0.9989171 -0.03330493 0.00051568309 0.016264698 0.00051749963 0.016319286 0.99885535 -0.031857997
509811320.75472 0.99894375 -0.033739407 0.00060115347 0.016585456 0.00053059321 0.016619667 0.99889767 -0.032617707
519807547.16981 0.99897081 -0.034230441 0.00059135398 0.016926948 0.00059222849 0.016922086 0.998891 -0.033296049
529803773.58491 0.99887013 -0.03474772 0.00056124851 0.017205333 0.00058296882 0.017298929 0.9987216 -0.033725053
539800000 0.9990344 -0.035458222 0.00059724529 0.017575815 0.000593598 0.017614562 0.99860686 -0.034378871
549796226.41509 0.99885815 -0.036373645 0.00060202973 0.017887013 0.00064879516 0.017945131 0.99850702 -0.0348382
559792452.83019 0.99872541 -0.036947876 0.00066671334 0.018182764 0.00062968396 0.018276133 0.99848747 -0.035317987
569788679.24528 0.99857628 -0.037613928 0.00065338705 0.018513411 0.00067475112 0.018600205 0.99867511 -0.036076009
579784905.66038 0.99858069 -0.038117185 0.00065978826 0.018861338 0.00067904987 0.018935882 0.99880838 -0.036760539
589781132.07547 0.99864894 -0.0388574 0.00072013028 0.019211795 0.00071121845 0.019234313 0.99890727 -0.037560403
599777358.49057 0.99876499 -0.039425492 0.00078181922 0.019504763 0.00073156599 0.019622104 0.99895811 -0.038334548
609773584.90566 0.99889684 -0.040263198 0.00077626132 0.019819669 0.00079014525 0.019939138 0.99891084 -0.039154809
619769811.32075 0.99903834 -0.040814966 0.00081745582 0.02015513 0.00082799047 0.020199949 0.99882525 -0.039612085
629766037.73585 0.99885225 -0.041526228 0.00084242783 0.020469189 0.00084392354 0.020512976 0.9985922 -0.040183157
639762264.15094 0.99868792 -0.042212039 0.0008431247 0.020787524 0.00086170807 0.020829834 0.99850148 -0.040737778
649758490.56604 0.99860704 -0.042706206 0.00087294029 0.021072395 0.00086649461 0.0211759 0.99862099 -0.041116327
659754716.98113 0.99842584 -0.043284178 0.00085753389 0.021421596 0.00089404639 0.021477785 0.99871516 -0.041654766
669750943.39623 0.99850005 -0.043753654 0.00089834956 0.021775793 0.0009043701 0.021834653 0.99885362 -0.042490482
679747169.81132 0.99847162 -0.044406809 0.00093578571 0.022117293 0.00093265867 0.022222007 0.99880314 -0.04340668
689743396.22642 0.99865288 -0.045282483 0.00096825883 0.02243189 0.00098736491 0.02250549 0.99863291 -0.044342488
699739622.64151 0.99876106 -0.046082199 0.0010141106 0.022754833 0.0010264972 0.022830639 0.99859732 -0.045012593
709735849.0566 0.99867553 -0.046918221 0.0010727034 0.02304568 0.00106549 0.023143081 0.99834651 -0.045710593
719732075.4717 0.99857044 -0.047557026 0.0010586134 0.023338819 0.001078675 0.023452893 0.99838364 -0.046275407
729728301.88679 0.99848199 -0.048188984 0.0011343565 0.023698416 0.0011022631 0.023762429 0.9984405 -0.046780497
739724528.30189 0.99839425 -0.04884015 0.0011378098 0.023998532 0.0011392529 0.024099231 0.99863422 -0.047442183
749720754.71698 0.99833888 -0.049376711 0.0011729677 0.024307268 0.0011909124 0.024441503 0.99860024 -0.048147544
759716981.13208 0.99836254 -0.049843013 0.0012085885 0.024638612 0.001215443 0.024725834 0.99856919 -0.048915058
769713207.54717 0.99823493 -0.050668299 0.0012188032 0.024945859 0.0012161843 0.025024708 0.99827498 -0.049581051
779709433.96226 0.9984045 -0.051168043 0.0012786498 0.025279108 0.0012749251 0.025361728 0.99807447 -0.050266232
789705660.37736 0.99825531 -0.052037835 0.0013008611 0.025572266 0.0012943884 0.025688039 0.9978416 -0.050979763
799701886.79245 0.99824286 -0.052825242 0.0013362598 0.025914993 0.0013433844 0.026006991 0.99767721 -0.051532269
809698113.20755 0.99817389 -0.053413883 0.0013440792 0.026215317 0.0013313342 0.026311569 0.99772632 -0.051983505
819694339.62264 0.99802512 -0.054071903 0.0013865237 0.02653135 0.0013775858 0.026612854 0.99776018 -0.052577317
829690566.03774 0.99804282 -0.054726869 0.0014214823 0.02681236 0.0014312975 0.026947137 0.99798661 -0.053447843
839686792.45283 0.99804705 -0.055054158 0.0014190534 0.02719212 0.0014587482 0.02726588 0.99801552 -0.054210961
849683018.86792 0.99813157 -0.05574619 0.0014585082 0.027517572 0.0014497146 0.027584508 0.99792808 -0.054947667
859679245.28302 0.99814421 -0.05644536 0.0015001222 0.027802821 0.0015045563 0.027896721 0.99762875 -0.055536062
869675471.69811 0.9980638 -0.057223231 0.001550924 0.028125182 0.001541337 0.028215975 0.99732983 -0.056076139
879671698.11321 0.99799657 -0.057832457 0.0015890819 0.028440764 0.0015986195 0.028520374 0.99727952 -0.056444556
889667924.5283 0.99778807 -0.058603644 0.0016164444 0.028709028 0.0016186377 0.028820213 0.99710953 -0.056994826
899664150.9434 0.99768823 -0.059289902 0.0016104002 0.029024117 0.001627692 0.029156942 0.9971385 -0.057517081
909660377.35849 0.99771929 -0.059970677 0.0016581207 0.029353606 0.0016586813 0.02948398 0.99733096 -0.058353901
919656603.77358 0.99772477 -0.060563043 0.0016786405 0.0296613 0.0016667694 0.029788194 0.99734253 -0.059206471
929652830.18868 0.99769294 -0.061304688 0.001698277 0.029970564 0.0016920874 0.030123897 0.9971295 -0.060060799
939649056.60377 0.99788904 -0.061894834 0.001709641 0.030293046 0.0017185062 0.030426973 0.99698448 -0.060758799
949645283.01887 0.99787402 -0.062699258 0.001685635 0.030633198 0.0017140396 0.030751878 0.99676192 -0.061292116
959641509.43396 0.99775887 -0.0633834 0.0017388724 0.030972369 0.001729209 0.031112209 0.99671644 -0.061839283
969637735.84906 0.99766517 -0.064108074 0.0017955378 0.031322733 0.0018114652 0.031457435 0.99671495 -0.06205678
979633962.26415 0.9975729 -0.064843945 0.0018473996 0.031615458 0.0018583189 0.031754404 0.99674165 -0.062749989
989630188.67925 0.99764431 -0.065329611 0.0018826863 0.031943638 0.0018483102 0.032086607 0.99697369 -0.063289613
999626415.09434 0.99763417 -0.06598568 0.0019235108 0.032223374 0.0019070376 0.032388393 0.99689776 -0.064107716
1009622641.5094 0.99778008 -0.06661889 0.0019264347 0.032577589 0.0019641081 0.03274497 0.99679816 -0.064957902
1019618867.9245 0.99777198 -0.067431137 0.0019844249 0.032923315 0.0020174626 0.033063613 0.99655908 -0.065718368
1029615094.3396 0.99777865 -0.068263561 0.0020247372 0.033207674 0.002079796 0.033350188 0.99619848 -0.066278398
1039611320.7547 0.99774665 -0.069065183 0.0020707184 0.033497613 0.002098918 0.033612192 0.99616396 -0.066906214
1049607547.1698 0.9976908 -0.070047393 0.002101186 0.033797462 0.0021152589 0.033953905 0.99616545 -0.067483656
1059603773.5849 0.99750203 -0.070731193 0.0021236977 0.034097854 0.0021298155 0.034250896 0.9962312 -0.068046063
1069600000 0.9973278 -0.071391553 0.0020960625 0.034395844 0.002155276 0.034581855 0.99635035 -0.068768144
1079596226.4151 0.99734122 -0.071993172 0.0021191849 0.034719836 0.0021608649 0.034912881 0.9964112 -0.069529928
1089592452.8302 0.99737084 -0.072689176 0.0021616938 0.035041183 0.0022123996 0.035222068 0.99635231 -0.0702672
1099588679.2453 0.99742973 -0.07336086 0.0021841675 0.035383262 0.0021934751 0.035553738 0.99600625 -0.070833206
1109584905.6604 0.99754494 -0.074083507 0.0022353372 0.035739366 0.0022478485 0.035878778 0.99577641 -0.071372092
1119581132.0755 0.99755514 -0.075011551 0.0022163843 0.036050268 0.0022629979 0.036228891 0.99556226 -0.071778819
1129577358.4906 0.9973951 -0.075780243 0.0022485517 0.036406212 0.0022972617 0.036579184 0.99557292 -0.07225579
1139573584.9057 0.99713647 -0.076727599 0.0023115147 0.036690757 0.0023560384 0.036882591 0.9956044 -0.072930962
1149569811.3208 0.9970206 -0.077522077 0.0023365659 0.037041157 0.0024093811 0.037199397 0.99571466 -0.073656432
1159566037.7358 0.99674618 -0.078177303 0.0023714425 0.03735248 0.0024191597 0.037502974 0.99580878 -0.074631542
1169562264.1509 0.99660468 -0.078808814 0.0023646858 0.037642967 0.0024607722 0.037819717 0.99566031 -0.075434178
1179558490.566 0.99663603 -0.079559714 0.0024036784 0.037980512 0.0024467413 0.038199812 0.9955284 -0.076090112
1189554716.9811 0.99661171 -0.080299228 0.0024274588 0.038362354 0.0025153263 0.038511168 0.99526876 -0.076644987
1199550943.3962 0.99657381 -0.081106693 0.002465453 0.038707532 0.0025724173 0.038827341 0.9950943 -0.077075034
1209547169.8113 0.99639434 -0.082038462 0.002510895 0.039013911 0.0026148008 0.039160676 0.99504244 -0.077472985
1219543396.2264 0.99625748 -0.082757533 0.0025740732 0.039365321 0.0026611886 0.039518088 0.99505168 -0.077816665
1229539622.6415 0.99600691 -0.083577782 0.0026342254 0.039709017 0.0027060173 0.039864261 0.99522388 -0.078477949
1239535849.0566 0.9956913 -0.084183067 0.0026780916 0.039972149 0.0027806824 0.040157627 0.99532115 -0.079374254
1249532075.4717 0.99544203 -0.084923208 0.0027502924 0.040308703 0.0028329547 0.040470421 0.99519396 -0.080156922
1259528301.8868 0.99519777 -0.085367709 0.0027923882 0.040649328 0.0028847661 0.040767271 0.99490988 -0.080999315
1269524528.3019 0.99499655 -0.086102664 0.0028299112 0.040947229 0.0029817633 0.041073378 0.99471772 -0.081638157
1279520754.717 0.99468499 -0.086846344 0.0028947452 0.041225169 0.0029906686 0.041326314 0.99448454 -0.082171775
1289516981.1321 0.99468493 -0.087651432 0.002906397 0.041512419 0.0030177552 0.041623093 0.99455738 -0.082623541
1299513207.5472 0.99435508 -0.088538229 0.0029340927 0.041796237 0.0030072983 0.041942336 0.99467558 -0.083103389
1309509433.9623 0.99384087 -0.089164391 0.0029371418 0.042129237 0.0030097244 0.04221816 0.99476099 -0.083766937
1319505660.3774 0.99351245 -0.089977175 0.0029373998 0.042442761 0.0030296389 0.04254552 0.99481106 -0.084370777
1329501886.7925 0.99320948 -0.090596586 0.0029487703 0.042775605 0.0030997302 0.042866759 0.99485409 -0.085368097
1339498113.2075 0.99293518 -0.091072261 0.003003112 0.043067995 0.0030552028 0.04316685 0.99441326 -0.086072087
1349494339.6226 0.99280065 -0.091641136 0.0029505962 0.043415543 0.0030479711 0.043524742 0.99407989 -0.086632282
1359490566.0377 0.99275017 -0.092227966 0.0029924251 0.043774106 0.0030479003 0.043845367 0.99388742 -0.087014258
1369486792.4528 0.99247169 -0.092668325 0.0029598651 0.044137627 0.0030769128 0.044206653 0.99372733 -0.087551981
1379483018.8679 0.99220592 -0.093282439 0.0030060611 0.044521723 0.0030771529 0.044551205 0.99375677 -0.08789181
1389479245.283 0.99191922 -0.093862236 0.0030685216 0.044844776 0.0031195693 0.044966348 0.9937827 -0.088545173
1399475471.6981 0.99151385 -0.094238847 0.0030399021 0.045174979 0.0031344201 0.045238771 0.99394214 -0.089209527
1409471698.1132 0.99121225 -0.094647333 0.0031213211 0.045617815 0.003154224 0.045647711 0.99390495 -0.090046756
1419467924.5283 0.99094474 -0.094875962 0.0031240387 0.045920722 0.0031698141 0.046019904 0.99370486 -0.090778917
1429464150.9434 0.99086636 -0.095347792 0.0031743813 0.046330012 0.0032033008 0.046399932 0.99367815 -0.091298431
1439460377.3585 0.99103236 -0.095850244 0.0032603638 0.046769138 0.0032870853 0.046827246 0.99343884 -0.091682971
1449456603.7736 0.9910394 -0.096334115 0.0033416543 0.047151875 0.0033763321 0.047196422 0.99329591 -0.092022046
1459452830.1887 0.99108607 -0.097033352 0.0034694448 0.047550976 0.003482623 0.047603197 0.99347335 -0.092277676
1469449056.6038 0.99105483 -0.097661853 0.0036414564 0.047859833 0.0036277473 0.047935896 0.99365801 -0.092907071
1479445283.0189 0.99088132 -0.098284081 0.003747863 0.048137013 0.0037679593 0.048204727 0.99375165 -0.093735859
1489441509.434 0.99088514 -0.098779291 0.0038816687 0.048474625 0.0039221812 0.048559453 0.9936412 -0.094645053
1499437735.8491 0.99068826 -0.099119365 0.0039885007 0.048772033 0.004000064 0.048815291 0.99355769 -0.095407188
1509433962.2642 0.99076664 -0.09963996 0.0041106744 0.048996836 0.0040792455 0.04908463 0.99330533 -0.096268088
1519430188.6792 0.99080765 -0.10017097 0.0041564815 0.049281307 0.0041200127 0.04932696 0.99330497 -0.096728027
1529426415.0943 0.99074841 -0.10084385 0.0041907802 0.049543276 0.0041698813 0.04965844 0.99313813 -0.097172558
1539422641.5094 0.99087101 -0.10163297 0.0042412737 0.04987758 0.0042306469 0.049892999 0.99323738 -0.097689517
1549418867.9245 0.99060518 -0.10247292 0.0043327939 0.050138202 0.0043034051 0.050201766 0.99347401 -0.098440662
1559415094.3396 0.99048823 -0.10307711 0.0043294337 0.050396092 0.0043051653 0.050474532 0.9936201 -0.099039584
1569411320.7547 0.99042559 -0.10384825 0.0043628914 0.050649937 0.0043668905 0.050798051 0.99350345 -0.099823147
1579407547.1698 0.99025875 -0.1042933 0.0044108732 0.050942291 0.0043729274 0.051055372 0.99318576 -0.10063402
1589403773.5849 0.99024963 -0.10482821 0.0043983813 0.051242284 0.0044158697 0.051348723 0.99307382 -0.10131693
1599400000 0.99021167 -0.10532415 0.0043856381 0.051510736 0.0043509547 0.051650409 0.99269038 -0.10181236
1609396226.4151 0.99015474 -0.10592131 0.004401532 0.051820718 0.0043698978 0.051982991 0.99243164 -0.10223614
1619392452.8302 0.99018168 -0.10656488 0.004428016 0.052207895 0.0043938681 0.052320343 0.99238688 -0.10272881
1629388679.2453 0.9899776 -0.10729378 0.0044051632 0.052508377 0.0043425933 0.052641459 0.99266011 -0.10323101
1639384905.6604 0.9897005 -0.10798251 0.0044388045 0.052885864 0.0043436955 0.053006332 0.99285936 -0.10412151
1649381132.0755 0.98961449 -0.10861892 0.0044486076 0.053226721 0.0043932777 0.053394105 0.9928844 -0.10498422
1659377358.4906 0.98938859 -0.10933217 0.0044264495 0.053579353 0.0044354443 0.053751536 0.99282253 -0.10584012
1669373584.9057 0.9893325 -0.10974643 0.0044839657 0.053934023 0.0044311495 0.054108091 0.99248582 -0.10648835
1679369811.3208 0.98936248 -0.11045527 0.0045171604 0.054335155 0.0044958415 0.054496557 0.99229467 -0.10711753
1689366037.7358 0.98926014 -0.11106363 0.0045812633 0.05465766 0.0045244079 0.054857247 0.99218822 -0.1073691
1699362264.1509 0.98954129 -0.1116157 0.0046237651 0.055027865 0.0045526922 0.055244952 0.99234587 -0.10776868
1709358490.566 0.9893626 -0.11226377 0.0046333037 0.05541499 0.0045962976 0.055592451 0.99235886 -0.1083077
1719354716.9811 0.98906165 -0.11288783 0.0047136098 0.055798158 0.0046895724 0.055947199 0.99246049 -0.10900098
