!Keysight Technologies,N5222B,MY61253708,A.15.00.15
!Date: Wednesday, June 19, 2024 08:52:19
!Correction: S11(C  2-Port  ) 
!S21(C  2-Port  ) 
!S12(C  2-Port  ) 
!S22(C  2-Port  ) 
!S2P File: Measurements: S11, S21, S12, S22:
# Hz S  RI   R 50
10000000 0.99877042 -0.0021524727 -5.1524839e-005 0.0004113249 0.00015090234 0.00051912758 0.99909061 -0.00049951673
19996226.415094 0.99904132 -0.0020294487 -1.182346e-005 0.00070521806 -1.6560196e-005 0.00066998129 0.99929929 -0.0022037923
29992452.830189 0.99984908 -0.0025705397 6.3304149e-005 0.0010804036 -9.5713767e-006 0.0010644249 0.99950099 -0.0027293563
39988679.245283 1.0000589 -0.0031713992 3.610384e-005 0.0014004525 -1.3275567e-006 0.0014504325 0.99965721 -0.0033423752
49984905.660377 1.0001644 -0.0039492249 4.2713364e-006 0.0018894095 1.5202269e-005 0.0018755044 0.99976295 -0.0039135814
59981132.075472 1.0002619 -0.0048134029 2.3382425e-005 0.0021911426 1.6318634e-005 0.0022262633 0.99973154 -0.0044751167
69977358.490566 0.99998069 -0.0053569432 1.6646693e-005 0.0025782119 5.4972443e-005 0.0025756597 0.99954903 -0.0049756896
79973584.90566 0.99975365 -0.0058991611 1.6937265e-005 0.0029918328 4.8875227e-005 0.0029749179 0.99938905 -0.0055048466
89969811.320755 0.99984241 -0.0062147677 4.7359616e-005 0.0033240453 8.5600186e-006 0.0032780934 0.99953359 -0.0059303343
99966037.735849 0.99997121 -0.0069621205 6.4545195e-005 0.0036766885 4.3199689e-005 0.0036832881 0.9995901 -0.0067248791
109962264.15094 1.0000271 -0.0079348981 3.7574733e-005 0.004053189 4.3088221e-005 0.0040835668 0.99958009 -0.0076058358
119958490.56604 1.0000829 -0.0090088248 4.7626672e-005 0.0044283071 5.856948e-005 0.0044192732 0.99958742 -0.0085551441
129954716.98113 1.0000273 -0.010047466 3.5213772e-005 0.0047821715 6.8452558e-005 0.0048093395 0.99957645 -0.0094799399
139950943.39623 0.99993283 -0.010894032 4.7418114e-005 0.005145485 7.2727387e-005 0.0051725777 0.99949872 -0.010317059
149947169.81132 0.9997884 -0.0115484 6.7036832e-005 0.0055280593 6.8904832e-005 0.0055211545 0.99942344 -0.010937393
159943396.22642 0.99975067 -0.0121454 8.6264219e-005 0.0058983741 7.3383795e-005 0.0059109507 0.99953389 -0.011416763
169939622.64151 0.99974656 -0.012506016 8.7902532e-005 0.0062632794 8.7768771e-005 0.0062942547 0.99960995 -0.011860713
179935849.0566 0.9998588 -0.012838632 9.1849593e-005 0.0066165775 0.0001297344 0.0066726301 0.99954623 -0.012265831
189932075.4717 0.99990475 -0.013689876 0.00011307932 0.006995467 0.00010370417 0.0070485836 0.99972802 -0.01292336
199928301.88679 0.99989116 -0.014582127 0.00012425403 0.007377903 0.00011724746 0.0073769838 0.99961036 -0.013854712
209924528.30189 0.99961025 -0.015254587 0.00012801006 0.007754467 0.00011634221 0.0077802986 0.9993884 -0.014669344
219920754.71698 0.99961066 -0.016240954 0.00016825413 0.0080919918 0.00015366427 0.008116072 0.9992103 -0.01541248
229916981.13208 0.99932927 -0.017078191 0.00017036009 0.0084555168 0.00016475702 0.0084996866 0.9990918 -0.01619935
239913207.54717 0.99918586 -0.017805984 0.00018227912 0.0088198949 0.00018157277 0.0088919802 0.9990778 -0.016900504
249909433.96226 0.99921215 -0.018471926 0.00019682036 0.009173912 0.00018121209 0.0092128525 0.99919844 -0.017588317
259905660.37736 0.9993943 -0.019150198 0.00016706856 0.0095379446 0.00017643068 0.0095943324 0.99946898 -0.01820305
269901886.79245 0.99949229 -0.019763052 0.00017654756 0.009899593 0.00021765521 0.010039826 0.99975473 -0.018914416
279898113.20755 0.99962783 -0.020510793 0.00026860181 0.01023587 0.00019943691 0.010305011 0.9996388 -0.019775644
289894339.62264 0.99957252 -0.021292478 0.00025193486 0.010719859 0.00020811893 0.010680273 0.99952489 -0.020516008
299890566.03774 0.99948645 -0.021918923 0.00022310135 0.011010317 0.0002672628 0.011132132 0.9992879 -0.020964295
309886792.45283 0.99917912 -0.022489086 0.00026195345 0.01139345 0.00028757693 0.011473441 0.99915087 -0.021532871
319883018.86792 0.99916375 -0.023127675 0.00029906025 0.011766609 0.00028527388 0.011819893 0.99908864 -0.022102624
329879245.28302 0.99906361 -0.023956507 0.00029622018 0.012137437 0.00031193765 0.012207965 0.99921942 -0.022859842
339875471.69811 0.99901319 -0.024593987 0.00030897977 0.012487774 0.00033951877 0.012614544 0.99916452 -0.023698315
349871698.11321 0.99929386 -0.025537252 0.00033387076 0.012855447 0.00031726807 0.01295528 0.99923134 -0.024570853
359867924.5283 0.99915445 -0.026381403 0.00034941873 0.013194003 0.00039476017 0.013282415 0.9992345 -0.025599957
369864150.9434 0.99932814 -0.027238786 0.00039531477 0.013561118 0.00041142595 0.013679675 0.99925643 -0.026380032
379860377.35849 0.99921179 -0.027952179 0.00041670608 0.013916418 0.0003722508 0.014006251 0.99906898 -0.027072474
389856603.77358 0.99915063 -0.028565556 0.00042735878 0.014321061 0.00044042664 0.014393804 0.99909478 -0.027459204
399852830.18868 0.99892175 -0.029222131 0.00045195129 0.014718872 0.00044821436 0.014732696 0.99914992 -0.027985394
409849056.60377 0.9988485 -0.029613752 0.00045313395 0.015043912 0.00046981868 0.015128629 0.99918598 -0.028503155
419845283.01887 0.99885112 -0.030093253 0.00049009919 0.015406286 0.00047602225 0.015475377 0.99923301 -0.029039383
429841509.43396 0.99896336 -0.030819803 0.00052362168 0.015756417 0.00051945029 0.015857812 0.99933422 -0.029924005
439837735.84906 0.99887234 -0.031775236 0.00055645825 0.016114907 0.000549705 0.01622613 0.9990949 -0.030976191
449833962.26415 0.99881989 -0.032690823 0.00056253606 0.01645511 0.00057296641 0.016549613 0.99883831 -0.031765163
459830188.67925 0.99868441 -0.033508927 0.00058347732 0.016810093 0.00057590101 0.016955454 0.99865109 -0.03260529
469826415.09434 0.99864578 -0.034322649 0.00064057065 0.017221464 0.00057227816 0.017318008 0.99838412 -0.033234
479822641.50943 0.99843031 -0.035021976 0.00065490115 0.017589031 0.00064132782 0.017708518 0.9985137 -0.033697031
489818867.92453 0.99857789 -0.035468221 0.00067416485 0.017945087 0.00069301203 0.018103227 0.99874043 -0.034348488
499815094.33962 0.99870712 -0.036151856 0.00068514189 0.018342327 0.00068629347 0.018418981 0.99906534 -0.034964532
509811320.75472 0.99879318 -0.036523305 0.00072893256 0.018713426 0.00066438911 0.018809056 0.99913341 -0.035808742
519807547.16981 0.99877769 -0.037135363 0.00074829953 0.01903699 0.00072410097 0.019172423 0.99917614 -0.036668211
529803773.58491 0.99869525 -0.037937403 0.00076829363 0.019414909 0.0007579634 0.019505028 0.99887973 -0.037347913
539800000 0.9987123 -0.038609594 0.00082505122 0.019801822 0.00079332455 0.019902527 0.998649 -0.038109541
549796226.41509 0.99850637 -0.039580137 0.00080112275 0.020137865 0.00078361435 0.020262018 0.99844825 -0.038567722
559792452.83019 0.99823916 -0.040357143 0.00080680568 0.020527717 0.00080027804 0.02067389 0.99831188 -0.03914839
569788679.24528 0.99810165 -0.041130394 0.0008605835 0.02087466 0.00084517803 0.021010878 0.99844563 -0.039969772
579784905.66038 0.99812084 -0.041684046 0.00091633596 0.021236395 0.00085020624 0.021422606 0.99858916 -0.040662557
589781132.07547 0.99826533 -0.042343616 0.00095354579 0.021636326 0.00094174873 0.021769071 0.99874365 -0.04166618
599777358.49057 0.9983511 -0.043063313 0.00098311435 0.022012789 0.00099607278 0.022143824 0.99876261 -0.042409122
609773584.90566 0.99849868 -0.04379053 0.0010388992 0.022373708 0.0010186314 0.022507118 0.99857032 -0.043361604
619769811.32075 0.99865186 -0.044609934 0.0010915594 0.022699367 0.0011040019 0.022866592 0.99843818 -0.043965429
629766037.73585 0.99842525 -0.045293391 0.0011518458 0.023018777 0.0011444231 0.023155928 0.99822998 -0.044533879
639762264.15094 0.99820083 -0.04591231 0.0011579099 0.023364857 0.0011369383 0.023495194 0.99809241 -0.04493992
649758490.56604 0.99803495 -0.046533406 0.0011513638 0.02367707 0.0011596815 0.023868874 0.998142 -0.045430571
659754716.98113 0.99781168 -0.046980679 0.0011432394 0.02409701 0.0011503361 0.024246279 0.9982329 -0.046013385
669750943.39623 0.99780768 -0.047605067 0.0011644471 0.024493918 0.0011793636 0.024627913 0.99825805 -0.046849996
679747169.81132 0.99792475 -0.048383068 0.0012305616 0.024892721 0.0012337505 0.025000136 0.99820417 -0.047830753
689743396.22642 0.99806249 -0.049264967 0.0012955042 0.025224235 0.0013344809 0.025399156 0.99803042 -0.048898965
699739622.64151 0.9981575 -0.050125778 0.001320227 0.025582865 0.0013235686 0.025753105 0.9979195 -0.049625516
709735849.0566 0.99812889 -0.051152989 0.0013720389 0.025955519 0.0013976388 0.026062656 0.99772251 -0.050230026
719732075.4717 0.99807256 -0.051812083 0.0014106575 0.026325755 0.0014251731 0.026427543 0.99778879 -0.05083403
729728301.88679 0.99784595 -0.052313477 0.0014880206 0.026649114 0.0014421474 0.02680419 0.99783349 -0.051266462
739724528.30189 0.99779767 -0.05296649 0.0015039169 0.027004601 0.0015254794 0.027194975 0.9979943 -0.052021131
749720754.71698 0.99767512 -0.05344215 0.0015597977 0.027352195 0.0014992384 0.027510948 0.99798256 -0.05278711
759716981.13208 0.99766457 -0.05409351 0.0015804386 0.027692854 0.0015745517 0.027914893 0.99798036 -0.053595155
769713207.54717 0.99764675 -0.054778755 0.0016116938 0.028056035 0.0016008755 0.028268958 0.99772286 -0.054324359
779709433.96226 0.99770564 -0.055542108 0.0016680718 0.028434541 0.0016796581 0.028587665 0.99748415 -0.055074237
789705660.37736 0.99766153 -0.056561738 0.0016773744 0.028779715 0.0016890513 0.028960109 0.9972437 -0.055779904
799701886.79245 0.9975841 -0.057423055 0.0017372631 0.029158697 0.0017409129 0.029298667 0.99707568 -0.056400567
809698113.20755 0.99757773 -0.058060244 0.001755374 0.029444138 0.0017674011 0.029667603 0.99716109 -0.056855351
819694339.62264 0.99733895 -0.058743075 0.0017874874 0.029825224 0.0018211203 0.030023355 0.99727464 -0.057558924
829690566.03774 0.99734139 -0.0593279 0.0018304344 0.030198608 0.0018428601 0.030410197 0.99749762 -0.05845499
839686792.45283 0.9974044 -0.059868783 0.0018329015 0.030517178 0.0018941248 0.030750001 0.99753863 -0.059371352
849683018.86792 0.99745035 -0.060501426 0.0018898109 0.030900206 0.0019136583 0.031124199 0.99744892 -0.060127102
859679245.28302 0.99741185 -0.061279744 0.0019539623 0.031258125 0.0019485112 0.031461641 0.99715728 -0.060785234
869675471.69811 0.99747646 -0.062082171 0.0020220848 0.03165644 0.0020255269 0.031846877 0.9967469 -0.061352611
879671698.11321 0.99727005 -0.062782653 0.0020364027 0.031983905 0.0020448014 0.032206856 0.99673921 -0.061825011
889667924.5283 0.99711406 -0.063687414 0.0020918865 0.032315545 0.002111651 0.032541227 0.9966042 -0.062382221
899664150.9434 0.99687111 -0.064464003 0.0021241009 0.032686457 0.0021171328 0.032898299 0.99664569 -0.063069046
909660377.35849 0.99685979 -0.065169394 0.0021537878 0.033020727 0.0021998291 0.033244126 0.99673063 -0.063951463
919656603.77358 0.99698704 -0.065913588 0.0021886625 0.03340387 0.0021925336 0.033615902 0.99679863 -0.064969927
929652830.18868 0.99699044 -0.066637248 0.0022387998 0.033679869 0.0022372659 0.033934757 0.99663937 -0.065939486
939649056.60377 0.99712074 -0.067293346 0.0022060992 0.034070767 0.0022286456 0.034274198 0.99650359 -0.066644371
949645283.01887 0.99708146 -0.068159297 0.002231075 0.034464192 0.0022789957 0.034688823 0.99617994 -0.067207649
959641509.43396 0.99698305 -0.068858594 0.0022846926 0.034811351 0.0023176931 0.035060015 0.99618179 -0.067749977
969637735.84906 0.99694145 -0.069645435 0.0023719948 0.035229705 0.0023606112 0.035470031 0.99616027 -0.068058968
979633962.26415 0.99666262 -0.070388153 0.0024318204 0.035525993 0.0024280092 0.035809331 0.99615967 -0.068784274
989630188.67925 0.99669951 -0.070884556 0.0024378151 0.035903297 0.0024743825 0.036153406 0.99630201 -0.069509864
999626415.09434 0.99676394 -0.071602345 0.0024905577 0.036293689 0.002531562 0.036536779 0.99625754 -0.070349991
1009622641.5094 0.99669307 -0.072313279 0.0025351159 0.036645744 0.0025632065 0.036934096 0.99614972 -0.071282402
1019618867.9245 0.99681711 -0.073220327 0.002578252 0.036994092 0.0026185685 0.037259135 0.99574906 -0.072167724
1029615094.3396 0.9967953 -0.074230433 0.0026425198 0.037380401 0.0026947055 0.037594255 0.99549484 -0.072794169
1039611320.7547 0.9968375 -0.075130165 0.0027191322 0.037676752 0.0027200151 0.037953902 0.99536002 -0.073472321
1049607547.1698 0.99664193 -0.076149046 0.0027524121 0.037990972 0.0027851928 0.03829306 0.99534082 -0.074091837
1059603773.5849 0.99649084 -0.07682395 0.0027931444 0.038300034 0.0027938541 0.038645796 0.99531943 -0.074715853
1069600000 0.99621975 -0.07738784 0.0027950443 0.038685292 0.0028539058 0.038957588 0.99549949 -0.075425893
1079596226.4151 0.99618787 -0.078113735 0.002800473 0.03901704 0.0028994754 0.039354198 0.99544305 -0.076186545
1089592452.8302 0.99623215 -0.07871449 0.002880103 0.039434683 0.0029250327 0.039680578 0.99539053 -0.07701683
1099588679.2453 0.99626565 -0.079417497 0.0028926302 0.039783388 0.0029294603 0.040051769 0.99501354 -0.077626526
1109584905.6604 0.99634856 -0.080306426 0.0028881021 0.040175103 0.0029726084 0.040433466 0.99473572 -0.078218073
1119581132.0755 0.9963333 -0.081354924 0.0029267035 0.040520992 0.0030161804 0.040799998 0.99454838 -0.078684054
1129577358.4906 0.99612737 -0.0821383 0.0029982384 0.040899545 0.0030654427 0.041206855 0.99437261 -0.079144984
1139573584.9057 0.99580431 -0.083188206 0.0030460926 0.041250132 0.0031364057 0.041576665 0.99449229 -0.079925656
1149569811.3208 0.9957428 -0.084045276 0.0031383149 0.041630618 0.0032171537 0.041925177 0.99467176 -0.080659539
1159566037.7358 0.99549043 -0.084726632 0.0031461865 0.041959349 0.0032516252 0.042245943 0.99470592 -0.081758857
1169562264.1509 0.99528897 -0.085379452 0.0032029115 0.04228938 0.0032889172 0.04261478 0.99455959 -0.082617611
1179558490.566 0.99527138 -0.086214259 0.0031787739 0.042698342 0.0032883014 0.043019265 0.99438238 -0.083295457
1189554716.9811 0.99529171 -0.086811304 0.0032350561 0.043078143 0.0033491608 0.043347787 0.99399209 -0.083803833
1199550943.3962 0.9951359 -0.087767541 0.003314916 0.043468021 0.0034313276 0.043758247 0.99382651 -0.084315211
1209547169.8113 0.99500108 -0.088816643 0.0033493377 0.043815356 0.0034622168 0.044049729 0.99380875 -0.084660351
1219543396.2264 0.99474043 -0.089628428 0.0034038955 0.044208355 0.0035230494 0.044519592 0.99384457 -0.085044816
1229539622.6415 0.99444187 -0.090473354 0.0035233255 0.044580534 0.0036023073 0.044849452 0.99397695 -0.085792065
1239535849.0566 0.99423164 -0.091203451 0.0035983035 0.044905983 0.0037098257 0.045198333 0.99406534 -0.086789191
1249532075.4717 0.99380654 -0.091946654 0.0036181714 0.045245312 0.0037684345 0.04554075 0.99393362 -0.087753996
1259528301.8868 0.99362826 -0.092464834 0.0036710352 0.045639358 0.0038315989 0.045888416 0.99360961 -0.088629544
1269524528.3019 0.99348664 -0.093260676 0.0037505049 0.045970462 0.0039059576 0.046227641 0.9932934 -0.089317441
1279520754.717 0.99318892 -0.094035044 0.0038155378 0.046254553 0.0039784396 0.046522148 0.99304485 -0.089867368
1289516981.1321 0.99304849 -0.09480679 0.0038544312 0.046609208 0.0039670747 0.046822421 0.99311674 -0.090356678
1299513207.5472 0.99256384 -0.095702231 0.0038805883 0.046933956 0.0039958414 0.047213607 0.99329662 -0.090744317
1309509433.9623 0.99220145 -0.096488461 0.0039294334 0.047285229 0.0040630242 0.047528986 0.99337178 -0.091491103
1319505660.3774 0.99179375 -0.09719047 0.0038995622 0.047663476 0.0040863147 0.047879588 0.99339771 -0.092218697
1329501886.7925 0.99150985 -0.097911566 0.0039308686 0.048022166 0.0040722396 0.048234515 0.99334383 -0.093162358
1339498113.2075 0.99119681 -0.098458052 0.0039692149 0.048368488 0.0041306661 0.048608404 0.99291265 -0.093964696
1349494339.6226 0.99108511 -0.099114545 0.0039387466 0.048730657 0.004084555 0.048933148 0.99259621 -0.094566032
1359490566.0377 0.99092966 -0.099710733 0.0039936844 0.04915005 0.0041550342 0.049359471 0.99227649 -0.095167667
1369486792.4528 0.99069494 -0.10026446 0.0040313806 0.049556881 0.0041483324 0.049724855 0.99208695 -0.095693797
1379483018.8679 0.99028981 -0.10092373 0.0040537934 0.049919847 0.0041721864 0.050140608 0.99213856 -0.096036829
1389479245.283 0.98989666 -0.10146293 0.0041297525 0.050328843 0.0041915327 0.050499916 0.9920845 -0.0967879
1399475471.6981 0.98957813 -0.1017929 0.0041146446 0.050701424 0.0042327642 0.050891768 0.99226856 -0.097425461
1409471698.1132 0.98912632 -0.10230581 0.004218251 0.051107585 0.0042945286 0.051328268 0.99226576 -0.098322414
1419467924.5283 0.98898661 -0.10250694 0.0042616241 0.051510796 0.0043125032 0.051729146 0.99205291 -0.099044651
1429464150.9434 0.9888677 -0.10297456 0.0043011867 0.051976059 0.004378831 0.052149132 0.99189568 -0.09960863
1439460377.3585 0.98898113 -0.10346489 0.0044055572 0.05245224 0.0044509266 0.052601293 0.99174702 -0.10003948
1449456603.7736 0.98895508 -0.10413457 0.0045277551 0.052892044 0.0045263125 0.053045422 0.99156576 -0.10039896
1459452830.1887 0.9890666 -0.10475436 0.004637491 0.053314656 0.0047020819 0.053517111 0.99163443 -0.10079205
1469449056.6038 0.98903817 -0.1055561 0.0048519988 0.053657643 0.0048645642 0.053891867 0.99191952 -0.10144836
1479445283.0189 0.98888814 -0.10613322 0.0049387934 0.053965926 0.0049901251 0.05418079 0.9919107 -0.10245295
1489441509.434 0.98882359 -0.10682386 0.0050800778 0.054341976 0.0051425993 0.054553322 0.99180996 -0.10326347
1499437735.8491 0.98854178 -0.10715011 0.0052224118 0.054623872 0.005227346 0.054890439 0.99168193 -0.10414854
1509433962.2642 0.988621 -0.10762066 0.0053500305 0.054940987 0.0053277435 0.055170372 0.99144268 -0.10486744
1519430188.6792 0.98869401 -0.10824782 0.0054055545 0.055236563 0.0053921454 0.055469595 0.99128431 -0.1054959
1529426415.0943 0.98855221 -0.10888961 0.0054755341 0.055560451 0.0054435041 0.055791184 0.99126327 -0.10587457
1539422641.5094 0.98867315 -0.10970873 0.0055396426 0.055886749 0.0055203922 0.056137525 0.99131423 -0.1063599
1549418867.9245 0.98842812 -0.11057083 0.0055971025 0.056178093 0.0055735409 0.056433417 0.99158973 -0.10714535
1559415094.3396 0.98835516 -0.11131683 0.0057132132 0.05654626 0.0056706592 0.056785461 0.99168193 -0.10787371
1569411320.7547 0.98811054 -0.11206432 0.0057341373 0.056793798 0.0057321209 0.057059232 0.99154568 -0.10878138
1579407547.1698 0.98809183 -0.11259601 0.0057411026 0.057093523 0.0057040956 0.057430185 0.99116296 -0.10964324
1589403773.5849 0.98798311 -0.11319658 0.00575817 0.057461917 0.0057430957 0.057701956 0.9908669 -0.11041367
1599400000 0.98791301 -0.11372766 0.0057406742 0.057776935 0.0057831742 0.058041383 0.99046183 -0.11088017
1609396226.4151 0.98796713 -0.11444019 0.0058069304 0.058164313 0.0057421373 0.058423858 0.99030268 -0.11142243
1619392452.8302 0.98791933 -0.11501527 0.0058027562 0.058498435 0.005751485 0.058767315 0.9903208 -0.1118896
1629388679.2453 0.98758245 -0.11580545 0.0059025455 0.058911964 0.0057666246 0.059227511 0.99050999 -0.11243305
1639384905.6604 0.98746121 -0.11656129 0.0058452738 0.05928237 0.0057652486 0.059612058 0.99074197 -0.11338424
1649381132.0755 0.98715192 -0.11729679 0.0059305765 0.059645358 0.0058566686 0.0600532 0.99069291 -0.11433521
1659377358.4906 0.98692894 -0.11803377 0.005899528 0.060087398 0.0058830958 0.060439222 0.99061608 -0.1152716
1669373584.9057 0.98688513 -0.11853491 0.0059897699 0.060500007 0.0059500369 0.06084609 0.990255 -0.11594008
1679369811.3208 0.98697019 -0.11919005 0.0060108155 0.060891178 0.0059914608 0.061225809 0.9900775 -0.11650383
1689366037.7358 0.98690641 -0.1197789 0.006102128 0.06133008 0.0060468372 0.061671529 0.98982209 -0.11675686
1699362264.1509 0.98705244 -0.12055741 0.0061656907 0.061670851 0.0061463881 0.0621127 0.99001157 -0.11724649
1709358490.566 0.98688275 -0.12130405 0.0062232716 0.062117759 0.0062249107 0.062485967 0.99011701 -0.11781172
1719354716.9811 0.98661113 -0.12190497 0.0063409079 0.062532216 0.0063342992 0.062899299 0.99005073 -0.11865127
1729350943.3962 0.98613828 -0.12248081 0.0063970797 0.062894434 0.0064505413 0.063303366 0.99002683 -0.1195282
