!Keysight Technologies,N5222B,MY61253708,A.15.00.15
!Date: Wednesday, June 19, 2024 08:44:55
!Correction: S11(C  2-Port  ) 
!S21(C  2-Port  ) 
!S12(C  2-Port  ) 
!S22(C  2-Port  ) 
!S2P File: Measurements: S11, S21, S12, S22:
# Hz S  RI   R 50
10000000 0.99863732 -0.0025312603 -0.00031203672 0.00063163065 -0.0002711644 0.00031805853 0.9984045 -0.00094363093
19996226.415094 0.9991045 -0.0022110343 -8.3848718e-006 0.00068487629 -3.0642375e-005 0.00075587106 0.9993971 -0.0021290779
29992452.830189 0.99976981 -0.0026909411 -3.7411315e-005 0.0011324532 -1.7550017e-005 0.0012183931 0.99949336 -0.0027281046
39988679.245283 1.0000913 -0.0033448637 1.525988e-005 0.0016362041 7.9704187e-006 0.0016317832 0.99965537 -0.0033858865
49984905.660377 1.0001843 -0.004159987 4.0162297e-005 0.0020159772 -2.6084017e-006 0.0019629844 0.99977374 -0.0040028989
59981132.075472 1.0002298 -0.0050277114 1.2389501e-005 0.0023885374 2.493104e-005 0.0023842047 0.99970227 -0.004580617
69977358.490566 0.99999845 -0.0055110622 3.715112e-005 0.0028220094 2.1774416e-005 0.0028338172 0.99958843 -0.0051211137
79973584.90566 0.9997704 -0.0060938001 -1.3202662e-005 0.0031783339 -5.4666307e-006 0.0032138389 0.99935526 -0.0057143867
89969811.320755 0.99978387 -0.0065060854 1.9449391e-005 0.0035898476 4.3409411e-005 0.0035919854 0.99941599 -0.0061248839
99966037.735849 0.99991143 -0.0072484761 1.3808371e-005 0.0039844764 3.6063488e-005 0.003966203 0.99948919 -0.0069646239
109962264.15094 1.0000066 -0.00826554 4.8256654e-005 0.0043794573 3.6900165e-005 0.0043787798 0.99951458 -0.0078594834
119958490.56604 1.0000534 -0.0093343556 4.7191512e-005 0.0047759968 7.7247387e-005 0.0047906186 0.99954438 -0.0088446438
129954716.98113 0.99999869 -0.010468364 5.3704949e-005 0.0051447013 7.1670511e-005 0.0051764785 0.99955088 -0.0098439157
139950943.39623 0.99992102 -0.011348391 6.7173241e-005 0.0055780606 6.6597815e-005 0.0055788406 0.99943942 -0.010636481
149947169.81132 0.99977839 -0.012069851 8.8510802e-005 0.0059758704 7.1843388e-005 0.0059715174 0.99939847 -0.011343449
159943396.22642 0.99973571 -0.012573689 8.8838395e-005 0.006372374 9.4760675e-005 0.0063667204 0.99950159 -0.011794806
169939622.64151 0.99977654 -0.01300472 9.8799879e-005 0.0067680655 9.4900955e-005 0.0067558237 0.9995575 -0.012283161
179935849.0566 0.99978352 -0.013387561 0.00010527694 0.0071682283 0.00011112425 0.0071835751 0.99950069 -0.012768537
189932075.4717 0.99990243 -0.014132082 9.1064023e-005 0.0075449245 0.00012609991 0.0075705461 0.99968463 -0.013427436
199928301.88679 0.99987161 -0.015097022 0.00017300341 0.0079439161 0.00012859772 0.007959567 0.99959552 -0.014372081
209924528.30189 0.99965549 -0.015924051 0.00015480816 0.0083479416 0.00015067728 0.0083566261 0.99932849 -0.015188962
219920754.71698 0.9994908 -0.01687327 0.00022254605 0.0087444708 0.00020547537 0.008731599 0.999111 -0.016043901
229916981.13208 0.99925709 -0.017834127 0.00018344703 0.0091278367 0.0001923223 0.0091281161 0.99905717 -0.01686129
239913207.54717 0.99914432 -0.018502429 0.00019420258 0.0095046405 0.00019165562 0.0095592244 0.99900126 -0.017525151
249909433.96226 0.99923503 -0.019222677 0.00021580374 0.0099087954 0.00021028146 0.0099170953 0.99912411 -0.018256515
259905660.37736 0.99935853 -0.019944012 0.00023930846 0.010315272 0.00019298028 0.010371584 0.99933487 -0.018891573
269901886.79245 0.99949712 -0.020734444 0.00025823852 0.010716261 0.00029132748 0.010695532 0.9996931 -0.019672781
279898113.20755 0.99962205 -0.021215528 0.00022738799 0.011123384 0.00025396212 0.011123099 0.99956143 -0.020447567
289894339.62264 0.99951911 -0.022176296 0.00027731806 0.01144546 0.00028667133 0.01154204 0.99949443 -0.021274358
299890566.03774 0.99952036 -0.022730619 0.0002745823 0.011883631 0.00027428195 0.011954716 0.99917907 -0.021825165
309886792.45283 0.99911553 -0.023480527 0.00026647653 0.012295583 0.00028283498 0.012315577 0.99902135 -0.022446156
319883018.86792 0.99898243 -0.024137974 0.00035396451 0.012713001 0.00031621195 0.0127665 0.99902678 -0.022897691
329879245.28302 0.99896944 -0.024952561 0.00038171187 0.013114726 0.00032492587 0.013119058 0.99907351 -0.023698688
339875471.69811 0.99887145 -0.025607482 0.00037717714 0.013477167 0.00037066732 0.013571064 0.99911052 -0.024564236
349871698.11321 0.99912709 -0.026497543 0.00045347959 0.013902737 0.00037403125 0.013896136 0.99909765 -0.025517046
359867924.5283 0.99906778 -0.027436316 0.00040302426 0.014269792 0.00042329682 0.014357151 0.99907684 -0.026587933
369864150.9434 0.99929804 -0.028338403 0.00046032644 0.014693502 0.00047894847 0.014677224 0.99908006 -0.027287394
379860377.35849 0.99904847 -0.029156268 0.00050561549 0.015040983 0.00046458351 0.01504984 0.99903077 -0.028125361
389856603.77358 0.99911809 -0.029653311 0.0005299584 0.015454458 0.00049351947 0.015491787 0.99897611 -0.028593451
399852830.18868 0.99878806 -0.03034699 0.00053727441 0.015863724 0.00051714107 0.01589033 0.99900067 -0.02910009
409849056.60377 0.9988519 -0.030788977 0.00054119609 0.016228728 0.00056806515 0.016242269 0.999107 -0.029549159
419845283.01887 0.99880213 -0.031338185 0.00056224875 0.016647017 0.00058572181 0.016705457 0.99910438 -0.030220062
429841509.43396 0.99881947 -0.032069981 0.0006153984 0.017043158 0.0006420007 0.017033758 0.99923658 -0.031116962
439837735.84906 0.99875402 -0.033005312 0.0006580702 0.017451478 0.00067446241 0.017441988 0.99898064 -0.032107696
449833962.26415 0.99876696 -0.033988386 0.00067406707 0.017745143 0.0006750254 0.017800415 0.99864441 -0.032981694
459830188.67925 0.99863565 -0.034875453 0.00069799554 0.018196957 0.00066804886 0.01820682 0.99848151 -0.033792555
469826415.09434 0.9985742 -0.03575626 0.00067046471 0.018577226 0.00069493009 0.018624941 0.99822259 -0.034484506
479822641.50943 0.99854189 -0.036405392 0.0007163696 0.019009616 0.00073591759 0.019045459 0.99828517 -0.034990638
489818867.92453 0.99847794 -0.036957085 0.00082507357 0.019402763 0.00079758 0.019445522 0.99861383 -0.03558439
499815094.33962 0.99861121 -0.037569344 0.00078870449 0.019770309 0.00074981526 0.019777462 0.99891305 -0.036323488
509811320.75472 0.99875748 -0.038013868 0.0008417971 0.020154987 0.00081654673 0.020162102 0.99906373 -0.037212387
519807547.16981 0.99870509 -0.038682669 0.00088023674 0.020548707 0.00090582762 0.020616373 0.99908996 -0.038077384
529803773.58491 0.99856365 -0.03946951 0.0008432474 0.020968303 0.00087686814 0.020983767 0.9987343 -0.038769037
539800000 0.99851316 -0.040286228 0.00089741684 0.021360582 0.00089755235 0.021421833 0.99851227 -0.039538786
549796226.41509 0.99834645 -0.04129523 0.00096134562 0.021716112 0.000938721 0.021794949 0.99822879 -0.040061325
559792452.83019 0.99805057 -0.042060673 0.0010087481 0.022148488 0.00095162075 0.022157138 0.99807751 -0.04066807
569788679.24528 0.9979881 -0.042820752 0.0010276167 0.022587577 0.0010194844 0.022599237 0.99828374 -0.041440487
579784905.66038 0.99795163 -0.04334981 0.0010507391 0.022954913 0.0010108037 0.022996375 0.99841368 -0.042234637
589781132.07547 0.99811316 -0.044086903 0.0011189636 0.023367133 0.0010863477 0.023401577 0.99858189 -0.043174833
599777358.49057 0.99826127 -0.044851601 0.0011221217 0.023737375 0.0011477778 0.023836434 0.99857688 -0.044049412
609773584.90566 0.99831671 -0.045617867 0.0012088206 0.024186796 0.0011988839 0.024220761 0.99839449 -0.045064632
619769811.32075 0.99837261 -0.04642424 0.0012959428 0.024571225 0.0012649717 0.024608154 0.99825132 -0.045658886
629766037.73585 0.9981395 -0.047071368 0.0013257256 0.024869379 0.0013502697 0.024920527 0.99800348 -0.046059638
639762264.15094 0.99792546 -0.047706589 0.0013523209 0.025205726 0.0013427748 0.025273805 0.9978804 -0.046649188
649758490.56604 0.99778509 -0.048458248 0.0013473993 0.025627675 0.0013360493 0.025674365 0.99797797 -0.047124863
659754716.98113 0.99768358 -0.04903695 0.0013207458 0.026004141 0.0013512541 0.02605857 0.99798512 -0.047787726
669750943.39623 0.99759656 -0.049544454 0.0014020139 0.026457665 0.0013751565 0.026483614 0.99799013 -0.048672616
679747169.81132 0.99756348 -0.050454997 0.001458781 0.026815128 0.0014716485 0.026886672 0.99794865 -0.04970479
689743396.22642 0.99776983 -0.051328599 0.0015191259 0.027266551 0.0014798511 0.027289256 0.99782223 -0.050737947
699739622.64151 0.99796355 -0.052213281 0.0015679095 0.027635414 0.0015324177 0.027722184 0.99776149 -0.051467866
709735849.0566 0.99787325 -0.053092532 0.0016366369 0.028001454 0.0016128938 0.02807951 0.99743319 -0.052147634
719732075.4717 0.99778783 -0.053936422 0.0016300492 0.028362773 0.0016196873 0.028427463 0.99749684 -0.052761346
729728301.88679 0.99766189 -0.054501563 0.0016967421 0.028738532 0.001688526 0.028860476 0.99753797 -0.053233564
739724528.30189 0.9975493 -0.055122912 0.0017543868 0.029155575 0.001730544 0.029167281 0.99778295 -0.053930879
749720754.71698 0.99740523 -0.055714071 0.001783317 0.02953317 0.0017512026 0.029608099 0.99774688 -0.054710016
759716981.13208 0.99740601 -0.056260318 0.0018372787 0.02987757 0.0017919457 0.02999799 0.99772984 -0.05553931
769713207.54717 0.99734038 -0.057014108 0.0018827682 0.030267414 0.0018827058 0.030385276 0.9974792 -0.05638209
779709433.96226 0.99747026 -0.057788324 0.001913036 0.030692991 0.0018916217 0.030736921 0.99713683 -0.057095464
789705660.37736 0.99729633 -0.058771133 0.0019700099 0.031067684 0.0019551683 0.031124093 0.99683762 -0.057935625
799701886.79245 0.99729311 -0.059727579 0.002021784 0.031442914 0.0019832132 0.031513121 0.99670362 -0.058487326
809698113.20755 0.99715984 -0.060449541 0.0020552808 0.031798799 0.0020107124 0.031852283 0.9969033 -0.059011474
819694339.62264 0.99701983 -0.061099932 0.0020933114 0.032194003 0.002049787 0.03226034 0.99699736 -0.059701353
829690566.03774 0.99704504 -0.061732799 0.0021154191 0.032584772 0.0021106265 0.032665279 0.9971652 -0.060664445
839686792.45283 0.99712002 -0.062259912 0.0021618092 0.032939155 0.0021516485 0.033066683 0.99728918 -0.061574459
849683018.86792 0.99714118 -0.062990256 0.0022144213 0.033360742 0.0022252647 0.033445161 0.99713039 -0.062407017
859679245.28302 0.99720001 -0.063749969 0.0022635795 0.033757791 0.002238051 0.033870935 0.99681377 -0.063084811
869675471.69811 0.99709213 -0.064555764 0.0023401305 0.034136392 0.0023316406 0.034251392 0.9964546 -0.063665032
879671698.11321 0.99698555 -0.065460294 0.0023818114 0.034494516 0.0023751459 0.034595929 0.99645042 -0.064209796
889667924.5283 0.99676335 -0.066225767 0.0024396898 0.034892138 0.0024280082 0.034977447 0.9962219 -0.064724833
899664150.9434 0.99646652 -0.067006886 0.0024929382 0.035268702 0.0024847891 0.035392284 0.99625945 -0.065477729
909660377.35849 0.99646652 -0.067801401 0.002535441 0.035639167 0.0025115986 0.035753299 0.99646103 -0.066378087
919656603.77358 0.996562 -0.068517998 0.0025683362 0.036021706 0.0025730128 0.036144532 0.99640906 -0.067348868
929652830.18868 0.99656534 -0.069360971 0.002609048 0.036380038 0.002608303 0.036470041 0.99625945 -0.068359554
939649056.60377 0.99676096 -0.069986284 0.002626121 0.036730085 0.0026226556 0.036861274 0.99608129 -0.069148183
949645283.01887 0.99658597 -0.07088168 0.0026221038 0.037164912 0.002638584 0.03727337 0.99582046 -0.069722101
959641509.43396 0.99652207 -0.071649134 0.0026863869 0.037543043 0.0026787799 0.037675031 0.99574524 -0.070249796
969637735.84906 0.99643886 -0.0724684 0.0027349722 0.037983194 0.0027571153 0.038073003 0.99577224 -0.070594221
979633962.26415 0.99624908 -0.073269017 0.0028232704 0.038317218 0.0027830168 0.038476266 0.9957785 -0.071397334
989630188.67925 0.99620545 -0.073737651 0.0028707543 0.038711224 0.0028310344 0.038860738 0.99594182 -0.072096646
999626415.09434 0.99628997 -0.074443907 0.0028907955 0.039117239 0.0029064249 0.039260902 0.99582535 -0.072985351
1009622641.5094 0.99636501 -0.075168416 0.0029405039 0.039531339 0.0029880479 0.039670348 0.99563611 -0.0739142
1019618867.9245 0.9964397 -0.076207578 0.0030222652 0.039938811 0.0030870182 0.040053152 0.99537039 -0.074866101
1029615094.3396 0.99632823 -0.07721144 0.0031269882 0.040289767 0.0031175837 0.040400419 0.99500024 -0.075549245
1039611320.7547 0.99633306 -0.078216314 0.003171226 0.0406444 0.0031815637 0.04079067 0.99490547 -0.07625246
1049607547.1698 0.99617654 -0.07913062 0.0032201291 0.041006241 0.003236026 0.041148853 0.99490035 -0.076901674
1059603773.5849 0.99595517 -0.079870403 0.0032593068 0.041350663 0.0032897843 0.041531455 0.99487203 -0.077465951
1069600000 0.99573994 -0.080543816 0.0032902732 0.041725371 0.0033026375 0.041904129 0.99495745 -0.078254104
1079596226.4151 0.99561644 -0.081174813 0.0033135866 0.042121451 0.0034016841 0.042289566 0.99503809 -0.079119749
1089592452.8302 0.99568915 -0.081776828 0.0033679577 0.042515311 0.0034313705 0.042652726 0.99484396 -0.079849362
1099588679.2453 0.99568266 -0.082556903 0.003393637 0.042890158 0.0034357011 0.04304491 0.99451792 -0.080501556
1109584905.6604 0.99584329 -0.083582059 0.0034277365 0.043288417 0.0034597218 0.043428537 0.99420738 -0.081141144
1119581132.0755 0.99577379 -0.084516913 0.0034896852 0.043666698 0.0035299039 0.043861385 0.99403399 -0.08161699
1129577358.4906 0.99553585 -0.085447431 0.0035161301 0.044095088 0.0035766754 0.044275306 0.99386382 -0.082165956
1139573584.9057 0.99526334 -0.086450607 0.0036147628 0.044495657 0.0036651138 0.044661839 0.9939642 -0.082907736
1149569811.3208 0.99516958 -0.087380551 0.0036737414 0.044884697 0.0037367921 0.04504212 0.99409032 -0.083705001
1159566037.7358 0.99482524 -0.088049561 0.0037503131 0.045246609 0.0038066171 0.045415316 0.99411225 -0.08483392
1169562264.1509 0.99473101 -0.08872813 0.0037477799 0.045615714 0.0038215742 0.045786574 0.99399436 -0.085662454
1179558490.566 0.99461442 -0.089593828 0.0037601397 0.046001166 0.003877389 0.046203505 0.99380511 -0.086462796
1189554716.9811 0.99466795 -0.090301633 0.0038610455 0.046453506 0.003928965 0.046546828 0.99344635 -0.086980492
1199550943.3962 0.99454236 -0.091231734 0.0039020963 0.046829477 0.0040015578 0.046992436 0.99322379 -0.087308317
1209547169.8113 0.99434423 -0.092178464 0.0039585195 0.047215063 0.0040546507 0.047355272 0.9932099 -0.087808579
1219543396.2264 0.99409133 -0.093078203 0.0040135537 0.04764346 0.0041320203 0.047794018 0.99331397 -0.08824525
1229539622.6415 0.9938122 -0.093979061 0.0041379668 0.048021238 0.0042176303 0.0481769 0.99335939 -0.089015126
1239535849.0566 0.99345762 -0.09469521 0.0042068791 0.048409358 0.0042953305 0.048559252 0.99350846 -0.090039879
1249532075.4717 0.99315482 -0.095471367 0.004278061 0.048783198 0.0044048643 0.048888311 0.99317491 -0.09100166
1259528301.8868 0.99292219 -0.09603852 0.0043595638 0.04916697 0.0044784546 0.049293976 0.99295497 -0.091910273
1269524528.3019 0.99277878 -0.09682864 0.0044669732 0.049519669 0.0045424309 0.049677715 0.99269617 -0.092646539
1279520754.717 0.99242443 -0.097599879 0.0045178984 0.049887996 0.0046328604 0.049976908 0.99246043 -0.093226589
1289516981.1321 0.99225169 -0.0985246 0.0045230631 0.050227828 0.0046276711 0.050317906 0.99245554 -0.09376061
1299513207.5472 0.99194884 -0.09933579 0.0045953561 0.050597876 0.0046735797 0.05070743 0.99262077 -0.094171464
1309509433.9623 0.99139112 -0.10009642 0.0045964643 0.050970145 0.0047346978 0.051044699 0.99263149 -0.094947264
1319505660.3774 0.99095166 -0.10093234 0.0046334574 0.051352035 0.004738369 0.051430378 0.99270481 -0.09560734
1329501886.7925 0.99063253 -0.10159716 0.0047118478 0.051773511 0.0048076827 0.051803648 0.99262697 -0.096681774
1339498113.2075 0.99041122 -0.10218519 0.0047202809 0.05210641 0.0048538223 0.05217481 0.99220449 -0.097406209
1349494339.6226 0.99016571 -0.1027826 0.0047252872 0.0525373 0.0048079612 0.052580595 0.99178272 -0.098094545
1359490566.0377 0.99012142 -0.10355946 0.0047691409 0.052934553 0.0048679896 0.05300869 0.99160063 -0.0987674
1369486792.4528 0.98984945 -0.10418892 0.0048072655 0.053395275 0.0048898719 0.053378601 0.99134254 -0.099254906
1379483018.8679 0.98951101 -0.10483997 0.0048658904 0.053775746 0.0049103787 0.053823672 0.99130374 -0.099679306
1389479245.283 0.98912346 -0.10542041 0.0049239881 0.054218769 0.0049881544 0.054242283 0.99128115 -0.10041833
1399475471.6981 0.98860592 -0.10574684 0.0049332902 0.054629467 0.004986845 0.054658994 0.9914937 -0.10109839
1409471698.1132 0.98828512 -0.10611806 0.0050109164 0.05504375 0.0050940197 0.055094674 0.99152005 -0.10204665
1419467924.5283 0.98810446 -0.10652563 0.0050712172 0.05549062 0.0051112231 0.055522196 0.99131578 -0.10270771
1429464150.9434 0.98798227 -0.10693952 0.0051193554 0.055969387 0.0051834844 0.055968989 0.99114001 -0.10334349
1439460377.3585 0.98803729 -0.10742089 0.005205567 0.056433138 0.0052975323 0.056457505 0.99086541 -0.10378754
1449456603.7736 0.98809958 -0.10802017 0.0053694602 0.056911185 0.0053467937 0.056924336 0.99067825 -0.10411531
1459452830.1887 0.98804247 -0.10896608 0.0055363607 0.057333119 0.0054982286 0.057389595 0.99089396 -0.10447055
1469449056.6038 0.98807353 -0.10962972 0.0057081338 0.05773199 0.0056474656 0.057789005 0.99095684 -0.10522759
1479445283.0189 0.98788851 -0.11039266 0.0058431914 0.058089204 0.0057945638 0.058126736 0.99106997 -0.10621344
1489441509.434 0.98773241 -0.11098239 0.0059577171 0.058445431 0.0060011409 0.058458067 0.99093324 -0.10720539
1499437735.8491 0.98756158 -0.11131319 0.0061202105 0.05878225 0.0061041173 0.058834165 0.99078029 -0.10807508
1509433962.2642 0.98755151 -0.11177708 0.0062782653 0.059118964 0.0061899424 0.059139859 0.99047679 -0.10880145
1519430188.6792 0.98761261 -0.11236238 0.0063255019 0.059448093 0.0062648728 0.059458323 0.99043262 -0.10938421
1529426415.0943 0.98760438 -0.1131601 0.0063820612 0.059771776 0.0063531864 0.059838913 0.99033386 -0.10993132
1539422641.5094 0.98760593 -0.11393674 0.0065021743 0.060157031 0.0064205574 0.060188018 0.99042159 -0.11042018
1549418867.9245 0.98742753 -0.11491337 0.0065721748 0.060464885 0.0065141292 0.060564399 0.99063826 -0.11115567
1559415094.3396 0.98733711 -0.11563885 0.0066564251 0.060826618 0.0065650716 0.060908332 0.99071145 -0.11186522
1569411320.7547 0.98703545 -0.11652054 0.0067069037 0.061170429 0.006627609 0.061224841 0.99064696 -0.11282218
1579407547.1698 0.98697156 -0.11706415 0.0067579802 0.061515097 0.0066688722 0.061605286 0.99022722 -0.11371588
1589403773.5849 0.98688114 -0.11778688 0.0067910254 0.06183571 0.0066685341 0.061917607 0.98992872 -0.11449802
1599400000 0.98683959 -0.11820275 0.006785566 0.062187016 0.0067189708 0.062314533 0.98951215 -0.11494088
1609396226.4151 0.98680902 -0.11891467 0.0067857206 0.062585123 0.0067435838 0.062678613 0.98927736 -0.11554334
1619392452.8302 0.98676038 -0.11962244 0.00681982 0.062996663 0.0067068562 0.063105196 0.98928368 -0.11609024
1629388679.2453 0.98661864 -0.12041622 0.0068859011 0.06336017 0.0067844763 0.063511476 0.98951089 -0.11671218
1639384905.6604 0.9863081 -0.12114558 0.0068909833 0.063838862 0.0068038874 0.063967839 0.98971575 -0.11761871
1649381132.0755 0.98603094 -0.12177411 0.0069800541 0.064210773 0.0069023743 0.064387672 0.98967952 -0.11864576
1659377358.4906 0.98579359 -0.12264875 0.0069588106 0.064676195 0.0069699213 0.064822987 0.98960125 -0.11956412
1669373584.9057 0.98573315 -0.12315385 0.0070849196 0.065119803 0.0069713201 0.065257035 0.98934317 -0.12023319
1679369811.3208 0.98574406 -0.12391292 0.0071534626 0.06554389 0.0070661176 0.065710992 0.98902398 -0.12074131
1689366037.7358 0.98564196 -0.12450212 0.0072100926 0.065928526 0.007144846 0.06614396 0.98871708 -0.12117746
1699362264.1509 0.9858312 -0.125203 0.0073041627 0.066407941 0.0072303461 0.066591434 0.98895407 -0.12163271
1709358490.566 0.98566973 -0.12603591 0.0074201236 0.066792957 0.0073384512 0.067035303 0.98904395 -0.12231396
1719354716.9811 0.98534584 -0.12672496 0.0075081494 0.067249529 0.0074570347 0.067417353 0.98893881 -0.12309942
1729350943.3962 0.98498791 -0.12723544 0.007658679 0.067651317 0.0076122116 0.067895345 0.98885137 -0.12398347
