!Keysight Technologies,N5222B,MY61253708,A.15.00.15
!Date: Wednesday, June 19, 2024 10:09:18
!Correction: S11(C  2-Port  ) 
!S21(C  2-Port  ) 
!S12(C  2-Port  ) 
!S22(C  2-Port  ) 
!S2P File: Measurements: S11, S21, S12, S22:
# Hz S  RI   R 50
10000000 0.9983291 -0.0029641986 -5.6499113e-005 0.00020740065 -9.2711591e-005 0.00038503512 0.99825758 -0.0017080307
19996226.415094 1.0003119 -0.0027198493 -8.7786495e-005 0.00063842302 -0.00021583679 0.00056841981 1.0002081 -0.0024594963
29992452.830189 0.99973035 -0.0024894774 5.193011e-005 0.0010096887 7.7246019e-005 0.0010300417 0.99955076 -0.0026015043
39988679.245283 1.0001414 -0.002973929 -1.8573352e-005 0.001321558 8.6722866e-006 0.0013125694 0.99971873 -0.0030414462
49984905.660377 1.0002944 -0.0036107302 -1.3265933e-005 0.001638924 1.9724015e-005 0.0016605014 0.99986494 -0.0036453009
59981132.075472 1.0003757 -0.0044827759 2.6786409e-005 0.001942332 6.5502245e-006 0.0019856507 0.99985641 -0.0042415857
69977358.490566 1.0002851 -0.005029818 1.1782813e-005 0.0022761875 -2.3790635e-005 0.002293027 0.99974501 -0.004799569
79973584.90566 0.99996758 -0.0057271719 2.521649e-005 0.0026091111 -3.1866133e-005 0.0026097023 0.99935979 -0.0052816272
89969811.320755 1.0000091 -0.0057293773 5.2835676e-005 0.0029151398 2.5685877e-006 0.0029449842 0.99960768 -0.0054717958
99966037.735849 1.0003067 -0.0065045506 3.4288445e-005 0.0032817745 3.3428136e-005 0.0032987054 0.99970931 -0.0062713474
109962264.15094 1.000258 -0.0073513985 1.5650818e-005 0.003600176 4.814798e-005 0.0036078081 0.99969047 -0.0070278049
119958490.56604 1.0002894 -0.0082606673 2.7602888e-005 0.003905359 2.553477e-005 0.003933643 0.99970627 -0.0078665912
129954716.98113 1.000227 -0.0091973245 3.9175618e-005 0.0042447378 2.9783812e-005 0.004280149 0.99974239 -0.0087297261
139950943.39623 1.0001633 -0.0099797547 3.8634185e-005 0.0045761908 4.99335e-005 0.0046164552 0.99964792 -0.0094878357
149947169.81132 1.0000652 -0.010649085 4.3719308e-005 0.0048928675 2.787821e-005 0.0049291085 0.99962103 -0.010092497
159943396.22642 1.0000192 -0.011202514 5.1409006e-005 0.0052332329 5.4677716e-005 0.0052512991 0.99965692 -0.010598928
169939622.64151 0.99995524 -0.011596374 7.0687849e-005 0.0055598966 6.3934538e-005 0.0055860453 0.9997133 -0.01102785
179935849.0566 1.0000359 -0.011816025 5.709508e-005 0.0058990265 8.5604028e-005 0.0059171915 0.99962515 -0.011408091
189932075.4717 1.0001571 -0.012641162 7.8824814e-005 0.0062244963 9.6416799e-005 0.0062659066 0.99981183 -0.011941582
199928301.88679 1.0000988 -0.013424575 9.7122043e-005 0.0065628951 9.4507239e-005 0.0065646376 0.9997102 -0.012759268
209924528.30189 0.9998799 -0.014015257 9.7274315e-005 0.0068621957 9.9714031e-005 0.0069024735 0.99945098 -0.013408497
219920754.71698 0.99998224 -0.014725894 8.8154105e-005 0.0072005512 0.0001181832 0.0072110705 0.99941278 -0.014003217
229916981.13208 0.99977112 -0.015591651 0.00011832779 0.0075158114 0.00011710892 0.0075481776 0.99941242 -0.01484862
239913207.54717 0.99966669 -0.016272085 0.00012961902 0.0078437766 0.00011363246 0.0078992555 0.99935979 -0.015596399
249909433.96226 0.99971724 -0.016869724 0.00014051958 0.0081971679 0.00014727795 0.008221522 0.99943519 -0.016181856
259905660.37736 0.99981272 -0.017442107 0.00012820028 0.0085120676 0.00015556905 0.008523765 0.99967146 -0.016702235
269901886.79245 0.999856 -0.017990038 0.0001584111 0.0088679548 0.00016558974 0.0088447882 0.9999156 -0.01747407
279898113.20755 0.99993175 -0.01878871 0.0001164549 0.009175648 0.0001248091 0.0092058089 0.99975485 -0.018231735
289894339.62264 0.99987376 -0.019523054 0.000185546 0.009481743 0.00017083855 0.009493622 0.99972647 -0.018956691
299890566.03774 0.99984777 -0.02000773 0.00013443269 0.0098001808 0.00017301831 0.0098312963 0.99939477 -0.019381106
309886792.45283 0.99967098 -0.020536371 0.00020459807 0.01011066 0.00022613758 0.01022891 0.99934191 -0.019790687
319883018.86792 0.99978763 -0.021121293 0.00022955192 0.010512137 0.00022057071 0.010505388 0.99944139 -0.020284832
329879245.28302 0.99986339 -0.021962255 0.00023640646 0.010799729 0.00022783643 0.010846924 0.999578 -0.021068096
339875471.69811 0.99968445 -0.022790901 0.00029192003 0.01113097 0.00021697755 0.011184161 0.99951339 -0.021844834
349871698.11321 0.99984044 -0.02361989 0.00025494071 0.01143762 0.0002772396 0.011471768 0.99950534 -0.022777915
359867924.5283 0.99966061 -0.024278551 0.00026176963 0.011765259 0.00030907989 0.011810658 0.9994024 -0.023584723
369864150.9434 0.99982494 -0.025150269 0.00029312843 0.012098693 0.00031563547 0.012172165 0.99942088 -0.024314076
379860377.35849 0.99963093 -0.025822535 0.00028189854 0.012409599 0.00031610881 0.012476898 0.99931985 -0.024956807
389856603.77358 0.99957126 -0.026474178 0.00032283785 0.012773238 0.00033268612 0.012784781 0.99935192 -0.025498986
399852830.18868 0.99937862 -0.027057737 0.000344228 0.01304753 0.00035659503 0.013077059 0.99944335 -0.025963843
409849056.60377 0.99937719 -0.02751559 0.00035245949 0.013385124 0.00038084548 0.013454637 0.99942255 -0.02637168
419845283.01887 0.99925208 -0.028026491 0.00038710283 0.013696124 0.00036885403 0.013802066 0.99937934 -0.026982009
429841509.43396 0.99941981 -0.028569728 0.000414724 0.014050813 0.00037861615 0.014116991 0.99958944 -0.027757376
439837735.84906 0.99919778 -0.029465064 0.00042055931 0.014338777 0.00044323422 0.014438005 0.99933565 -0.028674796
449833962.26415 0.99903119 -0.030245721 0.00040368037 0.014687601 0.00044989679 0.014702128 0.998959 -0.02944687
459830188.67925 0.99887931 -0.030928284 0.00044880528 0.014995998 0.00044034282 0.015074708 0.99880576 -0.030129075
469826415.09434 0.99885577 -0.031624138 0.00048600836 0.015359026 0.00046156486 0.015397061 0.99856061 -0.030680001
479822641.50943 0.99869871 -0.032122009 0.0005103955 0.015660416 0.00045307144 0.015743516 0.99859536 -0.031167738
489818867.92453 0.9987815 -0.032626033 0.00051625352 0.015972735 0.0005231672 0.016104508 0.99881685 -0.031692892
499815094.33962 0.99883711 -0.033232003 0.00053476915 0.016325766 0.00051857065 0.016396785 0.99914491 -0.032261342
509811320.75472 0.99890536 -0.033624936 0.00055309723 0.016653543 0.00057037949 0.016695181 0.99918354 -0.033073269
519807547.16981 0.99891794 -0.03412348 0.00060479622 0.01694129 0.00058607431 0.017054416 0.99920082 -0.033816069
529803773.58491 0.99882466 -0.034707844 0.0005732039 0.017266447 0.00056551117 0.017365653 0.99899787 -0.034294784
539800000 0.9990595 -0.035358742 0.00060429936 0.017622748 0.00057203742 0.017666206 0.99889189 -0.034936458
549796226.41509 0.99895006 -0.036182076 0.00060393335 0.017950045 0.00063070841 0.018006232 0.99869782 -0.035437793
559792452.83019 0.99866802 -0.03682059 0.00066378526 0.01829138 0.00064219255 0.018401487 0.99873936 -0.035982579
569788679.24528 0.99856186 -0.037483037 0.00066454941 0.018570058 0.00068137702 0.018677521 0.9988476 -0.036633402
579784905.66038 0.99854678 -0.038062394 0.00071151135 0.018950202 0.00069007918 0.019000243 0.99894249 -0.037359081
589781132.07547 0.99866295 -0.038669795 0.00075364765 0.0192663 0.00069749355 0.01934205 0.99901205 -0.038243264
599777358.49057 0.99882102 -0.039286137 0.00079298206 0.019602571 0.00074955914 0.019679058 0.99899 -0.039080709
609773584.90566 0.99891937 -0.040193856 0.00079405191 0.019886201 0.00084080291 0.020009026 0.99885607 -0.039867826
619769811.32075 0.99907267 -0.040784597 0.00082630059 0.02024474 0.00082171522 0.020317497 0.99886465 -0.040430009
629766037.73585 0.99890649 -0.041400641 0.00084327161 0.020525558 0.00086407643 0.020621231 0.99871552 -0.040960371
639762264.15094 0.99875259 -0.042015553 0.00086422754 0.02087478 0.00087591936 0.020942621 0.99851191 -0.041411594
649758490.56604 0.99875587 -0.042610034 0.00087529281 0.02115486 0.00086154416 0.021248333 0.99865383 -0.041869551
659754716.98113 0.99862236 -0.04315567 0.00086488668 0.021496449 0.00087272283 0.021593837 0.99865067 -0.042409241
669750943.39623 0.9985702 -0.043567926 0.00089058094 0.021853743 0.00093833404 0.021948049 0.99868482 -0.043181688
679747169.81132 0.998505 -0.044398084 0.00094028073 0.022152042 0.0009387834 0.022270638 0.9986794 -0.044138335
689743396.22642 0.99876094 -0.045196325 0.001011706 0.022505803 0.0010180343 0.022603538 0.99856532 -0.044991821
699739622.64151 0.99881274 -0.045934349 0.0010337047 0.022836922 0.0010319892 0.022917435 0.99845707 -0.045650065
709735849.0566 0.99875581 -0.046807744 0.001085256 0.023130534 0.0010851808 0.023226669 0.99819934 -0.046358921
719732075.4717 0.99861002 -0.047589213 0.00109461 0.023435835 0.0010722261 0.023554236 0.99825847 -0.046945095
729728301.88679 0.99855649 -0.048162222 0.0011266153 0.023744076 0.0010976102 0.023889009 0.99834108 -0.047366738
739724528.30189 0.99852788 -0.048810586 0.0011503012 0.024066145 0.0011496413 0.024204474 0.99846542 -0.048050582
749720754.71698 0.99836248 -0.049322367 0.0012119608 0.024379125 0.0011889194 0.024514277 0.99854547 -0.048774362
759716981.13208 0.99846196 -0.049810767 0.0012041647 0.024716906 0.0012451522 0.024802737 0.99846798 -0.049522102
769713207.54717 0.998357 -0.05049479 0.0012525693 0.02504294 0.0012608832 0.025155656 0.99819362 -0.050190598
779709433.96226 0.99852329 -0.05116269 0.0012824999 0.02534841 0.0012751633 0.025473006 0.99802643 -0.050816324
789705660.37736 0.99836731 -0.052025288 0.0013115453 0.025680905 0.0013122242 0.025783755 0.99777883 -0.051486969
799701886.79245 0.99827588 -0.052768946 0.0013442067 0.025978284 0.0013608513 0.026108852 0.99763918 -0.052086055
809698113.20755 0.99816579 -0.053272769 0.0013479698 0.026308423 0.0013439597 0.026413117 0.99766076 -0.052492067
819694339.62264 0.99804324 -0.053997189 0.0014038067 0.026604868 0.001398175 0.026743054 0.99777937 -0.053129911
829690566.03774 0.99797988 -0.054625034 0.0014437651 0.02691129 0.0014077583 0.02704398 0.99798673 -0.054011166
839686792.45283 0.99802017 -0.055061221 0.0014193039 0.027227066 0.0014505875 0.027401011 0.99799162 -0.054802775
849683018.86792 0.99818718 -0.055700555 0.0014774359 0.027571337 0.0014787999 0.027721219 0.99794483 -0.055602118
859679245.28302 0.99821734 -0.056392074 0.001511558 0.027917145 0.0015309006 0.028028782 0.99768913 -0.056149006
869675471.69811 0.99808413 -0.057128221 0.0015698085 0.028218601 0.0015790155 0.028349359 0.9973315 -0.056687087
879671698.11321 0.99796659 -0.05777676 0.0015822396 0.028497972 0.0015762143 0.028666414 0.99736029 -0.057128392
889667924.5283 0.997859 -0.058530092 0.0016266638 0.028801851 0.0016385121 0.028980441 0.99721372 -0.057565898
899664150.9434 0.99767315 -0.059180707 0.0016463175 0.029134795 0.0016440665 0.029292222 0.99726069 -0.058249354
909660377.35849 0.99766934 -0.059845939 0.0016496959 0.029431619 0.0016732784 0.029612377 0.99743193 -0.059077665
919656603.77358 0.9977206 -0.060524613 0.0016903523 0.029791711 0.001686099 0.02991526 0.99737805 -0.059926987
929652830.18868 0.9977783 -0.061197162 0.0017109541 0.030043229 0.0017226422 0.030219262 0.99722707 -0.060774297
939649056.60377 0.99788636 -0.061853379 0.0017363513 0.030370958 0.0017421441 0.030514957 0.99708766 -0.061468691
949645283.01887 0.99782473 -0.062708482 0.0017144089 0.030715765 0.0017358374 0.030879855 0.99682486 -0.062030327
959641509.43396 0.99775493 -0.06333527 0.0017642593 0.031059187 0.0017754594 0.03121672 0.99686402 -0.062550157
969637735.84906 0.99768078 -0.064041257 0.0018011825 0.03141604 0.0018032789 0.031568702 0.99682069 -0.062901884
979633962.26415 0.99761158 -0.064775407 0.0018566623 0.031726282 0.0018595958 0.031881843 0.99687558 -0.063504077
989630188.67925 0.9976294 -0.065273046 0.001909595 0.032026537 0.0018864134 0.032205943 0.99701911 -0.064141542
999626415.09434 0.99772054 -0.065839082 0.001921908 0.03233584 0.001932512 0.032533668 0.99698287 -0.06495285
1009622641.5094 0.99766994 -0.066427246 0.001951355 0.032691661 0.001978551 0.032885514 0.99685836 -0.065802068
1019618867.9245 0.99774802 -0.067323789 0.0019927914 0.032984551 0.0020484179 0.03319405 0.99663514 -0.066635922
1029615094.3396 0.99776566 -0.068153143 0.0020314278 0.033303648 0.002078034 0.033478722 0.99633849 -0.067146719
1039611320.7547 0.99774289 -0.068969756 0.0020783776 0.033622697 0.002112437 0.033791516 0.99620879 -0.067784607
1049607547.1698 0.99765617 -0.069911987 0.0021080156 0.033894844 0.0021026779 0.034076042 0.99623567 -0.06838569
1059603773.5849 0.99750805 -0.070591927 0.0021248152 0.034187689 0.0021703849 0.034395877 0.99621463 -0.068946391
1069600000 0.99740279 -0.071218491 0.0021439083 0.034498222 0.0021800529 0.034694958 0.99636853 -0.069608778
1079596226.4151 0.99733341 -0.071948722 0.002151038 0.034821257 0.0021881033 0.035045937 0.99638873 -0.070403457
1089592452.8302 0.99736148 -0.072576672 0.0021862956 0.035160288 0.0022196723 0.035355885 0.99638337 -0.071135074
1099588679.2453 0.99747634 -0.073212534 0.0021793544 0.035487942 0.0022091586 0.035678513 0.99600023 -0.071761638
1109584905.6604 0.99756032 -0.073979586 0.0022204975 0.035791401 0.0022535054 0.036027864 0.99579167 -0.07227689
1119581132.0755 0.99752706 -0.07497105 0.0022636862 0.036155831 0.0022587986 0.036363803 0.99557763 -0.072703406
1129577358.4906 0.99735594 -0.075706691 0.0022422597 0.036536444 0.0023091994 0.036724679 0.99556327 -0.073137969
1139573584.9057 0.9970814 -0.076527387 0.0023184875 0.036824491 0.0023785634 0.037037961 0.99562669 -0.073761374
1149569811.3208 0.99701917 -0.077394195 0.0023557271 0.037153654 0.0024331424 0.037363943 0.99570942 -0.07444828
1159566037.7358 0.9967885 -0.078075737 0.0024039308 0.037436157 0.0024407143 0.037662879 0.99578696 -0.075449377
1169562264.1509 0.99665225 -0.078734875 0.0024191998 0.03775727 0.0024836697 0.037981346 0.99565828 -0.076267809
1179558490.566 0.99657828 -0.079495281 0.0024120137 0.038156677 0.0025050151 0.038354646 0.99555558 -0.076979153
1189554716.9811 0.99665093 -0.080246866 0.0024642944 0.038467146 0.0025435779 0.038645845 0.9952665 -0.077550054
1199550943.3962 0.99651909 -0.081082404 0.0024752598 0.038806222 0.0025956593 0.039002486 0.99507999 -0.078012526
1209547169.8113 0.9963696 -0.081973836 0.0025553023 0.039145555 0.0026296088 0.039347757 0.99500942 -0.078320414
1219543396.2264 0.99623501 -0.082707807 0.0025921087 0.039498545 0.0026692143 0.03967518 0.99513555 -0.078678042
1229539622.6415 0.99595749 -0.083490402 0.0026449654 0.039812751 0.0027394835 0.040033437 0.99521774 -0.079370081
1239535849.0566 0.99557757 -0.084160358 0.0027063312 0.040124133 0.0028012022 0.040335182 0.99530602 -0.080267966
1249532075.4717 0.99540669 -0.084796071 0.0027608448 0.040458497 0.002859649 0.040618137 0.99517256 -0.080967769
1259528301.8868 0.9952271 -0.08526358 0.0028034784 0.040759958 0.0029303767 0.040924355 0.9949742 -0.081863672
1269524528.3019 0.99497944 -0.085997373 0.0028896248 0.041073453 0.0029956866 0.041221738 0.99479604 -0.082512498
1279520754.717 0.99465287 -0.086728036 0.0029271278 0.041342236 0.0030630673 0.041495502 0.99449974 -0.083133653
1289516981.1321 0.99457484 -0.087491304 0.0029248931 0.041651059 0.0030539716 0.041782804 0.99455702 -0.083536088
1299513207.5472 0.99425668 -0.088484377 0.0029806811 0.041956156 0.0030683316 0.042131256 0.99467635 -0.083909601
1309509433.9623 0.99383491 -0.089105874 0.0029578852 0.04225358 0.0030578626 0.042389337 0.9947654 -0.084690303
1319505660.3774 0.99347746 -0.089836955 0.0029625893 0.042570692 0.0030754218 0.042723808 0.99482512 -0.085324526
1329501886.7925 0.99322873 -0.090481013 0.0029800106 0.042890634 0.0030913707 0.043028697 0.99483401 -0.086237788
1339498113.2075 0.99296904 -0.090989083 0.0030177776 0.043208685 0.0031227283 0.043350011 0.99437028 -0.086958945
1349494339.6226 0.99275845 -0.091498978 0.0030089607 0.043552652 0.0030808318 0.043696959 0.9940629 -0.08755447
1359490566.0377 0.99267483 -0.092056543 0.0029904749 0.043916225 0.0031168461 0.044025898 0.99384999 -0.088057727
1369486792.4528 0.99247229 -0.092642099 0.0030144257 0.044264998 0.0031337095 0.04439668 0.99377966 -0.088495493
1379483018.8679 0.99221045 -0.093148232 0.0030361775 0.044616207 0.0031050432 0.044730861 0.99368054 -0.08883819
1389479245.283 0.99186087 -0.093697727 0.0030732825 0.044981577 0.0031620245 0.045091256 0.99369007 -0.089525938
1399475471.6981 0.99160624 -0.094070673 0.0030860808 0.045373015 0.0031903367 0.045460232 0.99391687 -0.090200961
1409471698.1132 0.9911508 -0.094468012 0.0031327712 0.04571702 0.0031865383 0.045821752 0.99390745 -0.090983227
1419467924.5283 0.99095792 -0.094775736 0.0031409012 0.046085089 0.0032093311 0.04617735 0.99375576 -0.091707706
1429464150.9434 0.99079263 -0.095202297 0.0031672809 0.046463054 0.0032637324 0.046597507 0.99358904 -0.092318624
1439460377.3585 0.99106181 -0.095661446 0.0032501332 0.046917662 0.0032967525 0.047014296 0.99340624 -0.092643321
1449456603.7736 0.99111837 -0.096262842 0.0033894926 0.047312532 0.0034450209 0.047408052 0.99326181 -0.092939839
1459452830.1887 0.99104255 -0.096868128 0.0035076067 0.047702748 0.0035314467 0.047807109 0.99343765 -0.093320101
1469449056.6038 0.99107277 -0.097498864 0.0036813179 0.048026968 0.0036900593 0.048158154 0.99361813 -0.093888283
1479445283.0189 0.99099487 -0.098158024 0.0037853767 0.048315648 0.0037974787 0.048441201 0.99366373 -0.094745286
1489441509.434 0.99089485 -0.098608643 0.0039023496 0.048639916 0.0039363876 0.048736796 0.99355114 -0.095677555
1499437735.8491 0.99073774 -0.098981231 0.0040210448 0.048904639 0.0040264074 0.049013354 0.99345869 -0.096416295
1509433962.2642 0.99074483 -0.099523097 0.0041128187 0.049168464 0.0041189687 0.049257383 0.99334985 -0.097151741
1519430188.6792 0.9908787 -0.10003227 0.0041623674 0.049443278 0.004183352 0.049542893 0.99315161 -0.097714186
1529426415.0943 0.99072367 -0.10070989 0.0042104349 0.049729548 0.0042192135 0.049845554 0.99311066 -0.098158121
1539422641.5094 0.99077153 -0.10155462 0.0042988048 0.049985837 0.0042992532 0.050125193 0.99315447 -0.098729379
1549418867.9245 0.99066806 -0.10231434 0.0043452764 0.050315529 0.0043022241 0.050433028 0.99329954 -0.099379495
1559415094.3396 0.99054068 -0.10292545 0.0043722074 0.050553687 0.0043675657 0.050675046 0.99352753 -0.099969149
1569411320.7547 0.99036586 -0.10376683 0.0044225203 0.050850753 0.0044087442 0.050980233 0.99336743 -0.10069592
1579407547.1698 0.99038666 -0.10412645 0.0044312221 0.05112654 0.0043974058 0.05127465 0.99304926 -0.10158411
1589403773.5849 0.99039638 -0.10476363 0.0044476986 0.051411137 0.0044407211 0.051536836 0.99288219 -0.10237113
1599400000 0.99024504 -0.10520548 0.0044558551 0.051684439 0.0044369576 0.051842202 0.99247175 -0.10276291
1609396226.4151 0.99026555 -0.10582232 0.0044730469 0.052007169 0.0043869754 0.052149829 0.99229938 -0.10329866
1619392452.8302 0.99028403 -0.10641074 0.0044471193 0.052366011 0.0044106748 0.052520465 0.99234033 -0.1036554
1629388679.2453 0.99003839 -0.10712099 0.0044344757 0.05267635 0.0043953639 0.052867413 0.9925245 -0.10423288
1639384905.6604 0.98979652 -0.10779339 0.004421284 0.053016435 0.0043937811 0.053226355 0.99278355 -0.10506159
1649381132.0755 0.98959875 -0.10844359 0.0044920482 0.053378116 0.0044604242 0.053584263 0.99267805 -0.10597491
1659377358.4906 0.98951101 -0.10916144 0.0044820104 0.053754166 0.0044564679 0.053961307 0.99265873 -0.1069029
1669373584.9057 0.98941636 -0.10962242 0.0045101326 0.054116707 0.0044907355 0.054270677 0.99241757 -0.10747977
1679369811.3208 0.98944694 -0.11032155 0.0045431275 0.054497436 0.0045223124 0.054722719 0.99214095 -0.1080009
1689366037.7358 0.9894141 -0.11095744 0.0046318024 0.054852195 0.0045610908 0.05503732 0.99199116 -0.10835001
1699362264.1509 0.98956013 -0.11154431 0.0046353638 0.05522842 0.0046103401 0.055447008 0.99221241 -0.10881846
1709358490.566 0.98947382 -0.11217865 0.0046885302 0.055557135 0.0046589747 0.05584557 0.99217981 -0.10927743
1719354716.9811 0.98920143 -0.11279467 0.0047916025 0.055940032 0.0047271661 0.056197532 0.99227524 -0.11001563
1729350943.3962 0.98881096 -0.11335856 0.0048077907 0.056336753 0.0047996491 0.056589041 0.99230844 -0.11080456
