!Keysight Technologies,N5222B,MY61253708,A.15.00.15
!Date: Wednesday, June 19, 2024 09:41:04
!Correction: S11(C  2-Port  ) 
!S21(C  2-Port  ) 
!S12(C  2-Port  ) 
!S22(C  2-Port  ) 
!S2P File: Measurements: S11, S21, S12, S22:
# Hz S  RI   R 50
10000000 0.99845314 -0.0027078986 -7.1911767e-005 0.00065394677 5.7245525e-005 4.5085875e-005 0.99855471 -0.0010692775
19996226.415094 0.99872547 -0.0029113591 -2.4020905e-005 0.00066581561 -8.3816325e-005 0.00060606009 0.99901772 -0.0031067133
29992452.830189 0.99969065 -0.0024568737 -2.5254325e-005 0.0010612854 2.3935485e-005 0.00099962298 0.99963284 -0.0026357174
39988679.245283 0.9999454 -0.0030698776 -4.1711799e-005 0.0012950896 -2.9182687e-005 0.0013220065 0.99972022 -0.0030850023
49984905.660377 1.0001463 -0.0037130415 6.2780979e-005 0.0016427864 -5.1263487e-007 0.0016803741 0.99988687 -0.0036793053
59981132.075472 1.0003734 -0.0046510994 4.9316965e-005 0.0020060523 9.2514092e-006 0.0019505224 0.99986905 -0.0042065084
69977358.490566 1.0001483 -0.0052078161 4.5917259e-006 0.002320745 6.0627935e-005 0.0023647086 0.99969828 -0.0046880152
79973584.90566 0.99987876 -0.0057552755 5.2763382e-005 0.0026839457 6.0692313e-005 0.0026261699 0.99944299 -0.0052007735
89969811.320755 0.99991202 -0.0058946908 2.3662229e-005 0.0029789764 6.4915512e-006 0.0029972577 0.99962187 -0.0055046976
99966037.735849 1.0000912 -0.0066753775 5.700544e-005 0.0033245783 1.0626391e-005 0.0033221911 0.99970204 -0.0062980652
109962264.15094 1.000113 -0.0075707138 4.4585613e-005 0.0036507221 4.8832793e-005 0.0036689288 0.99969828 -0.0070807636
119958490.56604 1.0001371 -0.0084607601 1.6526086e-005 0.0039673652 4.9217721e-005 0.0040001767 0.99971384 -0.0079556704
129954716.98113 1.0000905 -0.009432435 3.1709322e-005 0.0042987829 5.9331767e-005 0.0043389522 0.9996742 -0.0088019371
139950943.39623 1.000011 -0.010198362 3.332358e-005 0.0046337564 3.3325938e-005 0.0046841106 0.999654 -0.0095934942
149947169.81132 0.99988967 -0.010891467 4.8713526e-005 0.0049739601 6.507081e-005 0.004992208 0.99958187 -0.010160238
159943396.22642 0.99987519 -0.011462897 7.601222e-005 0.0052987682 3.8589584e-005 0.0053649968 0.99962348 -0.010644376
169939622.64151 0.99987644 -0.011827216 4.7738547e-005 0.0056460011 6.6011387e-005 0.0056814444 0.99972457 -0.011069067
179935849.0566 0.99993581 -0.012115121 9.2534465e-005 0.0059786336 5.4403441e-005 0.0060312804 0.99964374 -0.011506408
189932075.4717 1.0000011 -0.012953639 8.2293525e-005 0.0063056238 8.267886e-005 0.0063826139 0.99984914 -0.012006283
199928301.88679 0.99994868 -0.013719738 9.1306167e-005 0.0066294447 8.8150962e-005 0.0066561345 0.99975801 -0.012935907
209924528.30189 0.99973679 -0.014272258 0.0001149677 0.0069387844 0.00012358383 0.0070138825 0.99951202 -0.013628975
219920754.71698 0.99982131 -0.015133619 0.0001074695 0.0072789821 0.00011945399 0.0073461379 0.99933624 -0.014206856
229916981.13208 0.99958944 -0.015995622 0.00012052641 0.0076291249 0.00011779461 0.0076780152 0.9993422 -0.015010446
239913207.54717 0.99948758 -0.016645703 0.00014353826 0.0079535069 0.00013242845 0.0080137383 0.99930692 -0.015742373
249909433.96226 0.99952173 -0.017352521 0.00012912578 0.0082831215 0.00013157493 0.0083444593 0.99940038 -0.016366571
259905660.37736 0.99956793 -0.018056482 0.00016054744 0.0086144917 0.00015033595 0.0086774323 0.99961185 -0.016980171
269901886.79245 0.99970573 -0.018605933 0.00013201323 0.0089360187 0.00018682564 0.0090020876 0.9999522 -0.017580047
279898113.20755 0.99982464 -0.019197255 0.00014416059 0.0092986207 0.00016407599 0.0093001621 0.99975824 -0.018366054
289894339.62264 0.99973524 -0.019966096 0.00017365441 0.0096155098 0.00016436866 0.0096990839 0.9997021 -0.019068837
299890566.03774 0.99969923 -0.02047807 0.00015630852 0.0099037485 0.00019240589 0.010026718 0.99943781 -0.019464225
309886792.45283 0.99949706 -0.02099812 0.00023324555 0.010298958 0.0002162921 0.010321268 0.99934274 -0.019934446
319883018.86792 0.99955153 -0.021657944 0.00022365339 0.010612342 0.00019154232 0.01068156 0.9994967 -0.020460248
329879245.28302 0.99951202 -0.022400975 0.00027785311 0.010964649 0.0002560108 0.010993456 0.99955547 -0.021290958
339875471.69811 0.99941653 -0.023127295 0.00024494261 0.01127539 0.00027940155 0.011344107 0.99949265 -0.022039577
349871698.11321 0.99958462 -0.023939967 0.00031679333 0.011539088 0.00026460597 0.01168149 0.99946809 -0.022942841
359867924.5283 0.99936545 -0.024785072 0.00029529165 0.011964787 0.00030080136 0.011995532 0.99946213 -0.023838609
369864150.9434 0.99955732 -0.025526941 0.00029599713 0.012239643 0.00031049154 0.012352221 0.99944371 -0.024622917
379860377.35849 0.99949974 -0.026162043 0.00031584897 0.012550103 0.00034558168 0.012695221 0.99938709 -0.025261238
389856603.77358 0.99933517 -0.02674982 0.00033619674 0.012883156 0.00033687335 0.013022684 0.99941468 -0.025722414
399852830.18868 0.99927473 -0.027398914 0.00035726605 0.013239317 0.00038190559 0.013337111 0.99941355 -0.026188463
409849056.60377 0.99917495 -0.02786454 0.00034925656 0.01354432 0.00034354973 0.013655159 0.99933565 -0.026642738
419845283.01887 0.99921024 -0.02830717 0.00039006723 0.013891346 0.00037929742 0.014009327 0.9993397 -0.027242631
429841509.43396 0.9992801 -0.029007524 0.00039426284 0.014190406 0.00043239165 0.014361956 0.99956977 -0.028024226
439837735.84906 0.99919021 -0.029838502 0.00045225432 0.014510698 0.00043061259 0.014680829 0.99923354 -0.028940976
449833962.26415 0.99908423 -0.030679703 0.00043619238 0.014858222 0.00049765827 0.014984865 0.99890554 -0.02968657
459830188.67925 0.99896216 -0.031419873 0.00042790035 0.015183975 0.00046309177 0.015316762 0.99865067 -0.030473322
469826415.09434 0.99897325 -0.032163382 0.00047440547 0.015499015 0.00045939954 0.015653009 0.99839139 -0.030945122
479822641.50943 0.99887675 -0.032726325 0.00048139738 0.015861111 0.00049939053 0.016004646 0.99839771 -0.031422421
489818867.92453 0.99892581 -0.033383995 0.00054669613 0.01620472 0.00052208873 0.016337782 0.99874854 -0.031939358
499815094.33962 0.99904668 -0.033940405 0.00056162663 0.016492868 0.00058721937 0.016681843 0.99902821 -0.03254351
509811320.75472 0.99907565 -0.034382589 0.00057423906 0.016786618 0.00053840707 0.016969429 0.99911577 -0.033349037
519807547.16981 0.99903107 -0.034891665 0.00056035258 0.017155534 0.00060067512 0.017304106 0.9990992 -0.033996373
529803773.58491 0.99897599 -0.035441369 0.00058845896 0.017454052 0.00062953867 0.017635208 0.99888396 -0.034616828
539800000 0.9990536 -0.036169901 0.00060256594 0.017853264 0.00061228755 0.018022021 0.99878573 -0.035235345
549796226.41509 0.99898136 -0.037022024 0.00065935683 0.018142631 0.00065922504 0.018330282 0.99861956 -0.035738885
559792452.83019 0.99866271 -0.037786722 0.00069797877 0.018514477 0.00063123554 0.018617239 0.99852031 -0.036142737
569788679.24528 0.99857467 -0.03845191 0.00071423501 0.018803364 0.00067325262 0.01894569 0.99869913 -0.036945373
579784905.66038 0.99853331 -0.038945898 0.00072656327 0.019197179 0.00066037499 0.019320006 0.99886811 -0.037657544
589781132.07547 0.99863684 -0.039647073 0.00078237616 0.019460475 0.00072936714 0.019648563 0.99896508 -0.03853932
599777358.49057 0.99870265 -0.040224433 0.00078807212 0.019824015 0.00082324073 0.019988582 0.99900889 -0.03936249
609773584.90566 0.99894208 -0.04101916 0.00082622841 0.020168884 0.000828458 0.020340312 0.99880147 -0.040181179
619769811.32075 0.99897486 -0.041759133 0.00080064731 0.020487577 0.00089405617 0.020631224 0.99879658 -0.040685385
629766037.73585 0.99883062 -0.0423356 0.00086682476 0.020778336 0.00089191552 0.020958344 0.99862295 -0.041338205
639762264.15094 0.99860722 -0.043035731 0.00088673923 0.021089163 0.0009021787 0.021271437 0.99844635 -0.041694671
649758490.56604 0.99859029 -0.043641731 0.00091443909 0.021428706 0.00089884456 0.021622634 0.99855095 -0.042197451
659754716.98113 0.99831289 -0.044093728 0.00091045629 0.021733783 0.00091994647 0.02192238 0.99863368 -0.042733133
669750943.39623 0.99833244 -0.044576734 0.00097487355 0.022087285 0.00092495326 0.02227295 0.99875057 -0.043547302
679747169.81132 0.99835908 -0.045443945 0.00099329848 0.022441057 0.00097454188 0.022647643 0.99865073 -0.044459365
689743396.22642 0.99847019 -0.046206772 0.0010149973 0.022752294 0.0010563461 0.022975925 0.99843687 -0.045392156
699739622.64151 0.99855787 -0.046983242 0.0010465365 0.02311131 0.0010634679 0.023266885 0.99842227 -0.046041429
709735849.0566 0.99858242 -0.047800094 0.0010997689 0.02342115 0.0011120887 0.023615014 0.99814975 -0.046681821
719732075.4717 0.9985311 -0.048489839 0.0011254721 0.023725843 0.0011257664 0.023958011 0.99822181 -0.047334611
729728301.88679 0.99835658 -0.049044549 0.001132939 0.024063285 0.0011482248 0.024265081 0.99827671 -0.047795624
739724528.30189 0.99832618 -0.049834669 0.0011982238 0.024365464 0.0012023272 0.024598245 0.99851108 -0.048454642
749720754.71698 0.99824333 -0.050288647 0.0012289169 0.024664452 0.0012545497 0.024920374 0.99845451 -0.049168348
759716981.13208 0.99820578 -0.050707519 0.0012368653 0.025014654 0.0013029426 0.025240909 0.99841928 -0.049931765
769713207.54717 0.99825418 -0.051529467 0.0012859246 0.02537003 0.001273144 0.025563128 0.99822146 -0.050605297
779709433.96226 0.9983139 -0.052026086 0.0013212902 0.025673904 0.0013352546 0.025911253 0.99793839 -0.051239997
789705660.37736 0.99820292 -0.052956939 0.0013552196 0.025974855 0.0013551228 0.026200928 0.99772358 -0.051996946
799701886.79245 0.99817014 -0.053757787 0.0013681008 0.026288616 0.0013842722 0.026507253 0.99755025 -0.052550137
809698113.20755 0.99805498 -0.054427117 0.0014159302 0.026629033 0.001411469 0.026860358 0.99754828 -0.05305174
819694339.62264 0.99787551 -0.055042684 0.0014326125 0.026937965 0.0014459002 0.027204288 0.99773663 -0.053651512
829690566.03774 0.99790275 -0.055730283 0.001484097 0.027246993 0.0014942884 0.0275186 0.99794853 -0.054559022
839686792.45283 0.99794668 -0.056094199 0.0014895583 0.027554993 0.0015190318 0.027850434 0.99802399 -0.055297315
849683018.86792 0.9981221 -0.056852654 0.0015342829 0.027928397 0.0015499648 0.028155601 0.99783796 -0.056033351
859679245.28302 0.99808204 -0.057441026 0.0015579564 0.028210554 0.0016015107 0.028483648 0.99761593 -0.05668813
869675471.69811 0.99798524 -0.058240056 0.0016055573 0.028569376 0.0016087331 0.028841611 0.99726528 -0.057141632
879671698.11321 0.99795663 -0.058858108 0.0016386345 0.028849889 0.0016628637 0.029126422 0.9972229 -0.057591632
889667924.5283 0.99771422 -0.059710383 0.001670802 0.029175883 0.0016779164 0.029471489 0.99708581 -0.058109879
899664150.9434 0.99756587 -0.060364664 0.0016767774 0.029471479 0.0016884273 0.029769782 0.99709123 -0.058699608
909660377.35849 0.99761963 -0.061056539 0.0017141276 0.029818399 0.0017423481 0.030077757 0.99729508 -0.059569508
919656603.77358 0.99766624 -0.061665192 0.0017403769 0.030130899 0.0017455262 0.030425772 0.99730694 -0.060433149
929652830.18868 0.9976474 -0.062468708 0.0017923741 0.030440539 0.001776237 0.030721173 0.99711061 -0.061388761
939649056.60377 0.99782145 -0.063040674 0.0017479053 0.03076042 0.0018315772 0.031048298 0.99700022 -0.062050462
949645283.01887 0.99772537 -0.063993543 0.001755488 0.031094568 0.0017833014 0.03141563 0.99684334 -0.062549248
959641509.43396 0.99767643 -0.064574689 0.0018124618 0.031470191 0.0018456019 0.031768911 0.99666798 -0.063108802
969637735.84906 0.99765396 -0.065367877 0.0018691048 0.031827334 0.0018922361 0.032100029 0.99668622 -0.063417733
979633962.26415 0.99744451 -0.066053785 0.0019278172 0.032086 0.0019338944 0.032391801 0.99670619 -0.064075202
989630188.67925 0.99755996 -0.066583931 0.0019677468 0.032425929 0.0019605858 0.032722857 0.99690759 -0.064716727
999626415.09434 0.99758589 -0.067232132 0.0019962611 0.032732286 0.0019849129 0.033073194 0.99686849 -0.065474987
1009622641.5094 0.9975301 -0.067831084 0.002013946 0.033083919 0.0020506317 0.033432167 0.99671739 -0.066261753
1019618867.9245 0.99761611 -0.068657383 0.0020543938 0.03340343 0.0021207402 0.033733517 0.99650484 -0.067089736
1029615094.3396 0.99762338 -0.069584489 0.002121306 0.033698596 0.0021646703 0.034031566 0.99613219 -0.067752808
1039611320.7547 0.99771404 -0.070442289 0.0021441877 0.034030929 0.0021886639 0.034358915 0.99603277 -0.068339169
1049607547.1698 0.99752331 -0.071304634 0.0022009332 0.034307752 0.0022213685 0.03462958 0.99604362 -0.068930447
1059603773.5849 0.99738145 -0.072103858 0.0021948488 0.034601931 0.0022492157 0.034941085 0.99605292 -0.069526494
1069600000 0.9972074 -0.072611988 0.0021956256 0.034934446 0.0022518998 0.035259992 0.99625385 -0.070197493
1079596226.4151 0.99716502 -0.073318996 0.0022140397 0.035257746 0.0023173224 0.035591934 0.99621713 -0.070979632
1089592452.8302 0.99726439 -0.074003547 0.0022570537 0.035583835 0.0023077093 0.035933305 0.99616581 -0.07170558
1099588679.2453 0.99724734 -0.074644983 0.0022592787 0.035935208 0.0023266338 0.036271311 0.99587059 -0.072310179
1109584905.6604 0.99734926 -0.075399578 0.0022874745 0.036278296 0.0023593549 0.036605708 0.99562925 -0.072859347
1119581132.0755 0.99729329 -0.076369077 0.0023177997 0.036620267 0.0023585227 0.036984902 0.99536866 -0.073300257
1129577358.4906 0.99709916 -0.077129781 0.0023452546 0.036989368 0.0024295803 0.037294973 0.99536729 -0.073716819
1139573584.9057 0.99687171 -0.078010917 0.0023777476 0.037280399 0.0024637748 0.037683684 0.99537432 -0.074422687
1149569811.3208 0.99678689 -0.078873977 0.0024399778 0.037625283 0.0025450035 0.037996143 0.99554271 -0.075223833
1159566037.7358 0.99658209 -0.079533786 0.0024732845 0.037930217 0.0025468264 0.038288895 0.99559897 -0.076128334
1169562264.1509 0.99640524 -0.080175549 0.0024593323 0.038224012 0.0026043616 0.038617883 0.99550319 -0.07690236
1179558490.566 0.99644595 -0.080998778 0.002492808 0.038600907 0.0026160618 0.038969565 0.99541062 -0.07764551
1189554716.9811 0.99637198 -0.081753999 0.0025281208 0.038931631 0.0026501101 0.039312072 0.99505526 -0.078245461
1199550943.3962 0.99635309 -0.082556486 0.0025873389 0.039305307 0.0026978608 0.039643586 0.99486399 -0.078612953
1209547169.8113 0.99614793 -0.083463103 0.0026323991 0.039606318 0.0027676998 0.039956681 0.99477702 -0.078913629
1219543396.2264 0.99605334 -0.084295824 0.0026587215 0.039964773 0.0027968981 0.040356226 0.99487531 -0.079320371
1229539622.6415 0.99580598 -0.085099161 0.0027532186 0.040298223 0.002869226 0.040666521 0.99502814 -0.079994857
1239535849.0566 0.99545598 -0.085748404 0.0027748188 0.040621314 0.0029699747 0.040986393 0.99515539 -0.080916941
1249532075.4717 0.99506897 -0.086441264 0.0028500441 0.040942907 0.002990759 0.04128759 0.99496794 -0.081773981
1259528301.8868 0.9949432 -0.08692199 0.0029292852 0.041275594 0.0030358098 0.041601971 0.99473858 -0.082566202
1269524528.3019 0.99475884 -0.087641001 0.0029755626 0.041562736 0.0031376854 0.041908894 0.99450302 -0.083271652
1279520754.717 0.99442595 -0.088338926 0.0030443107 0.04185776 0.003153332 0.042171374 0.99424732 -0.083873123
1289516981.1321 0.99426144 -0.089195579 0.0030435715 0.042133451 0.0031736242 0.042472176 0.99427652 -0.084253579
1299513207.5472 0.99393159 -0.090032727 0.0030259565 0.042432778 0.0032212045 0.042802393 0.99446046 -0.084684074
1309509433.9623 0.99348599 -0.090689167 0.0030567097 0.042772852 0.0032257317 0.043079667 0.99450958 -0.085382491
1319505660.3774 0.99319637 -0.091497391 0.0030679824 0.043091491 0.0032260204 0.043455474 0.99457175 -0.086003318
1329501886.7925 0.99288619 -0.092085719 0.0030861758 0.043434571 0.0032196902 0.043747582 0.99463141 -0.087028325
1339498113.2075 0.99270856 -0.092694014 0.0031265216 0.04374402 0.0032511093 0.044052288 0.99418646 -0.0876652
1349494339.6226 0.99244857 -0.093178265 0.0030742409 0.044064645 0.0032525552 0.044388127 0.99371338 -0.08833766
1359490566.0377 0.99246222 -0.093788087 0.0030889828 0.044427 0.0032565873 0.044743486 0.99356544 -0.088766485
1369486792.4528 0.99210984 -0.094231457 0.0030976916 0.04481297 0.0032852152 0.04511397 0.99344641 -0.089230925
1379483018.8679 0.99186283 -0.094880022 0.003142962 0.045145094 0.0032658055 0.045449603 0.99340683 -0.089567356
1389479245.283 0.99145234 -0.095341682 0.0031958371 0.045548279 0.0032999646 0.04585427 0.99343824 -0.090276897
1399475471.6981 0.99112689 -0.09575665 0.0031846818 0.04590686 0.0033317115 0.046190538 0.99360192 -0.090950191
1409471698.1132 0.99086672 -0.096140474 0.0032643192 0.046276268 0.0033663742 0.04659396 0.99359339 -0.091790676
1419467924.5283 0.99062669 -0.096496254 0.0032746848 0.046638351 0.0033511976 0.046928577 0.99337691 -0.092456192
1429464150.9434 0.9905026 -0.096920967 0.0032958314 0.047068927 0.0034064166 0.047350839 0.99330401 -0.092973471
1439460377.3585 0.99070805 -0.097365722 0.0034076376 0.047489513 0.0034653349 0.047776408 0.99302727 -0.093359336
1449456603.7736 0.99061632 -0.097904861 0.0035163024 0.047865678 0.003570552 0.048158456 0.99298638 -0.093726799
1459452830.1887 0.99077678 -0.098624378 0.003623819 0.048272148 0.0036510825 0.048539747 0.99310112 -0.094059318
1469449056.6038 0.99065244 -0.099210173 0.0037866561 0.048605178 0.0038367268 0.048903145 0.99332875 -0.094738036
1479445283.0189 0.99051541 -0.099829122 0.0038806922 0.048890721 0.0039212983 0.049202945 0.99336696 -0.095659167
1489441509.434 0.99042881 -0.10037032 0.0040229447 0.049223311 0.0040950328 0.049513854 0.99328482 -0.096379548
1499437735.8491 0.99024558 -0.10069081 0.0041688625 0.049485575 0.0041996613 0.049788442 0.99318463 -0.097192705
1509433962.2642 0.99026811 -0.10119951 0.0042109042 0.049788602 0.0042781695 0.050053488 0.99308783 -0.097976252
1519430188.6792 0.99048221 -0.1017063 0.0043070372 0.050016679 0.0043374561 0.050344095 0.99293375 -0.098519117
1529426415.0943 0.99023128 -0.10244769 0.0043443087 0.050308853 0.0043827221 0.050658144 0.99283719 -0.098930627
1539422641.5094 0.99043959 -0.1032108 0.004373447 0.050640203 0.0044582626 0.050994392 0.99292147 -0.099402867
1549418867.9245 0.99016356 -0.10397731 0.0045105554 0.050856136 0.0045022257 0.051203225 0.99310297 -0.10011604
1559415094.3396 0.99006832 -0.10469559 0.0045323893 0.051182676 0.0045038704 0.051517468 0.99329418 -0.10074449
1569411320.7547 0.98994446 -0.10545211 0.0045533627 0.051432792 0.0045519965 0.051806852 0.99315387 -0.10155053
1579407547.1698 0.98994428 -0.10602933 0.0045959889 0.051708072 0.0046089916 0.052078821 0.99281859 -0.10241458
1589403773.5849 0.98986065 -0.10646176 0.0045620538 0.052037243 0.0046206918 0.052388847 0.99258292 -0.10309231
1599400000 0.98983485 -0.10696372 0.0045762863 0.052320223 0.0046276394 0.052686118 0.99220997 -0.10362417
1609396226.4151 0.98976755 -0.10758291 0.004584901 0.052650448 0.0045530163 0.052999452 0.99203867 -0.10400756
1619392452.8302 0.98975253 -0.10826784 0.0046068244 0.052957393 0.0045814104 0.053341188 0.99209976 -0.10451743
1629388679.2453 0.98951972 -0.10894501 0.0045931451 0.053333916 0.0045825969 0.053700253 0.99222875 -0.10501549
1639384905.6604 0.98928756 -0.1095188 0.0045660269 0.053688172 0.0045931535 0.05411002 0.99250662 -0.10596254
1649381132.0755 0.98908758 -0.11021069 0.0046272632 0.054033577 0.0046430584 0.054468893 0.99248326 -0.10678306
1659377358.4906 0.98892927 -0.11094746 0.0046173446 0.054393481 0.0046500023 0.05480798 0.99241245 -0.10766003
1669373584.9057 0.98891962 -0.11144938 0.0046733185 0.054790739 0.0046796515 0.055203594 0.99211735 -0.10829714
1679369811.3208 0.98894411 -0.11218736 0.0047006356 0.05516497 0.0047703655 0.055575766 0.99194771 -0.10893241
1689366037.7358 0.98895645 -0.11278835 0.0047329254 0.055511542 0.0047598444 0.055947736 0.99172306 -0.10915762
1699362264.1509 0.98909736 -0.1133593 0.0048097847 0.055885933 0.0048107812 0.056365915 0.9918685 -0.10962145
1709358490.566 0.9888885 -0.11395019 0.0048633032 0.05624355 0.0048605548 0.056761865 0.99195361 -0.11016901
1719354716.9811 0.98861313 -0.11458153 0.0048869103 0.05664517 0.004940914 0.057107776 0.99205846 -0.11087093
