!Keysight Technologies,N5222B,MY61253708,A.15.00.15
!Date: Wednesday, June 19, 2024 09:15:46
!Correction: S11(C  2-Port  ) 
!S21(C  2-Port  ) 
!S12(C  2-Port  ) 
!S22(C  2-Port  ) 
!S2P File: Measurements: S11, S21, S12, S22:
# Hz S  RI   R 50
10000000 0.99863696 -0.0023705065 0.00015755925 0.00025362312 -0.00013527772 0.00032598115 0.99837852 -0.0012519956
19996226.415094 0.99903959 -0.0019866824 -3.8627011e-005 0.00075143715 9.9390367e-005 0.00067395112 0.99926972 -0.0021736622
29992452.830189 0.9997142 -0.0024822056 4.2881875e-005 0.0010389185 2.1983957e-005 0.0010034647 0.99949336 -0.0027583838
39988679.245283 1.0000985 -0.0030788034 -3.3966964e-005 0.00135368 -7.034163e-006 0.0014184371 0.99957311 -0.0031968951
49984905.660377 1.0001208 -0.0038074255 1.7166603e-006 0.0017210289 -1.4348188e-006 0.0017054679 0.99974382 -0.0037536919
59981132.075472 1.0003109 -0.0047298372 -5.3455762e-005 0.0020937962 -1.9937288e-005 0.0020935158 0.99972069 -0.004390955
69977358.490566 1.0001394 -0.0053325631 3.9813312e-007 0.0023580072 6.934486e-006 0.002370663 0.99959135 -0.0049384981
79973584.90566 0.99986726 -0.005813539 5.4152915e-006 0.0027427517 1.1640019e-005 0.0027463245 0.99930412 -0.0053963661
89969811.320755 0.99986178 -0.0059756935 1.5506521e-007 0.0030822912 1.8382794e-005 0.0030953186 0.99945831 -0.0056959391
99966037.735849 1.0001206 -0.0068006665 5.0529547e-005 0.0034273816 3.3190299e-005 0.0034628641 0.99954015 -0.0065115094
109962264.15094 1.0000933 -0.0076928586 4.1146937e-005 0.0037452285 2.9580377e-005 0.0037739943 0.99959129 -0.007373035
119958490.56604 1.0001407 -0.0086581409 4.4703949e-005 0.0041064532 2.5971094e-005 0.0041371868 0.99957746 -0.008246839
129954716.98113 1.0001212 -0.0097008049 2.7792295e-005 0.0044232323 6.9707283e-005 0.0044666491 0.99957705 -0.0091997385
139950943.39623 1.0000085 -0.01051908 5.0176022e-005 0.0047814604 5.751205e-005 0.0048253504 0.99951315 -0.0099567119
149947169.81132 0.99988353 -0.01121071 5.9837941e-005 0.0051312991 5.1371986e-005 0.005168661 0.99945349 -0.010583729
159943396.22642 0.99983072 -0.011760235 7.986906e-005 0.0054657725 5.5948505e-005 0.0055000735 0.99951643 -0.011024892
169939622.64151 0.99985319 -0.012098677 8.8180765e-005 0.005816529 6.6474488e-005 0.0058443984 0.99955362 -0.011485673
179935849.0566 0.99989408 -0.012435108 7.2454219e-005 0.00614125 9.3658105e-005 0.0061796899 0.99951029 -0.011873931
189932075.4717 1.0000407 -0.013146073 9.9063851e-005 0.0064643282 9.518466e-005 0.0065375511 0.99972451 -0.012488842
199928301.88679 0.99997914 -0.01405549 0.000104754 0.0068152314 0.00010890991 0.0068872389 0.99959964 -0.013388395
209924528.30189 0.99966669 -0.01470916 9.7988173e-005 0.0071900762 0.00013708253 0.0072205337 0.9993301 -0.014119014
219920754.71698 0.99970257 -0.015611887 0.00014291401 0.0075167874 0.00012339116 0.0075553562 0.99923265 -0.01481989
229916981.13208 0.9995085 -0.016459882 0.00012140605 0.0078659467 0.00012633554 0.0079229269 0.99918079 -0.015606195
239913207.54717 0.99933237 -0.017098149 0.00015676348 0.008194346 0.00013555067 0.008261187 0.99912816 -0.016309131
249909433.96226 0.99941075 -0.017758816 0.00017528562 0.0085269911 0.00012458256 0.0086034406 0.99921858 -0.016912729
259905660.37736 0.99951816 -0.018348277 0.00017022202 0.0089028869 0.00015991461 0.0089570116 0.99940479 -0.017564952
269901886.79245 0.99970114 -0.018971235 0.00021897978 0.0092320647 0.00015242677 0.0093213823 0.99979711 -0.018212974
279898113.20755 0.99972141 -0.019623578 0.00016933936 0.009520974 0.00016685855 0.0095992927 0.99963057 -0.018982843
289894339.62264 0.99976552 -0.020478129 0.00021542655 0.0098695569 0.00015566638 0.0099257119 0.99945927 -0.019803673
299890566.03774 0.99959898 -0.020994961 0.00027771248 0.010231324 0.00020472193 0.010296507 0.99923617 -0.020213544
309886792.45283 0.99937987 -0.02157858 0.00021201512 0.010573859 0.00027450401 0.010648698 0.99910176 -0.020716786
319883018.86792 0.99940991 -0.022177875 0.00022271601 0.010898815 0.00024347473 0.01099055 0.99918687 -0.02125144
329879245.28302 0.99932694 -0.023060054 0.00024974579 0.011222747 0.00024115806 0.011381696 0.99930435 -0.021944135
339875471.69811 0.99941438 -0.023679785 0.00030167494 0.011576829 0.00031483267 0.01171029 0.99914694 -0.022802547
349871698.11321 0.99942976 -0.024445206 0.00027560489 0.011875443 0.00028870394 0.012068115 0.99926007 -0.023632169
359867924.5283 0.9993614 -0.025398701 0.00033098878 0.012278852 0.00027044537 0.012380593 0.99920368 -0.024653524
369864150.9434 0.9995445 -0.026148081 0.00036447053 0.012540352 0.00037380517 0.012716739 0.99927408 -0.025363028
379860377.35849 0.99939287 -0.026955411 0.00033232104 0.012958191 0.00034593721 0.013044638 0.99915671 -0.026043579
389856603.77358 0.99929422 -0.027466714 0.0004140893 0.013321588 0.0004060897 0.013415299 0.99913633 -0.02644974
399852830.18868 0.99908364 -0.028081328 0.00037621614 0.01360381 0.00036044559 0.013720183 0.99922323 -0.02697137
409849056.60377 0.99909109 -0.028591495 0.00042351743 0.013936476 0.00042463612 0.014114356 0.99921942 -0.027522238
419845283.01887 0.99907291 -0.029015183 0.00041784998 0.014287463 0.00042159576 0.014386782 0.9992575 -0.028015077
429841509.43396 0.99918509 -0.029710889 0.00047989236 0.014655981 0.00045385119 0.014770251 0.99941593 -0.028787017
439837735.84906 0.99907273 -0.030567855 0.00048931153 0.014962402 0.00050363818 0.015112876 0.99920112 -0.029744193
449833962.26415 0.99895263 -0.031397432 0.00049205264 0.015286165 0.00046271319 0.015413331 0.99892652 -0.030662358
459830188.67925 0.99886274 -0.032137483 0.00045524538 0.015638009 0.00048084185 0.015762568 0.99868798 -0.031347364
469826415.09434 0.99882364 -0.032963097 0.0005200021 0.016001897 0.00051674433 0.016102763 0.99847442 -0.032064915
479822641.50943 0.99869132 -0.03361392 0.00054622372 0.016375197 0.00051270286 0.016457256 0.99851298 -0.032515824
489818867.92453 0.99872148 -0.034066826 0.00057507725 0.016674228 0.00058671413 0.016819635 0.99883151 -0.033050954
499815094.33962 0.99896026 -0.034734219 0.00060089445 0.017026357 0.00060151331 0.017132184 0.99906552 -0.033601403
509811320.75472 0.99898779 -0.035111211 0.00063016132 0.017340507 0.00062144652 0.017487407 0.99923432 -0.034612022
519807547.16981 0.99893337 -0.035689622 0.00062015885 0.01770102 0.00060983421 0.017810348 0.99918222 -0.03527534
529803773.58491 0.99890989 -0.036377132 0.00060755759 0.018043835 0.00065031648 0.018186014 0.99898136 -0.035927206
539800000 0.99889416 -0.037058905 0.00066090305 0.018372573 0.0006449956 0.018477561 0.99877769 -0.036640972
549796226.41509 0.99873596 -0.03796652 0.00072457409 0.018728323 0.00074982597 0.018880624 0.99847507 -0.037155628
559792452.83019 0.99846661 -0.038667381 0.00069930218 0.019075833 0.00075066835 0.019171335 0.9984293 -0.037622929
569788679.24528 0.99842501 -0.039349973 0.00073122047 0.019418079 0.00070325984 0.019551311 0.99862385 -0.038475633
579784905.66038 0.99834764 -0.039929345 0.00073350081 0.019748935 0.00076357473 0.019911207 0.99871397 -0.039126761
589781132.07547 0.99853063 -0.040637821 0.00080518238 0.020111606 0.00080150086 0.020205664 0.99880791 -0.040007442
599777358.49057 0.99863791 -0.041211873 0.0008891765 0.020437052 0.00085658953 0.020595092 0.99882269 -0.040885985
609773584.90566 0.99879712 -0.042004101 0.00090638851 0.020779829 0.00090946339 0.02093653 0.99871671 -0.041726016
619769811.32075 0.99882716 -0.042704791 0.00090049207 0.021077882 0.00089241983 0.02123885 0.99859655 -0.042278826
629766037.73585 0.99860036 -0.043330789 0.00095071737 0.021429513 0.00094446074 0.021585017 0.99837136 -0.042800367
639762264.15094 0.99840814 -0.043945253 0.00097832503 0.021734541 0.00095955119 0.021916714 0.99821454 -0.043282926
649758490.56604 0.99826872 -0.044676498 0.00099773705 0.02207675 0.00096744066 0.022240195 0.99832529 -0.043724686
659754716.98113 0.99820596 -0.045113146 0.00097242463 0.022412548 0.00097846799 0.022595592 0.99830043 -0.044283986
669750943.39623 0.99810004 -0.045629978 0.0010174932 0.022789851 0.0010167435 0.022960482 0.99838728 -0.045096338
679747169.81132 0.99818575 -0.046536237 0.0010384277 0.023104759 0.0010680147 0.023327356 0.99839115 -0.046074569
689743396.22642 0.99828595 -0.047244906 0.0011025108 0.023467908 0.0011225203 0.023684885 0.99815047 -0.04705599
699739622.64151 0.99843544 -0.04811275 0.0011730446 0.023789467 0.0011600014 0.023989979 0.99811506 -0.047731966
709735849.0566 0.99842179 -0.048942246 0.00120684 0.024126712 0.0012033945 0.024307782 0.99781281 -0.048397228
719732075.4717 0.99825281 -0.049636751 0.0012498279 0.024457136 0.0012264149 0.024629617 0.99793804 -0.048970073
729728301.88679 0.99822724 -0.050192416 0.0012575099 0.024763145 0.0012473054 0.024999235 0.99798 -0.049462706
739724528.30189 0.99805903 -0.050848067 0.0012990171 0.025079031 0.0012633991 0.025305178 0.99814963 -0.050128073
749720754.71698 0.99802214 -0.051396891 0.0013101203 0.025446724 0.0013310532 0.02566666 0.99823964 -0.050759539
759716981.13208 0.99802423 -0.051894665 0.0013734531 0.025752801 0.0013531027 0.025979027 0.99821126 -0.051634341
769713207.54717 0.99791944 -0.052667677 0.0014029602 0.026094122 0.0014026184 0.026309958 0.99789691 -0.052290112
779709433.96226 0.99813616 -0.053344671 0.0014061903 0.026439296 0.0014578956 0.026649646 0.99762911 -0.052998737
789705660.37736 0.99800628 -0.054203421 0.0014472092 0.026745237 0.00145627 0.026976027 0.99742448 -0.05372107
799701886.79245 0.99795198 -0.055035919 0.0015084296 0.027057573 0.0015137056 0.027306058 0.99731612 -0.054287702
809698113.20755 0.99786383 -0.055658922 0.0015098893 0.02739667 0.0015392022 0.027639309 0.99730027 -0.054768384
819694339.62264 0.99776763 -0.05631882 0.0015420453 0.027738318 0.001545521 0.027982051 0.99752098 -0.055376053
829690566.03774 0.99764681 -0.056896508 0.0015844554 0.028048679 0.0015777135 0.028337406 0.99777371 -0.056360126
839686792.45283 0.9977082 -0.057446897 0.0016133618 0.028405963 0.0016136877 0.028645594 0.99776727 -0.05716911
849683018.86792 0.99779987 -0.05801224 0.0016281805 0.028703399 0.0016758763 0.028987471 0.997657 -0.057941943
859679245.28302 0.99789 -0.058772206 0.0016734218 0.029064972 0.0016892189 0.029330753 0.99735725 -0.058578134
869675471.69811 0.99779236 -0.059574544 0.0017416459 0.029419763 0.0017207973 0.029643521 0.99706453 -0.059085339
879671698.11321 0.99760944 -0.060204543 0.0018000957 0.029702837 0.0017673942 0.029958813 0.99708241 -0.059579615
889667924.5283 0.99744499 -0.061119705 0.0017960491 0.030043578 0.001789785 0.030294245 0.99686271 -0.060041606
899664150.9434 0.99731487 -0.061743319 0.001813178 0.030367453 0.0018092263 0.030633686 0.99696916 -0.060697556
909660377.35849 0.99729717 -0.062485278 0.0018501659 0.030696958 0.0018708147 0.03095099 0.99709946 -0.061621204
919656603.77358 0.99745059 -0.063114494 0.0018728115 0.031022873 0.0018929569 0.031330995 0.99709135 -0.06253466
929652830.18868 0.9973582 -0.063871771 0.0019259192 0.031336464 0.0019083954 0.031617969 0.99691427 -0.063416541
939649056.60377 0.99753934 -0.064543337 0.0018959194 0.031671375 0.0019461503 0.031930137 0.99674684 -0.064156622
949645283.01887 0.9975161 -0.065378577 0.0019274744 0.032005809 0.0019267463 0.03229405 0.99651676 -0.064710557
959641509.43396 0.99742484 -0.066109866 0.0019593285 0.032361276 0.0019779047 0.032670435 0.99645603 -0.065236539
969637735.84906 0.99733567 -0.066827387 0.0020060204 0.032750882 0.0020162975 0.033027828 0.99642807 -0.06559822
979633962.26415 0.99717313 -0.067565948 0.0020813083 0.03304876 0.0020849977 0.033348922 0.99645758 -0.066263564
989630188.67925 0.99719739 -0.068101346 0.0021004342 0.033394799 0.0021312041 0.033692379 0.99663204 -0.06683591
999626415.09434 0.99726975 -0.068758279 0.0021393523 0.033702102 0.0021670796 0.034022547 0.99658501 -0.067697167
1009622641.5094 0.99726939 -0.069400236 0.002154734 0.034044147 0.002214429 0.03436758 0.99643046 -0.06862019
1019618867.9245 0.99734163 -0.070263594 0.0022200379 0.03438713 0.0023034583 0.034706719 0.99613762 -0.069522366
1029615094.3396 0.99732518 -0.071195126 0.0022961404 0.034741182 0.0023480635 0.035016514 0.99580163 -0.070054591
1039611320.7547 0.99736094 -0.072039962 0.0023286464 0.035027888 0.0023878841 0.035353966 0.99575758 -0.070768833
1049607547.1698 0.99720955 -0.073018476 0.0023767962 0.035333078 0.0023815236 0.035663698 0.99572104 -0.071366243
1059603773.5849 0.99710739 -0.073700637 0.0023955526 0.035617281 0.0024466952 0.0359536 0.99570566 -0.071907133
1069600000 0.99684322 -0.074336588 0.0023962818 0.03596985 0.0024604518 0.036314961 0.99590111 -0.072615802
1079596226.4151 0.9967764 -0.074978665 0.0024153283 0.036309186 0.0024648909 0.036620557 0.99583381 -0.073459543
1089592452.8302 0.99684596 -0.075537711 0.0024244804 0.036641527 0.0025032274 0.036956903 0.99577296 -0.074149787
1099588679.2453 0.99687934 -0.076276779 0.0024469979 0.036988109 0.0025192443 0.037295584 0.99539149 -0.074799329
1109584905.6604 0.99692714 -0.077100173 0.0024646297 0.037328616 0.0025609033 0.037682757 0.99515724 -0.075376496
1119581132.0755 0.99694657 -0.078082353 0.0025142748 0.037682649 0.0025631343 0.037996713 0.99498069 -0.075691164
1129577358.4906 0.99677747 -0.078919023 0.0025634896 0.038026944 0.0026161056 0.038406715 0.99490619 -0.076208174
1139573584.9057 0.99647611 -0.079900414 0.0025816113 0.038370159 0.0026986552 0.038719717 0.99498916 -0.076966405
1149569811.3208 0.99640006 -0.08072757 0.0026604293 0.038698595 0.0027101822 0.039094392 0.99506474 -0.077677533
1159566037.7358 0.99613607 -0.081413507 0.0026725903 0.039021879 0.0027736425 0.039386995 0.9951992 -0.078689814
1169562264.1509 0.99602413 -0.081994444 0.0026833825 0.039317414 0.0027928203 0.039697681 0.99505347 -0.079531759
1179558490.566 0.99601012 -0.082833849 0.0027386663 0.039733723 0.0028196003 0.040068049 0.99487561 -0.080226243
1189554716.9811 0.9960193 -0.083530813 0.0027432088 0.040075667 0.0028822701 0.040419653 0.99457598 -0.080723315
1199550943.3962 0.99589443 -0.084381729 0.002790289 0.040421199 0.0029409807 0.040769085 0.99439788 -0.081163973
1209547169.8113 0.99573517 -0.08523865 0.0028275754 0.040774371 0.0029668827 0.041110784 0.99436063 -0.081498072
1219543396.2264 0.99547243 -0.086059377 0.0029274654 0.041119244 0.0030046189 0.041511942 0.99438608 -0.082002178
1229539622.6415 0.99520314 -0.086927801 0.0029769652 0.041467302 0.0030600578 0.041838516 0.99458694 -0.082669586
1239535849.0566 0.99493527 -0.087644547 0.0030415468 0.041782502 0.0031906292 0.042177949 0.99460083 -0.083571255
1249532075.4717 0.99454337 -0.088322498 0.0030822847 0.042116087 0.0032403101 0.042445101 0.99445957 -0.084430605
1259528301.8868 0.9945159 -0.088814974 0.0031486433 0.042435795 0.0032783635 0.042779855 0.99420607 -0.085326076
1269524528.3019 0.99426818 -0.08957687 0.0031946618 0.042765222 0.0033626668 0.043094266 0.99396229 -0.086025864
1279520754.717 0.99389559 -0.09027949 0.003280309 0.043060701 0.0034419673 0.043362919 0.99367833 -0.08663401
1289516981.1321 0.99375451 -0.091098279 0.0032840837 0.043374702 0.0034281528 0.043687399 0.99379939 -0.086989194
1299513207.5472 0.99337685 -0.091951072 0.003311757 0.043684281 0.003440287 0.043985352 0.99391389 -0.087417513
1309509433.9623 0.99295807 -0.092714712 0.0033269031 0.04401296 0.0034922482 0.0443248 0.9939732 -0.088234723
1319505660.3774 0.9926331 -0.093356684 0.0032944996 0.044342045 0.0034636119 0.04467402 0.99401748 -0.088810042
1329501886.7925 0.99230051 -0.094040275 0.0033660885 0.044688366 0.0035021864 0.044979054 0.99395114 -0.089822531
1339498113.2075 0.99200761 -0.09460783 0.0033473819 0.045012459 0.003533286 0.045324381 0.99364913 -0.090499938
1349494339.6226 0.9918322 -0.095225744 0.00335387 0.045361213 0.0034961286 0.045679417 0.99322832 -0.091100909
1359490566.0377 0.99176657 -0.095810324 0.003385745 0.045733009 0.0035164002 0.046002895 0.99294245 -0.091739029
1369486792.4528 0.9914996 -0.096333027 0.0033937674 0.046104345 0.0035409182 0.046376765 0.99278682 -0.092171997
1379483018.8679 0.99120933 -0.096892655 0.0034200528 0.046472404 0.0035330148 0.046712242 0.99284792 -0.092459045
1389479245.283 0.99084699 -0.097529739 0.0034463834 0.046842013 0.003569752 0.047117572 0.99275196 -0.093199253
1399475471.6981 0.99051046 -0.097744644 0.0034857336 0.04722188 0.003567962 0.04750216 0.99297082 -0.093886942
1409471698.1132 0.99008799 -0.098226987 0.0035191516 0.047598384 0.0036364363 0.04790299 0.99294722 -0.094729833
1419467924.5283 0.98992723 -0.098467439 0.0035754731 0.0479756 0.0036433144 0.048274815 0.99273574 -0.095473915
1429464150.9434 0.98981309 -0.099006802 0.0036071613 0.048405934 0.0037013777 0.048656531 0.99266857 -0.095970273
1439460377.3585 0.98995316 -0.099429786 0.0037121195 0.048832383 0.0037517594 0.049106777 0.99242717 -0.096347228
1449456603.7736 0.98992032 -0.09998934 0.0037917159 0.049235307 0.0038581705 0.049516864 0.99228221 -0.096660718
1459452830.1887 0.98995066 -0.10064945 0.0039535649 0.049647763 0.0039850678 0.04992304 0.99240917 -0.097019583
1469449056.6038 0.99001133 -0.1013357 0.0041264156 0.050014548 0.0041060131 0.050313443 0.99262202 -0.097739637
1479445283.0189 0.98980075 -0.10196957 0.0042195925 0.050293356 0.0042619891 0.050617039 0.99263173 -0.098577112
1489441509.434 0.98977095 -0.10241744 0.0043535829 0.050600499 0.0044062547 0.050922539 0.99266601 -0.099434048
1499437735.8491 0.98957384 -0.10278663 0.00446577 0.050874509 0.0044902377 0.051173694 0.99247181 -0.10035554
1509433962.2642 0.98955101 -0.10335328 0.0045784335 0.051180191 0.0046032052 0.051491667 0.99226749 -0.10106498
1519430188.6792 0.98963463 -0.1039204 0.0046727769 0.051429767 0.0046659466 0.051724643 0.99214166 -0.10156924
1529426415.0943 0.98960203 -0.10459438 0.0046844631 0.051744059 0.0047553442 0.052069776 0.99205106 -0.10203713
1539422641.5094 0.98959136 -0.10545845 0.0047708973 0.052054722 0.0047995364 0.052380387 0.99210364 -0.10252906
1549418867.9245 0.98939395 -0.10617086 0.0048270365 0.052359357 0.0048284773 0.05264955 0.99234468 -0.10322841
1559415094.3396 0.98938262 -0.10684168 0.0048785899 0.052631967 0.0048886258 0.052950166 0.99251401 -0.10391244
1569411320.7547 0.98927116 -0.1075732 0.0048980489 0.052957308 0.0049165431 0.053256132 0.9923839 -0.10476424
1579407547.1698 0.98910373 -0.10817547 0.0049563115 0.053186636 0.0049094353 0.053541362 0.99192828 -0.10558923
1589403773.5849 0.98902112 -0.10873869 0.0049292147 0.053511519 0.0049189273 0.05386705 0.99176192 -0.10630575
1599400000 0.98902959 -0.10915998 0.0049283616 0.053792227 0.0049698949 0.054195154 0.99123991 -0.10681435
1609396226.4151 0.98905224 -0.10986357 0.0049666571 0.054157328 0.0049300669 0.054517146 0.99116141 -0.10732329
1619392452.8302 0.98901147 -0.11050129 0.0049645454 0.054513022 0.004955193 0.054851726 0.99123716 -0.10782766
1629388679.2453 0.98874605 -0.11123025 0.0049671028 0.054851219 0.0049247909 0.055198029 0.9913581 -0.10830501
1639384905.6604 0.98853701 -0.11188754 0.0049840244 0.055199526 0.0049374793 0.055624593 0.99170983 -0.10915698
1649381132.0755 0.98832405 -0.11256731 0.0050095003 0.055546045 0.004996771 0.055964082 0.99155694 -0.11010608
1659377358.4906 0.98817742 -0.11325344 0.004976619 0.055952311 0.0050344598 0.056353338 0.99161899 -0.1109744
1669373584.9057 0.98813426 -0.11376684 0.0050487104 0.056329623 0.0050489013 0.056767929 0.99130726 -0.1115308
1679369811.3208 0.98817199 -0.11445773 0.0051130392 0.056736857 0.005115781 0.057140224 0.99099147 -0.11214614
1689366037.7358 0.98819345 -0.11519209 0.0051745605 0.057087712 0.0051371865 0.057521392 0.99089581 -0.1124585
1699362264.1509 0.98824173 -0.11567082 0.0052291099 0.057495303 0.0052596917 0.057935264 0.99102855 -0.11294329
1709358490.566 0.9881295 -0.11639464 0.0052507771 0.057872482 0.0052499352 0.058314431 0.99105203 -0.11358152
1719354716.9811 0.98789775 -0.11705312 0.0053063296 0.058228046 0.0053639952 0.058705471 0.99108815 -0.1142374
1729350943.3962 0.98758399 -0.11764351 0.0054011028 0.058618996 0.0054228883 0.059097394 0.99109215 -0.11515221
