!Keysight Technologies,N5222B,MY61253708,A.15.00.15
!Date: Wednesday, June 19, 2024 09:50:31
!Correction: S11(C  2-Port  ) 
!S21(C  2-Port  ) 
!S12(C  2-Port  ) 
!S22(C  2-Port  ) 
!S2P File: Measurements: S11, S21, S12, S22:
# Hz S  RI   R 50
10000000 0.99876797 -0.0025809705 -0.00010907026 0.00035970536 0.0001226543 0.00014743363 0.99851632 -0.0015800595
19996226.415094 0.99919677 -0.0034030676 7.5525168e-005 0.00064686622 3.4897472e-005 0.00069439586 0.99953866 -0.003456682
29992452.830189 0.99980551 -0.0025007725 5.7735306e-006 0.0010361652 1.8154096e-005 0.00098860695 0.99942636 -0.0026313961
39988679.245283 1.0000715 -0.0029981434 -2.0264575e-005 0.0013605786 -1.4351564e-005 0.0013111689 0.99964112 -0.0030690581
49984905.660377 1.0002689 -0.0036563277 8.6929649e-006 0.0016682155 1.0911026e-006 0.0016583565 0.99977648 -0.0036493242
59981132.075472 1.0004103 -0.00449422 2.2163033e-005 0.0020097243 6.8282359e-005 0.0019576408 0.99975914 -0.0041927993
69977358.490566 1.0001578 -0.0051090922 -9.9100725e-007 0.0023110497 4.4779408e-006 0.0023167992 0.99963796 -0.0048188567
79973584.90566 0.99996608 -0.0056770742 1.1362135e-006 0.0026292636 5.1443931e-006 0.0026572905 0.99937832 -0.0052879751
89969811.320755 0.99998796 -0.0058309138 -3.5361154e-006 0.0029864595 1.2673205e-005 0.0030123475 0.99955601 -0.0055392385
99966037.735849 1.0002201 -0.006572485 -2.7038041e-006 0.0033324379 1.0736636e-005 0.0033157158 0.99962926 -0.0063663125
109962264.15094 1.0001829 -0.007457152 2.4694018e-005 0.0036416603 2.6966096e-005 0.0036585194 0.99962658 -0.007097438
119958490.56604 1.0002204 -0.0083648562 2.5097281e-005 0.0039738351 4.8238435e-005 0.0040088482 0.99964732 -0.0079879463
129954716.98113 1.0001676 -0.0093017817 4.2774365e-005 0.0043105083 3.3260672e-005 0.0043108421 0.99964601 -0.0088655651
139950943.39623 1.000114 -0.010090807 3.7071615e-005 0.00463743 3.5388759e-005 0.0046559488 0.99957848 -0.0095859151
149947169.81132 0.99997109 -0.010773033 5.1039038e-005 0.0049666008 3.9298553e-005 0.0049859807 0.99951041 -0.010199934
159943396.22642 0.99993187 -0.011308104 6.8467576e-005 0.0053106034 5.1604118e-005 0.00532101 0.99958086 -0.010693192
169939622.64151 0.99989867 -0.011748247 7.4124488e-005 0.0056451266 5.9406564e-005 0.0056715342 0.9996472 -0.011148632
179935849.0566 1.0000119 -0.012006462 8.8472269e-005 0.0059782816 6.635196e-005 0.0059934971 0.99952734 -0.011500031
189932075.4717 1.0001488 -0.012777358 9.8530203e-005 0.0062843808 7.9621561e-005 0.0062973234 0.99972147 -0.012090921
199928301.88679 1.0000318 -0.013578326 7.9393853e-005 0.006635752 9.7785727e-005 0.0066473838 0.99962878 -0.012873739
209924528.30189 0.99979544 -0.014145985 0.00010299787 0.0069663553 0.00011385698 0.006966386 0.99939442 -0.013620675
219920754.71698 0.9999752 -0.014927179 0.00011954526 0.0072905021 9.7113196e-005 0.0073150685 0.99936414 -0.014233768
229916981.13208 0.99967963 -0.015883714 0.00012208987 0.0075995019 0.00013938639 0.0076739984 0.99932599 -0.015067846
239913207.54717 0.9995538 -0.016503653 0.0001429058 0.0079301726 0.00012043459 0.0079768477 0.9993059 -0.015779736
249909433.96226 0.99961817 -0.017108738 0.00015511247 0.0082636252 0.00012804568 0.0083182044 0.99931014 -0.016363382
259905660.37736 0.99974215 -0.017724693 0.00012248103 0.0085894316 6.7081768e-005 0.0086588887 0.99951267 -0.016957521
269901886.79245 0.99982965 -0.018450871 0.00017941114 0.0089030555 0.00016033929 0.0089852782 0.99986523 -0.017603353
279898113.20755 0.99996567 -0.018979028 0.00012411876 0.0092573939 0.00018444262 0.009308422 0.99967647 -0.01840727
289894339.62264 0.99977922 -0.019797951 0.00019364199 0.0095896497 0.0001615691 0.0096594719 0.99963176 -0.019155562
299890566.03774 0.99980474 -0.02023831 0.00017229933 0.0098963939 0.00017340621 0.0099484101 0.99933922 -0.019595534
309886792.45283 0.9996742 -0.020849206 0.00023217552 0.010263063 0.00021651585 0.010331396 0.99922943 -0.020042337
319883018.86792 0.99966109 -0.021479279 0.00021315366 0.010638503 0.00026467443 0.010628738 0.99935174 -0.020550072
329879245.28302 0.99964917 -0.022241056 0.0002629701 0.010918926 0.0002460489 0.010964582 0.9994303 -0.021298736
339875471.69811 0.99952978 -0.022926487 0.00027501083 0.011217527 0.00026582321 0.011295011 0.99938887 -0.022089519
349871698.11321 0.99967033 -0.023805797 0.00027282489 0.011548133 0.00026111491 0.011647157 0.99940324 -0.022968888
359867924.5283 0.99955112 -0.024665833 0.0003184313 0.011878844 0.00027769851 0.011998605 0.99932611 -0.023935258
369864150.9434 0.99965775 -0.025357664 0.00029805163 0.012245027 0.00029176241 0.012300998 0.99937963 -0.024566084
379860377.35849 0.99954277 -0.026097655 0.00032006693 0.012566044 0.00031523663 0.012615315 0.99922973 -0.025291294
389856603.77358 0.99949026 -0.026616037 0.00033629267 0.012892307 0.00035958039 0.013004258 0.99928701 -0.025733531
399852830.18868 0.9993127 -0.027320266 0.0003755535 0.013219774 0.00032962533 0.013310762 0.99934918 -0.026216954
409849056.60377 0.99925959 -0.027780129 0.00038135058 0.013529265 0.00036871282 0.013632968 0.99933875 -0.026706228
419845283.01887 0.9992013 -0.028232187 0.00037652999 0.013882414 0.00038596801 0.013963399 0.99935091 -0.027224064
429841509.43396 0.99931198 -0.028819799 0.00037379796 0.014243448 0.00042303139 0.014290879 0.99956036 -0.027945817
439837735.84906 0.99923229 -0.029737487 0.00043369213 0.014515885 0.00043701951 0.014603661 0.99934667 -0.02895461
449833962.26415 0.99903083 -0.030506343 0.00045126071 0.014828445 0.00046758307 0.014957721 0.99890286 -0.029793054
459830188.67925 0.99889785 -0.031139046 0.00047708116 0.015202919 0.00044694589 0.015288059 0.99880016 -0.030430228
469826415.09434 0.99880069 -0.031983525 0.00046396255 0.015502788 0.00044504134 0.015607351 0.99860048 -0.031074017
479822641.50943 0.99870485 -0.032457583 0.00049884198 0.015859963 0.00050268508 0.015980111 0.99863094 -0.03150408
489818867.92453 0.99879801 -0.032996267 0.00051209936 0.01619602 0.00051756622 0.016273666 0.99889946 -0.03205958
499815094.33962 0.99892104 -0.033614188 0.00052462053 0.016520858 0.00053931819 0.016613986 0.99916905 -0.032635242
509811320.75472 0.99895483 -0.033987794 0.00060310157 0.016823344 0.00056367973 0.016883375 0.99925238 -0.033422589
519807547.16981 0.99896473 -0.034570187 0.0005964851 0.017146451 0.00055932114 0.017242778 0.99925929 -0.034161836
529803773.58491 0.99898088 -0.035193384 0.00063779019 0.017469313 0.00058070198 0.017587079 0.9989593 -0.034691513
539800000 0.99895978 -0.035798013 0.00064168987 0.017813094 0.00063532754 0.017889339 0.99887443 -0.035471827
549796226.41509 0.99885905 -0.036593497 0.00060463743 0.018149804 0.00065630767 0.018248979 0.99871212 -0.035894185
559792452.83019 0.99868935 -0.037304491 0.00063149165 0.01850323 0.00067867432 0.018587712 0.99868274 -0.036430687
569788679.24528 0.9985218 -0.037985265 0.00065965112 0.018814458 0.0006731241 0.018916141 0.99867141 -0.037212789
579784905.66038 0.99852335 -0.038586572 0.00069980405 0.01913983 0.00070531107 0.019282142 0.99885333 -0.037946589
589781132.07547 0.9986378 -0.039247662 0.00076138042 0.019472314 0.00074664596 0.019609088 0.99891663 -0.038751632
599777358.49057 0.99874353 -0.039859623 0.00077570975 0.019825229 0.00076987315 0.019936979 0.99892926 -0.03952831
609773584.90566 0.99888492 -0.040618557 0.00082220044 0.020117916 0.0008029826 0.020277243 0.99880636 -0.040395513
619769811.32075 0.99893796 -0.041332185 0.00084374985 0.020484578 0.00083150249 0.020606905 0.99882877 -0.040918112
629766037.73585 0.99887949 -0.041951448 0.00086230598 0.02078617 0.0008704206 0.020923004 0.99859411 -0.04146558
639762264.15094 0.99868232 -0.042605519 0.00088992622 0.02106557 0.00090531912 0.021214722 0.99845344 -0.041957915
649758490.56604 0.99866062 -0.04316403 0.00088203233 0.02138586 0.00089248782 0.02156472 0.99850684 -0.04240334
659754716.98113 0.99839675 -0.04369241 0.00090449024 0.021758229 0.00091029238 0.021863896 0.99853647 -0.0430004
669750943.39623 0.99850601 -0.044109255 0.00092335418 0.022085775 0.00090609957 0.022215394 0.99858493 -0.043734193
679747169.81132 0.99847686 -0.044959292 0.00099573366 0.022426335 0.00097912713 0.022558527 0.99861151 -0.044634186
689743396.22642 0.99859542 -0.045777351 0.0010385811 0.022784231 0.00099918898 0.022918427 0.99838936 -0.045588851
699739622.64151 0.99869084 -0.046527714 0.00106485 0.023074839 0.0010497803 0.023245092 0.99835527 -0.046276629
709735849.0566 0.9986406 -0.047342643 0.0011121253 0.023425916 0.0011216195 0.023549335 0.99811047 -0.046868339
719732075.4717 0.99858612 -0.04809314 0.0011767992 0.023729546 0.0011241939 0.023881922 0.99819201 -0.047442555
729728301.88679 0.99854916 -0.04866457 0.0011732047 0.024063338 0.0011609057 0.024199374 0.99818331 -0.047987014
739724528.30189 0.99840784 -0.049370319 0.0011977362 0.024352957 0.0012089885 0.024523135 0.99843037 -0.048616797
749720754.71698 0.99830383 -0.049729958 0.0011861417 0.024543453 0.0012335572 0.024813389 0.99835074 -0.049280882
759716981.13208 0.99833608 -0.05028975 0.0012465315 0.024897631 0.0012354292 0.025108896 0.9984014 -0.050045848
769713207.54717 0.99825788 -0.050911635 0.0012518028 0.025216034 0.0012694895 0.025443293 0.99808455 -0.050720751
779709433.96226 0.99841267 -0.051633637 0.0012921677 0.025553811 0.0013225839 0.025773428 0.99793142 -0.051323581
789705660.37736 0.99828768 -0.052541405 0.0013518492 0.025860891 0.0013472997 0.026093042 0.9977082 -0.05206129
799701886.79245 0.99819899 -0.053227693 0.0013499893 0.026178418 0.0013671853 0.026402444 0.99752855 -0.052660584
809698113.20755 0.998133 -0.053833485 0.0013952693 0.026482798 0.0014010917 0.026725259 0.9975943 -0.053093985
819694339.62264 0.99795353 -0.054481804 0.0013936595 0.02680973 0.0014310819 0.027027899 0.99765396 -0.053733647
829690566.03774 0.99801791 -0.055161685 0.0014462359 0.027127797 0.0014801482 0.027394434 0.99790418 -0.054582745
839686792.45283 0.99799216 -0.055616319 0.0014490071 0.027459972 0.0014759144 0.027716443 0.99798715 -0.055424631
849683018.86792 0.99810505 -0.056241542 0.0015004894 0.027769625 0.0015274975 0.027997172 0.99791616 -0.056097582
859679245.28302 0.99816227 -0.056907535 0.0015364429 0.028083468 0.0015568538 0.028329905 0.99764949 -0.056797624
869675471.69811 0.99801987 -0.057644248 0.00162673 0.028431671 0.001592502 0.028669344 0.99731123 -0.05731824
879671698.11321 0.99796158 -0.058381684 0.0016564736 0.028711624 0.0016383955 0.029023863 0.99730963 -0.057760887
889667924.5283 0.99782193 -0.059081584 0.001645132 0.029038895 0.0016772421 0.029289126 0.99717611 -0.058253437
899664150.9434 0.99767911 -0.059743971 0.0016393792 0.0293354 0.0016706605 0.029585192 0.99713254 -0.058847874
909660377.35849 0.99757046 -0.060448587 0.0016992157 0.029654818 0.0017144368 0.029915061 0.99732441 -0.059705421
919656603.77358 0.99764478 -0.061132595 0.0017280686 0.029985946 0.0017421008 0.030246051 0.99734724 -0.060538217
929652830.18868 0.99765295 -0.061886907 0.0017216597 0.030293323 0.0017769169 0.030581959 0.99721861 -0.061471194
939649056.60377 0.99784398 -0.062418878 0.0017641727 0.030601339 0.0017645406 0.030875038 0.99699676 -0.062172115
949645283.01887 0.99781597 -0.063281432 0.0017422594 0.030961646 0.001790804 0.031249752 0.99678022 -0.062746659
959641509.43396 0.99776536 -0.063932985 0.001795481 0.031297468 0.001797297 0.031593401 0.99669719 -0.063142657
969637735.84906 0.99772096 -0.064710617 0.0018430511 0.031655345 0.0018536309 0.031908497 0.99672943 -0.063598663
979633962.26415 0.99752963 -0.065398306 0.0018826786 0.03194603 0.001914884 0.032236073 0.99675876 -0.06422314
989630188.67925 0.99750429 -0.065883279 0.0019352799 0.032265075 0.0019774679 0.032578159 0.9969933 -0.064848393
999626415.09434 0.99760211 -0.066507518 0.0019489117 0.032591734 0.002004453 0.032907251 0.99696046 -0.065707475
1009622641.5094 0.99762231 -0.067118689 0.0019929158 0.032931738 0.0020255866 0.033241905 0.99673486 -0.06648314
1019618867.9245 0.99769384 -0.067968741 0.0020251744 0.033236559 0.0020798612 0.033555448 0.99654198 -0.067360923
1029615094.3396 0.99760962 -0.068836153 0.0020729294 0.033557672 0.0021415967 0.033855341 0.99614024 -0.067871898
1039611320.7547 0.99776369 -0.069739938 0.0021487679 0.033850778 0.002156999 0.034142226 0.99614513 -0.068499774
1049607547.1698 0.99759108 -0.070595987 0.0021547712 0.034145027 0.0021732959 0.034466948 0.99613315 -0.069182977
1059603773.5849 0.99747258 -0.07134217 0.0021736193 0.034431614 0.0022208011 0.034785457 0.99608564 -0.069669276
1069600000 0.99730408 -0.071963698 0.0021485025 0.034767352 0.0022498481 0.035081819 0.99617732 -0.070430458
1079596226.4151 0.99726611 -0.07256335 0.0021873848 0.035097752 0.0022556176 0.035450283 0.99625987 -0.071140401
1089592452.8302 0.9972555 -0.073164701 0.002217968 0.035422791 0.0023137508 0.035777509 0.99617058 -0.071931094
1099588679.2453 0.99731499 -0.073921174 0.002220409 0.035733365 0.0022822078 0.036072288 0.99585652 -0.072568268
1109584905.6604 0.99743414 -0.07476528 0.0022761161 0.036068942 0.0023058467 0.036424384 0.99563175 -0.073131382
1119581132.0755 0.99738884 -0.075703904 0.0022829426 0.03642185 0.0023520035 0.036790371 0.99542516 -0.073475689
1129577358.4906 0.99727023 -0.076385677 0.0023056772 0.03678596 0.0024135914 0.037136372 0.99532419 -0.073950827
1139573584.9057 0.99696159 -0.07723251 0.0023334175 0.037115872 0.00246129 0.03745687 0.99540651 -0.074617982
1149569811.3208 0.99689174 -0.078163773 0.0024178415 0.037423108 0.0025092023 0.037802905 0.99555141 -0.07526429
1159566037.7358 0.99659848 -0.078773856 0.0024405364 0.037708819 0.002530829 0.038065076 0.99562895 -0.076327115
1169562264.1509 0.99642253 -0.079586804 0.0024407227 0.03805789 0.0025266558 0.038427319 0.99548453 -0.077024877
1179558490.566 0.99643642 -0.080190778 0.002458011 0.038401168 0.0025725889 0.038771998 0.99537069 -0.077800691
1189554716.9811 0.99643457 -0.080977678 0.002488127 0.038743492 0.0026197582 0.039115094 0.99508882 -0.078325212
1199550943.3962 0.99640423 -0.081825137 0.00256107 0.039111085 0.0026696809 0.039439872 0.99498641 -0.078779936
1209547169.8113 0.99624914 -0.082671762 0.0026049754 0.03942493 0.0027140575 0.039765291 0.99494022 -0.079192549
1219543396.2264 0.99597621 -0.083454788 0.0026424136 0.039803728 0.0027599917 0.040138818 0.99493641 -0.07951358
1229539622.6415 0.99583977 -0.084290802 0.0026952438 0.040102243 0.0028131865 0.040440172 0.99501276 -0.080196112
1239535849.0566 0.9955945 -0.084868491 0.0027417447 0.040417738 0.0028801607 0.040765759 0.99518037 -0.081151098
1249532075.4717 0.99523401 -0.085611694 0.002816289 0.040723078 0.0029259778 0.041063946 0.99498612 -0.081850223
1259528301.8868 0.99502897 -0.086012691 0.0028898697 0.041058671 0.003012443 0.041391488 0.99482441 -0.082789063
1269524528.3019 0.99485433 -0.086847991 0.002939567 0.041379433 0.0030758549 0.041677017 0.99456406 -0.083382398
1279520754.717 0.99449015 -0.087500624 0.0029855715 0.041651666 0.003135683 0.041952163 0.99434978 -0.084041111
1289516981.1321 0.99430734 -0.088369697 0.0030170968 0.041946784 0.0031516403 0.042223871 0.99438852 -0.084511489
1299513207.5472 0.99411929 -0.089253902 0.0030057356 0.042238913 0.0031434391 0.042575907 0.99436796 -0.084829897
1309509433.9623 0.99366039 -0.089844078 0.0030149901 0.04255534 0.0031761732 0.042889845 0.9945845 -0.085577428
1319505660.3774 0.99336112 -0.090577096 0.0030060653 0.042909462 0.0031813122 0.043184683 0.99453139 -0.086200193
1329501886.7925 0.99305975 -0.091246009 0.0030475445 0.043204296 0.0032032188 0.043519385 0.99458271 -0.087196767
1339498113.2075 0.99275661 -0.09169507 0.0030624634 0.043525334 0.0032073278 0.043836541 0.99422246 -0.087832481
1349494339.6226 0.99254787 -0.092292562 0.0030805743 0.043890543 0.0031670895 0.044200554 0.9938494 -0.088445403
1359490566.0377 0.9924829 -0.092939883 0.0030667856 0.044227388 0.0032106619 0.044540826 0.99366093 -0.088947237
1369486792.4528 0.99218398 -0.093365431 0.0030758278 0.044596218 0.0032054605 0.044855196 0.993478 -0.089468777
1379483018.8679 0.99191779 -0.09397164 0.0030827066 0.044963121 0.003219662 0.045208197 0.99344963 -0.089715049
1389479245.283 0.99161059 -0.09450984 0.0031406879 0.045317855 0.0032664891 0.045588322 0.99339753 -0.090451092
1399475471.6981 0.99134046 -0.094860494 0.0031426288 0.045663342 0.0032643862 0.045971937 0.99359739 -0.091139048
1409471698.1132 0.99092025 -0.095290877 0.0032037946 0.046052009 0.0032747751 0.046365276 0.99367237 -0.09188126
1419467924.5283 0.99074161 -0.095548511 0.0032274257 0.0463937 0.003324369 0.046697721 0.99344915 -0.092641652
1429464150.9434 0.99070537 -0.095969617 0.0032616146 0.046801999 0.0033617895 0.047089346 0.99337661 -0.093285561
1439460377.3585 0.99075645 -0.096527815 0.00333561 0.047269776 0.0034151096 0.047482718 0.99315649 -0.093640253
1449456603.7736 0.99077255 -0.097066939 0.003439323 0.047671687 0.0035259966 0.047893006 0.99296272 -0.093882814
1459452830.1887 0.99076247 -0.097734332 0.0036003944 0.048027087 0.0036066175 0.048330061 0.99320233 -0.094127357
1469449056.6038 0.99080682 -0.098286062 0.0037549194 0.048405696 0.0037964778 0.048667423 0.99337608 -0.094888002
1479445283.0189 0.99070483 -0.098876879 0.0038669968 0.048626259 0.0039147409 0.048978943 0.99341625 -0.095730931
1489441509.434 0.99059439 -0.099474847 0.0039865356 0.048990678 0.0040531531 0.049262807 0.99329758 -0.096707702
1499437735.8491 0.99039268 -0.099758029 0.0041065067 0.049248368 0.004150847 0.049544994 0.99324775 -0.097346336
1509433962.2642 0.99044508 -0.10028964 0.0042080106 0.049525097 0.0042430582 0.049806647 0.99303567 -0.098112829
1519430188.6792 0.99061626 -0.10079369 0.0042615645 0.049781814 0.0042598657 0.050105628 0.99293828 -0.098658264
1529426415.0943 0.99045682 -0.10153362 0.0043084733 0.050108843 0.0043147858 0.050402328 0.99282575 -0.09917599
1539422641.5094 0.99057013 -0.10238351 0.0043651126 0.050396364 0.0044004647 0.050666977 0.99289024 -0.099627838
1549418867.9245 0.99029982 -0.10309297 0.0044048866 0.05063992 0.0044430178 0.050939258 0.99308515 -0.10031021
1559415094.3396 0.99022019 -0.10375807 0.0044474863 0.050939202 0.0044912621 0.051279709 0.99322486 -0.10097197
1569411320.7547 0.9901402 -0.10451773 0.0045090811 0.051221065 0.004516582 0.051572669 0.99310517 -0.10184351
1579407547.1698 0.99004292 -0.10491525 0.0045515182 0.051476229 0.0045400192 0.051847119 0.99280161 -0.10258959
1589403773.5849 0.99003434 -0.10563129 0.0045139939 0.051814575 0.0045454782 0.052126236 0.99252582 -0.10330048
1599400000 0.9900099 -0.1060234 0.0045117131 0.052088216 0.0045543369 0.052428026 0.99219751 -0.10371628
1609396226.4151 0.98996133 -0.10672411 0.0045119934 0.052396312 0.0045169955 0.052747749 0.99200279 -0.10425004
1619392452.8302 0.98997813 -0.10724187 0.0045357887 0.052740522 0.0045146365 0.053090177 0.99197459 -0.10463753
1629388679.2453 0.98970634 -0.10803765 0.0045355298 0.053057488 0.004496688 0.053423006 0.99218786 -0.10530564
1639384905.6604 0.98956406 -0.10863499 0.004553257 0.053427238 0.0045423484 0.053818636 0.99236625 -0.10608271
1649381132.0755 0.98937345 -0.1092886 0.0045273546 0.053798579 0.0045818575 0.054179601 0.99238694 -0.10704038
1659377358.4906 0.98921585 -0.11006239 0.0045500826 0.054204777 0.0045842007 0.054539479 0.99238217 -0.10780922
1669373584.9057 0.98914701 -0.11047302 0.0045674741 0.054514762 0.0046213493 0.054955117 0.99205977 -0.10851399
1679369811.3208 0.98923373 -0.11114889 0.0046293447 0.054925323 0.0046685198 0.055302065 0.99185932 -0.10904035
1689366037.7358 0.98914325 -0.11180153 0.0047034211 0.055225551 0.0046717878 0.055711761 0.99174696 -0.10936674
1699362264.1509 0.9893226 -0.11240101 0.0047701048 0.055641241 0.0047283433 0.056077007 0.99185991 -0.10982141
1709358490.566 0.98915958 -0.11301336 0.0048376983 0.055981461 0.0048050862 0.056425005 0.9919222 -0.11031801
1719354716.9811 0.98888969 -0.11362547 0.0048705637 0.056384638 0.0049119573 0.056811776 0.99191749 -0.11101452
