!Keysight Technologies,N5222B,MY61253708,A.15.00.15
!Date: Wednesday, June 19, 2024 09:15:09
!Correction: S11(C  2-Port  ) 
!S21(C  2-Port  ) 
!S12(C  2-Port  ) 
!S22(C  2-Port  ) 
!S2P File: Measurements: S11, S21, S12, S22:
# Hz S  RI   R 50
10000000 0.99891722 -0.0023222268 -0.00013475979 0.00040180315 -0.0001989103 0.00067710335 0.99834168 -0.00083887577
19996226.415094 0.99909902 -0.0020692945 4.6803121e-005 0.00065627845 5.0474395e-005 0.00063931639 0.99938154 -0.0022917688
29992452.830189 0.99979019 -0.0024588406 -0.00013368482 0.0010521091 -5.1415846e-005 0.00095146958 0.99949861 -0.0026914477
39988679.245283 1.0000452 -0.0030799657 -7.5038115e-006 0.0013611197 4.8218237e-005 0.0013813943 0.99961048 -0.0031744689
49984905.660377 1.0002177 -0.0037428737 3.6270067e-005 0.0016648541 -1.9030063e-005 0.0017222026 0.99975431 -0.0037265718
59981132.075472 1.0003495 -0.0047687888 1.4942489e-005 0.0020433238 -9.0576941e-006 0.002083858 0.99972492 -0.004309833
69977358.490566 1.0000827 -0.0053285249 6.2034203e-005 0.0024087722 2.4626348e-005 0.0024205211 0.99960923 -0.0048538856
79973584.90566 0.9998793 -0.0058739185 3.924442e-005 0.0027468605 -2.3285509e-005 0.0027669293 0.99928427 -0.0053312182
89969811.320755 0.99990249 -0.0060733259 2.2095046e-005 0.0030184919 1.8396648e-005 0.0031139238 0.99952215 -0.0056611598
99966037.735849 1.0000644 -0.0068188906 2.6389374e-005 0.0034140367 2.7365284e-005 0.0034519231 0.99960405 -0.006463483
109962264.15094 1.0001432 -0.0077498555 2.7340837e-005 0.0037380671 2.6219583e-005 0.0037807736 0.99958652 -0.0072752386
119958490.56604 1.0001702 -0.0086928308 4.999782e-005 0.0040981062 3.4922035e-005 0.0041062902 0.99960238 -0.0082155764
129954716.98113 1.0001477 -0.0097344518 5.255104e-005 0.0044238456 3.1579635e-005 0.0044435598 0.99960399 -0.0090855062
139950943.39623 1.0000666 -0.010589093 3.6415469e-005 0.0047268919 6.4675565e-005 0.0048024785 0.99952507 -0.0098643582
149947169.81132 0.99991751 -0.011236489 5.5501936e-005 0.005121666 4.5664841e-005 0.0051502627 0.99942076 -0.010495543
159943396.22642 0.99986362 -0.011776686 7.1532559e-005 0.0054413788 6.3838204e-005 0.0054898364 0.99953723 -0.01094842
169939622.64151 0.99985266 -0.01216726 7.2119525e-005 0.0057967841 6.200606e-005 0.005842776 0.99960309 -0.011388056
179935849.0566 0.99993438 -0.012473673 6.5621571e-005 0.0061425953 5.6782272e-005 0.0061764307 0.99954778 -0.011808008
189932075.4717 1.0000274 -0.013225585 9.0161338e-005 0.0064583053 0.00010870839 0.0065284385 0.99974942 -0.012394279
199928301.88679 0.99999124 -0.014081627 9.7718555e-005 0.0068097571 0.0001007861 0.0068672281 0.99963427 -0.013233453
209924528.30189 0.99968195 -0.01468873 0.00010247948 0.0071636043 9.6213538e-005 0.0072177313 0.99939203 -0.014033973
219920754.71698 0.99972773 -0.015571147 0.00013235677 0.0074987318 0.00012661214 0.0075538857 0.99921012 -0.014703363
229916981.13208 0.99949831 -0.016527563 0.00012784288 0.0078126127 0.00011663814 0.0079109529 0.99912494 -0.015507549
239913207.54717 0.99936956 -0.017122716 0.00015828329 0.0081666 0.00015284702 0.0082421331 0.99912983 -0.016178714
249909433.96226 0.99942005 -0.017769963 0.00014430052 0.0085066194 0.00016327575 0.0085678827 0.99927908 -0.016815007
259905660.37736 0.99955297 -0.01840654 0.00019285735 0.0088765416 0.00018140767 0.0089352997 0.99949813 -0.017429113
269901886.79245 0.99972767 -0.019075423 0.00022109819 0.0092347441 0.00015714264 0.0092509147 0.99981636 -0.018082812
279898113.20755 0.99978751 -0.019655198 0.0002200962 0.0095896255 0.00019628741 0.0095754713 0.99957442 -0.01885739
289894339.62264 0.9997015 -0.020547211 0.00018613366 0.0098391343 0.00020405697 0.009924463 0.99951482 -0.019621998
299890566.03774 0.99962568 -0.021046847 0.00019247178 0.010211864 0.00023811404 0.010290303 0.99927086 -0.020089686
309886792.45283 0.99940062 -0.021669552 0.00024055957 0.010587938 0.00025484269 0.010581641 0.99913383 -0.020519428
319883018.86792 0.99937367 -0.022266358 0.00023925817 0.010916065 0.00030054804 0.010999347 0.99927419 -0.020997286
329879245.28302 0.99931681 -0.022954345 0.00024927175 0.011217494 0.00029353704 0.011326455 0.99933034 -0.021844327
339875471.69811 0.99929947 -0.023778036 0.00029192294 0.01155357 0.00027215912 0.011652132 0.99927169 -0.022670068
349871698.11321 0.99943155 -0.024534762 0.00029423134 0.01190035 0.00030528102 0.012010935 0.99932301 -0.023601353
359867924.5283 0.99931943 -0.025401026 0.00029225787 0.012232888 0.00029169163 0.012367155 0.99931371 -0.024502158
369864150.9434 0.99949634 -0.026254475 0.00037525874 0.012581666 0.00032056263 0.012694619 0.99923062 -0.025214732
379860377.35849 0.99944043 -0.026912674 0.00034956052 0.012970052 0.00040821871 0.013006154 0.99924314 -0.025892854
389856603.77358 0.99933445 -0.027478844 0.00038293889 0.013280611 0.00034018047 0.013362846 0.99912405 -0.02641046
399852830.18868 0.999116 -0.028112233 0.00039225491 0.01359109 0.00041049719 0.013710251 0.99917853 -0.02684778
409849056.60377 0.9990865 -0.028486621 0.00037429415 0.013951055 0.00040875023 0.014039494 0.99913579 -0.027350118
419845283.01887 0.99910766 -0.028957635 0.00045799045 0.014283636 0.00041345879 0.014390023 0.99919629 -0.027878761
429841509.43396 0.99922931 -0.029753625 0.00044958526 0.014620236 0.00046094554 0.014706152 0.9993757 -0.028719068
439837735.84906 0.99904746 -0.030559763 0.00050131103 0.014943045 0.0004673301 0.015079353 0.99917078 -0.02968511
449833962.26415 0.99899215 -0.031449169 0.00047485204 0.015265446 0.00050819013 0.015375464 0.99883413 -0.030407518
459830188.67925 0.99891299 -0.032161891 0.00052016182 0.015590551 0.00048237387 0.015740732 0.99855936 -0.031228364
469826415.09434 0.99886662 -0.033023655 0.00052887714 0.015943792 0.00048181415 0.016077911 0.99835461 -0.031795025
479822641.50943 0.99872959 -0.033600062 0.00053771585 0.016328981 0.00053707231 0.016484655 0.99843246 -0.032232955
489818867.92453 0.99889207 -0.03415978 0.00056322431 0.016664665 0.00058249943 0.016814036 0.99871641 -0.03278622
499815094.33962 0.99891514 -0.034770668 0.00058139069 0.016985098 0.00060279295 0.017121315 0.99903083 -0.033442557
509811320.75472 0.99908382 -0.035208527 0.00061686512 0.017343665 0.00057027192 0.017450109 0.99915862 -0.034231085
519807547.16981 0.99896377 -0.035881788 0.00059756031 0.017658884 0.00068116514 0.017780561 0.99909782 -0.035025269
529803773.58491 0.99897832 -0.036441028 0.00058553368 0.017983174 0.00068782084 0.01814848 0.99879146 -0.035634071
539800000 0.9988938 -0.037089884 0.00070462888 0.018325314 0.0006636146 0.018447641 0.9986251 -0.036330223
549796226.41509 0.99868882 -0.038010776 0.00067546451 0.018668031 0.00070125517 0.018869013 0.9985258 -0.036767989
559792452.83019 0.99842286 -0.03875193 0.00072119664 0.01899476 0.00072866771 0.019198395 0.99839288 -0.037353843
569788679.24528 0.9984023 -0.039454699 0.00076783402 0.019372683 0.00074963784 0.019510232 0.998595 -0.038003087
579784905.66038 0.99840319 -0.040068455 0.00076153385 0.019670386 0.00076340546 0.019871688 0.99872637 -0.038727373
589781132.07547 0.9984082 -0.040655702 0.00080008619 0.020051727 0.00081262644 0.020245045 0.99876761 -0.039678365
599777358.49057 0.99866736 -0.041375935 0.0008445885 0.020414159 0.00087537151 0.020596053 0.99882704 -0.040510446
609773584.90566 0.99879533 -0.042101566 0.00088045292 0.020730998 0.00088224479 0.020945698 0.99873799 -0.041486844
619769811.32075 0.99881488 -0.042810529 0.00094922865 0.021087378 0.00090564508 0.021221191 0.99862021 -0.041967094
629766037.73585 0.99868441 -0.043413609 0.00097300112 0.021375302 0.00097616669 0.021528184 0.9983784 -0.042424977
639762264.15094 0.99843937 -0.044174939 0.0009912625 0.021696741 0.00094736484 0.021849047 0.9982869 -0.042953372
649758490.56604 0.99836624 -0.044745564 0.00095410738 0.022014238 0.00096565066 0.022219572 0.99833876 -0.043338701
659754716.98113 0.99821985 -0.045238882 0.00095689949 0.022395458 0.00099209882 0.022540759 0.99834216 -0.043885559
669750943.39623 0.99809819 -0.045771629 0.00095561612 0.022734821 0.00098781893 0.02291712 0.99849051 -0.04474014
679747169.81132 0.99816424 -0.046540082 0.0010637472 0.023086967 0.0010535578 0.023259895 0.99843043 -0.045788527
689743396.22642 0.99839127 -0.047378153 0.0010801908 0.023406172 0.0011179168 0.023625862 0.99826533 -0.046681494
699739622.64151 0.99849576 -0.048093349 0.0011370741 0.023727838 0.0011616508 0.023915693 0.9981218 -0.047418535
709735849.0566 0.99843711 -0.049091786 0.0011893517 0.024071693 0.0011889715 0.024259575 0.99788946 -0.048071764
719732075.4717 0.99830532 -0.049677402 0.0012193616 0.024389107 0.0012121303 0.024608593 0.99802977 -0.048619539
729728301.88679 0.99821377 -0.050313354 0.0012371726 0.024718426 0.0012537697 0.02491143 0.9980641 -0.049021482
739724528.30189 0.99808776 -0.050815433 0.001289526 0.02504128 0.0013126885 0.025285257 0.99827516 -0.049741328
749720754.71698 0.9980005 -0.051522747 0.0013164962 0.025397778 0.0013528545 0.025585975 0.99819839 -0.05041194
759716981.13208 0.99809766 -0.051965117 0.001371922 0.025720052 0.0013427287 0.025953554 0.9981848 -0.051221013
769713207.54717 0.99797279 -0.052721977 0.0014048098 0.026069516 0.0014103996 0.026256563 0.99794197 -0.051967144
779709433.96226 0.99818808 -0.053324275 0.0013910732 0.026378162 0.0014302153 0.026603885 0.99771452 -0.052615877
789705660.37736 0.99806172 -0.054242164 0.0014696512 0.026689718 0.0014729304 0.026942695 0.99745053 -0.053351939
799701886.79245 0.99800205 -0.055106163 0.001503557 0.027019534 0.0014499109 0.027250502 0.9972679 -0.053902924
809698113.20755 0.99789733 -0.055739 0.0015285802 0.027393254 0.0015194139 0.027590642 0.99732107 -0.054382741
819694339.62264 0.99775273 -0.056404918 0.0015473245 0.027701633 0.0015275129 0.027970674 0.9973976 -0.05506435
829690566.03774 0.99770105 -0.05696407 0.0015765633 0.028042752 0.0015730895 0.028276201 0.99770558 -0.055940688
839686792.45283 0.99779105 -0.057453245 0.001579117 0.028329028 0.001590075 0.028587161 0.99773395 -0.056714833
849683018.86792 0.99787241 -0.058063686 0.0016395783 0.028716298 0.0016524424 0.028937252 0.99766964 -0.057543352
859679245.28302 0.99790096 -0.05889383 0.0016912753 0.029035814 0.0016925707 0.029259037 0.99738884 -0.05815658
869675471.69811 0.99785221 -0.059624016 0.0017291177 0.029368838 0.0017114505 0.029605361 0.99701405 -0.058700562
879671698.11321 0.99772865 -0.060276456 0.0017680184 0.029695095 0.0017784619 0.029926151 0.99702799 -0.059146475
889667924.5283 0.99758279 -0.06117171 0.0017791847 0.030000744 0.0018119719 0.030236563 0.99683273 -0.059697509
899664150.9434 0.99737382 -0.06192866 0.0017945515 0.03033383 0.0018431982 0.030594692 0.99690014 -0.060313731
909660377.35849 0.99739051 -0.062485352 0.0018251622 0.030647697 0.0018530251 0.030918211 0.99709374 -0.061183631
919656603.77358 0.99745733 -0.06320253 0.0018441519 0.03096463 0.001882615 0.031243317 0.997042 -0.062095344
929652830.18868 0.99742711 -0.063978642 0.0019170558 0.031295426 0.0019129692 0.031569824 0.99690104 -0.06299752
939649056.60377 0.99757773 -0.064656138 0.0018978007 0.031619675 0.0019313069 0.031892207 0.99669141 -0.063690305
949645283.01887 0.99754512 -0.06546317 0.0019144145 0.031978074 0.0019241144 0.032230612 0.99649119 -0.064223006
959641509.43396 0.99745321 -0.066192329 0.0019510053 0.032303907 0.0019724704 0.032626692 0.99645078 -0.064733833
969637735.84906 0.99738407 -0.066886991 0.0019886736 0.032691818 0.0020360723 0.032938376 0.99648041 -0.065126896
979633962.26415 0.99722952 -0.067623481 0.0020630762 0.033001587 0.0020624243 0.033280153 0.99647599 -0.065777071
989630188.67925 0.99721783 -0.068112761 0.0021140063 0.033314064 0.0021194359 0.033625931 0.9966765 -0.066364467
999626415.09434 0.99725509 -0.068810195 0.0021255948 0.033686444 0.002168037 0.033981737 0.99659789 -0.067229062
1009622641.5094 0.99736649 -0.069417372 0.0021768762 0.034012411 0.0021983571 0.034329854 0.99636549 -0.068149403
1019618867.9245 0.99741715 -0.070296407 0.0022205948 0.03434654 0.0022470453 0.034656942 0.99616832 -0.068938151
1029615094.3396 0.99733943 -0.071284711 0.0022874661 0.034642309 0.0023399368 0.03498723 0.99575841 -0.06954205
1039611320.7547 0.99737257 -0.072173208 0.0023192409 0.034952112 0.0023444435 0.035267413 0.99568701 -0.070196271
1049607547.1698 0.99720353 -0.073072895 0.0023354664 0.035257269 0.0023609218 0.035624336 0.99573725 -0.070810102
1059603773.5849 0.99714148 -0.073718339 0.0023752842 0.035588499 0.0024291258 0.035905302 0.99572563 -0.071379602
1069600000 0.9968971 -0.074352473 0.0023737382 0.035892289 0.0024280865 0.036241576 0.99583769 -0.072072566
1079596226.4151 0.9968459 -0.075026505 0.0023764623 0.036237273 0.0024396926 0.036594156 0.99588352 -0.072882332
1089592452.8302 0.99680483 -0.075707257 0.0024223682 0.036603283 0.0025018323 0.036925618 0.99584252 -0.073600531
1099588679.2453 0.99688387 -0.076380968 0.002446482 0.036924466 0.0025036614 0.037254214 0.9955011 -0.074235409
1109584905.6604 0.99695849 -0.077214003 0.0024991799 0.037277181 0.0025361143 0.037603479 0.99515641 -0.074831456
1119581132.0755 0.99696404 -0.078203343 0.0024920013 0.037627347 0.0025597997 0.037954245 0.99500591 -0.075247467
1129577358.4906 0.99686646 -0.079090685 0.0025372133 0.037988901 0.0025817696 0.038294047 0.99489611 -0.075714558
1139573584.9057 0.9966203 -0.079887599 0.002574848 0.038323611 0.0026572449 0.038668226 0.99500155 -0.07637012
1149569811.3208 0.99649131 -0.080781534 0.0026399235 0.038636178 0.002725393 0.038973726 0.99517834 -0.077181265
1159566037.7358 0.99620533 -0.081508219 0.0026740367 0.038912244 0.002771154 0.039323527 0.99521005 -0.078188896
1169562264.1509 0.99600857 -0.081992716 0.0026528277 0.039274778 0.0027692113 0.039663337 0.9950285 -0.079017222
1179558490.566 0.99601823 -0.082908995 0.0027169762 0.039661415 0.0027957747 0.040016122 0.99494433 -0.079735138
1189554716.9811 0.99601567 -0.083598197 0.0027574813 0.039998617 0.0028646858 0.040369861 0.99461222 -0.080212653
1199550943.3962 0.99597198 -0.084468246 0.0027837642 0.040351026 0.0029226672 0.040707052 0.99445111 -0.080665171
1209547169.8113 0.99577671 -0.085370123 0.0028118109 0.040694069 0.002927308 0.041023102 0.99442989 -0.080975637
1219543396.2264 0.99554574 -0.086256906 0.0028759567 0.041059162 0.0030055763 0.041424889 0.99448043 -0.081348136
1229539622.6415 0.99517781 -0.086988747 0.0029595196 0.041377887 0.0030732509 0.041754134 0.99460131 -0.082137734
1239535849.0566 0.9950074 -0.087671429 0.0030002026 0.041708771 0.003149882 0.042073503 0.99470782 -0.083051413
1249532075.4717 0.99468368 -0.088366985 0.0030763263 0.042042304 0.0032023683 0.04240704 0.99446356 -0.083901748
1259528301.8868 0.99447513 -0.088910252 0.0031288285 0.042386495 0.0032676905 0.042701397 0.99423808 -0.084796786
1269524528.3019 0.99433047 -0.089714438 0.0031907633 0.042709097 0.0033473186 0.043037716 0.9940514 -0.08547464
1279520754.717 0.99391919 -0.090473592 0.0032395471 0.042995386 0.0033950412 0.043297134 0.99372047 -0.086051814
1289516981.1321 0.99375939 -0.091251433 0.0032495856 0.043303072 0.0034022108 0.043608379 0.99378431 -0.086424768
1299513207.5472 0.99342996 -0.091989607 0.0032919906 0.043635201 0.0034394357 0.043957531 0.99386334 -0.086821139
1309509433.9623 0.99306679 -0.092808992 0.0032763481 0.04389675 0.0034210114 0.04427097 0.99395782 -0.087492943
1319505660.3774 0.99268842 -0.09351705 0.0032860367 0.04428101 0.0034784311 0.044596285 0.99401248 -0.088208482
1329501886.7925 0.99234045 -0.094165713 0.0033380091 0.044612631 0.0034943707 0.044902429 0.99403626 -0.089220524
1339498113.2075 0.99205428 -0.094721496 0.0033755098 0.044931877 0.0035282401 0.045250177 0.99359846 -0.089882344
1349494339.6226 0.99191868 -0.09528628 0.0033449377 0.04530352 0.0034793629 0.045586266 0.9932605 -0.090503484
1359490566.0377 0.99170363 -0.09582746 0.0033661984 0.045652688 0.0035208892 0.045960966 0.99306166 -0.091111064
1369486792.4528 0.99150622 -0.096440673 0.0033855233 0.046001352 0.003482867 0.046308447 0.99286783 -0.091497451
1379483018.8679 0.99125612 -0.097004518 0.0034057761 0.04641325 0.0035070067 0.0466602 0.992836 -0.091945149
1389479245.283 0.99095953 -0.097545028 0.0034866724 0.046772569 0.0035649147 0.047042228 0.9928506 -0.092588723
1399475471.6981 0.99049103 -0.097875595 0.0034608319 0.047079802 0.0035575815 0.047427978 0.99301916 -0.093273133
1409471698.1132 0.99019533 -0.098297276 0.003479738 0.047497019 0.0036136515 0.047823474 0.99303043 -0.094032481
1419467924.5283 0.99009424 -0.098509371 0.0035030637 0.047896419 0.0036278795 0.048179738 0.99285322 -0.094870567
1429464150.9434 0.98987716 -0.099069506 0.0035722051 0.04831171 0.0036824569 0.048567332 0.99277264 -0.095306903
1439460377.3585 0.98999715 -0.099529669 0.0036861971 0.048746701 0.0037342301 0.049039815 0.9925698 -0.095691845
1449456603.7736 0.99001569 -0.10008131 0.0037754048 0.049218372 0.0038327761 0.049435433 0.9923681 -0.096058801
1459452830.1887 0.9899928 -0.10082537 0.0039191898 0.049585875 0.0039433651 0.049868084 0.99245554 -0.09642005
1469449056.6038 0.99006939 -0.10141909 0.0040725926 0.049916327 0.0041273562 0.050219294 0.99267638 -0.097037405
1479445283.0189 0.98991257 -0.10208672 0.0041857488 0.05021194 0.0042453958 0.050503083 0.9927848 -0.097946547
1489441509.434 0.98975736 -0.10259598 0.0043336991 0.050535381 0.0043720175 0.050853018 0.99254036 -0.098885924
1499437735.8491 0.98960793 -0.1029298 0.0044212975 0.050783098 0.0045430753 0.051127162 0.99259228 -0.099736661
1509433962.2642 0.98961657 -0.10342178 0.0045608608 0.051083487 0.0045515117 0.051390316 0.99229997 -0.10042401
1519430188.6792 0.98978484 -0.10398933 0.0045940746 0.051398076 0.0046317149 0.051666662 0.9921385 -0.10099593
1529426415.0943 0.98961782 -0.10470206 0.0046612881 0.05167409 0.0046614967 0.051984005 0.99215007 -0.10143071
1539422641.5094 0.9897849 -0.10551415 0.0047197472 0.051959921 0.0047392519 0.052287661 0.99217963 -0.10192395
1549418867.9245 0.98955286 -0.10629931 0.0047952961 0.052249879 0.0047760727 0.052593458 0.9924528 -0.10264666
1559415094.3396 0.98936784 -0.10692808 0.0048666578 0.05255653 0.0048459023 0.052898586 0.99251288 -0.10323957
1569411320.7547 0.98924577 -0.10776186 0.0049013356 0.05283875 0.0048920503 0.053182721 0.9924112 -0.10412481
1579407547.1698 0.98914886 -0.10830906 0.0049257511 0.053134438 0.0049059149 0.053497009 0.99216354 -0.10489613
1589403773.5849 0.98911929 -0.10876521 0.0049058814 0.053424887 0.0049354658 0.0537977 0.99197519 -0.10561299
1599400000 0.98904258 -0.10935673 0.0049120039 0.05371847 0.0049041733 0.054069806 0.99143338 -0.10613355
1609396226.4151 0.98905718 -0.10997256 0.0049079121 0.054079615 0.0048945732 0.054397877 0.9913373 -0.10660759
1619392452.8302 0.98898321 -0.11055553 0.0049008504 0.054386206 0.0049032327 0.054770701 0.99131477 -0.10712299
1629388679.2453 0.98889738 -0.111312 0.0049411803 0.054741476 0.0049070809 0.055139381 0.99154508 -0.10762668
1639384905.6604 0.98854584 -0.11193641 0.0049106544 0.05511396 0.0049575949 0.055536445 0.99178994 -0.1084391
1649381132.0755 0.98835599 -0.11261767 0.0049691051 0.05546714 0.0049396064 0.055902947 0.99172097 -0.1094611
1659377358.4906 0.98818254 -0.11343721 0.0049952045 0.05585726 0.0050076265 0.05630029 0.99176401 -0.1103071
1669373584.9057 0.98819399 -0.11384822 0.004998602 0.05626905 0.0050676428 0.056687824 0.99137104 -0.11100111
1679369811.3208 0.98816252 -0.11447814 0.0050670877 0.056626558 0.0050615873 0.057074383 0.99117452 -0.11141315
1689366037.7358 0.98819751 -0.11521932 0.0051063318 0.057011526 0.0051501337 0.057431836 0.99098563 -0.11184207
1699362264.1509 0.98823857 -0.1158663 0.0051850323 0.057387516 0.0051932056 0.057815291 0.99113917 -0.11216699
1709358490.566 0.98822242 -0.11654633 0.0052441237 0.057761893 0.0052811187 0.058217596 0.99124777 -0.11286065
1719354716.9811 0.98793209 -0.1171526 0.0053196419 0.058137871 0.005309334 0.05863253 0.99117553 -0.1135428
1729350943.3962 0.98752797 -0.11770639 0.0054019876 0.058564831 0.0053973887 0.059021052 0.99138469 -0.11447042
