!Keysight Technologies,N5222B,MY61253708,A.15.00.15
!Date: Wednesday, June 19, 2024 10:20:02
!Correction: S11(C  2-Port  ) 
!S21(C  2-Port  ) 
!S12(C  2-Port  ) 
!S22(C  2-Port  ) 
!S2P File: Measurements: S11, S21, S12, S22:
# Hz S  RI   R 50
10000000 0.99862021 -0.0031217337 2.3526882e-005 0.00020972462 -0.00013570065 0.00039488083 0.9985261 -0.0016941428
19996226.415094 1.0001324 -0.0022793114 0.00011326573 0.00066925271 0.00013896695 0.00065991469 1.0001878 -0.0024093688
29992452.830189 0.99974668 -0.0024513006 4.5782916e-005 0.0010003647 2.2497843e-006 0.001046099 0.99935699 -0.0027016997
39988679.245283 1.0000504 -0.0029930174 -7.8477606e-006 0.0013167936 -1.7598504e-006 0.0012808292 0.999668 -0.0031040907
49984905.660377 1.0002537 -0.0037038028 -3.0067575e-005 0.0016120746 1.6676495e-006 0.0016285027 0.99988079 -0.0036492348
59981132.075472 1.0003959 -0.0044822693 -3.4366152e-005 0.0019188831 1.4948193e-005 0.0020008534 0.99982852 -0.0042348504
69977358.490566 1.0002153 -0.0050298143 -1.656259e-006 0.0022987721 1.1302549e-005 0.002323979 0.99971449 -0.0047944747
79973584.90566 0.99994057 -0.0056491494 1.8275576e-005 0.0026001642 1.6205013e-006 0.0026219515 0.99933028 -0.0052798092
89969811.320755 0.99996132 -0.0056984425 2.9912335e-005 0.0029177642 1.0754447e-006 0.0029580984 0.99963522 -0.0054803491
99966037.735849 1.0001942 -0.0063856095 3.4313416e-007 0.0032937403 3.7204765e-005 0.0032866928 0.99970341 -0.0062284768
109962264.15094 1.0002286 -0.0072938204 2.975174e-005 0.0035941764 1.6878359e-005 0.0036269161 0.99971521 -0.0069995224
119958490.56604 1.0002867 -0.0081787109 5.2493415e-005 0.0039466526 2.4686684e-005 0.0039480138 0.99972737 -0.0078550577
129954716.98113 1.0001929 -0.0091339946 4.5908848e-005 0.0042573996 4.6754954e-005 0.0042765951 0.99972808 -0.0087422729
139950943.39623 1.0001065 -0.0099070556 2.7990041e-005 0.0045822347 4.9186361e-005 0.0045969174 0.99967718 -0.0094663519
149947169.81132 1.0000501 -0.010570347 4.9416907e-005 0.0049235933 4.5469729e-005 0.0049166209 0.99957919 -0.010051459
159943396.22642 0.99995804 -0.011132628 6.2282896e-005 0.0052388296 4.761084e-005 0.0052609765 0.99966145 -0.01051867
169939622.64151 0.99993342 -0.01149863 5.7534489e-005 0.0055822325 5.3152151e-005 0.0056089419 0.99968624 -0.010986723
179935849.0566 0.99999636 -0.011755764 7.8565092e-005 0.0058939075 8.2012382e-005 0.0058825198 0.9996134 -0.011366338
189932075.4717 1.0001653 -0.012550712 8.8134781e-005 0.0062062796 8.0357073e-005 0.006240733 0.99980092 -0.01188609
199928301.88679 1.0000271 -0.013311118 9.0337824e-005 0.0065524015 8.0834609e-005 0.0065926663 0.99967736 -0.012763709
209924528.30189 0.99977034 -0.013921455 0.00010149193 0.0068621342 8.8085886e-005 0.0068868105 0.99949527 -0.013390541
219920754.71698 0.99995601 -0.014705271 0.00010971446 0.0072423345 0.00011417363 0.0072143078 0.99942386 -0.014006376
229916981.13208 0.99973774 -0.015591592 0.00013457448 0.007553543 9.6446369e-005 0.0075396011 0.99941659 -0.014804482
239913207.54717 0.99962884 -0.016200926 0.00013597979 0.0078349467 0.00012006781 0.007901283 0.99930525 -0.015551515
249909433.96226 0.99965203 -0.016852349 0.00013360288 0.0081825098 0.00014284858 0.0082218032 0.99938375 -0.01609531
259905660.37736 0.99971598 -0.01740551 0.0001327293 0.0084819654 0.00015542144 0.0085030152 0.99963123 -0.016643882
269901886.79245 0.99988931 -0.017995834 0.00018089218 0.008793815 0.00018437335 0.0089136269 0.99997586 -0.017363489
279898113.20755 0.99988985 -0.018728778 0.0001539262 0.0091743525 0.00017365534 0.0091774706 0.9998737 -0.018150657
289894339.62264 0.99988246 -0.019474536 0.00018476835 0.0095360614 0.00019753259 0.0095255934 0.99966168 -0.01887241
299890566.03774 0.99984986 -0.019964606 0.00020653405 0.0098445015 0.00017729239 0.009867033 0.99949574 -0.019333184
309886792.45283 0.99968469 -0.020508297 0.00018025166 0.010133655 0.00017972663 0.01017002 0.99933994 -0.019689895
319883018.86792 0.99980193 -0.021179259 0.00023413543 0.010439564 0.00018750457 0.010520849 0.99947476 -0.020290643
329879245.28302 0.99976528 -0.021917403 0.00026083831 0.010832192 0.00021821959 0.010841815 0.99955565 -0.021036386
339875471.69811 0.99972105 -0.022632107 0.00028166524 0.011153974 0.00026655628 0.011170106 0.99951333 -0.0217923
349871698.11321 0.99973053 -0.023496568 0.0002911943 0.011455158 0.00026516686 0.011481106 0.99954218 -0.022722572
359867924.5283 0.99961567 -0.024250746 0.00029313937 0.011738639 0.00025821803 0.011813686 0.99943161 -0.023616672
369864150.9434 0.99980015 -0.025090128 0.00030904589 0.012079958 0.00028346223 0.012138901 0.99943548 -0.024287879
379860377.35849 0.99966198 -0.025787026 0.00032883324 0.012418512 0.00034610881 0.012494481 0.99932331 -0.024886385
389856603.77358 0.99961042 -0.026401162 0.0003304882 0.012742264 0.00035138475 0.012782174 0.99933636 -0.025385529
399852830.18868 0.99936163 -0.027022272 0.00036326144 0.01308961 0.00034125149 0.013107236 0.99945855 -0.025845319
409849056.60377 0.99927485 -0.027443036 0.00038661121 0.013351273 0.00036855982 0.013445037 0.99942267 -0.026421545
419845283.01887 0.99920714 -0.027953357 0.0003856807 0.013703724 0.0003647604 0.013772302 0.99936038 -0.026926011
429841509.43396 0.99931586 -0.028589398 0.00038288347 0.014063923 0.00040940987 0.014124501 0.9995631 -0.027780145
439837735.84906 0.99906456 -0.029472798 0.00043394801 0.014376676 0.00043856946 0.014420502 0.99933302 -0.028741717
449833962.26415 0.9989723 -0.030222654 0.00040457537 0.01470224 0.0004494898 0.014730041 0.99894637 -0.029443175
459830188.67925 0.99877864 -0.030875176 0.00043481076 0.015004102 0.00045403745 0.015084629 0.99874318 -0.030139923
469826415.09434 0.99873161 -0.031554401 0.00043440377 0.015349864 0.00043568062 0.01540684 0.9984296 -0.030641377
479822641.50943 0.99861449 -0.03214056 0.00050086377 0.015668888 0.00046953489 0.01575491 0.99851829 -0.031074099
489818867.92453 0.99867922 -0.032623768 0.00046868902 0.016026733 0.00054985611 0.016064804 0.99878156 -0.031637281
499815094.33962 0.99876767 -0.03318125 0.00053883996 0.016320527 0.00055509387 0.016397247 0.99905604 -0.032090962
509811320.75472 0.99877435 -0.033523913 0.0005495589 0.016646946 0.0005307183 0.016677869 0.99919003 -0.032923028
519807547.16981 0.99882525 -0.034012109 0.0005136081 0.016980818 0.00057995645 0.017027535 0.99922425 -0.033651233
529803773.58491 0.99874592 -0.034585416 0.00061291177 0.017246298 0.0005932916 0.017383758 0.99889386 -0.03417176
539800000 0.99890834 -0.035292387 0.00064858538 0.017572785 0.00061393087 0.017711848 0.99878752 -0.034868091
549796226.41509 0.99872291 -0.036070019 0.00063477457 0.017949428 0.00065110298 0.018032942 0.99869752 -0.035358369
559792452.83019 0.99862909 -0.036688805 0.00059520546 0.018301707 0.00066195242 0.018363588 0.99864346 -0.035845935
569788679.24528 0.9984588 -0.037362486 0.00066490425 0.018640112 0.00064882915 0.018690756 0.99876738 -0.03658548
579784905.66038 0.99839455 -0.0379043 0.00072277559 0.018937338 0.00067065796 0.019019322 0.99892038 -0.037284397
589781132.07547 0.99864173 -0.038565934 0.00070550106 0.019288387 0.00073357858 0.019349983 0.99902618 -0.038124025
599777358.49057 0.99876702 -0.03914845 0.00074896775 0.019593932 0.00074119773 0.019674694 0.99895984 -0.038885176
609773584.90566 0.99884421 -0.039910927 0.00079865428 0.019935543 0.00079915719 0.01998849 0.99879342 -0.039731555
619769811.32075 0.99896932 -0.040565342 0.00079866685 0.020251473 0.00080408342 0.020293172 0.99881643 -0.040323555
629766037.73585 0.9988209 -0.041268647 0.00085694809 0.020550409 0.00085405353 0.02064018 0.99860489 -0.040782452
639762264.15094 0.99867469 -0.041868821 0.00088076969 0.020896118 0.00088110846 0.020931574 0.99849439 -0.041280732
649758490.56604 0.99859309 -0.042468011 0.00090717524 0.021170476 0.00086155673 0.021270191 0.99859476 -0.041734964
659754716.98113 0.99849641 -0.042965293 0.00087136868 0.021516392 0.0008932855 0.021584846 0.99867964 -0.042269081
669750943.39623 0.99849164 -0.043459117 0.00091759348 0.021843769 0.00088927709 0.02190892 0.99874139 -0.04296419
679747169.81132 0.99848318 -0.044262737 0.00096637441 0.022214008 0.00094257935 0.022301767 0.99871111 -0.043993406
689743396.22642 0.99862987 -0.044973254 0.0010001929 0.022538736 0.00097692851 0.022586061 0.99857128 -0.044901937
699739622.64151 0.99878168 -0.045848221 0.0010539424 0.022817839 0.0010500411 0.022905456 0.99849194 -0.045645684
709735849.0566 0.99872553 -0.046686165 0.0011192377 0.023191907 0.0010746219 0.023210457 0.99823463 -0.046211392
719732075.4717 0.99865055 -0.047413558 0.0011106757 0.023462618 0.0011105374 0.023542531 0.99832308 -0.046776325
729728301.88679 0.99847281 -0.047908336 0.0011441438 0.02378555 0.0011027306 0.023871087 0.99836957 -0.047290683
739724528.30189 0.99836409 -0.048595876 0.0011486886 0.024088686 0.0011736439 0.024189388 0.99851632 -0.047942698
749720754.71698 0.99826586 -0.049137607 0.0011920673 0.024407092 0.0011805869 0.024498811 0.99852252 -0.048606038
759716981.13208 0.99829262 -0.049680769 0.00123649 0.024748605 0.001246091 0.024812941 0.99846196 -0.049369931
769713207.54717 0.99825305 -0.050362736 0.0012590112 0.025042254 0.0012357878 0.025140554 0.9982993 -0.050062537
779709433.96226 0.99844706 -0.050999898 0.0012897878 0.025355687 0.0012909428 0.025470978 0.99797064 -0.050738089
789705660.37736 0.99829382 -0.051953912 0.001309013 0.025669161 0.0013197362 0.025771478 0.99775195 -0.051432431
799701886.79245 0.99818528 -0.052711219 0.0013515567 0.026008857 0.0013616448 0.026085572 0.99761784 -0.051963359
809698113.20755 0.99815547 -0.053268328 0.0013788533 0.026321428 0.0013503521 0.026435012 0.99764532 -0.052402809
819694339.62264 0.99795902 -0.053915322 0.0013941936 0.026618771 0.0013865181 0.026725072 0.99776119 -0.053002745
829690566.03774 0.99794519 -0.054472595 0.0014216257 0.026942072 0.0014219079 0.027040344 0.99804628 -0.053856313
839686792.45283 0.99793315 -0.054883003 0.0014425083 0.02725138 0.0014520544 0.027368557 0.99800092 -0.054674029
849683018.86792 0.99804705 -0.055554882 0.0014755963 0.027578518 0.0014733172 0.027685992 0.99795884 -0.055476859
859679245.28302 0.99807453 -0.056272447 0.0015212903 0.027920671 0.0014954936 0.028007913 0.99768013 -0.056011975
869675471.69811 0.99796999 -0.05695349 0.0015714364 0.028214477 0.0015762225 0.028364718 0.99733227 -0.056615651
879671698.11321 0.99789101 -0.05760099 0.0016100175 0.028531937 0.0016099133 0.028638668 0.99733931 -0.056942709
889667924.5283 0.99772 -0.058364421 0.0016156593 0.028821809 0.0016240608 0.028968498 0.99717212 -0.057534009
899664150.9434 0.99763346 -0.05902946 0.00164227 0.029150527 0.0016351277 0.029259663 0.99722642 -0.058116376
909660377.35849 0.99759901 -0.0597087 0.0016449369 0.029442841 0.0016599386 0.029586462 0.99735683 -0.058939517
919656603.77358 0.99770486 -0.060348019 0.0017027459 0.029771753 0.0016812095 0.029934846 0.99739945 -0.059788242
929652830.18868 0.99762583 -0.061070293 0.001721981 0.03009823 0.0017375881 0.030209171 0.99725997 -0.060626805
939649056.60377 0.99781179 -0.061632663 0.001735094 0.030406158 0.0017340789 0.030533701 0.99709445 -0.061346203
949645283.01887 0.99774408 -0.06251476 0.0017127425 0.030749273 0.0017335681 0.030879973 0.99688238 -0.061884791
959641509.43396 0.99770331 -0.063174367 0.0017603189 0.03107002 0.0017552665 0.031232383 0.99679416 -0.062380821
969637735.84906 0.99760014 -0.063859642 0.0018131472 0.031436346 0.0018077241 0.031565949 0.99683619 -0.062757134
979633962.26415 0.99748254 -0.06456881 0.0018644026 0.031758845 0.0018805256 0.031866793 0.99682468 -0.063328601
989630188.67925 0.99753004 -0.065103918 0.0019105403 0.032050673 0.0018864069 0.032204393 0.99701834 -0.063937694
999626415.09434 0.99756253 -0.065669775 0.0019444544 0.032376673 0.0019303588 0.032531269 0.99694782 -0.064763904
1009622641.5094 0.99757552 -0.066354021 0.0019507245 0.032724801 0.0019792328 0.032878216 0.99684054 -0.065599576
1019618867.9245 0.99765378 -0.067155674 0.0020140591 0.03303903 0.0020499383 0.03314836 0.99662471 -0.066406459
1029615094.3396 0.99765611 -0.068043947 0.0020594141 0.033345371 0.0020746058 0.033478022 0.99624872 -0.066979051
1039611320.7547 0.99772096 -0.068898529 0.0020759562 0.033631697 0.0020925859 0.033774376 0.9962216 -0.067612976
1049607547.1698 0.9975636 -0.069747046 0.0021098147 0.033927489 0.0021288469 0.034064595 0.99614459 -0.068241641
1059603773.5849 0.99748737 -0.070407122 0.0021386882 0.034216482 0.0021599066 0.034386136 0.99619424 -0.068729967
1069600000 0.99724567 -0.071050137 0.0021199873 0.034522127 0.0021790676 0.0346619 0.99636853 -0.069453448
1079596226.4151 0.99725556 -0.071727499 0.0021342193 0.03484787 0.0021967734 0.035012688 0.99635398 -0.070201844
1089592452.8302 0.99730682 -0.072324187 0.0021664407 0.035176657 0.0022156229 0.03532847 0.99635094 -0.070933729
1099588679.2453 0.99732763 -0.073003739 0.0021710582 0.035520464 0.0022552907 0.035659045 0.99597406 -0.071508586
1109584905.6604 0.99745095 -0.073799729 0.0022259168 0.035823986 0.002244005 0.036000695 0.99579811 -0.072108001
1119581132.0755 0.99742711 -0.074779093 0.0022289995 0.036192827 0.0022621267 0.036350105 0.99559098 -0.07248725
1129577358.4906 0.99724817 -0.075509161 0.0022801403 0.036544926 0.0023072567 0.036701068 0.99550951 -0.072934061
1139573584.9057 0.99696839 -0.076391011 0.0023108553 0.036863457 0.0023598745 0.037033502 0.99555194 -0.073614538
1149569811.3208 0.99690449 -0.077199936 0.0023485899 0.037204228 0.0024145648 0.037334349 0.99568427 -0.074357457
1159566037.7358 0.99666458 -0.07790339 0.002402083 0.037465714 0.0024707271 0.037636116 0.99578482 -0.075348675
1169562264.1509 0.99657774 -0.078515857 0.0024101418 0.037784323 0.0024591498 0.037986077 0.99561191 -0.07611534
1179558490.566 0.99650604 -0.079368129 0.0024047031 0.038151305 0.0024736826 0.038313966 0.99550742 -0.076769948
1189554716.9811 0.99647659 -0.079996794 0.0024772435 0.038495228 0.0025595864 0.038649991 0.99522519 -0.07734108
1199550943.3962 0.99645448 -0.080834121 0.0024973787 0.038823415 0.0025579538 0.038977295 0.99506426 -0.077743083
1209547169.8113 0.99634451 -0.081720501 0.0025540572 0.039159752 0.0026242109 0.039297312 0.99499673 -0.078117311
1219543396.2264 0.99610329 -0.082494378 0.0025868514 0.039560877 0.0026912875 0.039694987 0.99508625 -0.078448817
1229539622.6415 0.99580932 -0.083235741 0.0026430767 0.03984797 0.0027355962 0.040005259 0.99521714 -0.079180509
1239535849.0566 0.9955951 -0.083998799 0.0027110642 0.040128741 0.0028121192 0.04029198 0.9952507 -0.080067813
1249532075.4717 0.99521488 -0.084558532 0.0027444896 0.040467598 0.0028857184 0.040599659 0.99515826 -0.080854468
1259528301.8868 0.99509537 -0.08506155 0.0028078668 0.040788323 0.0029196963 0.040912326 0.99493814 -0.081754595
1269524528.3019 0.99494737 -0.085811257 0.0028612949 0.041116931 0.0029873345 0.041207463 0.99474424 -0.082403451
1279520754.717 0.9946177 -0.086535238 0.0029218185 0.041386489 0.0030209688 0.041461226 0.99447572 -0.082897358
1289516981.1321 0.99446487 -0.087344468 0.0029414417 0.041662447 0.003058848 0.04177748 0.99448806 -0.083403915
1299513207.5472 0.99425346 -0.088201433 0.0029561352 0.041971292 0.0030330103 0.042093489 0.99462545 -0.083792508
1309509433.9623 0.99380612 -0.088840544 0.0029747067 0.042286057 0.0030781636 0.042389091 0.99473512 -0.0845052
1319505660.3774 0.99340683 -0.089670911 0.0029477971 0.042614836 0.00307051 0.042676855 0.99476212 -0.08516258
1329501886.7925 0.99315965 -0.090261042 0.002967732 0.042926509 0.0031039976 0.04300569 0.99475902 -0.086075276
1339498113.2075 0.99288493 -0.090749651 0.0030227527 0.043260198 0.0031422181 0.043326005 0.9944039 -0.086818516
1349494339.6226 0.99270988 -0.091233082 0.0029825256 0.043594152 0.0030915751 0.043661729 0.99401593 -0.087372333
1359490566.0377 0.99257708 -0.09183225 0.0029932242 0.043951727 0.0030922145 0.044009872 0.9938702 -0.087876618
1369486792.4528 0.99235314 -0.09243691 0.0030274587 0.044299699 0.0031206477 0.044355169 0.99369562 -0.088303775
1379483018.8679 0.99209583 -0.092954487 0.0030490542 0.044672534 0.0030895835 0.04471783 0.99371976 -0.088686205
1389479245.283 0.9917438 -0.093550712 0.0030694697 0.045017373 0.0031552147 0.045089353 0.99367279 -0.089352012
1399475471.6981 0.99140108 -0.093898743 0.0031153802 0.045385249 0.0031412542 0.045402683 0.99381411 -0.090017527
1409471698.1132 0.99106532 -0.094288073 0.0031079371 0.045743693 0.0031824021 0.045801353 0.99388504 -0.090861015
1419467924.5283 0.99090564 -0.094600141 0.0031385086 0.046120297 0.0032084063 0.046159171 0.99366891 -0.091561377
1429464150.9434 0.99078548 -0.095017225 0.0031878874 0.046496928 0.0032348093 0.046592422 0.99360263 -0.092029691
1439460377.3585 0.99090374 -0.095456511 0.0032734256 0.046973407 0.0032881582 0.046992 0.99339116 -0.092438594
1449456603.7736 0.99096936 -0.09602499 0.0033574915 0.047335025 0.0034360234 0.047385141 0.9932881 -0.092803538
1459452830.1887 0.9909659 -0.096754879 0.003522601 0.04775165 0.0035261214 0.047767706 0.99341464 -0.093069583
1469449056.6038 0.99095911 -0.097371727 0.003643889 0.048071157 0.0036638491 0.04813122 0.99362683 -0.093745321
1479445283.0189 0.99087107 -0.098013602 0.0037884987 0.048353981 0.0038035181 0.048419148 0.9936536 -0.09458676
1489441509.434 0.9907887 -0.09845838 0.003907904 0.048677847 0.0039180983 0.048735999 0.99360025 -0.095553249
1499437735.8491 0.99062347 -0.098813295 0.0040369146 0.048926059 0.0040433146 0.048981793 0.993496 -0.096308082
1509433962.2642 0.99067873 -0.099408381 0.0041148579 0.049205925 0.004098149 0.049265981 0.99336928 -0.097009003
1519430188.6792 0.99075818 -0.099832147 0.0041764658 0.049462996 0.004166957 0.049506728 0.99316061 -0.097573072
1529426415.0943 0.99066639 -0.10052776 0.0042332597 0.049745813 0.0041939989 0.049790978 0.99305654 -0.097973764
1539422641.5094 0.99067771 -0.10132076 0.0042857626 0.050027724 0.0042682062 0.050098233 0.99310482 -0.098431282
1549418867.9245 0.99049801 -0.10209788 0.0043442901 0.050299715 0.0042991377 0.050390929 0.99326932 -0.099123746
1559415094.3396 0.99047476 -0.10281232 0.0043680724 0.050602071 0.0043659173 0.05070205 0.99344236 -0.099820018
1569411320.7547 0.99025691 -0.10352628 0.004424125 0.050856806 0.0043960484 0.050967012 0.99339211 -0.10066085
1579407547.1698 0.99023533 -0.10402505 0.0044508749 0.051133078 0.0044169379 0.051258273 0.99303782 -0.10150853
1589403773.5849 0.99023771 -0.10454533 0.0044346023 0.051441349 0.0044094045 0.051553078 0.99285579 -0.10212255
1599400000 0.99011832 -0.10499048 0.0044281306 0.051720932 0.0044228444 0.051819712 0.99248934 -0.10259095
1609396226.4151 0.99015254 -0.10565779 0.0044262819 0.052059431 0.004397748 0.052153111 0.99228019 -0.10313785
1619392452.8302 0.99011946 -0.10623929 0.0044469889 0.052369565 0.0044032671 0.052482486 0.99219072 -0.10351855
1629388679.2453 0.98992193 -0.10700423 0.004466882 0.05274725 0.0043508466 0.052835632 0.99242431 -0.10403433
1639384905.6604 0.98971629 -0.10766128 0.0044499347 0.053036314 0.0044197901 0.053196363 0.9927007 -0.10489377
1649381132.0755 0.9894923 -0.10834697 0.0044986177 0.053401578 0.0044319388 0.053582635 0.99271643 -0.10576239
1659377358.4906 0.98930144 -0.10899967 0.0044988859 0.053773098 0.0044405945 0.053901859 0.99270654 -0.10664499
1669373584.9057 0.98925954 -0.10949317 0.0044966484 0.054157149 0.0044843657 0.054301616 0.99229038 -0.10728146
1679369811.3208 0.98931181 -0.1101774 0.0045684483 0.054528583 0.004507021 0.054656155 0.99208146 -0.107806
1689366037.7358 0.98932993 -0.1107555 0.0046092141 0.054930627 0.0045702662 0.055070847 0.99189651 -0.10811415
1699362264.1509 0.98942006 -0.11142118 0.0046572201 0.05523666 0.0046258885 0.055448726 0.99210989 -0.10856085
1709358490.566 0.98929691 -0.11201398 0.0047114408 0.055623781 0.0046421848 0.05580109 0.99212682 -0.10913852
1719354716.9811 0.98904228 -0.11264887 0.0047293138 0.055988308 0.004708821 0.05616935 0.99226302 -0.1098206
1729350943.3962 0.98879099 -0.11322135 0.0047658905 0.056379136 0.0047712345 0.05655653 0.99227619 -0.11061111
