!Keysight Technologies,N5222B,MY61253708,A.15.00.15
!Date: Wednesday, June 19, 2024 10:01:15
!Correction: S11(C  2-Port  ) 
!S21(C  2-Port  ) 
!S12(C  2-Port  ) 
!S22(C  2-Port  ) 
!S2P File: Measurements: S11, S21, S12, S22:
# Hz S  RI   R 50
10000000 0.99849266 -0.0027453601 -0.0002847724 0.00029333943 0.0002682168 0.00036986609 0.99838138 -0.0015188158
19996226.415094 1.0001452 -0.0032086074 4.1602267e-005 0.00067893451 -0.00010850615 0.00068005978 1.0003459 -0.0029628277
29992452.830189 0.99979073 -0.0024945736 1.0302669e-005 0.00095310458 -4.2353757e-005 0.0010847453 0.99948454 -0.0026232898
39988679.245283 1.0000986 -0.0029582679 3.4324388e-005 0.0013211502 6.8995141e-006 0.0013563035 0.99965668 -0.0030933768
49984905.660377 1.0001889 -0.0036486089 -1.0796997e-005 0.0016370844 7.6154247e-006 0.0016730425 0.99981481 -0.0036508441
59981132.075472 1.0003905 -0.0044698119 3.1082891e-007 0.0019876889 9.5960568e-006 0.0019792356 0.99983585 -0.0042538047
69977358.490566 1.0001622 -0.005165562 2.2729728e-007 0.0022861231 -7.9429956e-006 0.0023089154 0.99968642 -0.0047998857
79973584.90566 0.99995291 -0.0056629479 2.0372565e-005 0.0026438953 2.037629e-005 0.0026602182 0.99938661 -0.0052333474
89969811.320755 0.99992508 -0.00578475 4.5937952e-005 0.0029477468 3.7373626e-005 0.0030110427 0.99958038 -0.0055243373
99966037.735849 1.000212 -0.0065119565 3.7795515e-005 0.0033299383 4.0094543e-005 0.003295575 0.99967545 -0.0062911808
109962264.15094 1.0002375 -0.0074362904 1.5353493e-005 0.0036293385 4.6124042e-005 0.0036361055 0.99965543 -0.007076934
119958490.56604 1.0002141 -0.008278966 1.0976684e-005 0.003927825 3.4656608e-005 0.0039747758 0.99968505 -0.0079154074
129954716.98113 1.0001398 -0.0092124641 3.6952901e-005 0.0042818286 3.5849167e-005 0.0042779245 0.99967206 -0.0087706447
139950943.39623 1.0001199 -0.010027168 3.133704e-005 0.0046015591 2.484709e-005 0.0046250052 0.99958622 -0.0095467083
149947169.81132 1.0000117 -0.010687828 4.9715163e-005 0.0049566631 4.5788474e-005 0.0049592266 0.9995892 -0.01014322
159943396.22642 0.99993563 -0.011270255 5.9297774e-005 0.0052699875 6.1312458e-005 0.0052988385 0.99960476 -0.010625184
169939622.64151 0.99991465 -0.011650942 6.0460996e-005 0.005603354 4.7085574e-005 0.0056250854 0.999668 -0.011067979
179935849.0566 0.99994147 -0.011868864 6.5702945e-005 0.0059320908 7.4705342e-005 0.0059773289 0.9995712 -0.011461794
189932075.4717 1.0001013 -0.012676895 7.0311362e-005 0.0062233061 6.2700827e-005 0.0062737493 0.99974597 -0.011977971
199928301.88679 1.0000228 -0.013492107 9.0162619e-005 0.0065860888 7.7640521e-005 0.0065934048 0.99965256 -0.012818426
209924528.30189 0.99977982 -0.014015377 9.2398142e-005 0.0069192257 9.2496164e-005 0.0069512236 0.99946213 -0.013513416
219920754.71698 0.99994171 -0.014878094 0.00011358852 0.0072235451 9.774114e-005 0.0072643138 0.99936879 -0.014072359
229916981.13208 0.99969161 -0.015700489 0.00012627966 0.0075623994 0.00010409555 0.0075878105 0.99935871 -0.014934033
239913207.54717 0.99959749 -0.016326459 0.00013495646 0.0078604566 0.00014047547 0.0079388302 0.99928355 -0.015681956
249909433.96226 0.99960041 -0.016983718 0.00012856885 0.0082119498 0.0001593146 0.0082595656 0.99937612 -0.016264141
259905660.37736 0.99970222 -0.017587155 0.00018912833 0.0085413046 0.0001517362 0.0085837077 0.99955177 -0.016852468
269901886.79245 0.99988371 -0.018182144 0.00014827936 0.0088207582 0.00019558496 0.0089046396 0.999951 -0.017455071
279898113.20755 0.99996251 -0.018783242 0.00020306348 0.009211259 0.00016823667 0.0092666652 0.99972779 -0.018266276
289894339.62264 0.99984145 -0.019633502 0.0001915968 0.0095069027 0.00018393155 0.009582242 0.99964732 -0.019023538
299890566.03774 0.9997797 -0.020077139 0.00019158749 0.0098394714 0.00018024771 0.0099583538 0.99937034 -0.019447416
309886792.45283 0.99962384 -0.02072037 0.00023181149 0.010203107 0.00017913885 0.010227642 0.99924254 -0.01987505
319883018.86792 0.99972737 -0.021349847 0.00021077367 0.010536648 0.00021272944 0.010588927 0.99941897 -0.020401388
329879245.28302 0.99974859 -0.021992624 0.00022641942 0.010872556 0.00023707701 0.010874756 0.99952531 -0.021143794
339875471.69811 0.9996134 -0.022821866 0.00028844899 0.011200619 0.00025200867 0.011237105 0.99943101 -0.021949977
349871698.11321 0.99973691 -0.023684591 0.00028049434 0.011523793 0.00030131498 0.011547712 0.9994396 -0.022846431
359867924.5283 0.99950874 -0.024513096 0.00027255295 0.011782068 0.00029394636 0.011884306 0.99941385 -0.023741394
369864150.9434 0.99975109 -0.025218725 0.00029187091 0.012183134 0.0002903135 0.012221193 0.99941671 -0.024381071
379860377.35849 0.9996503 -0.025897831 0.00031326571 0.012456279 0.00033469941 0.012522663 0.99936628 -0.025055185
389856603.77358 0.99956 -0.026505798 0.00035683438 0.012773565 0.00034791231 0.012856644 0.99930942 -0.025561184
399852830.18868 0.99933565 -0.027192295 0.00037108408 0.013133775 0.00032357126 0.013187948 0.99943358 -0.026011735
409849056.60377 0.99933273 -0.027628135 0.00040527835 0.013436815 0.00037087855 0.013507079 0.99938774 -0.026583916
419845283.01887 0.99925095 -0.028023571 0.00040638167 0.013792235 0.00037420355 0.013838892 0.99933857 -0.027128786
429841509.43396 0.99931657 -0.0287458 0.00041689584 0.014120793 0.00045656832 0.014178409 0.99957263 -0.027806759
439837735.84906 0.99909836 -0.029528692 0.00040446501 0.014432451 0.00041230209 0.014512499 0.99929047 -0.028800741
449833962.26415 0.9990409 -0.030412287 0.00045199879 0.014727667 0.00043213041 0.014795092 0.99896097 -0.029574841
459830188.67925 0.99886364 -0.031015068 0.00042030448 0.015073819 0.00044205878 0.015138976 0.99880224 -0.030302823
469826415.09434 0.99878365 -0.031776845 0.00048443396 0.015428779 0.00046634022 0.015496131 0.99853593 -0.030876577
479822641.50943 0.99866611 -0.032239214 0.0004743305 0.015741499 0.00048729684 0.015821051 0.99860883 -0.031272538
489818867.92453 0.99886906 -0.032791585 0.00050070882 0.016070416 0.00052152295 0.016163811 0.99882889 -0.031831235
499815094.33962 0.99877882 -0.033396363 0.0005290322 0.016390713 0.00053498195 0.016468067 0.99910271 -0.032462865
509811320.75472 0.99896061 -0.033853285 0.00054099469 0.016700149 0.00054094504 0.016804237 0.99923229 -0.033234507
519807547.16981 0.99888998 -0.034252405 0.00055402098 0.017035879 0.00058949366 0.017164815 0.99920022 -0.033914328
529803773.58491 0.99893147 -0.034951478 0.00058516487 0.017350087 0.00058940146 0.017484194 0.9989906 -0.034525663
539800000 0.99900591 -0.035572797 0.00059595332 0.017662343 0.00059307227 0.017813168 0.99886769 -0.035152957
549796226.41509 0.99879009 -0.036436558 0.00059593515 0.018074047 0.00059554633 0.018152015 0.99873805 -0.035640568
559792452.83019 0.99867761 -0.037039191 0.00068071391 0.018368552 0.00062572211 0.0184428 0.99867189 -0.036149532
569788679.24528 0.99850136 -0.037726998 0.00065580755 0.018684356 0.00064901216 0.018785497 0.99875247 -0.03692162
579784905.66038 0.99859804 -0.03831809 0.00070296612 0.019048713 0.00070737104 0.019136382 0.99889916 -0.037599325
589781132.07547 0.99864554 -0.038922518 0.00073451456 0.019351207 0.00075791031 0.019490156 0.99895924 -0.038502783
599777358.49057 0.99879795 -0.039537609 0.00076460559 0.019696126 0.00073389336 0.019794313 0.99898285 -0.039223939
609773584.90566 0.99888068 -0.040323071 0.00077182369 0.020001831 0.00081759237 0.020116486 0.99887198 -0.040126488
619769811.32075 0.99891382 -0.041016877 0.00080198422 0.020325648 0.00086032785 0.020433711 0.99880433 -0.040571898
629766037.73585 0.99883747 -0.041655362 0.00088798162 0.020641478 0.00089440774 0.02073057 0.99861705 -0.041160703
639762264.15094 0.99869436 -0.042265549 0.00087958109 0.020959636 0.00085716415 0.021051109 0.99853104 -0.041627869
649758490.56604 0.99861526 -0.042838991 0.00089491671 0.021276077 0.00086815841 0.021400901 0.99856955 -0.042092189
659754716.98113 0.99848396 -0.043374747 0.00091789011 0.021615706 0.00088628568 0.021715421 0.99857152 -0.042698801
669750943.39623 0.9985218 -0.043883175 0.00091167307 0.021949185 0.00095447805 0.022059884 0.99870586 -0.043438107
679747169.81132 0.99848968 -0.044642985 0.00095310668 0.022301985 0.00095374277 0.022393351 0.99863094 -0.044325247
689743396.22642 0.99861681 -0.045440644 0.001042041 0.022593249 0.00098731462 0.022747649 0.99845475 -0.045264691
699739622.64151 0.99876398 -0.046151817 0.0010376433 0.022911906 0.0010296302 0.023061538 0.99844372 -0.045955509
709735849.0566 0.99871629 -0.047022209 0.0010736007 0.023231333 0.0011005746 0.02339142 0.99812502 -0.046548493
719732075.4717 0.99852383 -0.047760636 0.0010994659 0.023571402 0.0010673888 0.023716025 0.99820507 -0.047165751
729728301.88679 0.9984901 -0.048355848 0.0011492847 0.023900148 0.0011400748 0.024025636 0.99830121 -0.047623783
739724528.30189 0.99833435 -0.048990935 0.0011818279 0.024210736 0.0011864873 0.024337411 0.9984107 -0.048392817
749720754.71698 0.99836302 -0.049530745 0.0012211003 0.024524309 0.0012221388 0.024685323 0.99846166 -0.049060598
759716981.13208 0.99833179 -0.050070196 0.0012361649 0.024845369 0.001240842 0.02497264 0.99843717 -0.049720287
769713207.54717 0.99832231 -0.050805837 0.001281268 0.025153844 0.0012843953 0.025306534 0.99815631 -0.050522506
779709433.96226 0.99848306 -0.051376171 0.0012954017 0.025479339 0.0013095452 0.025610175 0.99793732 -0.05108206
789705660.37736 0.99833798 -0.052242607 0.0013300274 0.025797928 0.001330819 0.025940932 0.99771577 -0.051834434
799701886.79245 0.99828792 -0.052998066 0.0013600001 0.026117738 0.001346536 0.026242699 0.99760962 -0.052320659
809698113.20755 0.99817282 -0.05366689 0.0013989653 0.026425704 0.0013606013 0.026575631 0.99766797 -0.052823365
819694339.62264 0.99800038 -0.054253191 0.001384201 0.026735647 0.0013983748 0.026913047 0.99772441 -0.053400934
829690566.03774 0.99799252 -0.054859161 0.0014465554 0.027047023 0.0014265161 0.027209632 0.99791485 -0.054289639
839686792.45283 0.99801052 -0.055357695 0.0014611548 0.027390338 0.0014865128 0.027522255 0.99806821 -0.05513835
849683018.86792 0.99803561 -0.055965051 0.0014948617 0.027720995 0.0014721586 0.027866755 0.99788827 -0.055801913
859679245.28302 0.99812567 -0.056649983 0.0015504872 0.028046314 0.0015334506 0.028173137 0.99758637 -0.056451648
869675471.69811 0.99801308 -0.057412654 0.0015750928 0.028384103 0.0015767841 0.028502233 0.99732184 -0.057004094
879671698.11321 0.99796206 -0.058078062 0.0016324419 0.028660832 0.0016227538 0.028825102 0.99732977 -0.057387799
889667924.5283 0.99784827 -0.058867961 0.0016354118 0.02895646 0.0016517639 0.029131718 0.99713147 -0.05792442
899664150.9434 0.9975996 -0.059521049 0.0016612699 0.029288331 0.0016834056 0.02944402 0.99723679 -0.05850336
909660377.35849 0.99759364 -0.060205951 0.0016812463 0.029617034 0.0016818726 0.029755421 0.99737519 -0.059317678
919656603.77358 0.99765253 -0.060811028 0.0017061895 0.029922007 0.0016920525 0.030090211 0.9973703 -0.060262933
929652830.18868 0.99762785 -0.061568797 0.0017391574 0.030234529 0.0017460948 0.030403823 0.99722892 -0.061107248
939649056.60377 0.99779248 -0.062157393 0.0017267643 0.030524261 0.0017662318 0.03072175 0.99704075 -0.061795533
949645283.01887 0.9977563 -0.063020557 0.001747508 0.03085787 0.0017677913 0.031079199 0.99683565 -0.062383302
959641509.43396 0.99770725 -0.063642263 0.0017930819 0.03124037 0.0018069837 0.03142203 0.99678332 -0.062857598
969637735.84906 0.99761605 -0.064369857 0.0018032957 0.031585477 0.001828501 0.031784315 0.99679947 -0.063301414
979633962.26415 0.99750173 -0.065069921 0.0018494318 0.031902496 0.0019095899 0.032065067 0.99680907 -0.063927256
989630188.67925 0.99754596 -0.065580636 0.0019042566 0.032207284 0.0019129617 0.032392234 0.99705553 -0.064498425
999626415.09434 0.99758041 -0.066231728 0.0019497834 0.032525659 0.001960068 0.032705694 0.9970063 -0.065277606
1009622641.5094 0.9975484 -0.066914335 0.001997238 0.032842983 0.0020188512 0.033046316 0.99686575 -0.066047579
1019618867.9245 0.99771649 -0.067692474 0.0019931756 0.033174891 0.0020601149 0.033381134 0.99660313 -0.066903353
1029615094.3396 0.99772644 -0.06852293 0.0020537199 0.03349518 0.0020970274 0.033655651 0.99619555 -0.067474663
1039611320.7547 0.99774897 -0.069382161 0.002137118 0.033783279 0.0021256618 0.033998549 0.99619317 -0.068169743
1049607547.1698 0.99759644 -0.070291325 0.0021317583 0.03408432 0.0021518008 0.034295645 0.99618155 -0.068751171
1059603773.5849 0.99746835 -0.070985973 0.0021760855 0.034390129 0.0021865936 0.034579571 0.99611169 -0.069279492
1069600000 0.99730456 -0.071654439 0.0021661222 0.034691244 0.0022118408 0.034913681 0.99627709 -0.069986045
1079596226.4151 0.99717873 -0.072303966 0.0021715369 0.034996577 0.0022445149 0.035236981 0.99628943 -0.070786394
1089592452.8302 0.99731421 -0.072968662 0.0022001136 0.035347495 0.0022654496 0.035555866 0.99624622 -0.071503848
1099588679.2453 0.99730515 -0.07360813 0.0022208728 0.0356507 0.0022546537 0.035870187 0.99596852 -0.072122365
1109584905.6604 0.99749535 -0.074327886 0.0022461042 0.036015905 0.0022955826 0.036191408 0.99566168 -0.072652504
1119581132.0755 0.99744356 -0.075322628 0.0022789123 0.036347069 0.0023211185 0.036577329 0.99556464 -0.073087141
1129577358.4906 0.99725121 -0.076062858 0.00229677 0.036683977 0.0023403279 0.036937691 0.9954356 -0.073509187
1139573584.9057 0.99704796 -0.076913148 0.0023608664 0.037030678 0.0024246154 0.037278473 0.99549139 -0.074193358
1149569811.3208 0.99690139 -0.077791348 0.0024052144 0.037333213 0.0024836133 0.037550181 0.99563855 -0.074862048
1159566037.7358 0.9967317 -0.078445107 0.0024224734 0.03767677 0.0024933079 0.037853155 0.99574137 -0.075926483
1169562264.1509 0.99659681 -0.079163164 0.0024242438 0.037961826 0.0024884772 0.038193125 0.99557507 -0.076673448
1179558490.566 0.99650639 -0.079811744 0.0024475011 0.038342558 0.0025437616 0.038547717 0.9954583 -0.077382684
1189554716.9811 0.99648708 -0.080627173 0.0024975818 0.038670655 0.0025876826 0.038904015 0.99519885 -0.077973098
1199550943.3962 0.99637192 -0.081458598 0.002519967 0.038991924 0.002635045 0.03923583 0.9950428 -0.078346521
1209547169.8113 0.99629682 -0.082371444 0.0025821095 0.039346192 0.0026512593 0.039532039 0.99502736 -0.07870622
1219543396.2264 0.99609768 -0.08316201 0.0026277774 0.039695863 0.0026927409 0.039905634 0.99505693 -0.079130068
1229539622.6415 0.99583042 -0.08390823 0.0026694294 0.040001284 0.0027569421 0.040272851 0.99512839 -0.079743028
1239535849.0566 0.99560028 -0.084527999 0.0027445965 0.040301122 0.0028400216 0.040561374 0.99521321 -0.080630511
1249532075.4717 0.99529421 -0.08517836 0.0027774193 0.040629838 0.002904142 0.040845003 0.99508524 -0.081424214
1259528301.8868 0.99504876 -0.085717559 0.002836097 0.040954433 0.0029705185 0.041164126 0.99484432 -0.082285732
1269524528.3019 0.99496979 -0.086451918 0.0029256828 0.041272592 0.0030492917 0.041472871 0.99469751 -0.082983345
1279520754.717 0.99458635 -0.087082379 0.0029797137 0.041571751 0.0030572533 0.041743465 0.99438924 -0.083500557
1289516981.1321 0.99443775 -0.088027716 0.0029844651 0.041847751 0.0030834004 0.042046111 0.99451053 -0.083979487
1299513207.5472 0.99413109 -0.088840425 0.0030043498 0.042158693 0.0031157229 0.042384449 0.99452764 -0.0843665
1309509433.9623 0.99371934 -0.089571819 0.0030001039 0.042465582 0.0030998467 0.042658731 0.99465317 -0.085095987
1319505660.3774 0.9934032 -0.090306565 0.0030130055 0.042792171 0.0031310413 0.042941961 0.99465221 -0.085790679
1329501886.7925 0.99312621 -0.09093678 0.0030528884 0.043098487 0.0031620301 0.043278113 0.99470609 -0.086703897
1339498113.2075 0.99287933 -0.09137848 0.003058481 0.043433238 0.003165436 0.043581575 0.99433231 -0.08744517
1349494339.6226 0.99266893 -0.092020996 0.0030296897 0.043776497 0.0031458684 0.043930091 0.99395365 -0.087994576
1359490566.0377 0.99251795 -0.092456043 0.0030277576 0.044143349 0.0031504966 0.044272698 0.99377793 -0.088507146
1369486792.4528 0.99236202 -0.09308067 0.0030337041 0.044493336 0.0031506959 0.044626735 0.99358588 -0.088968158
1379483018.8679 0.99208438 -0.093571864 0.0030830407 0.044874452 0.0031727082 0.044974577 0.99356645 -0.089330465
1389479245.283 0.9917382 -0.094060749 0.0031158514 0.045212932 0.003212573 0.045377951 0.9935863 -0.090020925
1399475471.6981 0.99135 -0.094539881 0.0031409059 0.045565691 0.0032266378 0.045723468 0.99377286 -0.090690821
1409471698.1132 0.99105734 -0.094938025 0.0031521486 0.045951497 0.003247306 0.046080742 0.99376822 -0.091432258
1419467924.5283 0.99092042 -0.095203668 0.0032002879 0.046303477 0.0032900516 0.046466831 0.99355352 -0.092155427
1429464150.9434 0.99074531 -0.095711589 0.0032097101 0.046718661 0.0033212919 0.046840042 0.99352825 -0.09273845
1439460377.3585 0.99089372 -0.096150339 0.0033291886 0.047180157 0.0034035873 0.047300391 0.99320763 -0.093103141
1449456603.7736 0.99092811 -0.096680164 0.0034300229 0.047543012 0.0034962911 0.047700886 0.99318141 -0.093436435
1459452830.1887 0.99088418 -0.097352773 0.0035473574 0.047934651 0.0035962462 0.048076682 0.99326956 -0.093762219
1469449056.6038 0.99092269 -0.097999215 0.0037127072 0.048257299 0.0037629614 0.048412163 0.99348813 -0.094365001
1479445283.0189 0.99080199 -0.098558784 0.0038414781 0.048552696 0.0038623053 0.048697699 0.9935317 -0.095214367
1489441509.434 0.99077892 -0.099074602 0.0039820075 0.048889585 0.0040079039 0.049019169 0.99342263 -0.096079141
1499437735.8491 0.99065268 -0.099402636 0.0040767416 0.049195331 0.0041074678 0.049287252 0.99331427 -0.096906632
1509433962.2642 0.99059325 -0.099959359 0.0041475692 0.049393922 0.0041613523 0.049543064 0.99312836 -0.097655386
1519430188.6792 0.99069494 -0.10046282 0.0042425152 0.049683113 0.0042267889 0.049823336 0.99302697 -0.09824416
1529426415.0943 0.99062365 -0.10120633 0.0042801015 0.04998447 0.0042497497 0.050123658 0.99290109 -0.098683506
1539422641.5094 0.99071199 -0.10197563 0.0043378454 0.050265692 0.0043352614 0.050418042 0.99306089 -0.099083096
1549418867.9245 0.99053299 -0.1027662 0.0043873675 0.05053883 0.0044026338 0.05070902 0.99325627 -0.099796757
1559415094.3396 0.99038446 -0.10337299 0.0044457465 0.050803967 0.0043820161 0.050999172 0.99333256 -0.10051644
1569411320.7547 0.99029803 -0.10418782 0.0044859694 0.051084604 0.0044484027 0.051272694 0.99328619 -0.10131019
1579407547.1698 0.990197 -0.1046527 0.0044918456 0.051374439 0.0044590929 0.051567223 0.99294621 -0.10206097
1589403773.5849 0.9901548 -0.10513628 0.0044826195 0.051649332 0.0044869091 0.051870652 0.99279368 -0.10281712
1599400000 0.9901526 -0.10567954 0.004481758 0.051940117 0.0044815894 0.052155513 0.99239278 -0.10327879
1609396226.4151 0.99008489 -0.10634423 0.0044965995 0.052275226 0.0044464339 0.052452572 0.99221474 -0.10380532
1619392452.8302 0.99009418 -0.10697246 0.0045145005 0.052625991 0.0044989977 0.052795019 0.99210811 -0.1041792
1629388679.2453 0.98988569 -0.10761178 0.0045004319 0.052962203 0.0044889394 0.053181972 0.99240828 -0.1046707
1639384905.6604 0.98963821 -0.10829551 0.0045084283 0.053309068 0.0044626701 0.053551812 0.99259502 -0.1056056
1649381132.0755 0.98943019 -0.10895911 0.0045249816 0.053670362 0.0045039225 0.053886529 0.99255258 -0.10649294
1659377358.4906 0.98935604 -0.10977793 0.0045383219 0.054007977 0.004539283 0.05427666 0.99248302 -0.10741097
1669373584.9057 0.98925805 -0.11014407 0.0045649125 0.054390442 0.0045511601 0.054618672 0.99215907 -0.10798025
1679369811.3208 0.98923528 -0.11086547 0.004632107 0.054801941 0.0046078227 0.055008706 0.99204654 -0.1085763
1689366037.7358 0.98919058 -0.11149979 0.0046546329 0.05512106 0.0046681669 0.055387706 0.99189901 -0.10887793
1699362264.1509 0.98944831 -0.11200951 0.0047099255 0.055524111 0.004662999 0.055759072 0.99207687 -0.10930534
1709358490.566 0.98930287 -0.11271778 0.004790822 0.055899836 0.0047155926 0.056137066 0.99200714 -0.10980991
1719354716.9811 0.98900932 -0.11328375 0.004818121 0.05624713 0.0047717392 0.05651094 0.99211311 -0.11049479
