!Keysight Technologies,N5222B,MY61253708,A.15.00.15
!Date: Wednesday, June 19, 2024 08:45:32
!Correction: S11(C  2-Port  ) 
!S21(C  2-Port  ) 
!S12(C  2-Port  ) 
!S22(C  2-Port  ) 
!S2P File: Measurements: S11, S21, S12, S22:
# Hz S  RI   R 50
10000000 0.99843913 -0.0022411942 1.7390299e-005 0.00013227441 0.00033910148 0.0002852435 0.99827331 -0.0011489987
19996226.415094 0.9991945 -0.0022009909 2.3052446e-005 0.00087262562 -6.2739768e-005 0.00077288027 0.99925596 -0.0021303892
29992452.830189 0.99972838 -0.0026633143 7.2154508e-006 0.0011964203 3.2086158e-005 0.0011673339 0.99951708 -0.0027366877
39988679.245283 1.0000436 -0.0032655746 -7.1515242e-006 0.0015756255 0.00011543094 0.0015807679 0.99967396 -0.0033579022
49984905.660377 1.0002269 -0.0041316152 4.9894908e-005 0.0019343875 1.9839325e-005 0.0019538379 0.99974787 -0.0040141046
59981132.075472 1.0002725 -0.0048920214 1.8365681e-006 0.0023505958 5.1578507e-005 0.0023275032 0.99968147 -0.0045493543
69977358.490566 0.99998093 -0.00547323 2.4969013e-005 0.0027104018 1.0432952e-005 0.0027280049 0.99959767 -0.0051457435
79973584.90566 0.99981159 -0.0061282814 -7.1531394e-006 0.0030752181 1.9618659e-005 0.00311187 0.99935663 -0.0056077838
89969811.320755 0.99981749 -0.0063677132 1.299195e-006 0.003499215 4.1334424e-006 0.0034288568 0.99948108 -0.0060406923
99966037.735849 0.99993777 -0.0071167648 4.771899e-005 0.0038753899 5.886663e-005 0.0038528638 0.999533 -0.0068426281
109962264.15094 1.0000545 -0.008155182 5.0169532e-005 0.004246491 2.1302141e-005 0.0042639794 0.99950224 -0.0077458173
119958490.56604 1.0000801 -0.0092077255 4.3894397e-005 0.0046217651 5.0080707e-005 0.0046713459 0.99956864 -0.0087072849
129954716.98113 1.0000079 -0.010291845 5.7025463e-005 0.0050349226 5.5667246e-005 0.0050323233 0.9995321 -0.0097082555
139950943.39623 0.99990839 -0.011210684 5.8285004e-005 0.0054165018 6.7577581e-005 0.0054397667 0.99944794 -0.01050164
149947169.81132 0.99975479 -0.011893123 7.1674818e-005 0.0057977238 8.3474442e-005 0.0058171493 0.99941158 -0.011126757
159943396.22642 0.99975193 -0.012460291 8.6478656e-005 0.0062041823 9.9356752e-005 0.0062122494 0.99950898 -0.011649996
169939622.64151 0.99977392 -0.012837395 0.00010928884 0.0065812282 9.7015349e-005 0.0066022668 0.99958879 -0.012101904
179935849.0566 0.99974227 -0.013194233 0.00011377246 0.006959944 0.00011050305 0.0069926414 0.99953949 -0.012541533
189932075.4717 0.99994063 -0.013908565 0.00012450595 0.0073412945 0.00013916753 0.0073811533 0.99966711 -0.013243169
199928301.88679 0.99995172 -0.014898092 0.00013919547 0.007696623 0.00012669177 0.0077587953 0.99955636 -0.014181226
209924528.30189 0.99964172 -0.015787348 0.00014795444 0.0081033669 0.00013372861 0.0081403488 0.9993692 -0.014987186
219920754.71698 0.99953061 -0.01665926 0.00017172797 0.0084847333 0.00014746143 0.0085201915 0.99915355 -0.015767574
229916981.13208 0.99922538 -0.017563969 0.00017239247 0.0088954847 0.00016757706 0.0089176111 0.99902844 -0.016605675
239913207.54717 0.99918848 -0.018233299 0.00020512902 0.0092617767 0.00019051287 0.0093093179 0.99904126 -0.017336398
249909433.96226 0.99921644 -0.018890232 0.00019781291 0.0096525513 0.0001936059 0.0096665313 0.99915516 -0.018009514
259905660.37736 0.99934101 -0.019634247 0.00015393225 0.01003821 0.00025134999 0.010039857 0.99924445 -0.018620312
269901886.79245 0.9995383 -0.020306677 0.00019785808 0.010390104 0.00022281753 0.010475188 0.99973595 -0.01941368
279898113.20755 0.99966228 -0.02093108 0.00021942728 0.010774486 0.00025759521 0.010835802 0.99958599 -0.020174295
289894339.62264 0.99964046 -0.021889299 0.00027648127 0.011178759 0.00030519813 0.011240984 0.99952996 -0.021030188
299890566.03774 0.9994747 -0.022366345 0.00031487877 0.011545458 0.00030907476 0.011623165 0.99917221 -0.021505684
309886792.45283 0.99920809 -0.023113824 0.00034889102 0.011915726 0.00030323653 0.012033172 0.99898732 -0.022110946
319883018.86792 0.99905252 -0.023877203 0.00031916378 0.012337526 0.00034599705 0.012422578 0.99892998 -0.022568822
329879245.28302 0.9989773 -0.024514407 0.00035530096 0.012763459 0.00035325252 0.012788752 0.99912608 -0.023377299
339875471.69811 0.99905825 -0.025278918 0.00037136872 0.013106035 0.00032051106 0.013198573 0.99905229 -0.024200238
349871698.11321 0.99926251 -0.026116341 0.00040797517 0.01348841 0.00040818704 0.013523478 0.99912673 -0.025188923
359867924.5283 0.99910092 -0.02703768 0.00038669398 0.013862552 0.00039922819 0.013932236 0.99916673 -0.02619043
369864150.9434 0.9993431 -0.027900726 0.00044231513 0.014287593 0.00044363528 0.014327785 0.99911565 -0.026949406
379860377.35849 0.99920338 -0.028668612 0.00049839239 0.014689477 0.00046129804 0.01470793 0.99903828 -0.027608737
389856603.77358 0.99915612 -0.029309392 0.00045588799 0.015003126 0.00045919046 0.015114263 0.99902236 -0.028219759
399852830.18868 0.99887645 -0.029954374 0.0005421387 0.015415074 0.00048509333 0.01548783 0.99905694 -0.028708667
409849056.60377 0.998887 -0.030316651 0.00051918125 0.015804514 0.00047872213 0.015888551 0.99909633 -0.02915987
419845283.01887 0.99882418 -0.030863583 0.00057182554 0.016176177 0.00054073846 0.016273569 0.99910533 -0.029819191
429841509.43396 0.9988572 -0.031666607 0.00061248941 0.01656343 0.00056991493 0.01670376 0.99929613 -0.030694783
439837735.84906 0.99877805 -0.03250134 0.00062659965 0.016966885 0.00062032742 0.017050134 0.99897182 -0.031672806
449833962.26415 0.99876076 -0.033465266 0.00062167691 0.017270328 0.0006630891 0.017365072 0.99866468 -0.032524139
459830188.67925 0.99861282 -0.034308583 0.00062152278 0.017662559 0.00063379295 0.017731337 0.99851048 -0.033328921
469826415.09434 0.99859142 -0.03521502 0.00064693531 0.018096896 0.0006559873 0.018158082 0.99823672 -0.033994555
479822641.50943 0.99846745 -0.035834186 0.00067432364 0.01848761 0.00067677582 0.018555101 0.99832982 -0.034505665
489818867.92453 0.99852628 -0.036432654 0.00072780065 0.018863477 0.00073947851 0.018941192 0.9986304 -0.035093129
499815094.33962 0.99860269 -0.03697443 0.00079296017 0.019238107 0.00072974619 0.019329656 0.99896383 -0.035741448
509811320.75472 0.99879295 -0.037479743 0.00077392027 0.019582924 0.0008322447 0.019681118 0.999075 -0.036681108
519807547.16981 0.99875492 -0.038183749 0.00079047913 0.020020418 0.00081033865 0.02007392 0.99903542 -0.037498206
529803773.58491 0.99867749 -0.038875103 0.00080120936 0.020369159 0.00085016806 0.020442493 0.99875683 -0.038237929
539800000 0.9986462 -0.039702997 0.00083599985 0.020763321 0.00085926009 0.020851472 0.99856269 -0.038988054
549796226.41509 0.99847245 -0.040679723 0.00094141066 0.021185298 0.00090017309 0.021265171 0.99831474 -0.039536715
559792452.83019 0.99825191 -0.041386098 0.00093061849 0.021570571 0.00094976183 0.02163475 0.99816918 -0.040136874
569788679.24528 0.99793601 -0.042157292 0.00092537235 0.02197428 0.00093368394 0.022052458 0.99832457 -0.040846139
579784905.66038 0.99802524 -0.042727165 0.00098528713 0.02234314 0.00094701047 0.022430619 0.99849308 -0.04160466
589781132.07547 0.99807072 -0.043471396 0.001022608 0.022681184 0.001001073 0.022806482 0.9985553 -0.042574733
599777358.49057 0.99825764 -0.04411754 0.0010784036 0.023083251 0.0010717334 0.02319476 0.99856812 -0.043496162
609773584.90566 0.99852777 -0.044914465 0.0011270849 0.023557063 0.0011517144 0.023596065 0.99848169 -0.044410281
619769811.32075 0.99844694 -0.045730025 0.0011938196 0.023858575 0.0012555271 0.023957599 0.99828053 -0.044993669
629766037.73585 0.99826157 -0.046449065 0.0012637507 0.024218321 0.0012516379 0.024309855 0.99809039 -0.045449287
639762264.15094 0.99801284 -0.047152668 0.0012746067 0.02450759 0.0012974301 0.024667157 0.99803686 -0.04597275
649758490.56604 0.99796289 -0.047743797 0.0012720041 0.024883084 0.0012969864 0.025021322 0.99805433 -0.046467558
659754716.98113 0.997679 -0.048257053 0.0012699142 0.025274601 0.0012834594 0.025427196 0.99801797 -0.047068477
669750943.39623 0.99766916 -0.048765481 0.0013082409 0.025702769 0.0013245055 0.025829762 0.99812853 -0.047945499
679747169.81132 0.99773598 -0.049673498 0.0013526963 0.026107043 0.0013604079 0.026228936 0.99811369 -0.049031071
689743396.22642 0.99787116 -0.050566733 0.001424103 0.026478026 0.0014130827 0.026617024 0.99791288 -0.050036758
699739622.64151 0.99806726 -0.05143258 0.0014748974 0.026853414 0.0014748815 0.027006447 0.99783367 -0.050808311
709735849.0566 0.99798459 -0.05231145 0.0015281041 0.027229827 0.0015170665 0.027362511 0.99752188 -0.051399581
719732075.4717 0.99787372 -0.053140938 0.0015781866 0.027612835 0.0015461864 0.027746044 0.9976275 -0.052032113
729728301.88679 0.99781311 -0.05365935 0.0016052136 0.027999369 0.0016381601 0.028112996 0.99767959 -0.052533478
739724528.30189 0.99755502 -0.054296359 0.0016593118 0.028349075 0.0016791751 0.028489437 0.99789321 -0.053235501
749720754.71698 0.99749506 -0.054803059 0.0017140871 0.028717838 0.0017045829 0.028867597 0.99791914 -0.054046959
759716981.13208 0.99762428 -0.055420876 0.001755612 0.029096663 0.0017261803 0.029250309 0.99787813 -0.054818004
769713207.54717 0.99746805 -0.056248039 0.0017694226 0.029476549 0.0017959718 0.029614149 0.99753165 -0.055619329
779709433.96226 0.99758053 -0.056899719 0.0018208523 0.029869379 0.0018247589 0.029994579 0.99727148 -0.056327604
789705660.37736 0.99748778 -0.057921708 0.001883137 0.030216008 0.0019228263 0.030345913 0.9968909 -0.057158232
799701886.79245 0.99746382 -0.058827609 0.0019102879 0.030603856 0.0018729959 0.03071912 0.99692476 -0.057664424
809698113.20755 0.99728382 -0.059493944 0.0019487222 0.030955238 0.0019536023 0.031083418 0.99693251 -0.058190271
819694339.62264 0.99715871 -0.060157359 0.0019701244 0.031346388 0.0019527106 0.031474832 0.99711096 -0.058912605
829690566.03774 0.99707568 -0.06085518 0.0020135157 0.031682923 0.0020209281 0.031857923 0.99729794 -0.05990842
839686792.45283 0.99731123 -0.061252385 0.002040307 0.032053985 0.0020596785 0.032251775 0.99738616 -0.060740501
849683018.86792 0.99728781 -0.061974533 0.0020896208 0.032440495 0.0020919598 0.032636441 0.99721849 -0.061574288
859679245.28302 0.99731195 -0.062799186 0.0021377765 0.032844324 0.002158111 0.032997046 0.99695456 -0.062268734
869675471.69811 0.99717313 -0.063625485 0.0022078557 0.033221602 0.0022284146 0.0333784 0.99654943 -0.062790304
879671698.11321 0.99711078 -0.064438954 0.0022637895 0.033560257 0.0022429354 0.033760417 0.99654198 -0.063278176
889667924.5283 0.9969095 -0.065256417 0.0022983514 0.033963643 0.0023195306 0.034090485 0.99632508 -0.063831061
899664150.9434 0.99672568 -0.066071212 0.0023437552 0.034294888 0.0023698248 0.034497842 0.99638194 -0.064524651
909660377.35849 0.9966169 -0.06679067 0.0024092002 0.034687843 0.0024072197 0.034858204 0.99652094 -0.065504879
919656603.77358 0.99667007 -0.067531258 0.002421014 0.035027895 0.0023928583 0.035277151 0.99655759 -0.066469088
929652830.18868 0.99673247 -0.068306744 0.0024520438 0.035410568 0.002467826 0.035590805 0.99634039 -0.067405045
939649056.60377 0.99693066 -0.069072276 0.0024966784 0.03574241 0.0024841791 0.035964277 0.99615932 -0.068193108
949645283.01887 0.9968859 -0.069863945 0.0024867216 0.036152091 0.0025080172 0.036350764 0.99594724 -0.068728574
959641509.43396 0.99681282 -0.070669502 0.0025442252 0.036549091 0.0025395891 0.036739886 0.99585497 -0.06928733
969637735.84906 0.99655879 -0.071359813 0.0026109461 0.036945499 0.0025793966 0.037157811 0.99588907 -0.069657087
979633962.26415 0.99638128 -0.072134025 0.0026716213 0.037287593 0.0026544933 0.037542954 0.9958899 -0.070367873
989630188.67925 0.99640155 -0.072703332 0.0027278075 0.037700351 0.002742731 0.037918568 0.99603498 -0.071110815
999626415.09434 0.99651134 -0.0734258 0.0027545393 0.03805837 0.0027609877 0.038306233 0.99595582 -0.071957201
1009622641.5094 0.99650431 -0.074183747 0.002799158 0.038455013 0.0028432831 0.038694046 0.9956885 -0.07299754
1019618867.9245 0.99656892 -0.075077415 0.0028648502 0.038830258 0.0028922413 0.039043043 0.99551457 -0.073894694
1029615094.3396 0.99651361 -0.07610321 0.002963569 0.039227065 0.0029824171 0.039411157 0.9950676 -0.074552923
1039611320.7547 0.99658453 -0.077053696 0.003035102 0.039563395 0.0030354345 0.039783828 0.99504799 -0.075195432
1049607547.1698 0.99636352 -0.078055426 0.0030565052 0.039917093 0.0030797976 0.040113904 0.99495989 -0.075807452
1059603773.5849 0.99618441 -0.078769058 0.0030862 0.040252004 0.0031264219 0.040502757 0.99496675 -0.076449245
1069600000 0.99588835 -0.079354227 0.0030955914 0.040605277 0.0031379238 0.040854104 0.99513578 -0.077228516
1079596226.4151 0.99582261 -0.080012314 0.0031490987 0.040989861 0.0032211882 0.041241046 0.99510157 -0.078038201
1089592452.8302 0.99585605 -0.080637276 0.0032171048 0.04134677 0.003252252 0.041608479 0.99497443 -0.078767657
1099588679.2453 0.99591231 -0.081337541 0.0032241456 0.04172558 0.0032739434 0.041963309 0.99460387 -0.079376221
1109584905.6604 0.99602282 -0.082300559 0.0032512508 0.042136956 0.003300746 0.042370114 0.99434847 -0.080082819
1119581132.0755 0.99593508 -0.083402388 0.0032923445 0.04253995 0.0033511552 0.042787388 0.99420762 -0.080541939
1129577358.4906 0.99575222 -0.084317654 0.0033482946 0.042922094 0.0034177881 0.043176867 0.99400401 -0.081094831
1139573584.9057 0.99545312 -0.085208654 0.0033794502 0.043321811 0.0034839232 0.043565433 0.99413288 -0.081781864
1149569811.3208 0.99534535 -0.086150117 0.0034987668 0.043690123 0.0035372954 0.043951873 0.99426991 -0.082635723
1159566037.7358 0.99506962 -0.086806148 0.003517339 0.044036649 0.0035962332 0.044255469 0.99435973 -0.083668202
1169562264.1509 0.99498546 -0.087504715 0.0035598148 0.044378482 0.0036547743 0.044625495 0.99412048 -0.084502727
1179558490.566 0.99493968 -0.088282399 0.0035644183 0.044823833 0.0036896875 0.045087159 0.99396086 -0.085275501
1189554716.9811 0.99485135 -0.088961542 0.0036391495 0.04518839 0.0037557753 0.045427799 0.9936471 -0.08589682
1199550943.3962 0.99483538 -0.089905053 0.0036912132 0.045609981 0.0037628878 0.045852475 0.9934032 -0.086243272
1209547169.8113 0.99460131 -0.090849429 0.0037586903 0.045980901 0.0038283672 0.046186257 0.99340975 -0.086618781
1219543396.2264 0.99438256 -0.091775902 0.0037961951 0.046394698 0.0039028027 0.046610918 0.99344254 -0.08704865
1229539622.6415 0.99403524 -0.092662126 0.003901897 0.04677327 0.0040067341 0.047008879 0.99357116 -0.087833166
1239535849.0566 0.99370277 -0.093390405 0.0039852159 0.047112796 0.0040522525 0.047357343 0.9937048 -0.088824421
1249532075.4717 0.99338198 -0.094185255 0.0040211063 0.047496632 0.0042082868 0.047672972 0.99348122 -0.089742042
1259528301.8868 0.99317873 -0.094681323 0.0041081626 0.047903646 0.0042283665 0.048093028 0.99314117 -0.090676218
1269524528.3019 0.99308217 -0.09548232 0.0041977223 0.048234534 0.0043174531 0.048470773 0.99288946 -0.09143129
1279520754.717 0.99275148 -0.096217863 0.0042575998 0.048528433 0.0043960782 0.048754483 0.99264741 -0.092092425
1289516981.1321 0.99257779 -0.097101063 0.0042770207 0.048879661 0.0044314582 0.049068924 0.99270362 -0.092477471
1299513207.5472 0.99213308 -0.097959071 0.0043318942 0.049265668 0.0044391472 0.049431264 0.99278492 -0.092885286
1309509433.9623 0.99167079 -0.09862192 0.0043495568 0.049641557 0.0044722958 0.049780343 0.99286216 -0.093713984
1319505660.3774 0.99129099 -0.099484399 0.0043844702 0.049976267 0.0045174211 0.050172042 0.99285316 -0.094336286
1329501886.7925 0.9909932 -0.10014394 0.0044057667 0.05035793 0.0045352541 0.050531268 0.99284536 -0.095388949
1339498113.2075 0.99063134 -0.1007424 0.0044659134 0.050723448 0.0045877183 0.050912458 0.9923895 -0.096096635
1349494339.6226 0.99043334 -0.10133345 0.004462698 0.05112163 0.0045641935 0.051292088 0.99203306 -0.096803457
1359490566.0377 0.99038762 -0.10208544 0.0045200568 0.051549286 0.0046300199 0.051693477 0.99174702 -0.097452402
1369486792.4528 0.99010831 -0.10267428 0.0045050792 0.051935375 0.0046419036 0.052135274 0.99155986 -0.097941786
1379483018.8679 0.98985547 -0.10326521 0.0045452118 0.052367657 0.0046781739 0.05248531 0.99154937 -0.09829291
1389479245.283 0.98945308 -0.10386777 0.0046522897 0.052741282 0.0047257468 0.052926283 0.99164623 -0.09905082
1399475471.6981 0.98897713 -0.10427234 0.0046566557 0.053185828 0.0047199819 0.053319827 0.99173367 -0.099828482
1409471698.1132 0.98863524 -0.10466077 0.0047079194 0.053611588 0.0048002857 0.053745572 0.99171531 -0.10064539
1419467924.5283 0.98848003 -0.10498592 0.0047420114 0.053987648 0.0048442855 0.054191433 0.99151641 -0.10139015
1429464150.9434 0.98838305 -0.1054168 0.0048204232 0.054480404 0.0048811268 0.054597687 0.99135298 -0.10193142
1439460377.3585 0.98839283 -0.10591944 0.0049587637 0.05497016 0.0050009536 0.05509565 0.99106562 -0.10232668
1449456603.7736 0.98847556 -0.10655402 0.0050331037 0.05543752 0.0050804904 0.055533662 0.99096781 -0.10271339
1459452830.1887 0.98846018 -0.10734078 0.0051855836 0.055834241 0.0052533038 0.05600908 0.99109113 -0.10315803
1469449056.6038 0.98838973 -0.1082271 0.0053658355 0.056257006 0.0053442176 0.056406081 0.99131298 -0.10382405
1479445283.0189 0.98830199 -0.10876717 0.0055106413 0.056549147 0.0055127069 0.056733798 0.99131382 -0.10481502
1489441509.434 0.98813045 -0.10935774 0.0056581609 0.056933828 0.0056612324 0.057081927 0.99113506 -0.10585129
1499437735.8491 0.98799074 -0.10972962 0.0058217794 0.057273403 0.0058346111 0.057418246 0.99104917 -0.10665065
1509433962.2642 0.98791564 -0.11020237 0.0059169009 0.057583366 0.0059065623 0.057747573 0.99080527 -0.10739882
1519430188.6792 0.98810899 -0.11082789 0.005986087 0.057912789 0.0059823338 0.058037903 0.99059868 -0.10798198
1529426415.0943 0.98801285 -0.11150008 0.0060524885 0.05821912 0.006032249 0.058395997 0.99058652 -0.10843864
1539422641.5094 0.98807299 -0.11233352 0.0061051669 0.05858022 0.006101876 0.058751799 0.99071354 -0.10893039
1549418867.9245 0.9878096 -0.11322674 0.006219768 0.058949687 0.0061940011 0.059102084 0.99091345 -0.10976145
1559415094.3396 0.98765194 -0.11396921 0.0062524639 0.059247077 0.0062407795 0.059458509 0.99105144 -0.11047143
1569411320.7547 0.98748618 -0.11483228 0.0063653067 0.059567001 0.0062883012 0.059776016 0.99092978 -0.11135657
1579407547.1698 0.9873879 -0.11538614 0.0063868975 0.059876777 0.0063464781 0.060113128 0.99044073 -0.11220042
1589403773.5849 0.98728347 -0.11593574 0.0063944869 0.060166638 0.0063613523 0.060432777 0.99011207 -0.11296746
1599400000 0.98728198 -0.1165449 0.0064100064 0.060575631 0.0064236764 0.060769353 0.98975843 -0.11344653
1609396226.4151 0.98725504 -0.11720146 0.0064360714 0.060945895 0.0063597457 0.061171569 0.98962647 -0.11396909
1619392452.8302 0.9872123 -0.11786312 0.0064602252 0.061334901 0.0064006876 0.061565861 0.98953688 -0.11453167
1629388679.2453 0.98697436 -0.11864313 0.0065331794 0.061740488 0.0064593647 0.06196478 0.98984504 -0.11509281
1639384905.6604 0.98670751 -0.11935347 0.0065236823 0.062118784 0.0064687543 0.062415492 0.99003923 -0.11596352
1649381132.0755 0.98651272 -0.1201486 0.0065695755 0.062529758 0.0065135621 0.06282635 0.990008 -0.11701164
1659377358.4906 0.98626184 -0.12086493 0.0065586027 0.062977254 0.0065845624 0.06328287 0.9899447 -0.11798558
1669373584.9057 0.98613584 -0.12144843 0.0066554653 0.063455433 0.006659213 0.063673645 0.98953557 -0.118656
1679369811.3208 0.98618937 -0.12215485 0.0067379884 0.063835606 0.0066884849 0.064127691 0.98932433 -0.11924666
1689366037.7358 0.98618305 -0.1227783 0.0068413801 0.064267419 0.0067417491 0.064564742 0.98913449 -0.11956367
1699362264.1509 0.98633289 -0.12344518 0.0069172001 0.064678691 0.0068428833 0.064964212 0.98926079 -0.12014207
1709358490.566 0.98618126 -0.12421484 0.0069781579 0.065081097 0.0069147656 0.065402202 0.98931658 -0.12063839
1719354716.9811 0.98578334 -0.12483203 0.0070798192 0.065487139 0.0070746876 0.065847971 0.9893055 -0.12144309
1729350943.3962 0.98544878 -0.12544471 0.007201219 0.065921292 0.0071856193 0.0662871 0.98925877 -0.12244487
