!Keysight Technologies,N5222B,MY61253708,A.15.00.15
!Date: Wednesday, June 19, 2024 10:19:22
!Correction: S11(C  2-Port  ) 
!S21(C  2-Port  ) 
!S12(C  2-Port  ) 
!S22(C  2-Port  ) 
!S2P File: Measurements: S11, S21, S12, S22:
# Hz S  RI   R 50
10000000 0.99863279 -0.0029232502 5.7957703e-005 0.00052870502 -0.00036076774 0.00015537004 0.99819297 -0.0014494359
19996226.415094 0.99999022 -0.0023970902 0.00013837581 0.00058170425 -1.4744175e-005 0.00063694181 1.0002108 -0.0022604465
29992452.830189 0.9996314 -0.0024879575 1.3360521e-005 0.0010025016 0.0001049517 0.0010477146 0.99944115 -0.0026930571
39988679.245283 1.0000888 -0.0030160993 4.637352e-005 0.0012983712 -2.8112263e-006 0.0012996257 0.99969667 -0.0030790865
49984905.660377 1.0002415 -0.0036949217 -2.2919266e-005 0.0016483287 3.3611141e-005 0.0016126343 0.99987686 -0.0035962164
59981132.075472 1.0004153 -0.0045180917 2.1355052e-005 0.0019602501 1.8478138e-005 0.001998862 0.99988687 -0.0041569471
69977358.490566 1.0002552 -0.005077403 -8.2313309e-006 0.0022752434 2.8327693e-005 0.0023011938 0.99978101 -0.0046642218
79973584.90566 0.99988109 -0.0057033896 2.0653475e-005 0.0026167235 2.7760398e-005 0.0026115861 0.99942917 -0.0051528811
89969811.320755 0.99991763 -0.0057489276 1.7003622e-006 0.002916567 -2.198841e-005 0.0029392738 0.99968255 -0.0053526461
99966037.735849 1.0001597 -0.0065383166 1.9178959e-005 0.0032848835 3.1017407e-005 0.0032834203 0.99977034 -0.0061449707
109962264.15094 1.0002104 -0.0073861331 4.2972097e-005 0.0036061676 2.3902336e-005 0.0036391132 0.99976289 -0.0069354326
119958490.56604 1.0001945 -0.0082365572 4.1902415e-005 0.0039492073 4.5469613e-005 0.0039370246 0.9998095 -0.0077522993
129954716.98113 1.0002073 -0.0091653168 4.5426539e-005 0.004258445 3.9892271e-005 0.0042537758 0.99978274 -0.0086300671
139950943.39623 1.0000832 -0.0099949557 4.7527486e-005 0.0045602317 5.4246513e-005 0.0045677801 0.9996863 -0.0093399175
149947169.81132 0.99996513 -0.010648221 4.5835506e-005 0.0049007442 3.967341e-005 0.0049215574 0.99963373 -0.0099452138
159943396.22642 0.99989676 -0.011184841 5.9107784e-005 0.005238018 6.4339023e-005 0.0052551283 0.99971092 -0.010406315
169939622.64151 0.99986511 -0.011581786 6.8661408e-005 0.0055587781 5.4086675e-005 0.0055788564 0.99973285 -0.010833502
179935849.0566 0.99996477 -0.011803865 8.1935665e-005 0.0058869547 9.9260476e-005 0.0059026391 0.99965489 -0.01120168
189932075.4717 1.0000172 -0.012615144 5.8507314e-005 0.0061915601 7.8184763e-005 0.0062275799 0.99986708 -0.011725366
199928301.88679 0.9999693 -0.013455361 7.4495561e-005 0.0065393159 9.0793008e-005 0.0065626735 0.9997856 -0.012615472
209924528.30189 0.99974936 -0.013931602 9.7720767e-005 0.0068373019 8.8331988e-005 0.0068963747 0.99950385 -0.013290688
219920754.71698 0.9999218 -0.01471439 0.0001073468 0.0071921041 9.4133429e-005 0.0071962168 0.99943143 -0.013878644
229916981.13208 0.99973571 -0.01567021 0.0001240964 0.0075337775 9.2388131e-005 0.0075383522 0.99944139 -0.014657915
239913207.54717 0.99959302 -0.016310694 0.0001313798 0.0078206835 0.00013036857 0.0078843776 0.9994424 -0.015328933
249909433.96226 0.99960381 -0.016919255 0.0001482279 0.0081690764 0.00012025749 0.0081773698 0.99946761 -0.015915602
259905660.37736 0.99969554 -0.017497987 0.00015144423 0.0085753528 0.00014536036 0.0084923236 0.99964416 -0.01650992
269901886.79245 0.99978149 -0.018148601 0.00015312398 0.0088060936 0.0001678142 0.0087991869 0.99998677 -0.01716283
279898113.20755 0.99990469 -0.018834129 0.00016044709 0.0091364738 0.00017710426 0.0091631813 0.99983579 -0.017946094
289894339.62264 0.99975181 -0.019546419 0.00020991173 0.0094688796 0.0001717438 0.0094920117 0.999744 -0.018680245
299890566.03774 0.9998157 -0.020031035 0.00018652645 0.0097934492 0.00017407653 0.0098492363 0.9995243 -0.019061029
309886792.45283 0.99963272 -0.020571165 0.0002499203 0.010117188 0.00020140246 0.010168626 0.99941802 -0.019539475
319883018.86792 0.99966633 -0.021208763 0.00020487187 0.010452772 0.00023492612 0.010478285 0.99964345 -0.020029128
329879245.28302 0.99971426 -0.02204141 0.00020436104 0.010806472 0.00025390647 0.010815049 0.99974453 -0.020813912
339875471.69811 0.99947274 -0.022732191 0.00023802079 0.011104133 0.00025850232 0.011129466 0.99964809 -0.021560811
349871698.11321 0.99968249 -0.023569524 0.00027568312 0.011439051 0.00022427947 0.011459114 0.99962854 -0.022516549
359867924.5283 0.99948001 -0.024329215 0.00027386891 0.011714121 0.00027951365 0.01183073 0.99960238 -0.023415983
369864150.9434 0.99965346 -0.025105387 0.00032427744 0.012049384 0.00030538882 0.012164277 0.99959528 -0.024129212
379860377.35849 0.99954778 -0.025789455 0.00032168115 0.012408365 0.00030361861 0.012456967 0.99953395 -0.02478601
389856603.77358 0.99952269 -0.026343018 0.00033084489 0.012730836 0.00035182526 0.012796895 0.99948764 -0.025329113
399852830.18868 0.99926257 -0.027011842 0.00033943728 0.013053168 0.00034095859 0.013084546 0.99949872 -0.025846511
409849056.60377 0.99927503 -0.02744974 0.00035857575 0.01338862 0.00037105847 0.013482575 0.99944359 -0.026424754
419845283.01887 0.99926364 -0.027877271 0.00037039071 0.013705231 0.00040724641 0.013764635 0.99933147 -0.026910245
429841509.43396 0.99933195 -0.028565854 0.00040730415 0.014021257 0.0003882735 0.014107542 0.99952441 -0.02765587
439837735.84906 0.99912137 -0.02942206 0.00042746169 0.014322942 0.00040437386 0.014402054 0.99918991 -0.028673455
449833962.26415 0.99898303 -0.030141085 0.00041167811 0.014626948 0.00043189665 0.014699842 0.99877477 -0.029447675
459830188.67925 0.99890548 -0.030868381 0.00041926233 0.015010623 0.00041486789 0.01502648 0.99848664 -0.030028373
469826415.09434 0.99882483 -0.031576663 0.00045945868 0.015343489 0.00046461402 0.015372474 0.99822628 -0.030561864
479822641.50943 0.99872911 -0.032120027 0.00049658923 0.015659772 0.00048774853 0.015711362 0.99819887 -0.030873626
489818867.92453 0.99881613 -0.032639265 0.0005006888 0.015974779 0.00051873131 0.016049908 0.99855387 -0.031349331
499815094.33962 0.99890214 -0.033302546 0.00056241779 0.016323132 0.00052926643 0.016347861 0.99877352 -0.03185463
509811320.75472 0.99893528 -0.033696853 0.00053118571 0.016613554 0.00056171854 0.016682684 0.99890941 -0.032533918
519807547.16981 0.99892282 -0.034186065 0.00058993185 0.016946938 0.00055850297 0.017002605 0.99892539 -0.033255398
529803773.58491 0.9988929 -0.034718692 0.00058106426 0.017243436 0.0005976418 0.017317496 0.99865878 -0.033808082
539800000 0.9989953 -0.035412103 0.00059432583 0.017580077 0.00056363852 0.017729927 0.99857187 -0.034398481
549796226.41509 0.99883747 -0.036286771 0.00057370355 0.017962165 0.0006070775 0.017985489 0.99846274 -0.034808606
559792452.83019 0.99863392 -0.036932766 0.00064003933 0.018247411 0.00062799267 0.018313851 0.99842525 -0.035336971
569788679.24528 0.99847424 -0.037631869 0.0006689853 0.018606551 0.00066342624 0.018684452 0.99863434 -0.03610301
579784905.66038 0.99850142 -0.038178667 0.000685003 0.018907104 0.00068704202 0.018975971 0.99879527 -0.03675659
589781132.07547 0.9986822 -0.038765073 0.00069156289 0.019224798 0.0007207375 0.019311883 0.99888647 -0.037614256
599777358.49057 0.9987455 -0.03936699 0.00072406419 0.019554306 0.00071435701 0.019643184 0.99893254 -0.03838709
609773584.90566 0.99887192 -0.040137924 0.00079021242 0.019892633 0.0007820616 0.01996476 0.9987824 -0.039233774
619769811.32075 0.99895853 -0.040847927 0.00081126532 0.020202056 0.00081583112 0.020237623 0.99878669 -0.039714068
629766037.73585 0.9988482 -0.041509062 0.00084290374 0.020503828 0.00082944613 0.020560494 0.99857628 -0.040249795
639762264.15094 0.99869263 -0.042138547 0.00085195363 0.020839732 0.00087936199 0.020923842 0.99846405 -0.04069674
649758490.56604 0.99857122 -0.042735845 0.00085883448 0.021144964 0.00087902928 0.021233022 0.99861437 -0.041128829
659754716.98113 0.99838948 -0.043230295 0.00090661831 0.021440467 0.00087100826 0.021572992 0.99867225 -0.041644722
669750943.39623 0.99849784 -0.043744922 0.00093353121 0.021776995 0.00087503251 0.021901779 0.99878061 -0.042468518
679747169.81132 0.99845225 -0.044475764 0.00095905631 0.022152517 0.00096351909 0.022242457 0.99879354 -0.043418333
689743396.22642 0.9986155 -0.045299292 0.00099120382 0.022468071 0.00099680852 0.022582885 0.99861765 -0.044367522
699739622.64151 0.99874949 -0.046091616 0.0010175249 0.022803266 0.0010125162 0.022913093 0.99860907 -0.045044035
709735849.0566 0.99865299 -0.046841592 0.0010545531 0.023123156 0.0010680308 0.023217324 0.99831837 -0.045726478
719732075.4717 0.99861079 -0.047573566 0.0010777684 0.023427781 0.0010717553 0.023510208 0.9983561 -0.046327174
729728301.88679 0.99853247 -0.04817003 0.001139313 0.023717362 0.0011122981 0.023842167 0.99841201 -0.046784461
739724528.30189 0.99839276 -0.048837081 0.0011484371 0.024057087 0.0011394788 0.024145922 0.99864078 -0.047467679
749720754.71698 0.99830377 -0.049418062 0.001182742 0.024364712 0.0011958224 0.024474507 0.99861002 -0.048165351
759716981.13208 0.99833566 -0.049873769 0.0012015421 0.024686601 0.0012406185 0.024810683 0.99853873 -0.048981845
769713207.54717 0.99824709 -0.050566733 0.0012531439 0.024992013 0.0012572519 0.025097705 0.9983201 -0.049655795
779709433.96226 0.99840051 -0.051188014 0.0012766815 0.025298009 0.0012839795 0.025430577 0.99808311 -0.050333124
789705660.37736 0.99824375 -0.052096039 0.0012919847 0.025656417 0.0013158349 0.025760537 0.99778074 -0.051043868
799701886.79245 0.99821246 -0.052881747 0.0013445551 0.025953544 0.001330737 0.026076399 0.99763668 -0.051572561
809698113.20755 0.99814373 -0.053400934 0.0013497914 0.026269354 0.0013379769 0.026393447 0.99773955 -0.05202654
819694339.62264 0.99794328 -0.054049492 0.0013912669 0.026593549 0.0013791299 0.026721437 0.99778295 -0.05267331
829690566.03774 0.99797571 -0.054715544 0.0014253026 0.02689426 0.0014126403 0.027007675 0.99795038 -0.05345735
839686792.45283 0.99800426 -0.055117309 0.0014602575 0.0272149 0.0014554476 0.027340874 0.99795157 -0.054284811
849683018.86792 0.99806947 -0.055705585 0.0014712033 0.027559929 0.0014872893 0.027667169 0.99785346 -0.055042602
859679245.28302 0.99805033 -0.056478292 0.0015230766 0.027900133 0.001490213 0.027982235 0.99749565 -0.055609077
869675471.69811 0.99803078 -0.057183057 0.0015811222 0.028182331 0.0015443349 0.02832046 0.99721515 -0.056115031
879671698.11321 0.99793309 -0.057812884 0.0015877434 0.02849892 0.001598435 0.028606676 0.99718618 -0.056524828
889667924.5283 0.99772263 -0.058659464 0.0016017435 0.02877005 0.0016006883 0.028901041 0.99701035 -0.057013869
899664150.9434 0.99768829 -0.05927071 0.0016216543 0.029102992 0.0016153548 0.029248198 0.99711329 -0.057571948
909660377.35849 0.99763376 -0.059885412 0.0016489159 0.029423364 0.0016831877 0.029531756 0.99724865 -0.058453918
919656603.77358 0.99769205 -0.060575664 0.0016859132 0.029726338 0.0016943044 0.029888984 0.99722856 -0.059228808
929652830.18868 0.99766392 -0.061331421 0.0017253719 0.030024942 0.0017025555 0.030180462 0.99712873 -0.060106784
939649056.60377 0.99786961 -0.061965019 0.0017242767 0.030339312 0.0017112382 0.030488458 0.99697727 -0.060764939
949645283.01887 0.99776947 -0.062707797 0.0017181723 0.030697573 0.0017250052 0.030816425 0.99673802 -0.061310783
959641509.43396 0.99775618 -0.063405871 0.0017483188 0.031028494 0.0017682957 0.031189371 0.99670476 -0.061827302
969637735.84906 0.99764156 -0.064144909 0.0018073739 0.031380985 0.0017958274 0.031527858 0.99670798 -0.062089771
979633962.26415 0.99755281 -0.064889528 0.0018720902 0.0316859 0.0018459242 0.031842094 0.9966985 -0.062781796
989630188.67925 0.99760789 -0.065387011 0.0019068001 0.032025225 0.0018758327 0.032155205 0.99691045 -0.063394457
999626415.09434 0.9976449 -0.065998375 0.0019288287 0.03230885 0.0019370355 0.032489885 0.9969188 -0.064130336
1009622641.5094 0.99761671 -0.066596195 0.0019386532 0.032652743 0.0019618636 0.032837786 0.99670541 -0.064964667
1019618867.9245 0.99774379 -0.067439854 0.0019955221 0.032982454 0.0020353803 0.033114225 0.99654055 -0.065802053
1029615094.3396 0.99773419 -0.06830743 0.0020551151 0.033262245 0.0020854259 0.033436321 0.99621117 -0.066367537
1039611320.7547 0.99769604 -0.069109917 0.0021087034 0.033564206 0.0020852573 0.033733461 0.99613321 -0.066987664
1049607547.1698 0.99761665 -0.070054501 0.0020751923 0.033863567 0.0021105311 0.03402207 0.99612099 -0.067541428
1059603773.5849 0.99758309 -0.070698291 0.0021411711 0.034167256 0.0021378323 0.034354672 0.99614453 -0.068104386
1069600000 0.99732327 -0.071451366 0.0021289373 0.034455724 0.0021719104 0.034629788 0.99630296 -0.068746597
1079596226.4151 0.99730092 -0.071977459 0.0021428685 0.034793433 0.0021530129 0.035000838 0.99635124 -0.069563925
1089592452.8302 0.99730933 -0.072632402 0.0021466818 0.035145406 0.0022269012 0.035303354 0.99627662 -0.070303649
1099588679.2453 0.99736011 -0.073303074 0.0021845922 0.035458699 0.0022060685 0.035609089 0.99593651 -0.070891649
1109584905.6604 0.99746048 -0.074113891 0.0022010067 0.035784584 0.0022373283 0.035942443 0.99574447 -0.071478486
1119581132.0755 0.99744248 -0.075013995 0.0021984316 0.03611752 0.0022509992 0.036311593 0.99558204 -0.071906537
1129577358.4906 0.99729097 -0.075773388 0.002257742 0.036472254 0.0023227204 0.036659256 0.99544859 -0.072301865
1139573584.9057 0.99701786 -0.076651335 0.0023065237 0.036806244 0.0023752842 0.03696581 0.99557132 -0.073005557
1149569811.3208 0.99695635 -0.077489279 0.0023716253 0.037115637 0.0024143653 0.037286654 0.99569166 -0.073701948
1159566037.7358 0.9966855 -0.078123003 0.0023834892 0.037417438 0.0024490869 0.037619106 0.99574804 -0.074730456
1169562264.1509 0.99659431 -0.078778893 0.0023861825 0.037706688 0.0024797842 0.037921399 0.99568045 -0.075463295
1179558490.566 0.9966014 -0.079605311 0.0024039324 0.038079951 0.002498521 0.038282488 0.99553311 -0.076134205
1189554716.9811 0.99649918 -0.080263197 0.0024519507 0.038424037 0.0025119539 0.038627524 0.99524748 -0.076771289
1199550943.3962 0.99648476 -0.081093699 0.002494853 0.038765453 0.0025880616 0.038938507 0.99506891 -0.077124149
1209547169.8113 0.99632561 -0.081981003 0.0025101546 0.03907438 0.0026183641 0.039242052 0.99495482 -0.077492595
1219543396.2264 0.99612659 -0.082728013 0.0025719875 0.039441667 0.0026390292 0.039612543 0.99506491 -0.077823609
1229539622.6415 0.99586892 -0.083642453 0.0026395191 0.039751556 0.0027445573 0.039950006 0.99519187 -0.078552216
1239535849.0566 0.9956584 -0.084192663 0.0027048029 0.040087551 0.0027929051 0.040243637 0.99529684 -0.079438806
1249532075.4717 0.99539411 -0.084953569 0.0027542389 0.040410418 0.0028568464 0.040595692 0.99507761 -0.080210328
1259528301.8868 0.9951297 -0.085398734 0.0027838573 0.040710621 0.0029223692 0.040878057 0.9949078 -0.08106178
1269524528.3019 0.99493492 -0.086179316 0.0028567268 0.041029073 0.0029892931 0.041148622 0.99470079 -0.081720203
1279520754.717 0.99470586 -0.086796917 0.0029380086 0.04130093 0.0030345703 0.041423418 0.99435604 -0.082297333
1289516981.1321 0.99459612 -0.087627083 0.0029249368 0.041624557 0.0030435398 0.041711535 0.9944734 -0.082754374
1299513207.5472 0.99421042 -0.088512897 0.0029296372 0.041887112 0.0030206721 0.042033285 0.99460602 -0.083086491
1309509433.9623 0.9937551 -0.089208409 0.002942659 0.042205658 0.0030540936 0.042363703 0.99465352 -0.083802193
1319505660.3774 0.99348998 -0.089936286 0.0029320605 0.042524982 0.0030773543 0.042644832 0.99466896 -0.084447116
1329501886.7925 0.9932068 -0.090543032 0.0029790942 0.042850606 0.0030996539 0.042989302 0.99471176 -0.085453689
1339498113.2075 0.99292725 -0.091095835 0.0030087177 0.043163493 0.0031168638 0.043285467 0.99434543 -0.086129814
1349494339.6226 0.99272364 -0.091618098 0.0029925159 0.043510165 0.0030715903 0.043613389 0.99401224 -0.086737461
1359490566.0377 0.9926852 -0.092247069 0.0029544681 0.043856002 0.0030808412 0.043942794 0.99384248 -0.087232679
1369486792.4528 0.99245137 -0.092682689 0.0029994417 0.044219311 0.0030800523 0.044296861 0.99367595 -0.087679029
1379483018.8679 0.99218643 -0.093290865 0.0030254899 0.04457913 0.0030706818 0.044671535 0.9936884 -0.088005215
1389479245.283 0.99184674 -0.093847483 0.0030786227 0.044955775 0.0031539612 0.045041818 0.99365121 -0.088652104
1399475471.6981 0.99147892 -0.094177246 0.0030887425 0.045287602 0.0031536277 0.045381516 0.99383521 -0.089325488
1409471698.1132 0.99116862 -0.09458822 0.0031238045 0.045648754 0.0031656681 0.045800447 0.99381495 -0.090183936
1419467924.5283 0.99098676 -0.094920635 0.0031274147 0.046031721 0.0031959945 0.046144702 0.99372572 -0.090829104
1429464150.9434 0.99084967 -0.095367461 0.0031615868 0.046446972 0.0032331627 0.046515066 0.99360228 -0.091431648
1439460377.3585 0.99098551 -0.095791981 0.0032394845 0.046868615 0.0033098683 0.046928544 0.99337476 -0.0917207
1449456603.7736 0.99101913 -0.096321613 0.0033740625 0.047279924 0.0034131715 0.047359377 0.99317437 -0.092131466
1459452830.1887 0.99106389 -0.097007364 0.0034920424 0.04766044 0.003527876 0.047724109 0.99336708 -0.092394471
1469449056.6038 0.99102467 -0.097663075 0.0036460897 0.048012692 0.0036570271 0.04806567 0.99360579 -0.093015194
1479445283.0189 0.99086112 -0.098278612 0.0037684366 0.048292894 0.0037891546 0.048363172 0.99371946 -0.094048142
1489441509.434 0.99082208 -0.098806083 0.0038819667 0.048566163 0.0039402191 0.048681766 0.99354064 -0.094783843
1499437735.8491 0.99064076 -0.099141896 0.004010357 0.048854914 0.0040195305 0.048928384 0.99349046 -0.095602602
1509433962.2642 0.99068445 -0.099658757 0.0041005178 0.049104463 0.0040822839 0.04920236 0.99325866 -0.09633401
1519430188.6792 0.99075526 -0.10020509 0.0042026304 0.049406152 0.0041498151 0.049454056 0.99317235 -0.096848458
1529426415.0943 0.99066901 -0.10082144 0.0041916091 0.049636982 0.0042083412 0.049777724 0.99314392 -0.09719947
1539422641.5094 0.99071026 -0.10160595 0.0042466065 0.049941137 0.0042425217 0.050077591 0.99319345 -0.097749032
1549418867.9245 0.99058336 -0.10238796 0.0042922311 0.050214775 0.0042883148 0.0503176 0.99332851 -0.098495841
1559415094.3396 0.99049115 -0.10306102 0.0043885075 0.050542723 0.004327042 0.050644338 0.99352658 -0.099124789
1569411320.7547 0.99031872 -0.10388617 0.0044297939 0.050768696 0.0043785013 0.050933413 0.99347025 -0.0999019
1579407547.1698 0.99024653 -0.1043631 0.0044080392 0.05105966 0.0044041104 0.051164813 0.99313563 -0.10077333
1589403773.5849 0.99021572 -0.1048736 0.0044409484 0.051326461 0.0043809284 0.05147855 0.99293983 -0.10151592
1599400000 0.99014974 -0.10535467 0.0043989401 0.051642448 0.0043865638 0.051785473 0.9925555 -0.10192844
1609396226.4151 0.99011409 -0.1059625 0.0044417349 0.051936205 0.004393707 0.052081801 0.99237311 -0.10242237
1619392452.8302 0.99009389 -0.10660157 0.0044512916 0.052268721 0.0043750815 0.05243862 0.99232614 -0.1028409
1629388679.2453 0.98985183 -0.10727781 0.0044005066 0.052616116 0.0043842737 0.052798346 0.99253768 -0.10332364
1639384905.6604 0.989676 -0.10798483 0.0044626016 0.053012215 0.0044155484 0.053164303 0.99280518 -0.10417128
1649381132.0755 0.98941386 -0.10859862 0.0044543538 0.053301349 0.0044343807 0.053527292 0.99273896 -0.10511598
1659377358.4906 0.98932517 -0.1093964 0.0044733956 0.053686336 0.0044198502 0.053869195 0.99272335 -0.10591406
1669373584.9057 0.98923606 -0.10983003 0.0044707013 0.054057654 0.0044846474 0.054212194 0.99245083 -0.10660478
1679369811.3208 0.98929811 -0.11048454 0.0045478567 0.054414406 0.0045181522 0.054603487 0.99221534 -0.10712966
1689366037.7358 0.98924208 -0.11106774 0.0045719948 0.054803886 0.0045643654 0.054985162 0.99204767 -0.10750103
1699362264.1509 0.98941958 -0.11166275 0.004658835 0.055138823 0.0045743026 0.055380717 0.99223286 -0.10792853
1709358490.566 0.98928726 -0.11232224 0.0046786452 0.055506799 0.0046571735 0.055733681 0.99222255 -0.10844719
1719354716.9811 0.98898518 -0.11288154 0.0047648605 0.055895537 0.0046825223 0.056123063 0.99235785 -0.10905093
