!Keysight Technologies,N5222B,MY61253708,A.15.00.15
!Date: Wednesday, June 19, 2024 10:32:07
!Correction: S11(C  2-Port  ) 
!S21(C  2-Port  ) 
!S12(C  2-Port  ) 
!S22(C  2-Port  ) 
!S2P File: Measurements: S11, S21, S12, S22:
# Hz S  RI   R 50
10000000 0.99824077 -0.0030688941 2.0093066e-005 0.00017500145 5.962087e-006 0.0002278614 0.99825811 -0.0017700493
19996226.415094 0.99992603 -0.0021696091 5.4408651e-005 0.00061607291 -9.9696626e-006 0.0007999395 1.0000162 -0.0024529099
29992452.830189 0.99967384 -0.0025719106 -4.4299639e-005 0.00090440153 -4.7896378e-005 0.001016124 0.9993 -0.0027510524
39988679.245283 1.0001476 -0.0030274093 6.0701132e-005 0.0013015082 2.4314199e-005 0.0013189464 0.99973178 -0.0031033456
49984905.660377 1.0002847 -0.0036604106 -1.7115672e-005 0.0016812339 4.1272142e-005 0.0016324779 0.99985713 -0.0036681294
59981132.075472 1.0005397 -0.0044269264 1.5738187e-005 0.0019738027 5.3878e-005 0.0019198605 0.99990207 -0.0042595267
69977358.490566 1.0002688 -0.0050255097 2.7822971e-006 0.0022442569 2.0284715e-005 0.0022727274 0.99972928 -0.0048109926
79973584.90566 1.000005 -0.0056044161 -6.2922481e-006 0.0025614568 8.1694452e-006 0.0025679709 0.99935335 -0.0052274466
89969811.320755 0.99993205 -0.0056917667 2.2032531e-005 0.0028928851 -9.209034e-006 0.0028813411 0.99959803 -0.0054293871
99966037.735849 1.000206 -0.0064129978 1.7003564e-005 0.0032414184 4.1209743e-005 0.003257076 0.99967939 -0.0061572641
109962264.15094 1.0002412 -0.0072445124 1.9370986e-005 0.003550516 2.6410678e-005 0.0035725483 0.99969375 -0.0069579631
119958490.56604 1.000302 -0.008176446 3.8455357e-005 0.0038646283 4.1177496e-005 0.0039056472 0.9997555 -0.0078155398
129954716.98113 1.000227 -0.0091609955 4.5429682e-005 0.0041961772 4.1647465e-005 0.0042097541 0.99973726 -0.0087028742
139950943.39623 1.0001343 -0.0099419858 4.272045e-005 0.0045153946 6.3521446e-005 0.0045230058 0.99962556 -0.0094596259
149947169.81132 1.0000181 -0.010596424 5.7852129e-005 0.0048665488 4.6682311e-005 0.0048700338 0.99956787 -0.010044158
159943396.22642 0.99994409 -0.011130154 2.9555522e-005 0.0051903622 4.2393105e-005 0.0051840357 0.99960911 -0.010459661
169939622.64151 0.99992591 -0.011455372 6.6616398e-005 0.0055086734 6.2358216e-005 0.005506129 0.99967682 -0.010882698
179935849.0566 0.99998599 -0.011669785 6.6375476e-005 0.0057954104 7.2199502e-005 0.0058196662 0.99954951 -0.01123029
189932075.4717 1.0001042 -0.012423575 7.2596129e-005 0.0061315862 8.4809028e-005 0.0061384253 0.99979109 -0.011786193
199928301.88679 1.0000532 -0.013282359 8.0407714e-005 0.0064499988 9.7002834e-005 0.0064892503 0.99972355 -0.012640774
209924528.30189 0.99980301 -0.013808995 0.00012156041 0.0067780716 8.7482156e-005 0.0067975204 0.99944627 -0.013291106
219920754.71698 0.99994087 -0.014639229 0.00012291456 0.0071312217 0.00011131959 0.0071338457 0.99938428 -0.013915777
229916981.13208 0.99969614 -0.015521377 0.00012322422 0.0074268412 0.00012090197 0.0074553029 0.99938929 -0.014717221
239913207.54717 0.99959207 -0.016174534 0.00013654765 0.0077361981 0.00012542478 0.0077700592 0.99932021 -0.015440956
249909433.96226 0.99965107 -0.016771168 0.00013477542 0.0080630248 0.00011725281 0.0080834338 0.99936044 -0.015981704
259905660.37736 0.99969649 -0.01735723 0.00015980471 0.008407169 0.00012745894 0.0084075518 0.99961752 -0.016473651
269901886.79245 0.99980634 -0.017963558 0.00011297036 0.0087235877 0.00018870481 0.008724317 0.99996585 -0.017256975
279898113.20755 1.0000618 -0.018648177 0.0001480775 0.0090376409 0.00016709324 0.0090756053 0.99988741 -0.018072039
289894339.62264 0.99994278 -0.019285172 0.00018411363 0.009325319 0.00018579001 0.0094061587 0.99975908 -0.018718898
299890566.03774 0.99991632 -0.019837737 0.00019966089 0.0096929874 0.00017123693 0.0097252494 0.99951369 -0.019260764
309886792.45283 0.99969655 -0.02033411 0.00019560161 0.010002745 0.00017416896 0.010024393 0.99930125 -0.01957918
319883018.86792 0.99957573 -0.021043569 0.00023030164 0.010312214 0.00019131182 0.010397306 0.9994204 -0.020056397
329879245.28302 0.99971592 -0.021715581 0.00021228846 0.010641981 0.00022041006 0.010660021 0.99957502 -0.020824015
339875471.69811 0.99961841 -0.022586726 0.00021484669 0.010994258 0.0002544343 0.011025973 0.99953443 -0.021572217
349871698.11321 0.9999119 -0.023362696 0.0002782254 0.011277553 0.00024004211 0.011367127 0.99957669 -0.022485048
359867924.5283 0.99965149 -0.024151057 0.00029038358 0.011597618 0.00028417772 0.011630918 0.99950731 -0.023424923
369864150.9434 0.99976063 -0.024948239 0.00030833692 0.011974711 0.0002829202 0.012003912 0.99947757 -0.024168789
379860377.35849 0.99969321 -0.025683746 0.0002981287 0.012253293 0.00030715135 0.012304218 0.99935412 -0.024791241
389856603.77358 0.99959898 -0.026342034 0.00029028021 0.012561939 0.0003465917 0.012608329 0.99936116 -0.025155157
399852830.18868 0.99935979 -0.026925385 0.00034278724 0.012891177 0.00031525968 0.012931922 0.9994455 -0.025745034
409849056.60377 0.99924791 -0.027356135 0.00037566459 0.013184726 0.00033165046 0.013252934 0.99938786 -0.026187116
419845283.01887 0.99916196 -0.027748555 0.00039158994 0.013550527 0.00036639534 0.013572169 0.99933243 -0.026779205
429841509.43396 0.99919522 -0.028461814 0.00040329527 0.013861069 0.00039675226 0.013925832 0.99953824 -0.027500778
439837735.84906 0.99906743 -0.029369324 0.00040771032 0.014213267 0.00041514565 0.014231466 0.99922973 -0.028546572
449833962.26415 0.99888718 -0.030131876 0.00043806946 0.01448752 0.00042947615 0.014506093 0.99884981 -0.029283494
459830188.67925 0.99869239 -0.030728191 0.00044777896 0.014833334 0.0004389328 0.014855631 0.99862576 -0.029983699
469826415.09434 0.9986515 -0.031443328 0.00045085326 0.015179698 0.00044061569 0.015185842 0.99835908 -0.030470461
479822641.50943 0.99849498 -0.031961866 0.00048704469 0.015502675 0.00046560261 0.01552423 0.9983722 -0.03079547
489818867.92453 0.99854088 -0.03241387 0.00050111488 0.015828939 0.00050023338 0.015850544 0.99870741 -0.031302422
499815094.33962 0.9986549 -0.032938153 0.00053202547 0.016138725 0.00053085061 0.016151853 0.99897599 -0.031832188
509811320.75472 0.99874079 -0.033273745 0.00054805365 0.016428255 0.00051553431 0.01647599 0.99914801 -0.032632407
519807547.16981 0.99869478 -0.033719987 0.00053887954 0.016767889 0.00057594618 0.016798668 0.99911737 -0.033358604
529803773.58491 0.99868131 -0.034330904 0.00058530131 0.017078385 0.0005621016 0.017084204 0.99888307 -0.033877313
539800000 0.99877638 -0.034887657 0.00056639384 0.017395761 0.00058321632 0.017406559 0.99872124 -0.034547314
549796226.41509 0.99865925 -0.035677314 0.00061946595 0.017717952 0.000612712 0.017789546 0.99861407 -0.034992814
559792452.83019 0.99842846 -0.036475301 0.00061200652 0.018030375 0.0006249696 0.018066244 0.9985671 -0.035509437
569788679.24528 0.99831098 -0.037039578 0.00067817885 0.018359471 0.00063803652 0.018406685 0.99864507 -0.036191523
579784905.66038 0.99836177 -0.037597016 0.00068935123 0.018688215 0.00068421883 0.018731896 0.99880254 -0.036890335
589781132.07547 0.99852645 -0.038166463 0.00068784691 0.019026654 0.00066460576 0.019043095 0.99893093 -0.037747562
599777358.49057 0.99864435 -0.038787603 0.00074054487 0.019338995 0.00074210763 0.019424172 0.99901319 -0.038511276
609773584.90566 0.99884742 -0.039553076 0.00076853635 0.019648299 0.00076033408 0.0196863 0.99889034 -0.0394096
619769811.32075 0.9988507 -0.040322721 0.00079006236 0.019977126 0.00079497229 0.020011824 0.99880755 -0.039856076
629766037.73585 0.99880624 -0.040866345 0.00085130706 0.020293374 0.00081419665 0.020307062 0.99865925 -0.040414333
639762264.15094 0.99859768 -0.04154931 0.00085476367 0.020571278 0.00083611044 0.020629752 0.99846727 -0.040870368
649758490.56604 0.99854219 -0.042110518 0.00084045576 0.020845506 0.00084799482 0.020950152 0.99858731 -0.041234225
659754716.98113 0.99844682 -0.042520791 0.00087677035 0.021249738 0.00083055347 0.021256093 0.9986316 -0.041796416
669750943.39623 0.99841529 -0.043084085 0.00088293431 0.021571917 0.00089227175 0.021638077 0.99873453 -0.042649984
679747169.81132 0.99850786 -0.04390946 0.0009332028 0.021898856 0.00091619149 0.021963771 0.99873424 -0.043602414
689743396.22642 0.99865806 -0.044711202 0.00098034367 0.022222966 0.00099675637 0.022282634 0.99855137 -0.044515133
699739622.64151 0.99878573 -0.045516074 0.0010079145 0.022550799 0.001022201 0.022586165 0.99849713 -0.045249373
709735849.0566 0.99877065 -0.046309382 0.0010602082 0.022830462 0.0010695134 0.022915179 0.99822199 -0.045838706
719732075.4717 0.99867767 -0.047086239 0.0010774317 0.023141608 0.0010639783 0.023186099 0.99829006 -0.04641819
729728301.88679 0.99856263 -0.047604829 0.0010846071 0.023470547 0.0010962775 0.023531785 0.9983899 -0.046825826
739724528.30189 0.99845612 -0.048241854 0.0011350028 0.023786651 0.0011064266 0.023828503 0.99852753 -0.047536284
749720754.71698 0.99830502 -0.048724666 0.0011717398 0.024090104 0.0011614203 0.024142435 0.99854684 -0.048207253
759716981.13208 0.9983868 -0.049292177 0.0012057275 0.024421379 0.0011969907 0.024473067 0.99853468 -0.04896149
769713207.54717 0.99817741 -0.050000966 0.0012110975 0.024732826 0.0012198854 0.024785152 0.99829412 -0.049660146
779709433.96226 0.99847555 -0.05067249 0.0012459708 0.025068752 0.0012561833 0.025102718 0.99799687 -0.050333522
789705660.37736 0.99833471 -0.051554799 0.0012809997 0.025355797 0.0012984965 0.025395889 0.99775422 -0.05101499
799701886.79245 0.99825889 -0.052337885 0.0013125883 0.02566174 0.0012483094 0.0257168 0.99762845 -0.051620811
809698113.20755 0.99815983 -0.052969798 0.0013425713 0.025985081 0.0013368858 0.02607158 0.99766433 -0.052001789
819694339.62264 0.99796438 -0.053519517 0.0013910667 0.026296489 0.0013641324 0.026362235 0.99776888 -0.052588105
829690566.03774 0.99789941 -0.054161549 0.0013764165 0.026612516 0.0013819681 0.026680235 0.99799848 -0.053461015
839686792.45283 0.9978596 -0.054495275 0.0013952763 0.02692074 0.001426992 0.02698908 0.99807048 -0.054300725
849683018.86792 0.99808162 -0.055121996 0.0014342198 0.027235691 0.0014802907 0.027303228 0.99790245 -0.05502867
859679245.28302 0.99803102 -0.05586347 0.0015004771 0.027550593 0.0014602076 0.027636968 0.99766982 -0.05555582
869675471.69811 0.99793208 -0.056559116 0.0015449701 0.027876807 0.0015336461 0.027920607 0.99729288 -0.056118518
879671698.11321 0.99776679 -0.057240441 0.0015529911 0.028153796 0.0015521387 0.028236588 0.99732041 -0.056503832
889667924.5283 0.99761951 -0.057986945 0.0015977891 0.028457783 0.0016214047 0.028540244 0.99711025 -0.056941807
899664150.9434 0.99755341 -0.058650821 0.0015844069 0.028745405 0.0016051233 0.028846076 0.9972291 -0.057534039
909660377.35849 0.99751413 -0.059337541 0.0016135601 0.029091692 0.0016179932 0.029162547 0.99738425 -0.05840227
919656603.77358 0.99759698 -0.05994609 0.001630418 0.029406589 0.0016385159 0.029478595 0.99736118 -0.059261382
929652830.18868 0.99761915 -0.060637861 0.0016872576 0.029686196 0.0016733352 0.029777274 0.99721491 -0.060121149
939649056.60377 0.99779713 -0.061243385 0.0016926229 0.030007105 0.0016797548 0.030110532 0.99706423 -0.060858279
949645283.01887 0.99770731 -0.061984945 0.0016658846 0.030368863 0.0016691047 0.030438576 0.99684131 -0.061368659
959641509.43396 0.99766129 -0.06266892 0.0017085662 0.030709475 0.0017265631 0.030802343 0.99675882 -0.061830044
969637735.84906 0.99759436 -0.063373119 0.0017623696 0.031047158 0.0017590299 0.031122273 0.99685329 -0.062185347
979633962.26415 0.99743825 -0.064102732 0.0018042489 0.031344809 0.0018172432 0.031395204 0.99686545 -0.06282381
989630188.67925 0.99739653 -0.064568788 0.0018454278 0.03164912 0.0018280642 0.031753056 0.99705714 -0.063396335
999626415.09434 0.99749899 -0.065178663 0.0018825252 0.031947576 0.0018898118 0.032039791 0.99699199 -0.064214438
1009622641.5094 0.99758828 -0.0658333 0.0019029006 0.03228914 0.0019298336 0.032383461 0.99688697 -0.06508328
1019618867.9245 0.99756622 -0.066600949 0.0019336627 0.032592278 0.001961363 0.032700591 0.99656868 -0.065871313
1029615094.3396 0.99763876 -0.067539483 0.0019859895 0.03291446 0.0020173639 0.032958273 0.99619335 -0.066396594
1039611320.7547 0.99764889 -0.068358749 0.002022529 0.033179015 0.0020580329 0.033280108 0.99620897 -0.067048639
1049607547.1698 0.99748862 -0.069203146 0.0020744209 0.033501431 0.0020558171 0.033591338 0.9962312 -0.067583285
1059603773.5849 0.99740624 -0.06987372 0.0020703506 0.033771824 0.0020883381 0.033906091 0.99625331 -0.068141222
1069600000 0.99719065 -0.070512533 0.0020832298 0.034071535 0.0021210909 0.034179211 0.99637628 -0.068820506
1079596226.4151 0.99717379 -0.071126074 0.0021127569 0.034393385 0.0021093297 0.034502488 0.99645931 -0.069596358
1089592452.8302 0.99721986 -0.071771473 0.0021161633 0.034737155 0.0021849973 0.034843087 0.99632579 -0.070338726
1099588679.2453 0.99727738 -0.072429478 0.0021479968 0.035052925 0.0021590255 0.035144392 0.99602801 -0.07089138
1109584905.6604 0.99741364 -0.073203281 0.0021317806 0.035395447 0.0021851314 0.035496682 0.99579597 -0.071505174
1119581132.0755 0.99734247 -0.074182242 0.0021518334 0.035699017 0.0022201128 0.035842743 0.99559033 -0.071892679
1129577358.4906 0.99725139 -0.074966788 0.0021918248 0.036047928 0.0022484623 0.036176816 0.99555552 -0.072315127
1139573584.9057 0.99700904 -0.075824678 0.0022404986 0.036359418 0.0022924133 0.036500361 0.99566269 -0.072950721
1149569811.3208 0.99690503 -0.076692492 0.0023162325 0.036704555 0.0023692646 0.03680772 0.9957574 -0.073723033
1159566037.7358 0.99671417 -0.077357113 0.0023533013 0.03698853 0.0024015661 0.037079908 0.99585736 -0.074670464
1169562264.1509 0.99650359 -0.077930778 0.0023386031 0.037303232 0.0023972839 0.037434753 0.99568385 -0.075451791
1179558490.566 0.99654537 -0.078676209 0.0023609858 0.037670463 0.0024399981 0.037808608 0.99556649 -0.076225162
1189554716.9811 0.99655193 -0.079367012 0.0023755869 0.038007841 0.0024721706 0.03810674 0.9953115 -0.076640725
1199550943.3962 0.99648082 -0.080226034 0.0024118628 0.038326729 0.0025154576 0.038421214 0.99515712 -0.077085316
1209547169.8113 0.9963007 -0.081066087 0.0024610776 0.038659342 0.0025549922 0.038754612 0.99509072 -0.077428937
1219543396.2264 0.9961043 -0.081879765 0.0024931035 0.039020769 0.0025853892 0.039142966 0.99512196 -0.077834606
1229539622.6415 0.99588168 -0.082740486 0.0026054475 0.039328173 0.0026655868 0.039426338 0.9953326 -0.078455865
1239535849.0566 0.99562335 -0.083322734 0.0026405631 0.039606117 0.0027134828 0.039733261 0.99542147 -0.079440415
1249532075.4717 0.99530858 -0.08398471 0.0026879662 0.039944597 0.0028165621 0.040020358 0.99523997 -0.080259785
1259528301.8868 0.99520546 -0.084479451 0.0027285907 0.040264942 0.0028590187 0.040357947 0.99504209 -0.081086904
1269524528.3019 0.99502808 -0.085228831 0.0028245477 0.040569328 0.0029101856 0.040629484 0.99479765 -0.081705302
1279520754.717 0.99470913 -0.085926287 0.0028681657 0.040843297 0.0029181638 0.040893145 0.99452442 -0.082305022
1289516981.1321 0.99453974 -0.086723119 0.0028734067 0.041113649 0.0029636147 0.041190192 0.99460912 -0.08269006
1299513207.5472 0.99422467 -0.08748287 0.0028718375 0.041425914 0.0029725451 0.041473798 0.99471682 -0.083009988
1309509433.9623 0.99383795 -0.088209569 0.0028804475 0.041711684 0.0029619271 0.041779868 0.99485219 -0.083806887
1319505660.3774 0.9934805 -0.088928431 0.0028671743 0.042053606 0.0029834071 0.042096928 0.99484468 -0.08446379
1329501886.7925 0.99321163 -0.089567959 0.0029079858 0.042363852 0.0029866751 0.042392828 0.99496412 -0.085351765
1339498113.2075 0.9929828 -0.090121746 0.0029488383 0.042670868 0.003030722 0.042698957 0.99450231 -0.086091995
1349494339.6226 0.99278468 -0.090577722 0.00291947 0.043043178 0.002998977 0.043047883 0.99416763 -0.086738378
1359490566.0377 0.99275923 -0.091230214 0.0029121358 0.043367244 0.0030082446 0.043360684 0.99394244 -0.087159395
1369486792.4528 0.99249732 -0.091748595 0.0028999187 0.043695033 0.0029784823 0.043740042 0.99378127 -0.087617159
1379483018.8679 0.99225241 -0.092359252 0.0029648219 0.044079959 0.0030218177 0.044057537 0.99384278 -0.087926336
1389479245.283 0.99198836 -0.09283489 0.0029988792 0.044432495 0.0030473694 0.044432085 0.99382943 -0.088626623
1399475471.6981 0.99160159 -0.093302429 0.0029819217 0.044769984 0.0030793101 0.04478408 0.99403858 -0.089358777
1409471698.1132 0.9912762 -0.093625531 0.0030037898 0.045173511 0.0030796025 0.045172554 0.99405229 -0.090092987
1419467924.5283 0.99108744 -0.09386763 0.0030504717 0.045508124 0.0030873204 0.045537859 0.99384052 -0.090820462
1429464150.9434 0.99094385 -0.094362974 0.0030921642 0.04593651 0.0031099189 0.045918576 0.99371684 -0.091329157
1439460377.3585 0.99110162 -0.094797105 0.0031538894 0.046330806 0.0032048607 0.04634152 0.99349654 -0.091662914
1449456603.7736 0.99113482 -0.095340237 0.0032620719 0.046763316 0.0033010961 0.046719134 0.99335033 -0.092042908
1459452830.1887 0.99118364 -0.09599936 0.0033951458 0.047141273 0.0033790246 0.047139723 0.99349678 -0.092276365
1469449056.6038 0.99120474 -0.096816599 0.0035536233 0.04745644 0.0035578273 0.047470823 0.99377716 -0.093035728
1479445283.0189 0.99106336 -0.097393602 0.0036762184 0.047740571 0.0036739754 0.047755644 0.99382436 -0.093882382
1489441509.434 0.9908973 -0.097804487 0.0038394257 0.048063859 0.003819041 0.048046283 0.99368519 -0.094780356
1499437735.8491 0.99076319 -0.098190248 0.0039064232 0.048288144 0.0039260741 0.048304971 0.99364316 -0.095618933
1509433962.2642 0.99078935 -0.098620072 0.0040129721 0.048596807 0.0039685625 0.048565879 0.99333996 -0.096247286
1519430188.6792 0.99086374 -0.099165142 0.0040551964 0.048837632 0.0040483549 0.048859507 0.99330372 -0.096758813
1529426415.0943 0.99078423 -0.099913239 0.004132105 0.049106598 0.0041026771 0.049133636 0.99319851 -0.097272366
1539422641.5094 0.99087381 -0.1006145 0.0041825888 0.049378581 0.0041439161 0.049424715 0.99332029 -0.097617529
1549418867.9245 0.99070972 -0.10140491 0.0042417441 0.049670767 0.0041938042 0.049695265 0.99345624 -0.098318353
1559415094.3396 0.99057341 -0.10208699 0.0042829216 0.049917564 0.0042179972 0.049956191 0.99368322 -0.099078983
1569411320.7547 0.99047679 -0.10298812 0.0042935591 0.05022449 0.0042643491 0.050253145 0.99354792 -0.099966034
1579407547.1698 0.99030906 -0.10335985 0.0043126377 0.050475124 0.0043137162 0.050566424 0.99320585 -0.10074705
1589403773.5849 0.99026513 -0.10398954 0.0043482129 0.050738715 0.0042950381 0.050813913 0.99298739 -0.10137877
1599400000 0.99025869 -0.10440126 0.004326337 0.051058657 0.0043023657 0.051065329 0.99258304 -0.10191411
1609396226.4151 0.99025232 -0.10500822 0.0043469295 0.051389452 0.0042755306 0.051424429 0.99246627 -0.10235904
1619392452.8302 0.99024081 -0.10562184 0.0043530632 0.051730387 0.0042595621 0.051747706 0.99241501 -0.10275838
1629388679.2453 0.99003708 -0.10631675 0.0043328162 0.052060593 0.0042731017 0.052100554 0.99260956 -0.10332817
1639384905.6604 0.98979026 -0.10690159 0.0043323673 0.052383497 0.004247216 0.052458085 0.99285984 -0.10416619
1649381132.0755 0.98964757 -0.10768992 0.0043686815 0.052722 0.0042802189 0.052822888 0.99284101 -0.10506752
1659377358.4906 0.98942244 -0.10845032 0.0043520592 0.053097609 0.0043268017 0.053199835 0.99279535 -0.10588095
1669373584.9057 0.98941928 -0.10880655 0.0044133132 0.053464215 0.0043516052 0.053514976 0.99256712 -0.10659683
1679369811.3208 0.98945105 -0.10952181 0.0044460306 0.053795155 0.0043731704 0.053936042 0.99224162 -0.1070748
1689366037.7358 0.98942649 -0.11011389 0.0044428054 0.054175846 0.0044217426 0.05425895 0.99209398 -0.10740209
1699362264.1509 0.98959678 -0.11064987 0.0045012468 0.054556482 0.0044731637 0.054652322 0.99235964 -0.10778266
1709358490.566 0.98949587 -0.11137727 0.0045502242 0.054912742 0.0044807913 0.05505633 0.99234074 -0.10832486
1719354716.9811 0.98921013 -0.11202386 0.0046080761 0.05522953 0.0045717489 0.055399351 0.99244702 -0.10900632
