!Keysight Technologies,N5222B,MY61253708,A.15.00.15
!Date: Wednesday, June 19, 2024 10:20:42
!Correction: S11(C  2-Port  ) 
!S21(C  2-Port  ) 
!S12(C  2-Port  ) 
!S22(C  2-Port  ) 
!S2P File: Measurements: S11, S21, S12, S22:
# Hz S  RI   R 50
10000000 0.99852759 -0.0032281876 7.5106051e-005 -5.1587387e-005 -1.509249e-005 0.00039693079 0.99821573 -0.0016680062
19996226.415094 0.99990332 -0.0023310184 4.9193681e-005 0.00061826874 -8.1658363e-005 0.00081462535 1.0001962 -0.0022664368
29992452.830189 0.9995811 -0.0025199652 -3.1934629e-005 0.00092936179 -9.2274859e-006 0.0010387829 0.99949419 -0.0027136505
39988679.245283 1.0000215 -0.0030057579 1.7528946e-005 0.0013348536 -8.4086059e-006 0.0013505641 0.99973029 -0.0030622035
49984905.660377 1.0001773 -0.0037405491 -2.31007e-005 0.0016210183 2.2573106e-005 0.0016446342 0.99989969 -0.0035794079
59981132.075472 1.0004188 -0.0045332611 3.3625925e-005 0.0019735992 3.8188591e-005 0.0019698951 0.99994004 -0.0041612685
69977358.490566 1.0001785 -0.0051476303 3.1132186e-005 0.0022805624 -8.7021981e-006 0.0023114623 0.99980247 -0.0047269259
79973584.90566 0.99990588 -0.0056997538 1.3185083e-005 0.0026193373 2.641743e-005 0.0026111766 0.99942535 -0.0051644146
89969811.320755 0.99989665 -0.005756706 -1.6038772e-005 0.0029785712 1.7598853e-005 0.0029474425 0.99966717 -0.0053563416
99966037.735849 1.0001588 -0.0065098703 4.6776433e-005 0.003301806 5.3554541e-006 0.0032830152 0.99977392 -0.0061177015
109962264.15094 1.0001636 -0.0073574185 3.1653501e-005 0.0036108687 2.5456771e-005 0.0036196904 0.99972826 -0.0068895072
119958490.56604 1.0002023 -0.0082444549 5.099026e-005 0.0039284891 3.6324491e-005 0.0039576758 0.99983644 -0.0077538192
129954716.98113 1.0001436 -0.009226352 4.6058907e-005 0.0042555714 5.0532632e-005 0.0042615072 0.99981749 -0.0086324513
139950943.39623 1.000088 -0.0099753924 4.5037916e-005 0.0045797816 4.5552559e-005 0.0045860028 0.99970317 -0.0093469489
149947169.81132 0.99998194 -0.010661066 5.3382013e-005 0.0049153571 5.4654898e-005 0.0049187639 0.99966747 -0.0099707544
159943396.22642 0.99988568 -0.011217356 5.5425568e-005 0.0052282196 4.2306026e-005 0.0052567013 0.999735 -0.010387629
169939622.64151 0.99990749 -0.011599801 6.0914259e-005 0.0055762152 7.4518612e-005 0.0055857343 0.99976373 -0.01084055
179935849.0566 0.9999299 -0.011888474 7.0522656e-005 0.005889426 6.9362461e-005 0.005909787 0.9996621 -0.011237651
189932075.4717 1.0000411 -0.012634695 9.6383039e-005 0.0062295892 7.0278998e-005 0.0062417667 0.99992293 -0.011695474
199928301.88679 0.99995041 -0.013416141 9.6640317e-005 0.0065488084 8.0169761e-005 0.0065505737 0.99975652 -0.012644172
209924528.30189 0.99969435 -0.013980225 0.00012153178 0.0068769031 9.5502939e-005 0.0068936502 0.99956119 -0.013325661
219920754.71698 0.99989486 -0.014788449 0.00012091477 0.0071931523 0.00010693586 0.007207158 0.9994458 -0.013878405
229916981.13208 0.99969876 -0.015684009 0.00011178176 0.007530232 0.00011053658 0.0075521185 0.99945182 -0.014654517
239913207.54717 0.99956942 -0.016298823 0.00013253567 0.0078469291 0.00012172679 0.0078830989 0.99941313 -0.015335733
249909433.96226 0.99958146 -0.016894162 0.00013980758 0.0081621837 0.00013941294 0.0082128821 0.99949962 -0.015973985
259905660.37736 0.99968338 -0.01739639 0.00016513374 0.0085477121 0.00014906609 0.0085391197 0.99968958 -0.016478807
269901886.79245 0.99975818 -0.018126309 0.00016534748 0.0088565601 0.00014575059 0.0088505335 1.0000014 -0.01716052
279898113.20755 0.99997044 -0.018758863 0.00016975403 0.0091363555 0.00018203212 0.00921869 0.99988878 -0.018011063
289894339.62264 0.99991536 -0.019591331 0.00017763861 0.0094960025 0.00016493862 0.0095790364 0.9997701 -0.018707573
299890566.03774 0.99984241 -0.020094305 0.00018701307 0.009833402 0.00019753911 0.0098221414 0.99958754 -0.019078672
309886792.45283 0.99955469 -0.02065517 0.00020474504 0.01013392 0.00023221032 0.01020854 0.99944806 -0.019514404
319883018.86792 0.99962312 -0.021245778 0.00021304656 0.010483285 0.00020769425 0.010510089 0.99962932 -0.020039707
329879245.28302 0.99951804 -0.02202785 0.00025849743 0.010814728 0.00024427287 0.010807011 0.99978423 -0.020840704
339875471.69811 0.99963748 -0.022756845 0.00024592353 0.011144042 0.00025273091 0.011150371 0.99963939 -0.021647319
349871698.11321 0.99974847 -0.02351597 0.00028483523 0.011449539 0.00027115108 0.011480859 0.99965328 -0.022513747
359867924.5283 0.99954331 -0.02437067 0.00028104242 0.011764165 0.00027921516 0.011857623 0.99962735 -0.023445636
369864150.9434 0.99972945 -0.025199234 0.00029075867 0.012057944 0.00028804946 0.012168529 0.99960285 -0.024102449
379860377.35849 0.99959332 -0.025799617 0.00027895556 0.012458174 0.00032537431 0.012478957 0.99956125 -0.024839699
389856603.77358 0.99950677 -0.026352674 0.00032409746 0.012770277 0.00031901011 0.012792929 0.99953032 -0.025306702
399852830.18868 0.99937969 -0.0270181 0.00036901562 0.013101827 0.00033664191 0.013105114 0.99956465 -0.025865108
409849056.60377 0.9992528 -0.027455172 0.00033235183 0.013417882 0.00036141416 0.013463381 0.99940914 -0.026360033
419845283.01887 0.9992699 -0.02793467 0.00040461449 0.013730345 0.00038866932 0.013789111 0.9994086 -0.026945114
429841509.43396 0.99931669 -0.028647482 0.00038976362 0.014069927 0.00044986978 0.014121773 0.99949557 -0.027648896
439837735.84906 0.99917895 -0.029475629 0.00043954351 0.014378603 0.00044273201 0.014451117 0.99920249 -0.028650016
449833962.26415 0.99906826 -0.030202746 0.00042831479 0.014668274 0.00042924657 0.014708236 0.99878681 -0.029489845
459830188.67925 0.9988265 -0.030934095 0.0004701498 0.015019959 0.00043569738 0.015035825 0.99851 -0.030031979
469826415.09434 0.99876922 -0.031626672 0.00048295781 0.01533821 0.00044982601 0.015399014 0.99819404 -0.030488312
479822641.50943 0.99871212 -0.032175466 0.00049050362 0.015703117 0.00046280213 0.015740152 0.99819881 -0.030932635
489818867.92453 0.9988631 -0.032737195 0.00053369626 0.01600874 0.00051032612 0.016072595 0.9985258 -0.031389773
499815094.33962 0.99886662 -0.033255309 0.00054605957 0.016347425 0.00053708348 0.016370809 0.9987905 -0.031868458
509811320.75472 0.99890673 -0.033678062 0.00054509297 0.016669389 0.00052904699 0.016691241 0.9988786 -0.032605354
519807547.16981 0.99885798 -0.034221917 0.0005406891 0.016985051 0.00055759493 0.016979961 0.99887913 -0.033312201
529803773.58491 0.99891418 -0.034737974 0.00057288725 0.017298091 0.00059314258 0.017352689 0.99868661 -0.033842266
539800000 0.9989481 -0.035415426 0.00059198658 0.017615745 0.00057901931 0.017701225 0.99851787 -0.034433693
549796226.41509 0.9987663 -0.036262989 0.00063351775 0.017953547 0.0006453027 0.018032247 0.9984656 -0.034871399
559792452.83019 0.99867022 -0.036965489 0.0006251568 0.018299717 0.00062562712 0.018349368 0.99846518 -0.035278022
569788679.24528 0.9984889 -0.037608385 0.00068647042 0.018641589 0.00066006836 0.018669041 0.99856675 -0.036040008
579784905.66038 0.99850637 -0.038199157 0.0006710185 0.018965269 0.0006702739 0.018990753 0.99877369 -0.036775425
589781132.07547 0.9986558 -0.038768739 0.00074973609 0.019266892 0.00068968348 0.019309996 0.99890321 -0.037673086
599777358.49057 0.99868518 -0.039421976 0.00079237856 0.019606944 0.00072255079 0.01967895 0.99891329 -0.038313925
609773584.90566 0.99886465 -0.040242508 0.00076481781 0.019936912 0.00077411672 0.019983184 0.99881577 -0.039198264
619769811.32075 0.9989481 -0.040846586 0.00082247471 0.02019147 0.00083556911 0.020325523 0.99881917 -0.039726764
629766037.73585 0.99883759 -0.041528165 0.0008838959 0.020553524 0.00085008424 0.020627139 0.99863791 -0.040235937
639762264.15094 0.99864054 -0.042143062 0.00088714948 0.020911222 0.00085086771 0.020915458 0.99847507 -0.040707633
649758490.56604 0.99853802 -0.042861104 0.00089870207 0.021186324 0.00085894344 0.021263493 0.99861467 -0.041111171
659754716.98113 0.99842381 -0.043279529 0.00089985225 0.021537641 0.00084558968 0.021591417 0.99868762 -0.041720808
669750943.39623 0.99833769 -0.043704659 0.00090667699 0.021862743 0.00092084194 0.021953534 0.99880612 -0.042550951
679747169.81132 0.9984408 -0.044460088 0.00093494449 0.022214502 0.00094550941 0.022265162 0.99875844 -0.043465778
689743396.22642 0.99861312 -0.045329332 0.00098843873 0.022540422 0.00098821241 0.022613298 0.99862987 -0.044386178
699739622.64151 0.99870646 -0.046143562 0.001050326 0.022822652 0.0010448415 0.022898128 0.99857318 -0.045063496
709735849.0566 0.99874157 -0.046976745 0.0010969689 0.023151264 0.0010757376 0.023219962 0.99835622 -0.04571607
719732075.4717 0.99850631 -0.047632247 0.0011242689 0.02346012 0.0011017094 0.023531726 0.99841875 -0.046338081
729728301.88679 0.99849671 -0.048188299 0.0011277674 0.023780007 0.0010993835 0.023845155 0.9983815 -0.046862066
739724528.30189 0.99840367 -0.048840404 0.0011741696 0.024095263 0.0011514183 0.02415883 0.99863517 -0.047597602
749720754.71698 0.99830246 -0.049381584 0.0011925455 0.024410512 0.0011951812 0.024516586 0.99859226 -0.04821682
759716981.13208 0.99830163 -0.049919397 0.0012318473 0.024740344 0.001215538 0.024815207 0.99856389 -0.049017787
769713207.54717 0.99826533 -0.050606549 0.0012452472 0.025029812 0.0012585996 0.025127588 0.99830419 -0.049717903
779709433.96226 0.99840361 -0.051222738 0.0012795316 0.02536124 0.0013008292 0.025448894 0.99803174 -0.050295126
789705660.37736 0.99823415 -0.052110612 0.0013175206 0.025654165 0.0013078069 0.025755202 0.99774468 -0.051044822
799701886.79245 0.99824488 -0.052919835 0.0013523353 0.026002673 0.0012984518 0.026109125 0.9976272 -0.051601082
809698113.20755 0.99810612 -0.053436205 0.0013992547 0.026302936 0.0013596623 0.026378397 0.99766493 -0.052056104
819694339.62264 0.9979645 -0.054104775 0.0014079278 0.026616845 0.0013906257 0.026754262 0.9977513 -0.052660346
829690566.03774 0.99793988 -0.054734021 0.0014219275 0.026926033 0.0014084345 0.027039956 0.99796867 -0.053545296
839686792.45283 0.99794102 -0.055121034 0.0014403141 0.027267588 0.0014762366 0.027351765 0.99801236 -0.054301172
849683018.86792 0.99808145 -0.055791549 0.0014603497 0.02759942 0.0014686275 0.027694531 0.99786204 -0.055023611
859679245.28302 0.99813306 -0.056492418 0.0015208526 0.02791594 0.0015219003 0.028014705 0.99759185 -0.055688381
869675471.69811 0.997962 -0.057252288 0.0015553124 0.028254066 0.0015639346 0.02833703 0.99721664 -0.056214929
879671698.11321 0.99792814 -0.057911746 0.0015908994 0.028536603 0.0015930398 0.0286374 0.99726719 -0.056556053
889667924.5283 0.99777675 -0.058618635 0.0016414039 0.028820699 0.0016259011 0.028945707 0.99705482 -0.057082117
899664150.9434 0.99756837 -0.059345007 0.0016222605 0.029150199 0.0016370732 0.02926036 0.99713469 -0.057638109
909660377.35849 0.99769062 -0.060011283 0.0016738707 0.029446142 0.0016548517 0.0295843 0.99722743 -0.05840461
919656603.77358 0.99768531 -0.060590968 0.0016875332 0.029778806 0.0016890122 0.029879203 0.99728823 -0.059326649
929652830.18868 0.99764705 -0.061343968 0.0017124871 0.030076914 0.0017060479 0.030227244 0.99708611 -0.060141176
939649056.60377 0.99787652 -0.061907351 0.0017449586 0.03037007 0.0017440729 0.030515961 0.99698269 -0.060845524
949645283.01887 0.99783605 -0.062777936 0.0017195829 0.030751245 0.0017432214 0.03084713 0.99670649 -0.061346892
959641509.43396 0.9976607 -0.063430876 0.0017412035 0.031101651 0.0017658742 0.031207979 0.99669123 -0.061875433
969637735.84906 0.99767232 -0.064144492 0.0018069977 0.031461149 0.001817897 0.031577691 0.996683 -0.062256306
979633962.26415 0.99745643 -0.064879283 0.0018663295 0.031754911 0.0018717053 0.031834386 0.99674696 -0.062822752
989630188.67925 0.9974767 -0.065429002 0.0019000871 0.03207827 0.0018763496 0.032217063 0.99694699 -0.063384473
999626415.09434 0.99763155 -0.066030324 0.0019194912 0.0323685 0.0019327449 0.032525104 0.99686801 -0.064220428
1009622641.5094 0.99759758 -0.066599548 0.001954372 0.032701638 0.0019589663 0.032857344 0.99674624 -0.06503953
1019618867.9245 0.99768507 -0.067407295 0.0020007957 0.033052009 0.0020315894 0.033174552 0.99652362 -0.065825492
1029615094.3396 0.99766803 -0.068290174 0.0020551477 0.033350594 0.0020893086 0.033478208 0.99619859 -0.066414833
1039611320.7547 0.997684 -0.06921342 0.0020843456 0.033613186 0.0021162666 0.033753999 0.99613774 -0.067039132
1049607547.1698 0.99765104 -0.06999515 0.0021087639 0.033944517 0.002107827 0.034069888 0.99612552 -0.067560628
1059603773.5849 0.9974097 -0.070765346 0.0021535819 0.034199957 0.002171047 0.034382232 0.99612844 -0.068159729
1069600000 0.99727964 -0.071338028 0.0021210723 0.034528308 0.0021648165 0.034696735 0.9963249 -0.06882742
1079596226.4151 0.99723125 -0.072068326 0.0021549393 0.034867588 0.002164878 0.035010539 0.99634099 -0.069611058
1089592452.8302 0.99724287 -0.072685122 0.0021811752 0.03518106 0.0022005728 0.035341758 0.99627715 -0.070322752
1099588679.2453 0.99727893 -0.073360443 0.0022044685 0.035520632 0.0022321381 0.035652936 0.99597108 -0.070942938
1109584905.6604 0.99747252 -0.074078649 0.0022348408 0.035824604 0.0022577886 0.036003064 0.99574304 -0.071547404
1119581132.0755 0.99743253 -0.075128928 0.0022148434 0.036178008 0.0022574388 0.036344118 0.99559122 -0.071845859
1129577358.4906 0.99724269 -0.075803012 0.0022640135 0.036529493 0.0023013111 0.036704525 0.99545074 -0.072349459
1139573584.9057 0.99700284 -0.076716751 0.0023121228 0.036852244 0.0023694243 0.0370261 0.99562752 -0.073078781
1149569811.3208 0.9969359 -0.077534385 0.0023698159 0.037186407 0.0023989237 0.037331477 0.99564177 -0.073694892
1159566037.7358 0.996755 -0.078205645 0.0024135206 0.037486069 0.0024602171 0.037624765 0.99575788 -0.074739337
1169562264.1509 0.9965508 -0.078771591 0.0023961291 0.037798576 0.0024636257 0.037957445 0.99558747 -0.075498372
1179558490.566 0.99648905 -0.079658739 0.0024134854 0.038143918 0.0024670945 0.038344171 0.99551421 -0.076240182
1189554716.9811 0.99651361 -0.080307931 0.0024563326 0.038479358 0.0025304081 0.03864665 0.99520779 -0.076754004
1199550943.3962 0.99645865 -0.081211835 0.0024921782 0.038836531 0.0025705379 0.038974557 0.99507034 -0.077202976
1209547169.8113 0.99630886 -0.082013622 0.0025629569 0.039170057 0.0026225196 0.039288774 0.99493182 -0.077515602
1219543396.2264 0.9960705 -0.082809269 0.0025992924 0.039521683 0.0026505324 0.039677903 0.99503875 -0.077945456
1229539622.6415 0.99581921 -0.083629549 0.0026784465 0.039855633 0.0027522761 0.039986882 0.99518001 -0.078619659
1239535849.0566 0.99549055 -0.08433187 0.0027227001 0.040122509 0.0027983673 0.040337414 0.99529439 -0.079444677
1249532075.4717 0.99530387 -0.084934711 0.0027583528 0.04046597 0.002851482 0.040611871 0.99516529 -0.080326848
1259528301.8868 0.99514985 -0.085404575 0.0028061159 0.040797379 0.0029239543 0.040896244 0.99487936 -0.081201494
1269524528.3019 0.99500483 -0.086159766 0.0029076627 0.041085798 0.0030082706 0.041192036 0.99471772 -0.081746638
1279520754.717 0.99463189 -0.086885259 0.0029330705 0.041357134 0.0030422306 0.041473821 0.99437988 -0.082330659
1289516981.1321 0.99448228 -0.087682098 0.0029418301 0.041657116 0.0030342871 0.041755755 0.99450326 -0.082773089
1299513207.5472 0.9941622 -0.088493168 0.0029533505 0.041941889 0.0030626412 0.042078111 0.99456918 -0.083114624
1309509433.9623 0.993761 -0.089228362 0.0029526139 0.042250954 0.0030512773 0.042364236 0.99472791 -0.083881378
1319505660.3774 0.993442 -0.089944944 0.0029834202 0.042613875 0.0030506048 0.042709872 0.99476075 -0.08453083
1329501886.7925 0.9931578 -0.090587854 0.0029807352 0.042909272 0.0030862931 0.043033771 0.99479127 -0.085435361
1339498113.2075 0.99288064 -0.091127962 0.0030119084 0.043239258 0.0031153131 0.043321785 0.99437857 -0.086165905
1349494339.6226 0.99270976 -0.09158542 0.0029984075 0.043598976 0.0030939956 0.043678422 0.99403459 -0.086782418
1359490566.0377 0.99268186 -0.092271388 0.0029913615 0.043941215 0.0031046886 0.043997966 0.99387699 -0.08728525
1369486792.4528 0.99240869 -0.092764676 0.0030192481 0.044301033 0.0031346837 0.044346545 0.99372256 -0.087720364
1379483018.8679 0.99208504 -0.093332522 0.0030277187 0.04464161 0.0031027324 0.044707809 0.99366313 -0.088028811
1389479245.283 0.99180555 -0.093863428 0.0030630045 0.045011446 0.0031546187 0.045082126 0.99365389 -0.088705689
1399475471.6981 0.99142003 -0.094271421 0.0030825343 0.045403026 0.0031540524 0.045419246 0.99380678 -0.089399606
1409471698.1132 0.99116552 -0.094616272 0.0031234114 0.045737378 0.0032024342 0.045790587 0.99388731 -0.090225391
1419467924.5283 0.99095702 -0.094938219 0.0031496501 0.046122886 0.0031834226 0.04615844 0.99371207 -0.090914905
1429464150.9434 0.99082804 -0.095378757 0.003174467 0.046525095 0.0032420214 0.046575777 0.99357694 -0.09147197
1439460377.3585 0.9909336 -0.09585011 0.0032739835 0.046935897 0.0033210386 0.047019687 0.99342513 -0.091842145
1449456603.7736 0.99102747 -0.096425131 0.0033930866 0.047341108 0.0034080585 0.047398705 0.99320221 -0.092204854
1459452830.1887 0.99107766 -0.097056836 0.0035426784 0.047723196 0.0035095736 0.047767811 0.99334592 -0.092453182
1469449056.6038 0.99102348 -0.097787797 0.0036658337 0.048083458 0.0036483947 0.048153345 0.99361038 -0.093078494
1479445283.0189 0.99096614 -0.098329797 0.0038048376 0.048367329 0.0038012029 0.048416238 0.99366331 -0.093928009
1489441509.434 0.99087435 -0.098829299 0.0038979817 0.04863897 0.0039520059 0.048724383 0.99351835 -0.094851345
1499437735.8491 0.99065298 -0.099200875 0.0040119514 0.048931941 0.0040222015 0.048981141 0.99352491 -0.095679402
1509433962.2642 0.99063325 -0.099754676 0.0040864218 0.049203601 0.0041010985 0.049263019 0.99333078 -0.09638153
1519430188.6792 0.99072516 -0.10026726 0.0041808467 0.049445026 0.0042055193 0.049539249 0.99314582 -0.096960187
1529426415.0943 0.99070704 -0.10091224 0.0042275302 0.049749427 0.0042164996 0.049809683 0.9930408 -0.097307473
1539422641.5094 0.99071461 -0.10167955 0.004263232 0.050054938 0.0042598448 0.050125055 0.99318236 -0.097838365
1549418867.9245 0.99060446 -0.10253865 0.0043369113 0.050330319 0.0043222662 0.050381236 0.99335575 -0.098549709
1559415094.3396 0.99048674 -0.10314095 0.0043715332 0.050600052 0.0043579638 0.050682195 0.99353111 -0.099288583
1569411320.7547 0.99026382 -0.1039153 0.004435977 0.050828911 0.0043933364 0.050975002 0.99341118 -0.10003732
1579407547.1698 0.990228 -0.10448208 0.0044545517 0.051160514 0.00441674 0.051215034 0.99314386 -0.10093482
1589403773.5849 0.99014145 -0.10501808 0.0044432096 0.051433548 0.0044345576 0.051518776 0.99294418 -0.10156557
1599400000 0.99014872 -0.10551205 0.0044489866 0.05174651 0.0044123502 0.051796034 0.99243999 -0.1019828
1609396226.4151 0.99005347 -0.10607757 0.0044369716 0.052084357 0.004406929 0.052131552 0.9922564 -0.10252574
1619392452.8302 0.99009383 -0.10673586 0.0044569243 0.052356407 0.0043791942 0.052486554 0.99238896 -0.10294476
1629388679.2453 0.98984462 -0.10738868 0.0044644177 0.052700132 0.0043872502 0.052846901 0.99256384 -0.10348481
1639384905.6604 0.98962641 -0.10797212 0.0044546882 0.053085789 0.0043768883 0.05321632 0.99281788 -0.10430472
1649381132.0755 0.98947072 -0.10869628 0.0044309516 0.053426046 0.0044108685 0.053567048 0.99269497 -0.10522631
1659377358.4906 0.98921943 -0.10942805 0.0044870917 0.053774536 0.0044752695 0.053935215 0.99266493 -0.10607964
1669373584.9057 0.98919624 -0.10986754 0.0044955998 0.054142714 0.0044814064 0.054310344 0.9924221 -0.10666827
1679369811.3208 0.98930299 -0.11052048 0.004534224 0.054535806 0.0045101643 0.054639094 0.9921838 -0.10725904
1689366037.7358 0.98928511 -0.11122838 0.0046081468 0.05488316 0.0045616031 0.055037998 0.99203265 -0.10752901
1699362264.1509 0.98939371 -0.1116977 0.0046650367 0.055241581 0.0045915628 0.055428442 0.99219954 -0.10799609
1709358490.566 0.9892391 -0.11238436 0.004673453 0.05558867 0.0046510007 0.055791374 0.99229378 -0.10859229
1719354716.9811 0.98897278 -0.11297485 0.0047163181 0.055992305 0.0047068615 0.056128211 0.99232095 -0.10922092
