!Keysight Technologies,N5222B,MY61253708,A.15.00.15
!Date: Wednesday, June 19, 2024 10:13:20
!Correction: S11(C  2-Port  ) 
!S21(C  2-Port  ) 
!S12(C  2-Port  ) 
!S22(C  2-Port  ) 
!S2P File: Measurements: S11, S21, S12, S22:
# Hz S  RI   R 50
10000000 0.99867332 -0.0029276609 -6.1543098e-005 0.00028243547 0.00020458973 0.00030719457 0.998487 -0.0018082857
19996226.415094 1.0001866 -0.0025103688 3.0200754e-005 0.00070763804 3.2610114e-005 0.00058673637 1.0002245 -0.0025286973
29992452.830189 0.99970829 -0.0024795234 4.4421176e-007 0.0010097945 1.7260812e-005 0.00097693817 0.99941099 -0.0027058721
39988679.245283 1.0001005 -0.0029708594 6.0441234e-006 0.001350664 -2.1745043e-005 0.0013901561 0.999695 -0.0030747354
49984905.660377 1.0002294 -0.0035965145 1.8352875e-006 0.0016669602 -2.0870531e-005 0.0016494335 0.99980611 -0.0036208332
59981132.075472 1.0004764 -0.0045046806 1.875055e-005 0.0019713158 1.8997991e-005 0.0019602147 0.99986398 -0.0042266548
69977358.490566 1.0002202 -0.0050483793 1.0159583e-005 0.0022829997 5.4039112e-005 0.0022666645 0.99974072 -0.0047806632
79973584.90566 0.99997699 -0.005682677 -3.606081e-006 0.0026311707 4.9565569e-005 0.002607838 0.99932945 -0.0052747726
89969811.320755 0.99999094 -0.005736798 3.2543903e-005 0.0029333655 -2.1870714e-005 0.0029469067 0.99961495 -0.0054852962
99966037.735849 1.0002421 -0.0063982308 1.6757229e-005 0.0032905587 -1.8785358e-006 0.0032941138 0.99968314 -0.0062576681
109962264.15094 1.0002687 -0.0073276162 3.4831872e-005 0.0035961631 5.0850969e-005 0.0036013895 0.99966633 -0.0070037395
119958490.56604 1.0002613 -0.0082228184 4.6017463e-005 0.0039137024 2.0966283e-005 0.0039344071 0.99971712 -0.0078522563
129954716.98113 1.0002043 -0.0091467798 2.9853545e-005 0.0042410688 3.1039235e-005 0.0042409222 0.99970543 -0.0087349415
139950943.39623 1.0001624 -0.0099508315 2.354171e-005 0.0045708953 6.1507781e-005 0.00458021 0.99962246 -0.009459937
149947169.81132 1.0000556 -0.01060912 4.5099994e-005 0.0049051829 4.7257869e-005 0.0049294899 0.99957532 -0.010071218
159943396.22642 1.0000033 -0.011168748 5.575153e-005 0.0052365195 4.739291e-005 0.0052318717 0.99967611 -0.010551393
169939622.64151 0.99994034 -0.011554107 5.7036523e-005 0.0055450611 3.9572769e-005 0.0055819289 0.99966139 -0.01101654
179935849.0566 1.0000784 -0.011834443 7.6695578e-005 0.0058745276 7.9302699e-005 0.0058831614 0.99957603 -0.011383265
189932075.4717 1.0001634 -0.012569845 7.9209916e-005 0.0062069446 0.00010203384 0.0062219212 0.999816 -0.011910468
199928301.88679 1.000087 -0.013389736 6.430666e-005 0.006527367 8.9453184e-005 0.0065543046 0.99967366 -0.012723207
209924528.30189 0.99982989 -0.013935745 8.1781996e-005 0.0068438584 9.0981252e-005 0.0068703578 0.99943095 -0.013384029
219920754.71698 1.0000291 -0.014760941 0.00010649813 0.0071888496 0.00012905709 0.0071932888 0.99940854 -0.013991445
229916981.13208 0.99976045 -0.015635639 0.00011852081 0.0075073009 0.00010210834 0.0075566601 0.99940491 -0.014827013
239913207.54717 0.99964678 -0.016252512 0.00011098011 0.0078249965 0.00012704963 0.0078653283 0.99932253 -0.015547363
249909433.96226 0.99968034 -0.016868263 0.00012623053 0.0081475982 0.0001337626 0.0082075717 0.99938971 -0.016139507
259905660.37736 0.9997431 -0.017411858 0.00017829565 0.008464721 0.00016159471 0.0085389195 0.99959767 -0.016659886
269901886.79245 0.99990517 -0.018131807 0.000144238 0.0088272337 0.00016935158 0.0088176113 0.99999797 -0.017350882
279898113.20755 0.99995577 -0.018794253 0.00016921922 0.0091190524 0.0001405871 0.0091498718 0.99976391 -0.018110126
289894339.62264 0.99992996 -0.019523859 0.00022337167 0.0094553372 0.00019191066 0.0094951894 0.99963045 -0.018892914
299890566.03774 0.99981809 -0.019985855 0.00019479939 0.0097887618 0.00016041752 0.0098318746 0.99937904 -0.019354463
309886792.45283 0.99972218 -0.020439528 0.00016855099 0.010120353 0.00019084895 0.010157177 0.99933809 -0.019756176
319883018.86792 0.99978817 -0.021131694 0.00018935231 0.010465153 0.00026829215 0.010484342 0.9994725 -0.020266443
329879245.28302 0.99978203 -0.021917284 0.00023205811 0.01077841 0.00025211554 0.01081933 0.9995867 -0.021029294
339875471.69811 0.99976152 -0.022709846 0.00024931296 0.011106563 0.00024639105 0.011125197 0.99948257 -0.021786116
349871698.11321 0.99980617 -0.023451626 0.00027042907 0.011407961 0.00022817636 0.011467182 0.99949992 -0.022641331
359867924.5283 0.99966764 -0.024282932 0.00031679776 0.011712708 0.00028567808 0.011782584 0.99942267 -0.023631245
369864150.9434 0.99984962 -0.025133163 0.00030667218 0.012048169 0.00028047897 0.012121783 0.99945503 -0.024258763
379860377.35849 0.99974233 -0.025731996 0.00029687956 0.012418549 0.00030009332 0.012441849 0.99936807 -0.02493386
389856603.77358 0.99961478 -0.026365578 0.00031807367 0.012702998 0.00032661343 0.012740273 0.99936914 -0.025364667
399852830.18868 0.99942005 -0.026985854 0.00035820808 0.01303018 0.00037572999 0.013056757 0.99943733 -0.02584213
409849056.60377 0.99929839 -0.027499655 0.0003802685 0.013343768 0.00035153335 0.013438008 0.99939394 -0.026351849
419845283.01887 0.99931526 -0.027923644 0.00037624035 0.013647394 0.00038036052 0.013752231 0.99931419 -0.026924968
429841509.43396 0.99933267 -0.028617173 0.00040250598 0.014009122 0.00037247641 0.014078097 0.99958587 -0.027697027
439837735.84906 0.99920142 -0.029506966 0.00042488473 0.014320961 0.00043151388 0.014382716 0.99933159 -0.028617546
449833962.26415 0.9990409 -0.030225545 0.00044890027 0.014648955 0.00043143285 0.014678539 0.99891317 -0.02938512
459830188.67925 0.99882317 -0.030842394 0.00042526098 0.01496131 0.00042108726 0.015021533 0.99877012 -0.0301103
469826415.09434 0.99883229 -0.031535 0.00047441898 0.015293417 0.00045165326 0.015360497 0.99851781 -0.030607164
479822641.50943 0.99874443 -0.032131471 0.00049732625 0.015621121 0.00048292079 0.015701044 0.99852329 -0.031097539
489818867.92453 0.99879944 -0.032611519 0.00049982267 0.015952978 0.00051359646 0.016033653 0.99883008 -0.031565249
499815094.33962 0.9988091 -0.033180088 0.00049636886 0.016289372 0.00054079341 0.016335968 0.99909586 -0.0321365
509811320.75472 0.99889904 -0.033531487 0.00051174045 0.016556412 0.00052128162 0.016655752 0.99920374 -0.032949831
519807547.16981 0.99882615 -0.034029454 0.00057798391 0.016911706 0.00057386467 0.017006872 0.99913645 -0.033696383
529803773.58491 0.99890262 -0.034610301 0.00056601409 0.017226901 0.00056651514 0.017380008 0.99886596 -0.03419745
539800000 0.99897867 -0.035290331 0.00060560484 0.01755617 0.00058159558 0.017650926 0.99879247 -0.034890741
549796226.41509 0.99891526 -0.036003411 0.00062029902 0.017899912 0.00061460212 0.017963894 0.99868184 -0.035351843
559792452.83019 0.99869895 -0.036681265 0.00061978213 0.018239921 0.00063508376 0.018314488 0.99859536 -0.03583774
569788679.24528 0.99856901 -0.037421286 0.00067992974 0.018528929 0.00068113534 0.018622313 0.99884284 -0.036641687
579784905.66038 0.99856567 -0.037942193 0.00067661924 0.018882176 0.00067731761 0.018903712 0.99888891 -0.037312411
589781132.07547 0.99864465 -0.038610041 0.00077371765 0.019210134 0.00073450897 0.019296255 0.99893171 -0.038155466
599777358.49057 0.99877572 -0.039238423 0.0007424932 0.0195056 0.00078588072 0.019650545 0.99905682 -0.038909644
609773584.90566 0.99888718 -0.039978363 0.00077597774 0.019845525 0.00078273949 0.019948976 0.99883676 -0.039794393
619769811.32075 0.99910575 -0.04058817 0.00079974812 0.020176934 0.00079926196 0.020272991 0.99881667 -0.040306062
629766037.73585 0.99886984 -0.04124859 0.00084960088 0.020484354 0.00083223172 0.020566342 0.99864984 -0.04082644
639762264.15094 0.99878681 -0.04186295 0.00084655546 0.020810563 0.0008572014 0.020897098 0.9984684 -0.041323975
649758490.56604 0.99866265 -0.042476639 0.00089934096 0.021116789 0.00088662328 0.021204863 0.99860609 -0.041706339
659754716.98113 0.99850386 -0.043027401 0.00086709205 0.021421893 0.00087802298 0.021523556 0.99862188 -0.042295218
669750943.39623 0.99852049 -0.04354471 0.00089607388 0.021798668 0.00088211475 0.021890167 0.99868041 -0.043065131
679747169.81132 0.99861014 -0.044235602 0.00095499959 0.022119135 0.00092915865 0.02222549 0.9986282 -0.044012018
689743396.22642 0.99875301 -0.04507646 0.0010076035 0.022459071 0.00098381378 0.022552151 0.99851936 -0.044877827
699739622.64151 0.99877828 -0.045820445 0.0010234732 0.02278295 0.0010465356 0.022851594 0.99850702 -0.045530081
709735849.0566 0.99875277 -0.04665608 0.0010435533 0.023096427 0.0010465187 0.023198286 0.99822795 -0.046187855
719732075.4717 0.99871397 -0.047350645 0.0010911152 0.023386322 0.0011203503 0.02350384 0.99825299 -0.046762377
729728301.88679 0.99854016 -0.048005939 0.0011411849 0.023703519 0.0011143992 0.023816209 0.99826646 -0.047267884
739724528.30189 0.99845707 -0.048636705 0.0011834847 0.024038203 0.0011616764 0.024118664 0.9985199 -0.047999278
749720754.71698 0.99839926 -0.049198166 0.0011819857 0.024332248 0.0011856114 0.024443896 0.99851632 -0.048676804
759716981.13208 0.99844444 -0.049663275 0.0012107352 0.024650756 0.001236273 0.024760971 0.99848664 -0.049437314
769713207.54717 0.99842596 -0.050481051 0.0012125447 0.02496486 0.0012545763 0.025066487 0.9982307 -0.050128907
779709433.96226 0.99855304 -0.051047046 0.0012371966 0.025285292 0.0012759321 0.02538776 0.9979465 -0.050717857
789705660.37736 0.99838024 -0.05187431 0.0013076551 0.02560379 0.0013148086 0.025702212 0.99779814 -0.051458865
799701886.79245 0.99843824 -0.052646905 0.0013324358 0.025909973 0.0013274606 0.026022822 0.99767137 -0.051948369
809698113.20755 0.99823952 -0.053236499 0.001366599 0.026192151 0.0013702232 0.02633103 0.99767876 -0.052359045
819694339.62264 0.99804354 -0.053987741 0.001442601 0.026555756 0.0013894904 0.026672132 0.99777395 -0.053016067
829690566.03774 0.99798405 -0.054521263 0.0014138715 0.026868938 0.0013995646 0.026990715 0.99799579 -0.053911477
839686792.45283 0.99805707 -0.054949939 0.0014294172 0.027168805 0.0014343876 0.027342787 0.99809271 -0.054699242
849683018.86792 0.99824619 -0.055603758 0.0015009204 0.027503343 0.0014617012 0.027643949 0.99791127 -0.055386364
859679245.28302 0.99816716 -0.056272775 0.0015175557 0.027853791 0.0015021218 0.027944695 0.997706 -0.055973411
869675471.69811 0.99814188 -0.057007551 0.0015461436 0.028151192 0.0015422637 0.028293651 0.99733365 -0.056544274
879671698.11321 0.99806416 -0.057635032 0.0016002804 0.028432114 0.0015713436 0.02857946 0.99733883 -0.056995045
889667924.5283 0.99789083 -0.05846715 0.0016043968 0.028746191 0.001599933 0.028885949 0.99722159 -0.05749616
899664150.9434 0.99768162 -0.059131503 0.0016218349 0.029070921 0.0016368916 0.029200383 0.99725586 -0.058089167
909660377.35849 0.99768925 -0.059776321 0.0016538561 0.029372906 0.0016536932 0.029509176 0.99738234 -0.058967024
919656603.77358 0.99775755 -0.060431406 0.0016683349 0.029700497 0.0016470738 0.02983908 0.99739027 -0.05975756
929652830.18868 0.99772906 -0.061073303 0.0017101485 0.030023079 0.0017158482 0.030144803 0.99727511 -0.060637593
939649056.60377 0.9978717 -0.06168893 0.0017024232 0.030323301 0.001737996 0.030457543 0.99711823 -0.061330438
949645283.01887 0.99789435 -0.062546097 0.0017002111 0.030647535 0.0017356353 0.030810632 0.9968828 -0.061874438
959641509.43396 0.99775481 -0.063167751 0.0017380435 0.030982815 0.0017506313 0.031153649 0.99681699 -0.062387258
969637735.84906 0.99770337 -0.063924938 0.001786584 0.031324558 0.0018040808 0.031509794 0.99683738 -0.062758595
979633962.26415 0.99758822 -0.064578675 0.0018640179 0.031630818 0.0018874346 0.031783115 0.99689889 -0.063429475
989630188.67925 0.9976449 -0.065150648 0.0018826555 0.031943068 0.0018978966 0.032114659 0.99708235 -0.063948721
999626415.09434 0.99773377 -0.065727651 0.0019154353 0.032279938 0.0019057905 0.032442085 0.99697536 -0.06479764
1009622641.5094 0.99776798 -0.066310331 0.0019166893 0.032600641 0.0019692713 0.032780472 0.99685353 -0.065569833
1019618867.9245 0.9978314 -0.067154557 0.0019836673 0.032937359 0.0020332416 0.033067364 0.99662751 -0.066378683
1029615094.3396 0.9977662 -0.068054348 0.0020441301 0.033212557 0.002067673 0.033377901 0.99624997 -0.066955566
1039611320.7547 0.99784458 -0.068861902 0.0020670816 0.033530708 0.0020754244 0.033681534 0.99623978 -0.067613602
1049607547.1698 0.9977119 -0.069766298 0.0020946828 0.033802319 0.002103891 0.033993267 0.99624842 -0.068213664
1059603773.5849 0.99757957 -0.07048732 0.0021036705 0.034117002 0.0021505766 0.034304332 0.99621826 -0.068747908
1069600000 0.99741936 -0.071099967 0.002124751 0.03443924 0.002133199 0.034605987 0.99632561 -0.069481611
1079596226.4151 0.99734485 -0.07177183 0.0021209074 0.034745023 0.0021790424 0.034931105 0.99639314 -0.070194446
1089592452.8302 0.99745017 -0.072465777 0.0021783868 0.035090338 0.0021808492 0.035257597 0.99632257 -0.070991576
1099588679.2453 0.99747044 -0.073087066 0.0022007637 0.035402104 0.0021916497 0.035579398 0.99602318 -0.071582258
1109584905.6604 0.99761951 -0.073869959 0.0021933522 0.035732299 0.0022509489 0.035915643 0.99580348 -0.072140619
1119581132.0755 0.99749577 -0.074836686 0.0021995073 0.036064144 0.0022662324 0.036261991 0.99562949 -0.072470739
1129577358.4906 0.99732059 -0.075540751 0.0022532381 0.036419205 0.0022891089 0.036633205 0.99550259 -0.072971672
1139573584.9057 0.99716264 -0.076406717 0.0022849999 0.036765449 0.002390096 0.036921397 0.99561429 -0.073622644
1149569811.3208 0.99698263 -0.07719402 0.0023355533 0.037042722 0.002405223 0.037267379 0.99571562 -0.074327432
1159566037.7358 0.99680722 -0.077820152 0.0023782616 0.037355959 0.0024509989 0.037549645 0.99582422 -0.075265408
1169562264.1509 0.99664599 -0.078540206 0.0024049375 0.037662905 0.0024654511 0.037890539 0.99568534 -0.07607469
1179558490.566 0.99656349 -0.079337746 0.0023735496 0.038045313 0.0024625976 0.038229167 0.99553049 -0.076803714
1189554716.9811 0.99660146 -0.080096871 0.0024566315 0.038365144 0.0025567943 0.038569324 0.99519491 -0.077364177
1199550943.3962 0.99658406 -0.080972135 0.0024834014 0.038733497 0.0025864504 0.038881265 0.9951185 -0.077749074
1209547169.8113 0.99640381 -0.081772238 0.0025387984 0.039025027 0.0026061796 0.039205972 0.99501914 -0.078057334
1219543396.2264 0.996288 -0.082578957 0.0026009278 0.039417103 0.0026745908 0.039580062 0.99508613 -0.078506872
1229539622.6415 0.99597514 -0.083369434 0.0026131533 0.039725136 0.0027336162 0.03988326 0.99521589 -0.079154015
1239535849.0566 0.99567294 -0.0839881 0.0026876731 0.040025551 0.0028111329 0.040218417 0.99534708 -0.080023736
1249532075.4717 0.99544156 -0.08466886 0.0027424649 0.040341124 0.0028479735 0.040525533 0.99521273 -0.080846012
1259528301.8868 0.99526119 -0.085073203 0.0027836133 0.040675353 0.0029038489 0.040805694 0.99494737 -0.081704438
1269524528.3019 0.99505812 -0.085892588 0.0028484957 0.040967703 0.0029703779 0.041108944 0.99474734 -0.082329094
1279520754.717 0.99473745 -0.086572066 0.0028953196 0.04124387 0.0030211888 0.041412719 0.99447948 -0.082941063
1289516981.1321 0.99460554 -0.087434173 0.0029504783 0.041524351 0.0030284133 0.041683536 0.99461538 -0.083364576
1299513207.5472 0.99431682 -0.08825779 0.002933627 0.041855797 0.0030437782 0.042010579 0.99467421 -0.083750397
1309509433.9623 0.99387556 -0.088962421 0.0029360754 0.042165756 0.0030472875 0.042289525 0.99480891 -0.084475517
1319505660.3774 0.99352264 -0.089707434 0.0029417742 0.042502057 0.0030390304 0.04261202 0.99481845 -0.085092202
1329501886.7925 0.99325168 -0.090339094 0.0029732771 0.042789254 0.0030880589 0.042950042 0.99482536 -0.086102515
1339498113.2075 0.99298859 -0.090858281 0.0029778508 0.043130498 0.0030978434 0.043234076 0.99437344 -0.086733878
1349494339.6226 0.99278182 -0.091297552 0.0029841252 0.043441616 0.0030766162 0.043578964 0.99414033 -0.087349609
1359490566.0377 0.99273837 -0.091976255 0.0029566009 0.043822385 0.0030870289 0.043911196 0.99393189 -0.087831348
1369486792.4528 0.99251539 -0.092495412 0.0029865643 0.044171441 0.003067961 0.044270344 0.99376547 -0.088234782
1379483018.8679 0.99223 -0.09297359 0.003022098 0.044539843 0.0031006495 0.04461671 0.99374539 -0.088593133
1389479245.283 0.99184453 -0.093597174 0.0030644201 0.044902768 0.003117051 0.044984661 0.99376488 -0.089294553
1399475471.6981 0.99150717 -0.093888074 0.0031066593 0.045254886 0.0031292215 0.045316085 0.99387181 -0.089987695
1409471698.1132 0.99125171 -0.094365366 0.0031177432 0.045612007 0.0032010204 0.045691699 0.99389338 -0.09084148
1419467924.5283 0.99102366 -0.094704628 0.0031420803 0.045968968 0.0031908089 0.046059255 0.99376345 -0.091552019
1429464150.9434 0.99095631 -0.095090389 0.0031830221 0.046377636 0.0032363888 0.046468984 0.99359864 -0.092034936
1439460377.3585 0.99108469 -0.095539361 0.0032380968 0.046830907 0.0033056252 0.046898946 0.99340731 -0.092450202
1449456603.7736 0.99105561 -0.096012101 0.0033451635 0.047206141 0.0034001442 0.047265161 0.99325901 -0.092704222
1459452830.1887 0.99111056 -0.096734315 0.0034861974 0.047579221 0.0035267025 0.047691178 0.99341643 -0.093074292
1469449056.6038 0.99115735 -0.09736973 0.0036163256 0.047918528 0.0036576642 0.048005909 0.99358147 -0.093737513
1479445283.0189 0.99097371 -0.0979224 0.0037674524 0.048211947 0.0037694734 0.048333395 0.99375308 -0.094561353
1489441509.434 0.99087584 -0.098482788 0.0039033163 0.048540242 0.0039223582 0.048633531 0.99357021 -0.095422655
1499437735.8491 0.99075377 -0.098815858 0.0040104482 0.048766263 0.0040254407 0.048886519 0.99357355 -0.096202314
1509433962.2642 0.99078649 -0.099260241 0.004089287 0.049042922 0.0040648398 0.049129046 0.99332255 -0.096933067
1519430188.6792 0.99086255 -0.099894464 0.0041501615 0.049295418 0.0041635111 0.049403515 0.99325633 -0.09754774
1529426415.0943 0.9907968 -0.10053355 0.0042250995 0.04960642 0.0042060707 0.049692363 0.9931072 -0.098007649
1539422641.5094 0.99085301 -0.10128957 0.0042711231 0.049881663 0.0042625475 0.050024468 0.99323791 -0.098428443
1549418867.9245 0.99070251 -0.10219772 0.0043390626 0.050162204 0.0043058107 0.050291803 0.99339479 -0.099137798
1559415094.3396 0.99065697 -0.10271645 0.0043508895 0.050450787 0.0043389909 0.050579078 0.99360931 -0.099773109
1569411320.7547 0.99042046 -0.10350612 0.004391592 0.050725918 0.0043456815 0.050844472 0.99349493 -0.10054843
1579407547.1698 0.99043721 -0.10393496 0.0043668719 0.050974168 0.0043803426 0.051132202 0.99313176 -0.10138586
1589403773.5849 0.99034226 -0.10453111 0.0044097919 0.051279671 0.0043927711 0.051400512 0.99287653 -0.10209683
1599400000 0.99025929 -0.10496828 0.0044249557 0.051573232 0.0043866094 0.051704973 0.9925139 -0.10254231
1609396226.4151 0.99027824 -0.10566081 0.0044138404 0.051888417 0.0043730885 0.052012388 0.99240243 -0.10314043
1619392452.8302 0.99029464 -0.10621762 0.0043909531 0.052227125 0.0043780468 0.052361459 0.99234444 -0.103504
1629388679.2453 0.98998284 -0.10701793 0.004430322 0.052560873 0.0043861996 0.052735794 0.99258822 -0.10400814
1639384905.6604 0.98986834 -0.10757001 0.0044198851 0.052941993 0.0044076964 0.053112585 0.99274188 -0.10487075
1649381132.0755 0.9896639 -0.10825503 0.0044346023 0.053232986 0.004397165 0.053452838 0.99273258 -0.10580257
1659377358.4906 0.98949552 -0.10901466 0.0044600107 0.053635724 0.0044113845 0.0538247 0.99272597 -0.10662875
1669373584.9057 0.98939574 -0.10950565 0.0044741295 0.054018382 0.0044828951 0.054192483 0.99243402 -0.10734899
1679369811.3208 0.98946035 -0.11014697 0.0045240214 0.054372497 0.0045244731 0.054548722 0.99226981 -0.10786414
1689366037.7358 0.98946851 -0.11079705 0.0045697726 0.054763861 0.0045099072 0.054931916 0.99204242 -0.10811475
1699362264.1509 0.98956507 -0.11134595 0.0046517998 0.055070747 0.0045701284 0.055334646 0.99224001 -0.1085427
1709358490.566 0.98949122 -0.11195442 0.0046551106 0.055448357 0.0046052467 0.05564931 0.99224848 -0.10904273
1719354716.9811 0.98920023 -0.11257744 0.0047061387 0.055838268 0.0047109909 0.056049421 0.99235356 -0.10972393
