!Keysight Technologies,N5222B,MY61253708,A.15.00.15
!Date: Wednesday, June 19, 2024 09:51:52
!Correction: S11(C  2-Port  ) 
!S21(C  2-Port  ) 
!S12(C  2-Port  ) 
!S22(C  2-Port  ) 
!S2P File: Measurements: S11, S21, S12, S22:
# Hz S  RI   R 50
10000000 0.99854088 -0.0028757751 -0.00017568335 0.00022443818 0.00017682553 0.00057093572 0.99865437 -0.0013587475
19996226.415094 0.99920833 -0.0032628775 -2.4475215e-005 0.00086164265 7.6406868e-005 0.00064835884 0.99972266 -0.0035999119
29992452.830189 0.99965352 -0.0024578571 -1.4672638e-005 0.00095390069 -1.4974765e-005 0.0010101162 0.99941278 -0.0026676953
39988679.245283 1.0000309 -0.0029432476 -3.0766256e-005 0.0013458327 1.6640159e-005 0.0012970577 0.99963754 -0.003118068
49984905.660377 1.0001453 -0.0037096441 1.9104569e-005 0.0016648045 -3.1435629e-006 0.0016610953 0.99979842 -0.0036532581
59981132.075472 1.0004215 -0.004545182 1.2087694e-005 0.0019837504 1.0814518e-005 0.0020100074 0.99981368 -0.0042749941
69977358.490566 1.0002273 -0.0051244851 -1.3669556e-005 0.0023218472 4.22413e-007 0.0023037265 0.99966532 -0.0047692768
79973584.90566 0.99996781 -0.0057260096 -3.8924627e-006 0.0026526693 3.4840661e-005 0.0026721116 0.99929261 -0.005273819
89969811.320755 0.99994731 -0.0058188438 1.8441584e-005 0.0029668419 4.3965061e-005 0.0029646498 0.99960423 -0.0055701435
99966037.735849 1.0001687 -0.0065880567 4.4747721e-006 0.0032884944 8.8195084e-006 0.0033446702 0.99962765 -0.0063257068
109962264.15094 1.0002053 -0.007483229 3.2184995e-005 0.0036489929 1.7793791e-005 0.0036660961 0.99960119 -0.0071126521
119958490.56604 1.0002334 -0.0083420277 3.5885139e-005 0.0039773919 2.6127906e-005 0.00398971 0.99962449 -0.0080017447
129954716.98113 1.0001745 -0.0093187988 3.1658332e-005 0.0042914948 4.0423009e-005 0.0043208734 0.99965996 -0.0088503361
139950943.39623 1.000096 -0.010057366 2.7871618e-005 0.0046238252 4.3416134e-005 0.0046655978 0.99954683 -0.0095931124
149947169.81132 0.9999575 -0.010799438 5.7404162e-005 0.004957227 3.0403491e-005 0.0049928296 0.99952042 -0.010224253
159943396.22642 0.99991113 -0.01133889 5.5028358e-005 0.0052996539 5.8483332e-005 0.0053249374 0.99962497 -0.010701776
169939622.64151 0.99986899 -0.011720985 8.4060826e-005 0.005634476 5.6138029e-005 0.0056630061 0.9996323 -0.011152223
179935849.0566 0.99997264 -0.011954814 8.792046e-005 0.0059117009 7.1877846e-005 0.005969556 0.99955052 -0.011531264
189932075.4717 1.0001261 -0.012761533 0.00010085129 0.0062853741 6.5265689e-005 0.0063220849 0.99972647 -0.01207453
199928301.88679 1.0000136 -0.013578564 8.4519153e-005 0.006606645 0.00010486855 0.0066635101 0.99960256 -0.012930453
209924528.30189 0.99977165 -0.014157102 9.4708288e-005 0.0069415183 8.2925544e-005 0.0069861128 0.99939454 -0.013584554
219920754.71698 0.9998762 -0.015024602 0.00010822457 0.0072655082 0.0001226326 0.0073127551 0.99934238 -0.014210314
229916981.13208 0.99967921 -0.01583901 0.00012045447 0.0076404843 0.00013881759 0.0076630013 0.99930632 -0.015043914
239913207.54717 0.99955577 -0.016458118 0.00013042886 0.0079261437 0.00013449018 0.0079803495 0.99924564 -0.015800204
249909433.96226 0.9995898 -0.017131567 0.00013420405 0.0082534282 0.00012409361 0.0083173746 0.9993186 -0.016390502
259905660.37736 0.99966609 -0.017712712 0.00013012951 0.0086038532 0.00011221645 0.0086261593 0.99956179 -0.016942501
269901886.79245 0.9997353 -0.01837416 0.00016420393 0.008923348 0.0001274026 0.0089384252 0.99989712 -0.017630354
279898113.20755 0.99983108 -0.019101366 0.00016786833 0.0092062419 0.0002148326 0.0092719756 0.99973053 -0.018414572
289894339.62264 0.99978584 -0.019819796 0.00014946191 0.0096074147 0.00017230632 0.0096387453 0.99958658 -0.019189626
299890566.03774 0.99977559 -0.020289779 0.00018646801 0.0098984214 0.00019759289 0.0099953618 0.99933159 -0.019591033
309886792.45283 0.99961013 -0.020800516 0.0002120533 0.010294921 0.00018276297 0.010345207 0.99924946 -0.020068377
319883018.86792 0.99965549 -0.021419734 0.00022222847 0.01060872 0.00022998732 0.010643302 0.99937803 -0.020531446
329879245.28302 0.99976987 -0.022246182 0.00025485409 0.010896828 0.00026490353 0.010967263 0.99945849 -0.021305978
339875471.69811 0.99948221 -0.023000956 0.00025747344 0.011219228 0.00021414144 0.011274039 0.99936455 -0.022122242
349871698.11321 0.99968553 -0.023787022 0.00024978258 0.011559627 0.00026332936 0.011633045 0.99941856 -0.023004323
359867924.5283 0.99950033 -0.024565816 0.00027035363 0.011900573 0.00030513993 0.011975162 0.99932742 -0.023862123
369864150.9434 0.99970293 -0.025314808 0.00031717215 0.012246595 0.00032471563 0.012336919 0.99930382 -0.024560064
379860377.35849 0.99963826 -0.026026949 0.00030163513 0.012550594 0.00031639123 0.012627167 0.99926835 -0.025215864
389856603.77358 0.99948192 -0.02673018 0.00033077132 0.012901261 0.00032042339 0.01294731 0.99922246 -0.025670886
399852830.18868 0.99929261 -0.027299374 0.00036649173 0.013234051 0.00035893125 0.013276337 0.99932241 -0.026223153
409849056.60377 0.99923086 -0.02774393 0.00036597726 0.013538907 0.00037507038 0.013618696 0.99935275 -0.026667057
419845283.01887 0.99918509 -0.0281232 0.00038748421 0.013883194 0.00039077178 0.013957744 0.99934936 -0.02720961
429841509.43396 0.99933851 -0.028824806 0.00041468907 0.014199989 0.00040257908 0.014276918 0.99947596 -0.027970225
439837735.84906 0.99914271 -0.029705778 0.00043594476 0.014530728 0.00044312689 0.014588249 0.99933177 -0.028963938
449833962.26415 0.99892294 -0.030472934 0.00045103906 0.014831937 0.00046745175 0.014923932 0.99895763 -0.029738814
459830188.67925 0.99889147 -0.03113094 0.00044505391 0.015170721 0.00045970501 0.015234682 0.99876136 -0.030449957
469826415.09434 0.99878013 -0.031938851 0.00050334493 0.015517326 0.00045568775 0.015597059 0.99851447 -0.030999094
479822641.50943 0.99871039 -0.032425009 0.00048802095 0.015838489 0.00049664755 0.015976815 0.99857461 -0.031460375
489818867.92453 0.99880981 -0.033033371 0.00051005511 0.016171893 0.00051088817 0.016282793 0.99887443 -0.032068908
499815094.33962 0.99882597 -0.033670038 0.00054917578 0.016484372 0.00056119123 0.016604204 0.99908566 -0.032576144
509811320.75472 0.99890971 -0.033989787 0.00058657792 0.016819106 0.00061268336 0.016887305 0.99922591 -0.033379424
519807547.16981 0.99896693 -0.034523726 0.00056954566 0.017156627 0.00059132464 0.017250149 0.99925148 -0.034174263
529803773.58491 0.99888539 -0.035130382 0.00053817965 0.017458588 0.00057484303 0.01754996 0.99896741 -0.034712017
539800000 0.9989776 -0.035842329 0.00065209228 0.01780636 0.000609888 0.017927792 0.99878371 -0.035381258
549796226.41509 0.99882591 -0.036681563 0.00063559692 0.018177882 0.0006159367 0.018303046 0.99871969 -0.035948277
559792452.83019 0.99868989 -0.037285119 0.00062928721 0.018467475 0.00063885096 0.018585999 0.99860227 -0.036400616
569788679.24528 0.99855292 -0.037982881 0.00067419093 0.018783035 0.00068856636 0.018877704 0.99866027 -0.037145823
579784905.66038 0.99850947 -0.038595721 0.00066724035 0.019102387 0.00071457529 0.019227229 0.99882889 -0.037887067
589781132.07547 0.99863493 -0.039178967 0.00077277236 0.019471457 0.00074821897 0.019562511 0.99892086 -0.038758248
599777358.49057 0.99868137 -0.039893776 0.00079820491 0.019785894 0.00082942843 0.019944919 0.99892217 -0.039557904
609773584.90566 0.99886948 -0.040549688 0.00080420123 0.020121058 0.00083079608 0.020251967 0.99882644 -0.040339001
619769811.32075 0.99898875 -0.041271597 0.0008374122 0.020470912 0.0008393419 0.020580791 0.9987942 -0.040885836
629766037.73585 0.99880594 -0.041965991 0.00087682717 0.020718683 0.0008738935 0.020882845 0.99861324 -0.041425914
639762264.15094 0.99866927 -0.042576998 0.00093515916 0.021097228 0.0008856249 0.02118833 0.99843693 -0.041928619
649758490.56604 0.99862576 -0.043151721 0.00090465648 0.021412952 0.00090094982 0.021546392 0.99850821 -0.042364925
659754716.98113 0.99849284 -0.043697029 0.00091799628 0.021731099 0.00091903843 0.021850372 0.99857634 -0.042877167
669750943.39623 0.99845392 -0.044167042 0.00090108952 0.022100352 0.00090058893 0.022212859 0.99861038 -0.043698192
679747169.81132 0.9984408 -0.044887856 0.00096247881 0.022421138 0.00098475476 0.022588823 0.99851316 -0.044614591
689743396.22642 0.99859774 -0.045730144 0.0010505104 0.022767494 0.00099124759 0.022902999 0.99837184 -0.045492202
699739622.64151 0.99872148 -0.046493173 0.0010705851 0.023052964 0.0010973997 0.023217924 0.99835479 -0.046246499
709735849.0566 0.99867833 -0.047338232 0.0011328923 0.023390764 0.0011114228 0.023509275 0.99806684 -0.046882331
719732075.4717 0.99859554 -0.048147142 0.0011539264 0.023684198 0.0011173473 0.023843568 0.99815148 -0.047492772
729728301.88679 0.99848169 -0.048661262 0.0011494309 0.024006138 0.0011548502 0.024165209 0.99818677 -0.047975242
739724528.30189 0.99834722 -0.04931131 0.001238449 0.024327537 0.0011962433 0.024519913 0.99835628 -0.048671246
749720754.71698 0.99824512 -0.049853727 0.0012161341 0.024662692 0.001218427 0.024811156 0.998402 -0.049295202
759716981.13208 0.99832463 -0.050339639 0.0012740735 0.024969004 0.0012263702 0.025126651 0.99843657 -0.050084919
769713207.54717 0.99825501 -0.051078826 0.0012924708 0.02531448 0.0012761187 0.025460562 0.9981479 -0.050725877
779709433.96226 0.99840283 -0.051652804 0.0012969584 0.025649961 0.0013244095 0.025785508 0.99791932 -0.051344756
789705660.37736 0.99825585 -0.05256182 0.0013295254 0.025938306 0.0013300972 0.026098719 0.99774784 -0.052018911
799701886.79245 0.99821162 -0.053327829 0.001389388 0.026268523 0.0013681566 0.026421297 0.99759412 -0.052666754
809698113.20755 0.99813074 -0.053930834 0.001399057 0.026571244 0.0013881281 0.026771231 0.99763572 -0.053095251
819694339.62264 0.99796408 -0.054616809 0.0014642091 0.0268912 0.001432125 0.027078982 0.99769902 -0.053701371
829690566.03774 0.99795401 -0.055199802 0.0014708489 0.027216557 0.0014836518 0.027400509 0.99795759 -0.054598331
839686792.45283 0.9980005 -0.055628419 0.001492158 0.027520873 0.001512785 0.027743639 0.99800378 -0.055408388
849683018.86792 0.99806023 -0.056255296 0.0015202267 0.027863173 0.0015263013 0.028058564 0.99785715 -0.056163006
859679245.28302 0.99808222 -0.057004541 0.001542517 0.0281954 0.0015615905 0.028401665 0.99760973 -0.056818217
869675471.69811 0.99799383 -0.057772428 0.0015882393 0.028541772 0.0015862603 0.028718397 0.99729729 -0.057315886
879671698.11321 0.99792707 -0.058386393 0.0016464398 0.028830541 0.0016340388 0.029024847 0.99731332 -0.057749167
889667924.5283 0.99775141 -0.059156895 0.001646053 0.029122824 0.0016811164 0.029310318 0.99711061 -0.058249265
899664150.9434 0.99757385 -0.059945256 0.0016692467 0.029429909 0.001682085 0.029649209 0.99714267 -0.058928043
909660377.35849 0.99755096 -0.060587063 0.0017279754 0.029772278 0.0017077113 0.029959165 0.99731302 -0.059706599
919656603.77358 0.99759787 -0.061176434 0.0017261617 0.030117529 0.0017268625 0.030307207 0.99734485 -0.060565919
929652830.18868 0.99763107 -0.061846346 0.0017733471 0.030388352 0.0017765155 0.030629465 0.99718797 -0.061486036
939649056.60377 0.99779224 -0.062510431 0.0017759837 0.030729745 0.001776115 0.030897168 0.99700803 -0.062219709
949645283.01887 0.99776155 -0.063321427 0.0017583545 0.031059282 0.0017853085 0.031273615 0.99681067 -0.062716313
959641509.43396 0.99774778 -0.064061075 0.0018139118 0.031438589 0.0018374082 0.031608284 0.99675572 -0.063245088
969637735.84906 0.99765664 -0.064758092 0.0018469822 0.031752933 0.0018738378 0.031953573 0.99675119 -0.063585818
979633962.26415 0.99750149 -0.065488853 0.0018784758 0.032057814 0.0019245304 0.032263655 0.99674493 -0.064292908
989630188.67925 0.9975301 -0.065996975 0.0019568047 0.032385927 0.0019540964 0.032594703 0.99699831 -0.064854652
999626415.09434 0.99758637 -0.066623271 0.0019737389 0.032695241 0.0019876501 0.032942466 0.99691629 -0.065697312
1009622641.5094 0.99755245 -0.067210332 0.0019740053 0.033067163 0.0020195208 0.033278327 0.99678797 -0.066540197
1019618867.9245 0.99761206 -0.068008438 0.0020813174 0.033370439 0.0020863195 0.033598974 0.99651611 -0.067345664
1029615094.3396 0.99768388 -0.068942517 0.002115651 0.033687502 0.0021502012 0.033877444 0.99614954 -0.067854732
1039611320.7547 0.99770331 -0.069808304 0.0021648537 0.033964131 0.0021611918 0.034219161 0.99614108 -0.068514287
1049607547.1698 0.99749434 -0.070622832 0.002166627 0.034270432 0.0021879948 0.034508593 0.9960376 -0.069133028
1059603773.5849 0.9974184 -0.071417361 0.0021827426 0.034593523 0.0022177212 0.034835327 0.99609864 -0.069668442
1069600000 0.99725389 -0.072082609 0.002198521 0.03488306 0.0022472767 0.035156243 0.99618006 -0.070411861
1079596226.4151 0.9972055 -0.072753251 0.002225745 0.03520393 0.0022599204 0.03545497 0.9962033 -0.071159899
1089592452.8302 0.99726242 -0.073329031 0.0022389684 0.035537589 0.0023007151 0.035819247 0.99622518 -0.071899056
1099588679.2453 0.99734056 -0.074016273 0.0022480525 0.035872489 0.0022843406 0.036142077 0.99579769 -0.072499186
1109584905.6604 0.99740392 -0.074752286 0.0022586007 0.036214881 0.0023271646 0.036471862 0.99566615 -0.073066413
1119581132.0755 0.99735981 -0.075701252 0.0022953106 0.036590058 0.0023400197 0.036812719 0.9954235 -0.07345815
1129577358.4906 0.99721527 -0.076516628 0.0023248438 0.036921829 0.002371544 0.037156843 0.99537313 -0.073944539
1139573584.9057 0.99690998 -0.077381074 0.0023662951 0.037255503 0.0024304846 0.037514422 0.99542701 -0.074603081
1149569811.3208 0.99684894 -0.078200862 0.0024269421 0.037570409 0.0024959259 0.037819922 0.99555075 -0.075324066
1159566037.7358 0.99663049 -0.07889387 0.0024876967 0.037864551 0.0025188671 0.038100667 0.99562246 -0.076267779
1169562264.1509 0.99653614 -0.079593211 0.0024826489 0.038159214 0.0025220755 0.038428172 0.99548602 -0.077139586
1179558490.566 0.99643087 -0.080338806 0.0024883193 0.038555529 0.0025711921 0.038842477 0.99541682 -0.077806458
1189554716.9811 0.99647206 -0.081120998 0.0025209608 0.038882226 0.0026416285 0.039128382 0.99507898 -0.078388602
1199550943.3962 0.99633229 -0.081912339 0.0025461223 0.039232016 0.0026804265 0.03947049 0.99491 -0.078828812
1209547169.8113 0.99621421 -0.082773164 0.002589928 0.039588537 0.0027136635 0.03979836 0.99481797 -0.079118133
1219543396.2264 0.99598408 -0.083577767 0.002688814 0.039918706 0.0027629677 0.040159196 0.99494511 -0.079567373
1229539622.6415 0.99577272 -0.084382504 0.0027416926 0.040248878 0.0028456114 0.040501356 0.99506474 -0.080247074
1239535849.0566 0.99555051 -0.085020185 0.0027927933 0.040566098 0.0028687716 0.040782578 0.99516523 -0.081135154
1249532075.4717 0.99520254 -0.08565326 0.0028407671 0.04088486 0.0029569843 0.04113616 0.99496228 -0.081869781
1259528301.8868 0.99502409 -0.086164385 0.0028854981 0.0412152 0.0029879082 0.041429464 0.99474543 -0.082721591
1269524528.3019 0.9948411 -0.086907774 0.0029555839 0.041516591 0.0030864142 0.041740581 0.99459791 -0.083432019
1279520754.717 0.99450099 -0.087617733 0.0029957837 0.041823529 0.0031388397 0.041999068 0.99432617 -0.084027611
1289516981.1321 0.99438673 -0.088473022 0.0030226419 0.042106997 0.0031320741 0.042280909 0.99432009 -0.084431767
1299513207.5472 0.9940275 -0.089355797 0.0030325111 0.04243147 0.0031435508 0.042626783 0.99448621 -0.084876478
1309509433.9623 0.99360871 -0.09008497 0.0030369721 0.042704016 0.003141473 0.042944629 0.9946292 -0.085574016
1319505660.3774 0.9932676 -0.090783492 0.0030303383 0.043045864 0.0031701354 0.043204114 0.99461675 -0.086218581
1329501886.7925 0.99301219 -0.091400236 0.0030544531 0.043367989 0.0031890813 0.043537252 0.99455655 -0.087212056
1339498113.2075 0.99270064 -0.091870844 0.0031148782 0.043681718 0.0032108044 0.043896884 0.99420553 -0.087917984
1349494339.6226 0.99261695 -0.092490628 0.0030631921 0.044050906 0.0032159211 0.044214029 0.99386197 -0.088427298
1359490566.0377 0.99239028 -0.092972428 0.0030893963 0.044379566 0.0032009836 0.044577051 0.99365151 -0.089029968
1369486792.4528 0.99220347 -0.093443662 0.0030677244 0.04476954 0.0031929417 0.044924613 0.99351275 -0.08947733
1379483018.8679 0.9919253 -0.094043843 0.0031207849 0.045118276 0.0032032859 0.045290221 0.99349904 -0.089789256
1389479245.283 0.99154431 -0.094583929 0.0031790547 0.045483917 0.0032613315 0.045655057 0.99344683 -0.090443105
1399475471.6981 0.99114698 -0.094958693 0.0032002069 0.04582851 0.0032766536 0.045994133 0.99367702 -0.091208696
1409471698.1132 0.99095225 -0.095515378 0.0032242057 0.04623235 0.0033369951 0.046422128 0.99364448 -0.092000537
1419467924.5283 0.99072397 -0.095773488 0.0032431567 0.046570003 0.0033435831 0.046767835 0.99348372 -0.092723429
1429464150.9434 0.99056375 -0.096171826 0.0033055656 0.0469971 0.0033576451 0.047161706 0.99341977 -0.093212545
1439460377.3585 0.99072623 -0.09660022 0.0033738352 0.047435369 0.0034570536 0.047576994 0.99318129 -0.093615875
1449456603.7736 0.99076062 -0.097131431 0.0034725778 0.04781168 0.0035249051 0.047974836 0.99300146 -0.093968466
1459452830.1887 0.99074912 -0.097739547 0.0036187563 0.048210941 0.0036259908 0.048358027 0.99314642 -0.094233483
1469449056.6038 0.99082804 -0.098473519 0.0037999982 0.048533119 0.003834039 0.048732903 0.99334008 -0.094916403
1479445283.0189 0.99062049 -0.099103704 0.0038974488 0.048808701 0.0038964783 0.049014721 0.9934445 -0.095731102
1489441509.434 0.99055862 -0.099620581 0.0040030722 0.049126111 0.0040322803 0.049292579 0.99330366 -0.096582144
1499437735.8491 0.99041587 -0.099930435 0.0041539967 0.049423553 0.004179636 0.049599528 0.99324238 -0.097392648
1509433962.2642 0.9904328 -0.10046916 0.0042218552 0.049696762 0.004211965 0.049876396 0.99307764 -0.098168686
1519430188.6792 0.99057817 -0.10101518 0.0042673666 0.049945798 0.0042954329 0.05014886 0.99288106 -0.098703176
1529426415.0943 0.99047494 -0.1017442 0.004336305 0.050240703 0.0043301266 0.050403386 0.99277502 -0.099165916
1539422641.5094 0.99055511 -0.10246816 0.0043668463 0.050539196 0.0043736501 0.050739344 0.99291748 -0.099697143
1549418867.9245 0.99032176 -0.10320185 0.0044705588 0.050843999 0.0044909827 0.051024117 0.99313229 -0.10039791
1559415094.3396 0.99025702 -0.1038799 0.0044869315 0.05111482 0.0044640321 0.051320352 0.99319047 -0.10102162
1569411320.7547 0.99011457 -0.10469308 0.0045594368 0.051376265 0.004523823 0.051595766 0.99311692 -0.10184175
1579407547.1698 0.99014282 -0.10514042 0.0045373002 0.051649328 0.0045367852 0.051893912 0.99277425 -0.10261062
1589403773.5849 0.99009061 -0.10567081 0.0045722723 0.051945087 0.0045432672 0.052209802 0.99266261 -0.1033743
1599400000 0.99000669 -0.10617712 0.0045621824 0.052249067 0.0045141764 0.052482884 0.99224913 -0.10378173
1609396226.4151 0.98992652 -0.10684747 0.0045678904 0.05257247 0.0045195553 0.0528147 0.99205047 -0.10427238
1619392452.8302 0.98991621 -0.10744509 0.0045634266 0.052953303 0.0045455638 0.053129859 0.9920072 -0.10477936
1629388679.2453 0.98974615 -0.10812286 0.0045947041 0.053240191 0.0045302454 0.053496294 0.99222428 -0.10522765
1639384905.6604 0.98947632 -0.10879046 0.0045665759 0.053581029 0.0045258771 0.05389192 0.99235791 -0.10612157
1649381132.0755 0.98932552 -0.10946986 0.0045819562 0.053983226 0.004546592 0.054234035 0.99240601 -0.10703865
1659377358.4906 0.98913372 -0.11025479 0.0046066381 0.054306418 0.0045975093 0.054589994 0.99246854 -0.1079205
1669373584.9057 0.98909074 -0.11067889 0.0046242545 0.054690272 0.0046130023 0.05498055 0.99215215 -0.10852028
1679369811.3208 0.98908651 -0.11136791 0.0046660006 0.05511095 0.0046718111 0.055369623 0.99185866 -0.10914627
1689366037.7358 0.98914886 -0.11208081 0.0047406722 0.055459835 0.0046847742 0.055755205 0.99171436 -0.10935754
1699362264.1509 0.98923463 -0.112498 0.0047938572 0.055821549 0.0047453074 0.056139141 0.99188828 -0.10988419
1709358490.566 0.98916221 -0.11318082 0.0048176097 0.056171924 0.0048353169 0.056488182 0.99194509 -0.11037996
1719354716.9811 0.98877275 -0.11376601 0.0048972238 0.056594782 0.0049123857 0.056863725 0.99202478 -0.11101562
