!Keysight Technologies,N5222B,MY61253708,A.15.00.15
!Date: Wednesday, June 19, 2024 10:11:59
!Correction: S11(C  2-Port  ) 
!S21(C  2-Port  ) 
!S12(C  2-Port  ) 
!S22(C  2-Port  ) 
!S2P File: Measurements: S11, S21, S12, S22:
# Hz S  RI   R 50
10000000 0.99847764 -0.0027865767 0.00024929721 0.0005008147 6.6638604e-006 0.00016660642 0.9985863 -0.0018193722
19996226.415094 1.0001913 -0.0025684237 0.00012283173 0.00062582758 0.00011792587 0.00070251315 1.0002738 -0.0024631917
29992452.830189 0.99979144 -0.0024342537 -9.8423916e-006 0.00097407278 -2.3160683e-005 0.0010144095 0.99939185 -0.00274387
39988679.245283 1.0000914 -0.0029833615 -1.5780446e-005 0.0013205943 -3.5609453e-005 0.0013246146 0.9996832 -0.0031003505
49984905.660377 1.0002158 -0.0036362708 1.542049e-005 0.0016705557 -1.8120569e-005 0.0016081273 0.99986786 -0.00363186
59981132.075472 1.0004264 -0.0044300258 4.7317415e-005 0.0019697661 5.6712306e-006 0.0019595444 0.99987203 -0.0042209327
69977358.490566 1.0002942 -0.0050236043 1.7050428e-005 0.0022660375 2.997744e-005 0.0022280593 0.99974257 -0.0047686622
79973584.90566 1.0000114 -0.0056209862 1.1056894e-005 0.0025993602 -8.6519867e-007 0.0026349891 0.99938178 -0.0052525103
89969811.320755 1.0000246 -0.005682528 3.3636461e-005 0.0029219203 3.0448777e-005 0.0029229408 0.99964428 -0.0054447651
99966037.735849 1.0002623 -0.0064778775 2.0225765e-005 0.0032866318 -4.1711028e-006 0.0033212956 0.99970269 -0.006227687
109962264.15094 1.0002853 -0.0073051304 2.4919864e-005 0.0035857961 2.142688e-005 0.0035920301 0.99970287 -0.0070526898
119958490.56604 1.0003017 -0.0081878304 4.2954925e-005 0.0039138398 2.6555848e-005 0.0039488417 0.99973983 -0.0078679919
129954716.98113 1.0002333 -0.009162724 4.8331451e-005 0.0042348341 4.1165156e-005 0.0042594569 0.99972045 -0.0087210238
139950943.39623 1.0001756 -0.0099518839 6.1388615e-005 0.0045764539 6.1595703e-005 0.0045925765 0.99962461 -0.0094405189
149947169.81132 1.0000428 -0.010588259 5.11955e-005 0.0049027912 5.3567346e-005 0.0049241642 0.99959254 -0.010071397
159943396.22642 1.0000304 -0.011171103 6.1901286e-005 0.0052461377 6.7526707e-005 0.0052364436 0.99965888 -0.010557294
169939622.64151 0.99998182 -0.011549786 6.1050931e-005 0.0055414406 5.6959107e-005 0.0055758636 0.99971455 -0.010997646
179935849.0566 1.0000672 -0.011783749 7.0457463e-005 0.005866074 6.4341817e-005 0.0059106429 0.99956632 -0.011378616
189932075.4717 1.0001272 -0.012562007 6.7991903e-005 0.0061987261 8.5307984e-005 0.0062357788 0.99980175 -0.011885822
199928301.88679 1.0001051 -0.01340574 7.7426434e-005 0.0065203267 8.0239493e-005 0.0065781879 0.99967045 -0.012767404
209924528.30189 0.99984157 -0.013976902 7.352361e-005 0.0068469583 8.010515e-005 0.0068934942 0.99946219 -0.013356373
219920754.71698 1.0000405 -0.014741957 0.00010546902 0.0071696234 8.5482839e-005 0.0072237039 0.99940467 -0.01397568
229916981.13208 0.99977577 -0.015593976 0.00011583697 0.0075082951 0.00011754059 0.0075420812 0.99942923 -0.01480642
239913207.54717 0.99967259 -0.016224198 0.00010386792 0.007834523 0.00012323122 0.0078904713 0.99934345 -0.015566997
249909433.96226 0.99969816 -0.016868979 0.00012847595 0.0081552975 0.00014459458 0.008188976 0.99941564 -0.016145259
259905660.37736 0.99982011 -0.017386466 0.00013916427 0.0084878989 0.00013314979 0.0085680503 0.99958158 -0.016712129
269901886.79245 0.99986118 -0.018145114 0.00016076828 0.0088217845 0.0001544652 0.0088631697 0.99996096 -0.017371565
279898113.20755 1.0000061 -0.018706664 0.00015084958 0.0091529395 0.00017990125 0.009154533 0.99983627 -0.018089697
289894339.62264 0.99994975 -0.019444853 0.00020552613 0.0094761457 0.00013309065 0.0095255319 0.99965715 -0.018942326
299890566.03774 0.99989021 -0.020059705 0.00020024111 0.0097784745 0.0001845574 0.0097919814 0.99944675 -0.0193941
309886792.45283 0.99973702 -0.020503134 0.00019261695 0.010111861 0.00021165574 0.010185882 0.99934393 -0.019770101
319883018.86792 0.9998219 -0.021103442 0.00019796565 0.0104528 0.0001980844 0.010480251 0.99951643 -0.02020207
329879245.28302 0.99973595 -0.021940321 0.00024469988 0.01077589 0.00024797721 0.010835137 0.99961472 -0.021030754
339875471.69811 0.99976104 -0.022691324 0.00023530144 0.011113551 0.00022216607 0.011149756 0.99949539 -0.021779217
349871698.11321 0.99976736 -0.023512334 0.00026195846 0.011393115 0.00026479154 0.011476805 0.9995054 -0.022687763
359867924.5283 0.99968433 -0.024316639 0.00029720552 0.011784846 0.00032537431 0.011820707 0.99943948 -0.023636192
369864150.9434 0.99981928 -0.025010079 0.0003057071 0.012052959 0.00028402568 0.012133908 0.9994083 -0.024283797
379860377.35849 0.99973613 -0.025778696 0.00033007399 0.012403572 0.00033228728 0.012464242 0.99933785 -0.024925545
389856603.77358 0.99962199 -0.02640751 0.00033764867 0.012709545 0.00034037512 0.012783524 0.99936497 -0.025335699
399852830.18868 0.99937797 -0.026975989 0.00034825504 0.013036205 0.0003481009 0.01309501 0.99947262 -0.025894284
409849056.60377 0.9993068 -0.027529182 0.00034295436 0.013341964 0.00036201518 0.01345266 0.99937522 -0.026404828
419845283.01887 0.99920332 -0.027862281 0.0003642072 0.013672519 0.00039889198 0.013799149 0.99941176 -0.026945829
429841509.43396 0.99939561 -0.028526634 0.00037156139 0.014029533 0.00039965566 0.014084158 0.99962068 -0.027708054
439837735.84906 0.99918818 -0.029442325 0.00043195614 0.014334945 0.00045576645 0.014403823 0.99934477 -0.028623953
449833962.26415 0.99898386 -0.030270517 0.00042198831 0.014637833 0.0004325388 0.014710413 0.99888718 -0.029414982
459830188.67925 0.99888319 -0.030860782 0.00044746185 0.014986018 0.00043575745 0.015030589 0.99873084 -0.030041158
469826415.09434 0.99880183 -0.031582475 0.00049398839 0.015311314 0.00044965558 0.015393192 0.99852723 -0.030644268
479822641.50943 0.99869215 -0.032073885 0.00050874322 0.015621057 0.00045587216 0.015715197 0.9985438 -0.031093866
489818867.92453 0.99873018 -0.032535613 0.00048803724 0.01596651 0.00051803421 0.016062362 0.99888265 -0.031602293
499815094.33962 0.99884284 -0.033179551 0.00054962467 0.016295921 0.0005439138 0.016359599 0.99910873 -0.032237351
509811320.75472 0.99890751 -0.03355274 0.00054789049 0.0166097 0.00054502563 0.016698336 0.99917305 -0.033034552
519807547.16981 0.99891442 -0.034121215 0.00056067901 0.016918031 0.00055916514 0.017004268 0.99911344 -0.033713281
529803773.58491 0.99893612 -0.034568071 0.00058265217 0.017269375 0.00055625942 0.017357389 0.99900317 -0.034286499
539800000 0.99895716 -0.035269573 0.00064328266 0.017587753 0.00057419809 0.017686408 0.99884051 -0.034874365
549796226.41509 0.99887365 -0.036013156 0.00060945377 0.01791957 0.00059559382 0.01794561 0.99867117 -0.035347939
559792452.83019 0.9987309 -0.036802173 0.00062585343 0.018243145 0.0006175153 0.018291378 0.99865848 -0.035800964
569788679.24528 0.9985556 -0.037447482 0.00068381894 0.018548461 0.00064693531 0.018634172 0.99880785 -0.036612868
579784905.66038 0.99854892 -0.037956193 0.00069829321 0.018874848 0.00069726142 0.018980045 0.99891096 -0.03731741
589781132.07547 0.99866378 -0.038563818 0.00074492861 0.01919964 0.00072753523 0.019312214 0.99896979 -0.038165569
599777358.49057 0.99879032 -0.039197385 0.00076870341 0.01956304 0.00074380357 0.019627027 0.99903125 -0.038943648
609773584.90566 0.99894679 -0.039976552 0.00081674755 0.019863242 0.00079935667 0.019970536 0.99888593 -0.039814606
619769811.32075 0.99899638 -0.040656358 0.00080687273 0.020184778 0.00085276784 0.020294914 0.99884844 -0.040368527
629766037.73585 0.99892163 -0.041281015 0.00084636267 0.020520221 0.00084755942 0.02059924 0.99871659 -0.040952861
639762264.15094 0.99881315 -0.041981906 0.00087786047 0.02081215 0.00085834623 0.020874158 0.99855131 -0.041330367
649758490.56604 0.99866289 -0.042578459 0.00089065917 0.021109 0.00086594187 0.021215148 0.99860108 -0.041739389
659754716.98113 0.99851006 -0.043030053 0.00091108866 0.021436684 0.00089264475 0.021570075 0.99864602 -0.042319983
669750943.39623 0.99862474 -0.043536663 0.00087694777 0.021797266 0.00088060321 0.021913566 0.99875277 -0.043102592
679747169.81132 0.99858832 -0.044255361 0.00093185762 0.022139566 0.00098341273 0.022265907 0.99869806 -0.04402782
689743396.22642 0.99872655 -0.045060277 0.00099881459 0.022457439 0.0009943042 0.022560954 0.9985559 -0.044972062
699739622.64151 0.99882632 -0.045809537 0.0010546604 0.022799324 0.0010395497 0.022892348 0.9984985 -0.04561916
709735849.0566 0.99878639 -0.046765022 0.0011166421 0.023116773 0.0010499058 0.023179844 0.99817336 -0.046242215
719732075.4717 0.99870032 -0.04745701 0.0010992736 0.023398789 0.0010887277 0.023513215 0.99831766 -0.046868265
729728301.88679 0.9985671 -0.047999233 0.0011102809 0.023711268 0.001122673 0.023817688 0.99837232 -0.047280431
739724528.30189 0.99847257 -0.048664317 0.0011480437 0.024030345 0.0011552158 0.024142457 0.99850994 -0.047996253
749720754.71698 0.99844801 -0.049234852 0.0012043607 0.024348713 0.0011868021 0.024470445 0.99849427 -0.048702911
759716981.13208 0.99846613 -0.049664527 0.0012098765 0.024679756 0.0012009079 0.024788257 0.99850583 -0.0493505
769713207.54717 0.99831754 -0.050396681 0.0012612492 0.024993911 0.0012442218 0.025100851 0.99828011 -0.050103009
779709433.96226 0.99852043 -0.051038485 0.0013013652 0.025298389 0.0012774382 0.025420003 0.99799287 -0.050758336
789705660.37736 0.99838644 -0.05190143 0.0013183719 0.02564488 0.0013107788 0.025765572 0.99779379 -0.051487386
799701886.79245 0.99832726 -0.052679181 0.0013449928 0.025904624 0.0013311571 0.026046548 0.99763602 -0.051992565
809698113.20755 0.99825877 -0.053303957 0.0013813218 0.026244469 0.001370775 0.026376773 0.9977116 -0.052430481
819694339.62264 0.99805176 -0.053893685 0.0013910588 0.026584525 0.0013912129 0.02666809 0.99779445 -0.053026795
829690566.03774 0.99801242 -0.054492921 0.0014227321 0.026858782 0.0014234986 0.027014779 0.99801719 -0.053911477
839686792.45283 0.99809766 -0.055029601 0.0014220341 0.027191568 0.0014559324 0.027332058 0.99806368 -0.054735512
849683018.86792 0.99813616 -0.05560416 0.0014745982 0.0275391 0.0014843352 0.027674709 0.99791163 -0.055472165
859679245.28302 0.99815786 -0.056301564 0.0014757337 0.027847905 0.0014915252 0.027964275 0.99766356 -0.056134194
869675471.69811 0.99811298 -0.057075679 0.0015391577 0.028179085 0.0015407577 0.0283146 0.9973796 -0.05660668
879671698.11321 0.99802065 -0.057652812 0.0015679116 0.028459443 0.0015690513 0.028605135 0.99738413 -0.057074554
889667924.5283 0.99783128 -0.058435619 0.001624817 0.028758438 0.0016319305 0.02891255 0.99719828 -0.057518333
899664150.9434 0.99765366 -0.059171617 0.0016300399 0.029105423 0.0016192589 0.02923061 0.9972837 -0.058066666
909660377.35849 0.99764109 -0.059728861 0.0016525895 0.029401958 0.0016756272 0.029536448 0.99738163 -0.058976904
919656603.77358 0.99773425 -0.060355708 0.0016640802 0.029726962 0.0016754502 0.02986268 0.99739784 -0.059821576
929652830.18868 0.99776065 -0.061128467 0.001725845 0.030052342 0.001736003 0.030166537 0.99723297 -0.060708284
939649056.60377 0.99790519 -0.061683536 0.0017239638 0.030351341 0.0017332565 0.030498836 0.9971177 -0.061383992
949645283.01887 0.99794251 -0.06260743 0.0017143417 0.030675046 0.0017159161 0.030828642 0.99686831 -0.061964355
959641509.43396 0.9978227 -0.063254416 0.0017446037 0.031029744 0.0017801598 0.031190373 0.99679023 -0.062464952
969637735.84906 0.99770272 -0.063947529 0.0018119467 0.031342845 0.0018138038 0.031524181 0.99686301 -0.062746465
979633962.26415 0.99763656 -0.064650841 0.0018693921 0.031625848 0.0018699346 0.031827059 0.99688482 -0.063384362
989630188.67925 0.99769086 -0.065161824 0.0018875618 0.03198804 0.0019006357 0.032138076 0.99706334 -0.064016581
999626415.09434 0.99777532 -0.065762818 0.0019183354 0.032277741 0.0019234009 0.032464176 0.99702436 -0.064835638
1009622641.5094 0.99772799 -0.066274568 0.0019262093 0.032621995 0.0019740751 0.032814302 0.9969278 -0.065668538
1019618867.9245 0.9978115 -0.067160726 0.0019923509 0.032954123 0.0020355703 0.033107065 0.9966355 -0.066435546
1029615094.3396 0.99779481 -0.06804356 0.0020458894 0.033254176 0.0020844741 0.033437036 0.99630213 -0.067025304
1039611320.7547 0.99778718 -0.068936288 0.0020720512 0.033564694 0.0020942967 0.033722471 0.99620855 -0.067712754
1049607547.1698 0.99771833 -0.069766589 0.002117767 0.033835977 0.0021388717 0.034045119 0.99621564 -0.068259552
1059603773.5849 0.99760568 -0.070473015 0.002149391 0.034147304 0.0021474753 0.034332041 0.99620056 -0.068796992
1069600000 0.99744397 -0.071179092 0.0021367343 0.034470577 0.002165298 0.034639854 0.99632841 -0.069457233
1079596226.4151 0.99728549 -0.071805328 0.0021419749 0.034755509 0.0021994691 0.034972258 0.99637014 -0.070280775
1089592452.8302 0.99739242 -0.072487086 0.0021758219 0.035134971 0.0022010636 0.035299566 0.99633563 -0.070982426
1099588679.2453 0.99749196 -0.073083222 0.0021665879 0.035433941 0.0022341572 0.035610311 0.99606001 -0.071609288
1109584905.6604 0.99759656 -0.073888779 0.0022019595 0.035766043 0.0022447109 0.035941828 0.99579751 -0.072233066
1119581132.0755 0.99761349 -0.074930117 0.0022257562 0.036095589 0.0022574672 0.036281392 0.99560952 -0.072583213
1129577358.4906 0.99735522 -0.075597823 0.0022429656 0.036458425 0.0023164898 0.0366368 0.99547827 -0.07295984
1139573584.9057 0.9971168 -0.076424956 0.0022950955 0.0367731 0.0023541572 0.036969803 0.99558723 -0.073640883
1149569811.3208 0.9970175 -0.07725969 0.0023387671 0.037100021 0.0024085653 0.037290234 0.99572003 -0.074383065
1159566037.7358 0.99683166 -0.077915221 0.0023866799 0.037412342 0.0024532266 0.037606362 0.99583304 -0.075338185
1169562264.1509 0.99671876 -0.078623384 0.0024025869 0.037709679 0.0024497584 0.037918147 0.99567175 -0.076170236
1179558490.566 0.99663395 -0.079354331 0.0023976907 0.038090587 0.0025004696 0.038248729 0.99554873 -0.076846033
1189554716.9811 0.99661815 -0.080083519 0.0024520913 0.038400348 0.0025784792 0.038620457 0.99528164 -0.077413648
1199550943.3962 0.99657822 -0.080902398 0.0024851337 0.038753614 0.0025670156 0.038943999 0.99508184 -0.077856809
1209547169.8113 0.99642557 -0.081779227 0.0025217896 0.039072968 0.0026109722 0.039227709 0.99503314 -0.078156412
1219543396.2264 0.99624819 -0.082559258 0.0025767079 0.039454229 0.00262501 0.039615471 0.99513501 -0.078539371
1229539622.6415 0.99603248 -0.083434761 0.0026271436 0.039740987 0.0027177874 0.039943986 0.99525201 -0.079271913
1239535849.0566 0.99574566 -0.083979338 0.0026963409 0.040062554 0.0027826279 0.040258542 0.9953444 -0.080084503
1249532075.4717 0.99537826 -0.084625266 0.0027373054 0.040347226 0.0028560131 0.040562525 0.99523836 -0.080867738
1259528301.8868 0.99521595 -0.085136354 0.0028086454 0.040707704 0.0029208045 0.040864341 0.99494672 -0.081683099
1269524528.3019 0.99505955 -0.08586657 0.0028581452 0.041016344 0.0029820465 0.041166175 0.9947651 -0.082436681
1279520754.717 0.99469048 -0.086660922 0.0029181566 0.041295871 0.0030357251 0.041399453 0.99446213 -0.082955025
1289516981.1321 0.99465978 -0.08742398 0.0029188665 0.041578587 0.0030332431 0.041721087 0.99455446 -0.083409816
1299513207.5472 0.99425924 -0.088347584 0.0029463861 0.041893814 0.0030471105 0.042036273 0.99465257 -0.083809704
1309509433.9623 0.99382007 -0.089005679 0.002954633 0.042184919 0.0030538682 0.042330015 0.99478042 -0.084571511
1319505660.3774 0.99359596 -0.089710474 0.002951052 0.042521946 0.0030732881 0.042652033 0.99481839 -0.085141629
1329501886.7925 0.99324954 -0.090403616 0.0029857624 0.042842038 0.0030986555 0.042977087 0.9948597 -0.086143166
1339498113.2075 0.99299121 -0.09082526 0.0029974505 0.043155413 0.0031143278 0.043282833 0.99440622 -0.086792111
1349494339.6226 0.99279237 -0.091414049 0.002993396 0.043489121 0.0030693263 0.04358666 0.99407446 -0.087360159
1359490566.0377 0.99271333 -0.091970623 0.0029838886 0.043825656 0.0030892324 0.043971084 0.99390602 -0.087959617
1369486792.4528 0.9924978 -0.092458963 0.0029898155 0.044193733 0.0031054001 0.044314183 0.99375051 -0.08839491
1379483018.8679 0.99223685 -0.093067065 0.0030347332 0.044560697 0.003097675 0.044643924 0.99375314 -0.088664904
1389479245.283 0.99186945 -0.093586832 0.0030554421 0.044944983 0.0031395946 0.04502387 0.99367911 -0.089363039
1399475471.6981 0.99147308 -0.093991965 0.0031044427 0.045269139 0.0031470899 0.04537636 0.99391556 -0.090058744
1409471698.1132 0.99125695 -0.094384111 0.0031275072 0.045661401 0.0031943978 0.045746796 0.99389166 -0.090841964
1419467924.5283 0.99105656 -0.094691277 0.0031492962 0.046049729 0.0031849686 0.04612384 0.99373651 -0.091571122
1429464150.9434 0.99091935 -0.095117956 0.003188014 0.046431661 0.0032065362 0.046490684 0.99366724 -0.09213239
1439460377.3585 0.99106318 -0.095573261 0.0032574832 0.04682494 0.0032968177 0.046915211 0.99338734 -0.092425406
1449456603.7736 0.99114639 -0.096058741 0.0033619804 0.04725147 0.0033969851 0.047291115 0.99326992 -0.092862681
1459452830.1887 0.9910897 -0.096783787 0.0034828149 0.047624163 0.0035128798 0.047739089 0.99338937 -0.093167484
1469449056.6038 0.99113864 -0.097359776 0.0036546905 0.047961485 0.0036463058 0.048067436 0.99356788 -0.093725055
1479445283.0189 0.99103308 -0.097932577 0.0037568302 0.048218634 0.0037916426 0.048366975 0.9937129 -0.094655402
1489441509.434 0.99092251 -0.098452866 0.0038997401 0.048564371 0.0039308574 0.048671998 0.99361449 -0.095482081
1499437735.8491 0.99072254 -0.098828882 0.0040070713 0.048833679 0.0040489323 0.048931692 0.99352765 -0.096271008
1509433962.2642 0.99073052 -0.099389434 0.004067109 0.049080253 0.0040803244 0.049199291 0.99338883 -0.097000338
1519430188.6792 0.99087077 -0.099945217 0.0041581392 0.049326595 0.0041770134 0.049478151 0.9931699 -0.097565323
1529426415.0943 0.99083304 -0.10056439 0.0041894726 0.049620658 0.0042054988 0.049747653 0.99305594 -0.097997069
1539422641.5094 0.9908216 -0.1013276 0.0042545632 0.049940344 0.004280834 0.050041456 0.99312013 -0.098524742
1549418867.9245 0.99069464 -0.10213624 0.0043051662 0.05019328 0.0043014437 0.050320968 0.99337536 -0.099226668
1559415094.3396 0.99050796 -0.10281435 0.0043735765 0.050471049 0.0043196827 0.050618201 0.99351221 -0.09986499
1569411320.7547 0.9903807 -0.10351193 0.0043676859 0.050781064 0.0043824548 0.050913971 0.99343717 -0.10062523
1579407547.1698 0.9903478 -0.10396716 0.0044305227 0.051022995 0.0043866099 0.051171951 0.99311894 -0.1014916
1589403773.5849 0.99033165 -0.10453945 0.0044600181 0.05132895 0.004397193 0.051484745 0.99295211 -0.10218942
1599400000 0.99028939 -0.1050992 0.0044107279 0.051622204 0.0044033891 0.051769853 0.99253762 -0.10264796
1609396226.4151 0.99023163 -0.10575397 0.0044012801 0.051924005 0.0043992596 0.052064139 0.9923318 -0.10314194
1619392452.8302 0.99022985 -0.10623959 0.0044341441 0.052295182 0.0043869819 0.052411623 0.99235171 -0.10354337
1629388679.2453 0.99003047 -0.10696638 0.0044269431 0.052618906 0.0043807905 0.052775986 0.99247772 -0.10415551
1639384905.6604 0.98983622 -0.10763771 0.0044144215 0.052993909 0.0043685823 0.053137932 0.99275917 -0.10486705
1649381132.0755 0.9896543 -0.10831171 0.0044595692 0.053275779 0.0044099074 0.053495016 0.99270463 -0.10581285
1659377358.4906 0.98948139 -0.10907179 0.0044671241 0.053652145 0.0044475291 0.053849109 0.99268663 -0.10669968
1669373584.9057 0.98947209 -0.1094331 0.0044745943 0.054026093 0.0044626486 0.054204535 0.99236864 -0.10737099
1679369811.3208 0.98953199 -0.11019656 0.0044996943 0.054434158 0.004494857 0.054615267 0.99217552 -0.10785216
1689366037.7358 0.98944354 -0.11079511 0.0046057235 0.054809764 0.0045200065 0.054959901 0.99202585 -0.10819483
1699362264.1509 0.98965657 -0.11130977 0.0046452535 0.055174146 0.0045948308 0.055370856 0.99220341 -0.10865536
1709358490.566 0.98950434 -0.11208211 0.0046862569 0.055469342 0.0046780529 0.055724487 0.99225891 -0.10913169
1719354716.9811 0.9891538 -0.11263573 0.0047287643 0.055862334 0.0047158562 0.056107767 0.99220151 -0.1097984
1729350943.3962 0.98893696 -0.11319864 0.0048197377 0.056245822 0.0047706347 0.056487434 0.99233407 -0.11067748
