!Keysight Technologies,N5222B,MY61253708,A.15.00.15
!Date: Wednesday, June 19, 2024 09:57:14
!Correction: S11(C  2-Port  ) 
!S21(C  2-Port  ) 
!S12(C  2-Port  ) 
!S22(C  2-Port  ) 
!S2P File: Measurements: S11, S21, S12, S22:
# Hz S  RI   R 50
10000000 0.99863088 -0.0026915967 -4.145487e-005 0.00042495877 -0.00011482783 0.00026937734 0.99851608 -0.001386404
19996226.415094 0.99965823 -0.0033622682 -0.00011661396 0.00067229796 -8.6360087e-006 0.0006175196 1.0002317 -0.0031853318
29992452.830189 0.99973333 -0.0024777055 2.6980822e-005 0.00098874141 9.9112804e-006 0.0010183549 0.9994244 -0.0026696026
39988679.245283 1.0000124 -0.0030262768 3.0727708e-005 0.0013446005 -1.0928474e-005 0.0013306927 0.99965477 -0.0030558705
49984905.660377 1.0001526 -0.0036436915 3.6062556e-006 0.0016688169 -1.3604644e-005 0.0016647449 0.99982697 -0.0036709905
59981132.075472 1.0004082 -0.0045530796 3.795058e-005 0.0019600538 -6.8406807e-006 0.0020036134 0.99979824 -0.0042174757
69977358.490566 1.0001935 -0.0050896015 2.6790312e-005 0.00230968 -1.3026412e-005 0.0023105089 0.99969679 -0.0048263874
79973584.90566 0.9999755 -0.0056984425 1.2493925e-005 0.0026509031 2.6695081e-005 0.0026669172 0.99936515 -0.0052542686
89969811.320755 0.9999724 -0.0057877898 2.9918854e-005 0.002948198 9.4923889e-006 0.0029766681 0.99958217 -0.0054904521
99966037.735849 1.0002273 -0.0064823478 2.0141364e-005 0.0032864269 2.2043241e-007 0.0033151763 0.9996621 -0.0063163042
109962264.15094 1.0001937 -0.0074410439 4.2800268e-005 0.0036407739 3.2293843e-005 0.003627785 0.99963659 -0.007120043
119958490.56604 1.0002036 -0.0083575845 1.5694648e-005 0.0039505046 4.2906962e-005 0.0039897612 0.99967927 -0.0079773366
129954716.98113 1.0001657 -0.0092970133 2.9584626e-005 0.0042789476 5.218701e-005 0.0043231114 0.99966878 -0.0088251531
139950943.39623 1.0001085 -0.010060849 4.3896929e-005 0.004607203 4.5254608e-005 0.0046503115 0.99961525 -0.0095563196
149947169.81132 0.99999624 -0.01071772 4.7574053e-005 0.0049583744 4.4234795e-005 0.0049550352 0.99951875 -0.010185182
159943396.22642 0.99991226 -0.01132375 5.7910802e-005 0.0052725961 4.7642272e-005 0.0053021503 0.99960095 -0.010659695
169939622.64151 0.9999122 -0.011700101 7.6166179e-005 0.0055987053 5.6131918e-005 0.005633004 0.99965036 -0.011113711
179935849.0566 0.99999475 -0.011924595 8.9084264e-005 0.005949345 8.5378415e-005 0.0059679276 0.99954122 -0.011496931
189932075.4717 1.0000812 -0.012723804 7.9612248e-005 0.00627338 0.00010844157 0.0063263141 0.99976468 -0.012073606
199928301.88679 1.000025 -0.013528466 0.00010386307 0.0066187936 7.6275552e-005 0.0066267368 0.99961579 -0.012882143
209924528.30189 0.99977124 -0.014092848 8.4007508e-005 0.0069414289 9.2817005e-005 0.0069618165 0.99944025 -0.013516203
219920754.71698 0.99992305 -0.014898986 9.5732044e-005 0.0072510876 0.00010906463 0.0072809253 0.99930847 -0.014122427
229916981.13208 0.99972719 -0.015789419 0.00011570193 0.0075623905 0.00010487391 0.0076166685 0.99936557 -0.014975995
239913207.54717 0.99961448 -0.016425019 0.00013092655 0.0079073375 0.00012674143 0.0079633389 0.99929464 -0.015693791
249909433.96226 0.99961233 -0.017080307 0.0001314031 0.0082293646 0.00013538217 0.0082724933 0.99935615 -0.016347408
259905660.37736 0.99973458 -0.017663479 0.00015223585 0.0085501699 0.00016444968 0.0086170807 0.99957675 -0.016925246
269901886.79245 0.99985504 -0.018301815 0.00015656848 0.0088589266 0.00017456221 0.0090021091 0.99989009 -0.017597854
279898113.20755 0.99982995 -0.018964022 0.00017053331 0.0092357798 0.00021305517 0.0092789093 0.99974257 -0.018329129
289894339.62264 0.99982208 -0.019705355 0.00022654468 0.0095517356 0.00021237321 0.0095811896 0.99960673 -0.019029588
299890566.03774 0.99982488 -0.020155042 0.00019718055 0.0098963454 0.00020888587 0.0099459644 0.99940759 -0.019598424
309886792.45283 0.99965775 -0.02065932 0.00023537962 0.010209305 0.00021579466 0.010270827 0.99932659 -0.019956432
319883018.86792 0.99977374 -0.021375537 0.00020885793 0.010545373 0.00021349872 0.010634034 0.99942219 -0.020474464
329879245.28302 0.99971622 -0.02222532 0.00024284143 0.010888767 0.00026584882 0.010957262 0.99950695 -0.021188706
339875471.69811 0.99966693 -0.02295582 0.00028091995 0.01119343 0.00025417167 0.011257696 0.99939245 -0.021987796
349871698.11321 0.99973297 -0.023740053 0.00024158321 0.011544657 0.0002388719 0.011588643 0.99940234 -0.02292043
359867924.5283 0.99954212 -0.024553239 0.00026404159 0.01185131 0.00031726388 0.01191981 0.9993782 -0.023814768
369864150.9434 0.99971962 -0.025326073 0.00027274061 0.012203241 0.00033154292 0.012262512 0.99937016 -0.024515778
379860377.35849 0.9995783 -0.02599217 0.0002884632 0.012465601 0.00035898713 0.01256034 0.9992938 -0.025201917
389856603.77358 0.99953294 -0.026652813 0.00031313719 0.012807269 0.0003205575 0.012916755 0.99928534 -0.025654614
399852830.18868 0.99939418 -0.027265429 0.00033099204 0.013174947 0.00034803245 0.013261388 0.99934959 -0.026098728
409849056.60377 0.99935794 -0.027699249 0.00038855628 0.013464035 0.00036303632 0.013546932 0.99931633 -0.026610607
419845283.01887 0.99927545 -0.028119326 0.00038355123 0.013797916 0.0003963667 0.013912803 0.99939072 -0.027129978
429841509.43396 0.99931639 -0.028817356 0.00042027887 0.014160728 0.00039160019 0.01423843 0.99954808 -0.027904361
439837735.84906 0.99911129 -0.029618651 0.00043581962 0.014508626 0.00043362402 0.014585722 0.99931985 -0.028879836
449833962.26415 0.99907386 -0.030432701 0.00044583436 0.01479903 0.00042100716 0.014878683 0.99892384 -0.029656053
459830188.67925 0.99889171 -0.031163186 0.00046052225 0.015110524 0.00044305855 0.015185282 0.99874926 -0.030337632
469826415.09434 0.99880534 -0.031835198 0.00048443396 0.015492113 0.00046432624 0.015560517 0.99855763 -0.030931145
479822641.50943 0.99871963 -0.032405213 0.00048758811 0.015777007 0.00050169416 0.015876511 0.99856693 -0.031400777
489818867.92453 0.99883819 -0.032940567 0.00052118488 0.016101697 0.00053617451 0.016239433 0.99882662 -0.031909138
499815094.33962 0.9988566 -0.033527136 0.00056147296 0.016450932 0.00052184984 0.016564991 0.99913728 -0.032584012
509811320.75472 0.99893016 -0.033944927 0.00060605013 0.016776608 0.00058915373 0.016850358 0.99921632 -0.033332206
519807547.16981 0.99888277 -0.034469426 0.000560374 0.017073056 0.00055934209 0.017203372 0.99921894 -0.034011543
529803773.58491 0.9989571 -0.034980148 0.00059998035 0.017376879 0.00057588145 0.017503394 0.99889922 -0.034616053
539800000 0.99894059 -0.035670072 0.00059533352 0.017756885 0.00059652096 0.017855426 0.99882954 -0.035192505
549796226.41509 0.99891454 -0.036503077 0.00067547616 0.018096395 0.00061968667 0.018160861 0.998757 -0.035762876
559792452.83019 0.99867451 -0.037115902 0.00064359605 0.018438673 0.00065732002 0.018520571 0.99863839 -0.036244363
569788679.24528 0.99852574 -0.037787497 0.00067246472 0.018740823 0.00065999106 0.018814426 0.99880201 -0.037073463
579784905.66038 0.99854648 -0.03834977 0.00071899919 0.01908347 0.00070101453 0.019181505 0.99887705 -0.03774415
589781132.07547 0.99867284 -0.039028972 0.00077245943 0.019409575 0.00071964599 0.019510601 0.99896824 -0.038654536
599777358.49057 0.99876106 -0.039675623 0.00078687444 0.019722432 0.00080444664 0.019879961 0.99896789 -0.039393574
609773584.90566 0.9989326 -0.040463388 0.00080163474 0.020072727 0.0008080721 0.020174937 0.9988178 -0.040194143
619769811.32075 0.99898273 -0.041067451 0.00084756967 0.020363288 0.0008205371 0.020495052 0.99870294 -0.040734142
629766037.73585 0.99888027 -0.041777611 0.00087118521 0.020690784 0.00086047407 0.020781815 0.99861652 -0.041276187
639762264.15094 0.9986316 -0.042428091 0.00091111264 0.020995185 0.00087758433 0.021114195 0.99849975 -0.041821063
649758490.56604 0.99862772 -0.042970926 0.0009307107 0.021323081 0.00091761025 0.0214325 0.99854612 -0.042212695
659754716.98113 0.99852192 -0.043616623 0.00092586596 0.021672139 0.00090226904 0.021782191 0.99860656 -0.042777777
669750943.39623 0.9984858 -0.043990552 0.00090002548 0.021988742 0.00091209402 0.022129074 0.99869108 -0.043576866
679747169.81132 0.99846721 -0.044769518 0.0010001473 0.022335693 0.00098223984 0.022477362 0.99864984 -0.0444455
689743396.22642 0.99855644 -0.045542687 0.0010075774 0.022674829 0.0010342132 0.02281403 0.99841845 -0.045375258
699739622.64151 0.99875009 -0.046399683 0.0010281364 0.02299194 0.0010705004 0.023114435 0.99835408 -0.046053767
709735849.0566 0.99873734 -0.047163039 0.0011043268 0.023327842 0.0010733354 0.023444073 0.99811673 -0.046701655
719732075.4717 0.99853569 -0.047921836 0.001105282 0.023629257 0.0010861368 0.023765257 0.99822247 -0.047311634
729728301.88679 0.99849409 -0.048494965 0.0011802511 0.023929521 0.0011667004 0.024068296 0.99822772 -0.047780246
739724528.30189 0.99844301 -0.049174756 0.0011709714 0.024298025 0.0011755233 0.02440788 0.99841982 -0.048430428
749720754.71698 0.9983719 -0.049683586 0.0012027617 0.024580332 0.0012325644 0.024744565 0.99844313 -0.049140841
759716981.13208 0.99836063 -0.050254524 0.0012451839 0.024878459 0.0012540994 0.025051096 0.99840081 -0.049900919
769713207.54717 0.99827927 -0.050943822 0.001287506 0.025223508 0.0012775157 0.025345122 0.99817222 -0.050615638
779709433.96226 0.99845564 -0.051555883 0.001306515 0.025527032 0.0013152692 0.025700847 0.99797469 -0.051208165
789705660.37736 0.99830735 -0.052424073 0.0013434179 0.02588233 0.0013587391 0.02598254 0.99773055 -0.051904649
799701886.79245 0.99826747 -0.053196073 0.0013718335 0.026155431 0.0013762806 0.026316985 0.99761522 -0.052485853
809698113.20755 0.99818808 -0.053757802 0.0014191261 0.026495874 0.001387879 0.026663892 0.99762577 -0.052988783
819694339.62264 0.99796498 -0.054428309 0.0014389129 0.026809603 0.0013904995 0.026967529 0.99769086 -0.053553641
829690566.03774 0.99798894 -0.055072784 0.0014568018 0.027121723 0.0014694585 0.027287006 0.99799323 -0.054417819
839686792.45283 0.99798524 -0.05550465 0.0014733355 0.027430594 0.0014701714 0.027626548 0.99797165 -0.055224597
849683018.86792 0.99813676 -0.056129642 0.0014873664 0.027782233 0.0015146339 0.027958389 0.99789262 -0.056017838
859679245.28302 0.99812841 -0.056872964 0.0015196577 0.028109904 0.0015787603 0.02829368 0.99760389 -0.056626767
869675471.69811 0.99805009 -0.057615608 0.0015835976 0.028437659 0.0016157068 0.028605528 0.99727285 -0.057176054
879671698.11321 0.99797374 -0.05817128 0.0016258344 0.028739814 0.0016206572 0.028906094 0.99732053 -0.05756934
889667924.5283 0.99786848 -0.058942258 0.0016304879 0.029021623 0.0016536824 0.029208522 0.9972024 -0.0581007
899664150.9434 0.99774241 -0.059686482 0.0016692923 0.029342305 0.0016805688 0.029540904 0.99719048 -0.058663517
909660377.35849 0.99770796 -0.060314983 0.0016788999 0.029700773 0.001709051 0.029842835 0.9973343 -0.059567228
919656603.77358 0.99770921 -0.060985744 0.0017080097 0.029978652 0.0017370409 0.030176228 0.99736559 -0.06037125
929652830.18868 0.99768895 -0.061735719 0.00173706 0.030306533 0.0017548082 0.030512437 0.99723452 -0.061280429
939649056.60377 0.99780619 -0.062336951 0.0017531132 0.030601721 0.0017679799 0.030821858 0.99712634 -0.062034756
949645283.01887 0.99773639 -0.063231714 0.0017377188 0.030955028 0.0017617147 0.031161217 0.99682868 -0.062551796
959641509.43396 0.99774784 -0.063889593 0.0017742123 0.031303424 0.0018258179 0.031472422 0.99672431 -0.063101351
969637735.84906 0.99774188 -0.064524531 0.0018431479 0.031648185 0.0018251576 0.031849265 0.99680889 -0.063389957
979633962.26415 0.99755216 -0.065301761 0.001874618 0.031968098 0.0019082474 0.032151692 0.99680102 -0.06407658
989630188.67925 0.99756694 -0.065792918 0.0019340776 0.03227137 0.0019301903 0.032489985 0.9970091 -0.064663619
999626415.09434 0.99761724 -0.066479713 0.001981901 0.03260928 0.0019776421 0.032805685 0.99692559 -0.065431595
1009622641.5094 0.99765211 -0.067038625 0.0019735517 0.032926366 0.002011301 0.033158671 0.99671865 -0.066291198
1019618867.9245 0.99768406 -0.067865416 0.0020221169 0.033251148 0.0020885617 0.033460587 0.99655026 -0.067098007
1029615094.3396 0.9976958 -0.068765849 0.0021230401 0.033546187 0.0021322733 0.033782274 0.99622834 -0.067654431
1039611320.7547 0.99770486 -0.069554508 0.0021484867 0.033865757 0.0021456284 0.034055069 0.99616712 -0.068322331
1049607547.1698 0.99758744 -0.070460483 0.0021806108 0.034170173 0.0021717332 0.034386054 0.99610692 -0.068922549
1059603773.5849 0.99744368 -0.071132123 0.0021637427 0.034452293 0.0022241017 0.034669138 0.99608994 -0.069489807
1069600000 0.99730444 -0.071846187 0.0021824166 0.034770761 0.0022295257 0.035026003 0.99631858 -0.070183873
1079596226.4151 0.99724692 -0.072483771 0.0021871813 0.035092041 0.0022450387 0.035345655 0.99628282 -0.070901692
1089592452.8302 0.99727827 -0.073176324 0.0022287769 0.035436861 0.0022601355 0.035661191 0.99622464 -0.071642071
1099588679.2453 0.99737972 -0.073786885 0.002222091 0.035766087 0.0022892896 0.035990063 0.99590099 -0.072299421
1109584905.6604 0.99747252 -0.074664548 0.0022644866 0.03609119 0.0022980785 0.036332428 0.99567431 -0.072880223
1119581132.0755 0.99738723 -0.075562418 0.0022847825 0.036422782 0.002346186 0.036673933 0.99551642 -0.073330849
1129577358.4906 0.99727929 -0.076297373 0.0023342799 0.036783606 0.0023951605 0.037053995 0.9953956 -0.073681116
1139573584.9057 0.99705172 -0.077140301 0.0023523048 0.037110448 0.002418655 0.03733024 0.9954313 -0.074353933
1149569811.3208 0.99693412 -0.077981211 0.0024205772 0.037441473 0.0024766093 0.037675608 0.99556834 -0.075089768
1159566037.7358 0.99671024 -0.078668743 0.002449967 0.03773186 0.002509091 0.037969723 0.99568439 -0.076053649
1169562264.1509 0.99650538 -0.0793764 0.0024430938 0.038041808 0.0025141295 0.03831552 0.99555743 -0.076920718
1179558490.566 0.99656337 -0.080123097 0.0024738568 0.038392622 0.0025403164 0.038677916 0.9954263 -0.077577636
1189554716.9811 0.99651605 -0.080859303 0.0024925126 0.038772739 0.0026092641 0.039010126 0.99514687 -0.078171074
1199550943.3962 0.99646962 -0.081702143 0.0025303066 0.039140623 0.0026520435 0.039322082 0.99497712 -0.078558177
1209547169.8113 0.99628299 -0.08254765 0.0025587352 0.03943437 0.0027105585 0.039624993 0.99487954 -0.078907236
1219543396.2264 0.99606431 -0.083369941 0.0026191198 0.039793085 0.0027155201 0.0400334 0.99496794 -0.079311579
1229539622.6415 0.99572706 -0.084152669 0.0026984662 0.040118936 0.0027990118 0.040356085 0.99508739 -0.079970926
1239535849.0566 0.99566823 -0.084743798 0.0027489746 0.040423408 0.0028754966 0.040683709 0.99523371 -0.080851972
1249532075.4717 0.99526274 -0.085407168 0.0028092905 0.040736426 0.0029289201 0.04097227 0.99505794 -0.081661791
1259528301.8868 0.99510247 -0.085906386 0.0028543696 0.041035436 0.0029879771 0.041292004 0.99484307 -0.082512289
1269524528.3019 0.99491715 -0.08667618 0.0029452704 0.041387767 0.0030541103 0.041584887 0.9946605 -0.08318606
1279520754.717 0.99457675 -0.087342545 0.0029632417 0.041654058 0.0031230997 0.041858006 0.99436694 -0.083762579
1289516981.1321 0.99446481 -0.088175207 0.0029840926 0.041944686 0.0030998345 0.042166539 0.99439847 -0.084256947
1299513207.5472 0.9941712 -0.089060038 0.0030044504 0.042297207 0.0031311158 0.042482264 0.99451143 -0.084653914
1309509433.9623 0.99371898 -0.089793429 0.0030297665 0.042582989 0.0031600157 0.042767279 0.99461693 -0.085335359
1319505660.3774 0.99341428 -0.090514719 0.0030301604 0.042908821 0.0031372542 0.04306424 0.99466377 -0.086023599
1329501886.7925 0.99310398 -0.091154039 0.0030493625 0.04320414 0.0031632185 0.043402605 0.99465704 -0.086940169
1339498113.2075 0.99282604 -0.091628343 0.0030728951 0.043577045 0.0031988081 0.043723952 0.99429119 -0.087631911
1349494339.6226 0.9925667 -0.092195839 0.0030486505 0.043868694 0.0031783045 0.04409435 0.99395114 -0.08823996
1359490566.0377 0.99254584 -0.09275946 0.0030379239 0.044264447 0.0031753369 0.044396006 0.99379861 -0.088738173
1369486792.4528 0.9922924 -0.093223661 0.0030738423 0.044591181 0.0031904131 0.044779435 0.99354362 -0.089168012
1379483018.8679 0.99208236 -0.093756527 0.003082799 0.044952787 0.0031915652 0.045117732 0.99357009 -0.089569867
1389479245.283 0.99173832 -0.094379485 0.0031263493 0.045323245 0.0032337885 0.045479123 0.99351549 -0.090201318
1399475471.6981 0.99136305 -0.094745517 0.0031837858 0.045674816 0.0032252464 0.045822114 0.9937017 -0.090861589
1409471698.1132 0.99110949 -0.095209897 0.0031944513 0.04605459 0.0032551584 0.046223622 0.99373591 -0.091695592
1419467924.5283 0.99085498 -0.095460951 0.0032170955 0.046414413 0.0032739146 0.046600573 0.9935981 -0.092358053
1429464150.9434 0.99083412 -0.09594205 0.0032648165 0.046847731 0.0033466183 0.046994343 0.99342591 -0.092960894
1439460377.3585 0.99085474 -0.096366882 0.0033444092 0.047285374 0.0033827322 0.047411654 0.99321854 -0.093380958
1449456603.7736 0.9908818 -0.096889347 0.0034468183 0.047685076 0.0034917062 0.047777809 0.9931047 -0.093625382
1459452830.1887 0.99091846 -0.097611904 0.0035912693 0.048058204 0.0035976246 0.048205927 0.99315053 -0.094053417
1469449056.6038 0.99098217 -0.098234475 0.0037283078 0.048395962 0.0037733587 0.048587803 0.99345303 -0.094581157
1479445283.0189 0.99079138 -0.098841399 0.0038490179 0.048679721 0.0038749343 0.048843462 0.99354327 -0.095463961
1489441509.434 0.99074805 -0.099334419 0.0039639696 0.049008477 0.0040380526 0.049165413 0.99340546 -0.096366584
1499437735.8491 0.9906252 -0.099669933 0.0040555168 0.049258783 0.004145598 0.049453966 0.99333107 -0.097145647
1509433962.2642 0.9905076 -0.1002388 0.0041900636 0.049512275 0.0042147245 0.049704302 0.99308461 -0.097868145
1519430188.6792 0.99069721 -0.10075533 0.0042610317 0.049842924 0.00426526 0.049988687 0.9929927 -0.098456502
1529426415.0943 0.99059618 -0.10141054 0.0042939857 0.05007473 0.0042799097 0.05025956 0.99288827 -0.098938733
1539422641.5094 0.99064028 -0.10225756 0.0043714009 0.050378893 0.0043463572 0.050559212 0.99298865 -0.099425301
1549418867.9245 0.99053693 -0.10299766 0.0044225305 0.050661843 0.0043835239 0.050841935 0.99311948 -0.10011478
1559415094.3396 0.99042988 -0.10363093 0.0044925157 0.050951608 0.0044412389 0.051132172 0.99324381 -0.10075668
1569411320.7547 0.99021733 -0.10443583 0.0044973716 0.051209677 0.0044389293 0.051414561 0.9932124 -0.10149971
1579407547.1698 0.9901107 -0.10489477 0.0045262524 0.051463693 0.0045492435 0.051722996 0.99295044 -0.10236652
1589403773.5849 0.99014139 -0.10547444 0.004503686 0.051783647 0.0045244433 0.052000776 0.99270743 -0.10302141
1599400000 0.99011689 -0.10587299 0.0045252973 0.052087229 0.0044922708 0.052290201 0.99228871 -0.1035648
1609396226.4151 0.99005896 -0.1066035 0.0044912887 0.052401651 0.0045006392 0.052604567 0.99220699 -0.10404815
1619392452.8302 0.99004424 -0.1072453 0.0044970904 0.052734625 0.0044872519 0.05298394 0.99212825 -0.10445172
1629388679.2453 0.98983729 -0.10788327 0.0045695808 0.053083051 0.004492525 0.05330731 0.99223292 -0.10500643
1639384905.6604 0.98965949 -0.10860115 0.0045427755 0.053431731 0.0044994773 0.053678922 0.99250466 -0.10580982
1649381132.0755 0.98938251 -0.10925448 0.0045167934 0.053745884 0.0045193918 0.054055687 0.99246812 -0.10676643
1659377358.4906 0.98923814 -0.11001319 0.0045508929 0.054158844 0.0045873038 0.054413207 0.99245954 -0.10765836
1669373584.9057 0.98919392 -0.11040083 0.004600626 0.054525062 0.00461285 0.054782681 0.99222976 -0.10827955
1679369811.3208 0.98926383 -0.11107501 0.0046472792 0.054897085 0.0046016099 0.05519823 0.99195415 -0.10878879
1689366037.7358 0.98925674 -0.11181059 0.0046985559 0.05528035 0.0046628341 0.055564657 0.9918189 -0.10914442
1699362264.1509 0.98941153 -0.11222458 0.0047874842 0.055654187 0.0047135837 0.055936668 0.99201488 -0.10960062
1709358490.566 0.98923826 -0.11291037 0.0047716731 0.05600087 0.0047690496 0.056299292 0.99205464 -0.1101439
1719354716.9811 0.98899567 -0.11347026 0.0048292037 0.056358755 0.0048213061 0.056668099 0.99210548 -0.11075857
1729350943.3962 0.98868126 -0.11404192 0.0049195383 0.056761831 0.0049239509 0.057057019 0.99202228 -0.11162096
