!Keysight Technologies,N5222B,MY61253708,A.15.00.15
!Date: Wednesday, June 19, 2024 09:08:22
!Correction: S11(C  2-Port  ) 
!S21(C  2-Port  ) 
!S12(C  2-Port  ) 
!S22(C  2-Port  ) 
!S2P File: Measurements: S11, S21, S12, S22:
# Hz S  RI   R 50
10000000 0.9988333 -0.0022215843 0.00018383699 0.0002463487 -7.1686954e-006 0.00042191311 0.99867105 -0.001047343
19996226.415094 0.99917233 -0.002071768 2.1102518e-005 0.00077012205 5.4139207e-005 0.00074711943 0.99929154 -0.0021094978
29992452.830189 0.99985075 -0.0024370551 5.6335877e-005 0.0010461085 -4.0991785e-005 0.0010855711 0.9994204 -0.0026792884
39988679.245283 1.0000851 -0.0030422658 5.2785763e-006 0.0013730067 5.3057447e-006 0.0014379573 0.9996987 -0.0031827092
49984905.660377 1.0001913 -0.003828913 1.7175858e-005 0.0017351513 1.0554679e-005 0.0017514012 0.9998256 -0.0038059056
59981132.075472 1.000347 -0.0047092438 1.0547228e-007 0.0021114191 -3.393332e-006 0.0020783842 0.99973941 -0.0043237805
69977358.490566 1.0000874 -0.0052136164 4.0080718e-005 0.0024301701 4.9138005e-005 0.0024616774 0.99967825 -0.0048454646
79973584.90566 0.9998883 -0.0058440566 1.9648345e-005 0.0027839546 -4.9850205e-006 0.0027950262 0.99936533 -0.0053575337
89969811.320755 0.9998883 -0.0059897602 -5.5242563e-006 0.0031358814 2.5197398e-005 0.0031513674 0.99953699 -0.0056657195
99966037.735849 1.0000246 -0.0067144185 3.0993659e-005 0.0034794272 8.9057721e-009 0.0034862061 0.99961042 -0.0064661503
109962264.15094 1.0001541 -0.0077075362 3.5542122e-005 0.0038144025 1.8946303e-005 0.0038414688 0.99958909 -0.0073198974
119958490.56604 1.0001802 -0.0087184012 2.7257716e-005 0.0041606496 4.7364971e-005 0.0041731037 0.99965358 -0.0082561076
129954716.98113 1.0000808 -0.0097372234 2.4134759e-005 0.0045050271 5.2351039e-005 0.0045045167 0.99962139 -0.0091653168
139950943.39623 1.000066 -0.010567535 5.8163831e-005 0.0048375553 3.9098275e-005 0.0048916345 0.99953073 -0.0099405516
149947169.81132 0.99990165 -0.011284769 6.9651753e-005 0.0052210279 6.7742774e-005 0.0052416851 0.99950314 -0.010560721
159943396.22642 0.99982065 -0.011821747 5.7414407e-005 0.0055603627 6.8000518e-005 0.0055866786 0.99957079 -0.011064082
169939622.64151 0.99990767 -0.012165964 9.2819391e-005 0.0058922237 7.4163429e-005 0.0059493985 0.99964654 -0.011494622
179935849.0566 0.99994761 -0.012516499 8.8479253e-005 0.0062675998 8.6801359e-005 0.0062765363 0.99953526 -0.011846751
189932075.4717 1.0000396 -0.013275594 9.3948562e-005 0.0065836073 8.8415574e-005 0.0066269692 0.99975753 -0.01251626
199928301.88679 1.000012 -0.014154881 8.1498176e-005 0.0069257389 0.00011327455 0.0069668591 0.9996497 -0.01340121
209924528.30189 0.99973547 -0.014795735 0.00012910401 0.007295785 0.0001208859 0.0073322938 0.99946189 -0.014163315
219920754.71698 0.99969572 -0.015713096 0.00013975869 0.0076219933 0.00013465644 0.0076520066 0.9992606 -0.014832765
229916981.13208 0.99951601 -0.01657179 0.00013507297 0.007976667 0.00014753616 0.0080241067 0.99915224 -0.015666127
239913207.54717 0.99931061 -0.017187513 0.00015235528 0.008319743 0.00013357245 0.0084048361 0.99910986 -0.01640974
249909433.96226 0.99938852 -0.01788789 0.00016396772 0.0086353775 0.00016887533 0.0087176356 0.99924457 -0.016982645
259905660.37736 0.99944454 -0.018435448 0.00016048271 0.0090225376 0.00018255506 0.0090831267 0.99944437 -0.017576188
269901886.79245 0.99960411 -0.019083545 0.00020510284 0.0093308147 0.00019951491 0.0094132051 0.9998523 -0.018355444
279898113.20755 0.99979973 -0.019732356 0.00020675873 0.0097192917 0.0002096442 0.0097219627 0.99962777 -0.019098654
289894339.62264 0.99972582 -0.020572245 0.00018148962 0.010045296 0.00023791846 0.010116922 0.99955499 -0.019896269
299890566.03774 0.99963641 -0.021099597 0.0002230017 0.01040819 0.00028780033 0.010485061 0.99923211 -0.02028662
309886792.45283 0.99938768 -0.021700539 0.00024973543 0.010700393 0.00026596338 0.010813229 0.99917144 -0.02080325
319883018.86792 0.99932349 -0.02241227 0.00024838466 0.011056488 0.00023955107 0.011177992 0.99915946 -0.02135691
329879245.28302 0.99925506 -0.023150593 0.00027386006 0.011430398 0.0002659359 0.011516497 0.99925572 -0.022060066
339875471.69811 0.99923581 -0.023867935 0.00029895292 0.01177377 0.00032410456 0.011880934 0.99930143 -0.022885032
349871698.11321 0.99948162 -0.024736524 0.00030026236 0.012129701 0.00032339199 0.012186619 0.99926215 -0.023825586
359867924.5283 0.99930286 -0.025699884 0.00033206725 0.012446116 0.00031000702 0.012535462 0.99924004 -0.024753124
369864150.9434 0.9995665 -0.026352376 0.00034098583 0.012783596 0.00036161137 0.012899556 0.99923551 -0.02549547
379860377.35849 0.99944997 -0.027110934 0.00035474892 0.013181904 0.00032451842 0.013188699 0.99916637 -0.02620545
389856603.77358 0.99940103 -0.027691692 0.00041394727 0.013460686 0.00041019497 0.01356765 0.99906528 -0.026675433
399852830.18868 0.99910223 -0.028366238 0.00040466432 0.013821836 0.00041228533 0.013919254 0.99920756 -0.027121872
409849056.60377 0.99914879 -0.028817343 0.00043682777 0.014169973 0.00037318567 0.014290289 0.99921495 -0.027602319
419845283.01887 0.99908394 -0.029163241 0.00041220384 0.0145196 0.00042566704 0.014624907 0.99930745 -0.028165102
429841509.43396 0.99917257 -0.029842108 0.00045215106 0.014863995 0.00044346973 0.01498179 0.99941266 -0.028971285
439837735.84906 0.99902046 -0.030778915 0.00050639047 0.015228598 0.00053002662 0.015319067 0.99921888 -0.029917538
449833962.26415 0.99899995 -0.031634212 0.00049750134 0.015500409 0.00050840946 0.015658977 0.99895012 -0.030834377
459830188.67925 0.99889922 -0.032437176 0.00049565826 0.015855841 0.00051043974 0.015984159 0.99872744 -0.031658381
469826415.09434 0.99884206 -0.033216 0.00050857943 0.016226301 0.00049786177 0.01632965 0.99853045 -0.032237291
479822641.50943 0.99873674 -0.033887543 0.00056074513 0.016591484 0.00055743847 0.016742636 0.99850661 -0.032696262
489818867.92453 0.99889082 -0.03436783 0.00058669271 0.016918354 0.0005382048 0.017095821 0.99882919 -0.033299327
499815094.33962 0.99880683 -0.03504464 0.0006091604 0.017275544 0.00062141335 0.01741036 0.99909693 -0.033917755
509811320.75472 0.99896055 -0.035471819 0.00064461207 0.017628953 0.00063588668 0.017774424 0.99929094 -0.034774572
519807547.16981 0.99891663 -0.036144137 0.00062638847 0.017961893 0.00063360855 0.01810186 0.99925578 -0.03557843
529803773.58491 0.99892008 -0.036672324 0.00067830086 0.018320182 0.0007105181 0.018404258 0.99902797 -0.036194921
539800000 0.9988451 -0.037431777 0.00071832817 0.018675504 0.00065193628 0.018742234 0.99879479 -0.036945254
549796226.41509 0.99864686 -0.038315147 0.00071407901 0.019012479 0.00071860105 0.019158171 0.9985643 -0.037474155
559792452.83019 0.9985289 -0.03910318 0.00078120362 0.019362744 0.00080258958 0.019501049 0.99847162 -0.037922531
569788679.24528 0.99833739 -0.039787143 0.00077743828 0.019713901 0.00078527862 0.01985183 0.99864924 -0.038725048
579784905.66038 0.99825877 -0.040379561 0.00079442619 0.020049984 0.00079252943 0.020168241 0.99876457 -0.039513648
589781132.07547 0.99847841 -0.040977448 0.00087726861 0.0203884 0.00081394985 0.020569624 0.99885011 -0.040343046
599777358.49057 0.99850976 -0.041693091 0.00085314829 0.02074011 0.00084962975 0.020915199 0.9989149 -0.041185677
609773584.90566 0.9986769 -0.042478994 0.00087805302 0.021076813 0.00092848326 0.021238258 0.99872911 -0.042124584
619769811.32075 0.99881643 -0.043141425 0.00095051061 0.021448888 0.00092561031 0.021603238 0.9986344 -0.04262948
629766037.73585 0.99863243 -0.043858111 0.00098367967 0.021696452 0.00097406562 0.021902243 0.99841976 -0.043153912
639762264.15094 0.99846238 -0.044570327 0.0010469405 0.022055544 0.0010087623 0.022198996 0.99823332 -0.043620512
649758490.56604 0.99830687 -0.045125142 0.0010078046 0.022421919 0.0010158508 0.022557721 0.99832761 -0.044062153
659754716.98113 0.99813443 -0.04555589 0.0010028714 0.022730149 0.0010278001 0.022920299 0.99837017 -0.044674426
669750943.39623 0.99810195 -0.046076834 0.0010568239 0.023086742 0.0010517668 0.02330799 0.99842811 -0.045440644
679747169.81132 0.99815112 -0.046899155 0.0011178853 0.023474734 0.0010833277 0.023651367 0.99843639 -0.046442449
689743396.22642 0.99832892 -0.047766626 0.0011728806 0.023815941 0.0011512972 0.024006221 0.99820232 -0.047460973
699739622.64151 0.99843532 -0.048621416 0.001191929 0.024119914 0.0012187958 0.024357235 0.99813437 -0.04805097
709735849.0566 0.99841577 -0.049476609 0.0012673264 0.024486965 0.0012215374 0.024661859 0.99788755 -0.048753642
719732075.4717 0.99826699 -0.050167918 0.0012226254 0.024831707 0.0012713624 0.024988288 0.99792224 -0.049370587
729728301.88679 0.99814254 -0.050720245 0.0013043471 0.025151618 0.001336392 0.025324918 0.99806833 -0.049841493
739724528.30189 0.9980678 -0.051421195 0.0013137409 0.025501795 0.0013414808 0.025690114 0.99820578 -0.050461605
749720754.71698 0.99794388 -0.051851094 0.0013829367 0.025815919 0.0013854341 0.02602056 0.99822187 -0.051191315
759716981.13208 0.99800497 -0.052414507 0.0013994602 0.026176184 0.0014005369 0.026353944 0.99813807 -0.052007616
769713207.54717 0.99798113 -0.053172976 0.0014234092 0.026489312 0.0014010714 0.026689224 0.99786925 -0.052653819
779709433.96226 0.99815893 -0.053815715 0.0014859904 0.026806649 0.0014633725 0.027034892 0.99765354 -0.053411584
789705660.37736 0.99788058 -0.054733038 0.001507665 0.027143901 0.0015178453 0.027359316 0.9973945 -0.054205239
799701886.79245 0.99780893 -0.05558604 0.0015439996 0.027471174 0.0015279604 0.027730335 0.99729002 -0.054718584
809698113.20755 0.99780488 -0.056206301 0.0015751789 0.027821222 0.0015693856 0.028039293 0.99738431 -0.055158913
819694339.62264 0.99765766 -0.056857198 0.0015836973 0.028154941 0.0016010045 0.02837231 0.99751216 -0.055830747
829690566.03774 0.99769223 -0.057568431 0.0016322425 0.028450832 0.0016451171 0.02872197 0.99777728 -0.056708425
839686792.45283 0.99773544 -0.058012426 0.0016569486 0.028818246 0.0016464898 0.029048394 0.99783659 -0.057593733
849683018.86792 0.99786496 -0.058628641 0.0016940578 0.029178409 0.0017209384 0.029393556 0.99767506 -0.058417045
859679245.28302 0.99785686 -0.059329391 0.0017193584 0.029486466 0.0017439295 0.029736536 0.99739146 -0.059019446
869675471.69811 0.99777353 -0.060189277 0.0018142331 0.02985888 0.0017907498 0.030069901 0.99708223 -0.059594482
879671698.11321 0.99763662 -0.060789227 0.0018277565 0.03019131 0.0018079889 0.030419696 0.99705923 -0.060005866
889667924.5283 0.99734378 -0.061752498 0.0018545482 0.030497709 0.001867516 0.030765712 0.99686694 -0.060533136
899664150.9434 0.99720192 -0.062418342 0.0018871007 0.030848105 0.0018805508 0.031099763 0.99693239 -0.061212748
909660377.35849 0.99722075 -0.063096702 0.0018814886 0.031180006 0.0019209096 0.031411413 0.99709213 -0.062141731
919656603.77358 0.99737209 -0.063775644 0.0019296505 0.031520322 0.0019636294 0.031772662 0.99712962 -0.063064128
929652830.18868 0.9972567 -0.064558208 0.0019792849 0.031821359 0.0019801036 0.032116491 0.99687934 -0.063991249
939649056.60377 0.99753022 -0.065195501 0.0019884035 0.032142062 0.0020189071 0.032402471 0.99679625 -0.064770252
949645283.01887 0.9974938 -0.066001005 0.0019680173 0.032494102 0.0020111853 0.032762542 0.99647081 -0.06525901
959641509.43396 0.99738371 -0.066719711 0.00198704 0.032887202 0.0020542992 0.033143148 0.99637669 -0.065767169
969637735.84906 0.99723601 -0.067511201 0.0020722784 0.033214882 0.002120249 0.033466794 0.99646908 -0.066110611
979633962.26415 0.99710178 -0.06829948 0.0021525249 0.033528365 0.0021549773 0.033852652 0.99647409 -0.066743203
989630188.67925 0.99713743 -0.068734348 0.0021460401 0.033911146 0.0022043148 0.034215793 0.99662197 -0.067364722
999626415.09434 0.99713755 -0.069411337 0.0022097826 0.034218065 0.0022430792 0.034530059 0.99655855 -0.068360955
1009622641.5094 0.99723715 -0.070090085 0.0022461107 0.034545328 0.0022714036 0.034899063 0.99639469 -0.069181591
1019618867.9245 0.99726337 -0.070928112 0.002305977 0.034917783 0.0023278515 0.035213321 0.99609345 -0.070038557
1029615094.3396 0.99720061 -0.07193011 0.0023422595 0.035244625 0.0024000444 0.035532296 0.99575764 -0.070652366
1039611320.7547 0.99727827 -0.07283777 0.0024163844 0.035543554 0.0024267444 0.035823725 0.99576122 -0.071325421
1049607547.1698 0.9971661 -0.073778979 0.0024186128 0.035879437 0.0024623456 0.036202122 0.99567491 -0.071931958
1059603773.5849 0.99695349 -0.074545115 0.0024594106 0.036187045 0.0024980921 0.036496565 0.99569702 -0.072446197
1069600000 0.99670374 -0.075072765 0.002441816 0.036508739 0.0025458299 0.036856867 0.99586749 -0.073283672
1079596226.4151 0.99664778 -0.075770713 0.0024955636 0.036857605 0.0025631916 0.037179135 0.99577552 -0.073998526
1089592452.8302 0.99676263 -0.07639727 0.0025260998 0.037234053 0.002573818 0.037504639 0.99574107 -0.074734718
1099588679.2453 0.99673373 -0.077045619 0.0025349092 0.037538685 0.002607137 0.037843805 0.99540716 -0.075443685
1109584905.6604 0.99687779 -0.077918023 0.0025576511 0.037871592 0.0026487717 0.038223568 0.99517316 -0.076001465
1119581132.0755 0.99694741 -0.078931265 0.0026024538 0.038273659 0.0026757019 0.038574483 0.99492443 -0.076457806
1129577358.4906 0.99669695 -0.079810411 0.0026329607 0.038617242 0.0027192309 0.038964625 0.99479115 -0.076817632
1139573584.9057 0.99641836 -0.080714017 0.0026843017 0.038959138 0.0027590413 0.039310604 0.99500364 -0.077575982
1149569811.3208 0.99629152 -0.081555262 0.0027661491 0.03928927 0.0028235442 0.039676122 0.99503875 -0.078434862
1159566037.7358 0.99599236 -0.08219254 0.0027867071 0.039605696 0.0028504208 0.039947033 0.99514771 -0.079361051
1169562264.1509 0.9958415 -0.082858086 0.0027956702 0.039922588 0.0028825868 0.040306725 0.99499822 -0.080108851
1179558490.566 0.99579167 -0.083579004 0.0028002793 0.040323157 0.0029248537 0.040648453 0.9948023 -0.080924071
1189554716.9811 0.99581194 -0.08439368 0.002854567 0.04068803 0.0029944675 0.041014634 0.99456495 -0.08146143
1199550943.3962 0.99577737 -0.085189223 0.0028827861 0.041031905 0.0030093826 0.041387137 0.99430853 -0.081837684
1209547169.8113 0.99561101 -0.086128145 0.0029336512 0.041384172 0.0030853692 0.041699715 0.99429268 -0.082246467
1219543396.2264 0.99533015 -0.086990461 0.0029943162 0.041754849 0.0031358744 0.042100843 0.99437076 -0.082624987
1229539622.6415 0.99504638 -0.087873369 0.0030557849 0.042091019 0.0031963866 0.042436823 0.99447715 -0.08330217
1239535849.0566 0.99485624 -0.088470429 0.0031225737 0.042416949 0.0032577096 0.042769313 0.99459773 -0.084301174
1249532075.4717 0.99448782 -0.089225397 0.0031932064 0.042744741 0.0033545503 0.043095931 0.99438316 -0.085180402
1259528301.8868 0.99424732 -0.089692146 0.0032311827 0.04308565 0.0034012944 0.043381702 0.9941501 -0.086037964
1269524528.3019 0.99411422 -0.09049505 0.0033759885 0.043421544 0.0034711063 0.043685939 0.99394047 -0.086729825
1279520754.717 0.99368608 -0.091207609 0.003394716 0.043718152 0.0035238944 0.043982424 0.99364948 -0.087298512
1289516981.1321 0.99359906 -0.092084497 0.0034158276 0.044042435 0.0035354625 0.04430696 0.99362737 -0.087729782
1299513207.5472 0.99328697 -0.092920512 0.0034347437 0.044347048 0.0035483334 0.044640392 0.99382198 -0.088141948
1309509433.9623 0.99272531 -0.093690529 0.0034336988 0.044655845 0.0035853432 0.044933256 0.99385959 -0.088882953
1319505660.3774 0.99237174 -0.094360247 0.0034595504 0.044988211 0.0035866145 0.045280486 0.99385452 -0.089505941
1329501886.7925 0.99206829 -0.095002294 0.0034677051 0.04535114 0.0036074538 0.045593683 0.99386501 -0.090533704
1339498113.2075 0.99174184 -0.09556362 0.0035353443 0.045644686 0.003629134 0.045968145 0.9935109 -0.091242671
1349494339.6226 0.99165022 -0.096091464 0.0035024765 0.046049464 0.0035884897 0.046307117 0.99308288 -0.091790952
1359490566.0377 0.99151337 -0.096762121 0.0034879651 0.046402778 0.0036585238 0.046670541 0.99284017 -0.092490047
1369486792.4528 0.99130106 -0.097251624 0.0035275687 0.046776377 0.0036594998 0.047007255 0.99271941 -0.092862576
1379483018.8679 0.99106443 -0.097945124 0.0035682376 0.047168694 0.0036455267 0.047402211 0.99267125 -0.093240894
1389479245.283 0.99069464 -0.098492265 0.0035926942 0.047573674 0.0037168842 0.047787897 0.99266249 -0.09403646
1399475471.6981 0.99030066 -0.098867565 0.0036635306 0.047936164 0.0037168358 0.048149318 0.99286604 -0.094668597
1409471698.1132 0.98985922 -0.099171273 0.0036376584 0.048292596 0.0037478912 0.048561588 0.99284059 -0.095517687
1419467924.5283 0.98976564 -0.099441171 0.0036969101 0.048676863 0.0037742443 0.048963256 0.99264598 -0.096183121
1429464150.9434 0.98965514 -0.099999428 0.0037218854 0.049110103 0.0038129352 0.049368411 0.99250579 -0.096716881
1439460377.3585 0.98976564 -0.10033669 0.0038170312 0.049606804 0.0038828347 0.049804341 0.99227172 -0.097185627
1449456603.7736 0.98980778 -0.10098974 0.0039483309 0.049998898 0.0039818725 0.050213855 0.99217737 -0.097573787
1459452830.1887 0.98977876 -0.10175425 0.0040972903 0.050398864 0.0041458327 0.050606262 0.99224222 -0.097788453
1469449056.6038 0.98973876 -0.10238683 0.0042804414 0.050754853 0.0042774361 0.051006399 0.9925226 -0.098534554
1479445283.0189 0.98955369 -0.10298345 0.0043785172 0.051024228 0.0044247191 0.051294934 0.99256635 -0.09935198
1489441509.434 0.98947823 -0.10353187 0.0045059845 0.051370412 0.0046169627 0.051659547 0.99243367 -0.10034299
1499437735.8491 0.98936975 -0.10391372 0.0046245325 0.05167295 0.0046895333 0.051919356 0.9923653 -0.10115123
1509433962.2642 0.98936218 -0.10432223 0.0047207773 0.051922705 0.0047401926 0.052196112 0.99208724 -0.10193899
1519430188.6792 0.98937112 -0.10493377 0.0047897883 0.052224435 0.004822256 0.052504014 0.99196512 -0.10248974
1529426415.0943 0.98939985 -0.1055896 0.004839683 0.052502166 0.0048739687 0.052808948 0.99191725 -0.10285801
1539422641.5094 0.98939568 -0.1063989 0.0049068048 0.052833088 0.0049043419 0.053109147 0.99202794 -0.10340951
1549418867.9245 0.98925477 -0.1073107 0.0049557481 0.053121746 0.0049851304 0.05341737 0.99221253 -0.10408036
1559415094.3396 0.98909605 -0.10797235 0.005044654 0.05342032 0.0050018858 0.053742461 0.9923631 -0.10476547
1569411320.7547 0.98890138 -0.10878545 0.0051096017 0.053716883 0.005088198 0.054007713 0.9922725 -0.10564601
1579407547.1698 0.98889178 -0.10933602 0.0051122149 0.054015767 0.0050756913 0.054315023 0.99185014 -0.10645126
1589403773.5849 0.98887801 -0.10980761 0.0051188357 0.054287851 0.0050978996 0.05463358 0.9915967 -0.10722753
1599400000 0.98871648 -0.11030328 0.0051396452 0.054660331 0.0050956495 0.054952465 0.99122936 -0.10763848
1609396226.4151 0.98884583 -0.11104482 0.0051220031 0.054923873 0.0050912425 0.055264834 0.99097186 -0.10812719
1619392452.8302 0.98877496 -0.1116069 0.005149195 0.055327564 0.0050966218 0.055625081 0.99099398 -0.10868037
1629388679.2453 0.9885323 -0.11237717 0.0051501971 0.055659354 0.0050985198 0.056040335 0.99126351 -0.10923398
1639384905.6604 0.9882921 -0.11299118 0.0051820055 0.056055237 0.0050914129 0.056434121 0.99149197 -0.11017733
1649381132.0755 0.98812461 -0.11364037 0.0051770099 0.05639413 0.0051669274 0.056798905 0.99143893 -0.111121
1659377358.4906 0.98791319 -0.11445832 0.0052079838 0.056767013 0.0052038282 0.057185598 0.99140543 -0.11193159
1669373584.9057 0.98785514 -0.11499326 0.005246629 0.057207156 0.0052198707 0.057597157 0.99106109 -0.11251462
1679369811.3208 0.98796505 -0.11561081 0.0053138994 0.057584304 0.0052992553 0.058002751 0.99081314 -0.11313325
1689366037.7358 0.98790497 -0.11631617 0.0053791124 0.057939976 0.0053254124 0.058343939 0.99069828 -0.11345863
1699362264.1509 0.98796713 -0.11693762 0.0054140864 0.058322258 0.0053840885 0.058760583 0.99087757 -0.11389799
1709358490.566 0.9879058 -0.11762178 0.0054533994 0.058733653 0.0054730913 0.059138186 0.9908675 -0.11448534
1719354716.9811 0.98761082 -0.11819944 0.005554175 0.059099574 0.005530322 0.059564251 0.99091172 -0.11517379
1729350943.3962 0.98733616 -0.11881369 0.0056100544 0.059494931 0.0056273937 0.059970476 0.99093938 -0.11608246
