!Keysight Technologies,N5222B,MY61253708,A.15.00.15
!Date: Wednesday, June 19, 2024 10:02:36
!Correction: S11(C  2-Port  ) 
!S21(C  2-Port  ) 
!S12(C  2-Port  ) 
!S22(C  2-Port  ) 
!S2P File: Measurements: S11, S21, S12, S22:
# Hz S  RI   R 50
10000000 0.99860549 -0.0028002262 -0.00028459373 0.00025454425 3.6644378e-005 0.0003583931 0.99855143 -0.0013993382
19996226.415094 1.0003229 -0.0029494762 3.6094221e-005 0.00077261729 0.00010414052 0.00070824882 1.0001935 -0.0029153228
29992452.830189 0.99978602 -0.0025412738 1.195501e-005 0.00090360234 -1.5812111e-007 0.0010172019 0.99941325 -0.0026567876
39988679.245283 1.0000857 -0.0029754937 -4.1104853e-005 0.0013555568 1.9296e-005 0.001368202 0.99971879 -0.0029826462
49984905.660377 1.0001988 -0.0036687553 -2.5323185e-005 0.0016527274 2.4418114e-006 0.0016160669 0.9998669 -0.0036090016
59981132.075472 1.0004379 -0.0044949651 2.0191073e-005 0.0019385323 1.3527635e-005 0.0020037193 0.99986398 -0.0042247176
69977358.490566 1.0001855 -0.0051051881 3.6075253e-006 0.0023081184 1.5947808e-007 0.0023402143 0.99968988 -0.0047741197
79973584.90566 0.99995607 -0.0056645572 1.43504e-005 0.0026482162 7.23626e-006 0.002606625 0.99936801 -0.005271256
89969811.320755 1.0000122 -0.0057579279 2.942048e-005 0.0029566837 3.1124917e-005 0.0029580244 0.99962342 -0.0055144429
99966037.735849 1.0002859 -0.006470114 4.0952698e-005 0.0032925629 3.4911965e-005 0.0033124378 0.99968565 -0.0062857121
109962264.15094 1.0002161 -0.0073965639 1.6490754e-005 0.0036193489 3.1180913e-005 0.0036352966 0.99967855 -0.007042855
119958490.56604 1.0002362 -0.0082733333 1.6039587e-005 0.0039356188 5.2197604e-005 0.0039576138 0.9996686 -0.0079236925
129954716.98113 1.0002086 -0.0092232525 3.4858589e-005 0.0042594988 3.0328287e-005 0.0043031597 0.99972093 -0.0087688267
139950943.39623 1.0001616 -0.010010531 5.7558267e-005 0.0045986176 3.1085627e-005 0.0046029952 0.99962902 -0.0095310789
149947169.81132 1.0000167 -0.010690838 6.0366001e-005 0.0049508465 4.0405197e-005 0.0049560089 0.9995681 -0.010144502
159943396.22642 0.99996507 -0.011240572 4.9282331e-005 0.0052700695 6.3415151e-005 0.0052801166 0.99963492 -0.010615915
169939622.64151 0.99994773 -0.011600785 6.7788176e-005 0.0055854297 6.3300482e-005 0.0056190705 0.99966884 -0.011072896
179935849.0566 1.0000491 -0.011866748 5.8739097e-005 0.0059265173 5.1899115e-005 0.0059720092 0.9995476 -0.011461645
189932075.4717 1.0001616 -0.012651145 8.1882346e-005 0.0062368396 4.7578942e-005 0.0062839566 0.99976146 -0.012016505
199928301.88679 1.0000823 -0.013424754 9.0478803e-005 0.0065671466 8.5513922e-005 0.0066202632 0.99966288 -0.01283887
209924528.30189 0.99984115 -0.014070958 0.00010445539 0.0068934094 0.00012183574 0.0069136405 0.9994393 -0.013479337
219920754.71698 0.99996167 -0.014791697 0.00010958686 0.0072159325 0.00012238906 0.0072723953 0.99938977 -0.014126867
229916981.13208 0.99971294 -0.015708119 0.00013605901 0.0075595602 0.00011353381 0.007604572 0.99936724 -0.014914811
239913207.54717 0.99962962 -0.016333574 0.00013439468 0.0078689391 0.00010315794 0.0079238238 0.99933988 -0.015661728
249909433.96226 0.99964273 -0.016968638 0.00013268227 0.0082240747 0.00015805382 0.008262259 0.99938178 -0.016250014
259905660.37736 0.99972951 -0.017623305 0.00015107775 0.0085495077 0.00016672257 0.0085310359 0.99958003 -0.016838551
269901886.79245 0.99976891 -0.018234238 0.00015829829 0.0088507049 0.00018413214 0.0089046834 0.99994242 -0.017482176
279898113.20755 1.0000035 -0.01879932 0.00012772088 0.0091569955 0.00021149614 0.0092211189 0.99981004 -0.018263474
289894339.62264 0.99989295 -0.019591451 0.00016794447 0.0095129479 0.00019488111 0.0095319785 0.99966514 -0.01904875
299890566.03774 0.99986374 -0.02004832 0.00021152943 0.0098371115 0.00021178578 0.009920611 0.99942613 -0.019445032
309886792.45283 0.99967349 -0.020624071 0.00018044002 0.010162528 0.00018283643 0.010255962 0.9993729 -0.019921258
319883018.86792 0.9997617 -0.021294326 0.00024398696 0.010508814 0.00024929829 0.010575853 0.99945402 -0.020403266
329879245.28302 0.99972802 -0.021974385 0.00023565674 0.010844629 0.00024168519 0.01090453 0.99958265 -0.02116853
339875471.69811 0.99968517 -0.022782855 0.00026423612 0.011184477 0.00025982747 0.011211812 0.99947613 -0.021923639
349871698.11321 0.99978071 -0.023653924 0.00029823324 0.011491086 0.00026418641 0.011537797 0.99939632 -0.022819668
359867924.5283 0.99958563 -0.024474502 0.00027287286 0.01181329 0.00028127432 0.011863193 0.99940503 -0.023688376
369864150.9434 0.9997412 -0.025215358 0.00031060702 0.01215535 0.00027011917 0.012246944 0.99938607 -0.024356782
379860377.35849 0.99959701 -0.025881112 0.00034263916 0.012468725 0.00033269683 0.012541694 0.99925643 -0.025111973
389856603.77358 0.99956012 -0.026500881 0.00033528218 0.012778364 0.00033367192 0.01285622 0.99932325 -0.025512546
399852830.18868 0.99939239 -0.027182728 0.00037982687 0.013133485 0.00031514931 0.013178607 0.99936497 -0.025987834
409849056.60377 0.99936432 -0.027615687 0.00036796555 0.013476348 0.00033539059 0.013510653 0.9993425 -0.026514543
419845283.01887 0.99933577 -0.028046846 0.00041500339 0.013784361 0.00038202712 0.013828249 0.99939191 -0.027133197
429841509.43396 0.99933183 -0.028655112 0.00039629545 0.014108311 0.00039922819 0.014170559 0.99956274 -0.027875006
439837735.84906 0.99914008 -0.029580757 0.0004491657 0.014402826 0.0004554959 0.014471146 0.99938941 -0.028789684
449833962.26415 0.99904269 -0.030389756 0.00042748125 0.01471321 0.00043092761 0.014814707 0.99900466 -0.029544771
459830188.67925 0.99890178 -0.030992091 0.00045104232 0.015052835 0.00043186592 0.015135365 0.99875438 -0.030203283
469826415.09434 0.99882555 -0.031715304 0.0004553413 0.015398291 0.00045510242 0.015509306 0.9985522 -0.030794442
479822641.50943 0.99872786 -0.032264881 0.00049286778 0.015730808 0.00049131387 0.015827209 0.9986189 -0.031252511
489818867.92453 0.99872959 -0.032821 0.00050468463 0.016060315 0.00050376356 0.016143119 0.99886525 -0.031814933
499815094.33962 0.99892282 -0.033376306 0.00055238977 0.016390461 0.00054157525 0.016469628 0.9991098 -0.032438308
509811320.75472 0.99900812 -0.033712372 0.00051219569 0.016725177 0.00053226203 0.016781313 0.99924302 -0.033227202
519807547.16981 0.99891782 -0.034309596 0.00056858035 0.017047316 0.00056172349 0.017076934 0.99919903 -0.03395611
529803773.58491 0.99881327 -0.034829766 0.00056138355 0.017380618 0.00057554711 0.017438566 0.99897456 -0.034499943
539800000 0.99896562 -0.035584375 0.00060993037 0.017696468 0.00060966099 0.017759528 0.99881756 -0.035142809
549796226.41509 0.99890763 -0.036306083 0.00063349912 0.017988035 0.00063605141 0.018124549 0.99874574 -0.035618037
559792452.83019 0.99872482 -0.037049472 0.00069468003 0.018363897 0.00065762922 0.018445116 0.99863446 -0.0361422
569788679.24528 0.99855632 -0.037689328 0.00068185013 0.018674772 0.00066771358 0.018777845 0.99881363 -0.036900759
579784905.66038 0.99859667 -0.038242936 0.00067732204 0.019023331 0.0007011831 0.019110428 0.9988547 -0.037571229
589781132.07547 0.998667 -0.038933963 0.00073547568 0.019333951 0.00071755517 0.019421956 0.99904096 -0.038441658
599777358.49057 0.99872148 -0.03951177 0.00075601041 0.019664375 0.00077261869 0.019753437 0.99904186 -0.039247364
609773584.90566 0.99885637 -0.040299315 0.00078402855 0.019960683 0.00078924419 0.020067308 0.99883866 -0.040118128
619769811.32075 0.99898791 -0.040947527 0.00083864527 0.020296855 0.0008942103 0.020449894 0.99885547 -0.040662616
629766037.73585 0.99892318 -0.041581661 0.00085963495 0.020615261 0.00086720381 0.020707972 0.99866378 -0.041180938
639762264.15094 0.99869353 -0.042247355 0.00089342589 0.020953245 0.00085595204 0.021015996 0.99851137 -0.041628912
649758490.56604 0.99867469 -0.042862043 0.00087802205 0.021263132 0.00087047555 0.021348443 0.99855071 -0.042136729
659754716.98113 0.99854398 -0.043379813 0.00089230668 0.02157232 0.00087903906 0.021672137 0.99864542 -0.042609215
669750943.39623 0.99854541 -0.043807358 0.00088816322 0.021924805 0.00092526991 0.022026375 0.99870491 -0.043421388
679747169.81132 0.99846745 -0.044631794 0.00095864071 0.022264307 0.00095215486 0.022388021 0.99864143 -0.044290744
689743396.22642 0.99867523 -0.045408636 0.00099506509 0.022588424 0.0010089697 0.022747057 0.99847043 -0.045154035
699739622.64151 0.99877107 -0.046164066 0.001024819 0.022931779 0.0010573203 0.023054097 0.99843347 -0.045924634
709735849.0566 0.99873978 -0.047105171 0.0010849674 0.023259589 0.0010692142 0.023334585 0.99819702 -0.046498306
719732075.4717 0.99868703 -0.047805011 0.0011285259 0.023536505 0.0011052047 0.023661725 0.99829745 -0.047143161
729728301.88679 0.99852598 -0.048324525 0.0011493964 0.023845095 0.0011506593 0.02397494 0.99829412 -0.047588378
739724528.30189 0.99838424 -0.048910335 0.0011571352 0.024166567 0.0011553979 0.024323395 0.99844503 -0.048308775
749720754.71698 0.99832213 -0.049483582 0.00121844 0.024515703 0.0012105051 0.02461046 0.99851114 -0.049015373
759716981.13208 0.99837863 -0.050007582 0.0012181615 0.024801854 0.0012460761 0.024933435 0.99841201 -0.049741775
769713207.54717 0.99835521 -0.050723255 0.0012656786 0.025123384 0.0012289565 0.025259851 0.99818224 -0.050429285
779709433.96226 0.99846208 -0.051269993 0.0012845721 0.025469061 0.0012816802 0.025591966 0.99798524 -0.051044531
789705660.37736 0.99830288 -0.05228126 0.0013541179 0.025748909 0.0013345433 0.025884237 0.99772185 -0.051745772
799701886.79245 0.99827456 -0.052999735 0.0013369648 0.026109893 0.0013527703 0.026228979 0.99762547 -0.052312076
809698113.20755 0.99817145 -0.053600118 0.0013830287 0.026417641 0.0013330656 0.026542898 0.99765694 -0.052769497
819694339.62264 0.99801141 -0.054185063 0.0014173905 0.026731353 0.0013906411 0.026883665 0.99775547 -0.053397357
829690566.03774 0.9979955 -0.054946214 0.0014485708 0.027031368 0.0014506783 0.027193213 0.99797285 -0.054236621
839686792.45283 0.99800766 -0.055359572 0.0014752778 0.027367217 0.0014715809 0.027490908 0.99797529 -0.055015147
849683018.86792 0.99807388 -0.05601754 0.0014832269 0.027704209 0.0014750075 0.027821114 0.99794114 -0.055789843
859679245.28302 0.99812829 -0.056655169 0.0015026713 0.027999345 0.0015458325 0.02818162 0.99767005 -0.056422859
869675471.69811 0.99800199 -0.057395995 0.0015841294 0.028330844 0.0015787184 0.028503278 0.99737352 -0.056972265
879671698.11321 0.99795491 -0.05797717 0.001600581 0.028606329 0.0016231919 0.028815111 0.99733829 -0.057401344
889667924.5283 0.99774736 -0.05881685 0.0016411832 0.028908072 0.0016388157 0.029118849 0.99719656 -0.057911366
899664150.9434 0.99766356 -0.059527487 0.0016633505 0.029241279 0.0016640844 0.029404148 0.99722493 -0.058422238
909660377.35849 0.99761474 -0.06011714 0.0017051171 0.029589748 0.0017126021 0.029707437 0.99740273 -0.059306905
919656603.77358 0.99771655 -0.060770243 0.001697714 0.029904738 0.0017168522 0.030066308 0.99743444 -0.060154811
929652830.18868 0.99769437 -0.06145072 0.0017365944 0.030217174 0.0017302074 0.03036778 0.99721944 -0.061034739
939649056.60377 0.99786234 -0.062099129 0.0017267363 0.030510636 0.0017455472 0.030717641 0.99710476 -0.061749995
949645283.01887 0.99775863 -0.062890843 0.0017469248 0.03086379 0.0017514151 0.031056223 0.99687099 -0.062343664
959641509.43396 0.99771094 -0.063555449 0.0017769272 0.031210208 0.0017915852 0.031392813 0.99685764 -0.062795192
969637735.84906 0.99761981 -0.064343452 0.0018341932 0.031541515 0.001826616 0.03172867 0.9968431 -0.063149631
979633962.26415 0.99751377 -0.065001607 0.0018766748 0.031859551 0.0019127144 0.03203297 0.99686873 -0.063837133
989630188.67925 0.99760461 -0.065550029 0.0019382183 0.032168426 0.0019128229 0.032397229 0.99705553 -0.064414948
999626415.09434 0.99770403 -0.066113561 0.0019191811 0.032465771 0.0019528074 0.032701463 0.99700046 -0.065279216
1009622641.5094 0.99765742 -0.066822544 0.001957777 0.032822877 0.0020009857 0.033041172 0.99687076 -0.066049904
1019618867.9245 0.99773508 -0.067564428 0.0020035924 0.033147272 0.0020607244 0.033342738 0.99660373 -0.066856608
1029615094.3396 0.99769825 -0.068484306 0.0020854734 0.03343809 0.0020995755 0.033626352 0.99621654 -0.067459077
1039611320.7547 0.9977479 -0.069305718 0.0020921249 0.033743814 0.0021065464 0.033938758 0.99624509 -0.068046212
1049607547.1698 0.99756712 -0.070274815 0.0021553806 0.034055937 0.0021572621 0.034260847 0.99619937 -0.068671845
1059603773.5849 0.997482 -0.070865601 0.0021304861 0.034316286 0.0021751914 0.034567051 0.99615598 -0.069192231
1069600000 0.9973743 -0.071570843 0.0021584723 0.034652609 0.0021965299 0.034852151 0.99632514 -0.069919825
1079596226.4151 0.99735034 -0.072201349 0.0021655159 0.034991685 0.0022172383 0.035204235 0.99631172 -0.070731118
1089592452.8302 0.9973107 -0.072886765 0.0021780683 0.035328962 0.002254772 0.035512853 0.99627948 -0.071433842
1099588679.2453 0.99741769 -0.073547184 0.0022032987 0.035641637 0.0022415202 0.03584563 0.99596262 -0.072096497
1109584905.6604 0.9974705 -0.074320838 0.0022278512 0.035939105 0.0022735707 0.036206093 0.99575955 -0.072616339
1119581132.0755 0.99746442 -0.075297356 0.0022541634 0.036320984 0.0022966019 0.036541134 0.99556011 -0.073036298
1129577358.4906 0.99727124 -0.075914741 0.0023055766 0.036676537 0.002346497 0.036917064 0.99542516 -0.073464096
1139573584.9057 0.99705327 -0.076895684 0.0023321295 0.036985401 0.0023988746 0.037208665 0.99559373 -0.074154586
1149569811.3208 0.9969244 -0.077737324 0.0023850277 0.037301075 0.0024430626 0.037546791 0.99566293 -0.074826814
1159566037.7358 0.99673522 -0.078339994 0.0024351198 0.037600212 0.0024840795 0.037849545 0.99583536 -0.075833589
1169562264.1509 0.99650931 -0.079054058 0.0024355464 0.037917309 0.00249766 0.038156819 0.99555296 -0.076617002
1179558490.566 0.99651957 -0.079829559 0.002435931 0.038300347 0.00250918 0.038508549 0.99546576 -0.077344552
1189554716.9811 0.99647611 -0.080541044 0.002507519 0.0386164 0.0025759554 0.038856268 0.9952262 -0.077873707
1199550943.3962 0.99648362 -0.081410259 0.0025121812 0.038962081 0.002631925 0.039197944 0.99495983 -0.078335434
1209547169.8113 0.9963395 -0.082287699 0.0025550984 0.039295301 0.002640971 0.039495546 0.99498248 -0.078598574
1219543396.2264 0.99610418 -0.082997635 0.0026127398 0.039650526 0.0026886808 0.039877579 0.99501854 -0.079019591
1229539622.6415 0.99585402 -0.083828032 0.0026827287 0.039973613 0.0027675722 0.040206026 0.99518961 -0.079687864
1239535849.0566 0.99561256 -0.084498584 0.0027581751 0.040274676 0.0028347624 0.040531892 0.99527335 -0.080609143
1249532075.4717 0.99531859 -0.085135207 0.0028187982 0.040621608 0.0028948579 0.040837426 0.99509603 -0.081435174
1259528301.8868 0.99506259 -0.08560589 0.0028308593 0.040947855 0.0029599629 0.041149788 0.99486363 -0.082237482
1269524528.3019 0.99495065 -0.086362511 0.0028952435 0.04124048 0.0030201226 0.041429833 0.99466097 -0.082843065
1279520754.717 0.99461669 -0.087081522 0.0029374217 0.041540988 0.0030729787 0.041708093 0.99441749 -0.08344879
1289516981.1321 0.99449849 -0.087945461 0.0029924707 0.041817132 0.003051227 0.042002942 0.99445468 -0.083905429
1299513207.5472 0.99415314 -0.088737279 0.0029775724 0.0421317 0.0030936282 0.042300742 0.99458897 -0.084355503
1309509433.9623 0.99378765 -0.08947809 0.0029714387 0.042427428 0.0031161234 0.042611159 0.99466395 -0.084998563
1319505660.3774 0.99337244 -0.090192407 0.0030168742 0.042779595 0.003129717 0.042930108 0.9946751 -0.085685894
1329501886.7925 0.9931742 -0.090846986 0.003024172 0.04309725 0.0031428244 0.043251973 0.99474168 -0.086684287
1339498113.2075 0.99288303 -0.091266364 0.0030199373 0.043412223 0.0031584641 0.04356664 0.99442518 -0.087292731
1349494339.6226 0.99273658 -0.09191075 0.0030042091 0.043742642 0.0031194552 0.043903571 0.99398142 -0.087915778
1359490566.0377 0.99260193 -0.092465341 0.0030457117 0.044083871 0.0031512473 0.044267859 0.99379528 -0.088463843
1369486792.4528 0.99233651 -0.092973053 0.0030522011 0.04445181 0.0031804806 0.044586066 0.99359739 -0.088913679
1379483018.8679 0.99212146 -0.093518451 0.0030710741 0.044820845 0.003159225 0.044944543 0.99366432 -0.089216091
1389479245.283 0.99179882 -0.094055086 0.0031266101 0.045214094 0.0031736698 0.045331839 0.99358106 -0.089884073
1399475471.6981 0.99135125 -0.09441945 0.0031361245 0.045511138 0.0032105148 0.045684122 0.99375743 -0.090559542
1409471698.1132 0.99111563 -0.094799608 0.0031470712 0.045909554 0.0032276055 0.046049852 0.99385166 -0.091398396
1419467924.5283 0.99096 -0.095134556 0.0032182895 0.046286575 0.0032442836 0.046401545 0.99355352 -0.092180043
1429464150.9434 0.99078166 -0.095629692 0.0032236576 0.046672322 0.0033166073 0.046806134 0.99352539 -0.092718393
1439460377.3585 0.9909268 -0.096070111 0.0033102408 0.047105152 0.0033451822 0.047237661 0.99335754 -0.093047559
1449456603.7736 0.99098438 -0.096586332 0.0034141326 0.047518134 0.0034884168 0.047592442 0.99318945 -0.093350187
1459452830.1887 0.99091446 -0.097221196 0.0035812054 0.047901038 0.0035840813 0.048037082 0.9932394 -0.093657255
1469449056.6038 0.99103165 -0.09786588 0.0036707921 0.048255086 0.0037310626 0.048349772 0.99352211 -0.094273299
1479445283.0189 0.99092597 -0.09839654 0.0038164961 0.048530757 0.0038473946 0.048659805 0.9936313 -0.095075168
1489441509.434 0.99081492 -0.098987103 0.0039296653 0.048833385 0.003966935 0.048984021 0.99347186 -0.096041143
1499437735.8491 0.99062765 -0.099275917 0.0040720738 0.049095552 0.0041080527 0.049215987 0.99340761 -0.096876085
1509433962.2642 0.99060577 -0.099874824 0.0041279658 0.049347755 0.0041654571 0.049501311 0.99321049 -0.097567096
1519430188.6792 0.99069887 -0.10039786 0.0042150412 0.049642377 0.0042272266 0.049769945 0.99306297 -0.098143369
1529426415.0943 0.99065816 -0.10115317 0.0042469781 0.049920708 0.0042498466 0.050055549 0.99301767 -0.09865728
1539422641.5094 0.99070913 -0.10187456 0.0042996472 0.050222788 0.0043335482 0.050391104 0.99309373 -0.099082209
1549418867.9245 0.99047244 -0.10270379 0.0043617608 0.050490636 0.0043646181 0.050666269 0.99323159 -0.099779114
1559415094.3396 0.99043989 -0.10336891 0.0044448283 0.050805025 0.0043628924 0.05095727 0.99338639 -0.10045624
1569411320.7547 0.99031991 -0.10405573 0.0044393549 0.051056791 0.0044767885 0.051230501 0.99329877 -0.10121606
1579407547.1698 0.99027991 -0.104432 0.0044882507 0.051304597 0.0044569415 0.051523056 0.99301946 -0.10199606
1589403773.5849 0.99024922 -0.10512921 0.0044736825 0.051620528 0.0044883825 0.051797234 0.99272978 -0.10267904
1599400000 0.99017763 -0.1055938 0.0044599371 0.05191987 0.0044467822 0.052117441 0.99238783 -0.10324126
1609396226.4151 0.99016678 -0.10622731 0.0044599683 0.052212346 0.0044528833 0.052420754 0.99220812 -0.103674
1619392452.8302 0.9900682 -0.10678816 0.0044958666 0.052563854 0.0044486932 0.052765451 0.99217808 -0.10417107
1629388679.2453 0.98995256 -0.10751969 0.004496716 0.052894365 0.0044430308 0.053147633 0.99242622 -0.10457852
1639384905.6604 0.98972678 -0.10813604 0.0044599557 0.053260282 0.0044619259 0.053483836 0.99259716 -0.10549777
1649381132.0755 0.98952401 -0.10885695 0.0045101512 0.053613085 0.004484253 0.053827584 0.99256432 -0.10638317
1659377358.4906 0.98935783 -0.10960531 0.004523769 0.053975686 0.0045116842 0.054179907 0.99262667 -0.10720822
1669373584.9057 0.98930663 -0.11008877 0.0045678108 0.054345086 0.0045522242 0.054576654 0.99232572 -0.108003
1679369811.3208 0.98937184 -0.11073121 0.0046070553 0.054716375 0.0045627449 0.054930095 0.99208975 -0.10849854
1689366037.7358 0.98929977 -0.11141023 0.0046367329 0.055060498 0.0046011843 0.055353031 0.99186021 -0.10883635
1699362264.1509 0.98943299 -0.11187987 0.0047126329 0.0554692 0.0046782764 0.055711173 0.99215138 -0.10920036
1709358490.566 0.98938084 -0.11261883 0.0047456743 0.05578959 0.0047455793 0.056072999 0.99212855 -0.10971127
1719354716.9811 0.98906344 -0.11320716 0.0048237815 0.056203041 0.0047702435 0.05646541 0.99213481 -0.11042336
1729350943.3962 0.98881912 -0.11374363 0.0048698299 0.056575932 0.0048446842 0.056813642 0.99214888 -0.11117911
