!Keysight Technologies,N5222B,MY61253708,A.15.00.15
!Date: Wednesday, June 19, 2024 08:41:50
!Correction: S11(C  2-Port  ) 
!S21(C  2-Port  ) 
!S12(C  2-Port  ) 
!S22(C  2-Port  ) 
!S2P File: Measurements: S11, S21, S12, S22:
# Hz S  RI   R 50
10000000 0.99872708 -0.0027825236 -0.00038826378 0.00017747741 -0.0003018766 0.00022094903 0.99853575 -0.0010745823
19996226.415094 0.99893188 -0.0022021532 -5.27667e-006 0.00070885848 -3.4423138e-006 0.00080469617 0.99922836 -0.0022294521
29992452.830189 0.99990785 -0.0027710497 6.0327584e-006 0.0013015713 2.2715481e-005 0.0013341295 0.99954444 -0.0029206574
39988679.245283 1.0000957 -0.0034710318 8.4921572e-005 0.0017013336 6.1033919e-005 0.0016735963 0.99965018 -0.0034926683
49984905.660377 1.0001445 -0.0043086112 3.6356505e-007 0.0021121739 1.7570157e-005 0.0021342617 0.9997496 -0.0041765869
59981132.075472 1.0002314 -0.0052283704 -3.8689468e-006 0.0025650398 1.9147177e-005 0.0025384284 0.99969167 -0.0047253668
69977358.490566 1.0000181 -0.0057072341 -2.0537984e-005 0.0029631304 1.6289036e-005 0.002950521 0.99953949 -0.0053124502
79973584.90566 0.99982959 -0.0063809752 3.9617298e-005 0.0034180714 5.5923243e-005 0.003399295 0.99933976 -0.0059445798
89969811.320755 0.99977368 -0.0067696869 5.4691103e-005 0.0038363137 1.4586025e-005 0.0037933276 0.99939555 -0.0064053535
99966037.735849 0.99996161 -0.0075039119 3.7920894e-005 0.0042771371 3.2082258e-005 0.0042171511 0.99949205 -0.0072306693
109962264.15094 1.000019 -0.008595258 6.363634e-005 0.0046813176 4.67801e-005 0.004668979 0.99951148 -0.0081557035
119958490.56604 1.0000274 -0.0096633136 6.6165114e-005 0.0050924937 6.1396742e-005 0.0050887787 0.99954808 -0.0091601312
129954716.98113 1.0000114 -0.01085636 5.7899393e-005 0.0055284421 9.4444491e-005 0.0055268975 0.99953353 -0.010191739
139950943.39623 0.99990886 -0.01173673 8.1131657e-005 0.0059456835 7.7626537e-005 0.0059400266 0.99943548 -0.011021776
149947169.81132 0.99974698 -0.01249069 9.5024239e-005 0.0063831955 9.9290162e-005 0.0063670562 0.9993608 -0.011715859
159943396.22642 0.99972105 -0.013038874 0.0001120735 0.0068106153 0.00010336307 0.0067804032 0.99946243 -0.012221634
169939622.64151 0.9997676 -0.013484709 0.00011635618 0.0072350386 0.00011837954 0.0072127897 0.99955428 -0.012738533
179935849.0566 0.99980462 -0.013887793 0.00014410587 0.0076574367 0.00012440514 0.0076605901 0.99945074 -0.013212979
189932075.4717 0.99994034 -0.014715254 0.00013323175 0.0080386475 0.00018675765 0.0080411192 0.99966609 -0.013910353
199928301.88679 0.99984878 -0.015673429 0.00021011126 0.0084812334 0.00016905484 0.0084477076 0.99954033 -0.014904529
209924528.30189 0.99954122 -0.016515464 0.00018131628 0.0089428555 0.00017460273 0.0089057777 0.99928123 -0.01577583
219920754.71698 0.99952596 -0.017483562 0.00021692086 0.0093627162 0.00023070024 0.0093056969 0.99909806 -0.01659587
229916981.13208 0.99924958 -0.018533349 0.00021699816 0.0097775739 0.0002064486 0.0097308727 0.99894476 -0.017451465
239913207.54717 0.99910986 -0.019228946 0.00024774933 0.01018838 0.00021054028 0.010179599 0.99893975 -0.018170293
249909433.96226 0.99917752 -0.019897699 0.00024872716 0.010605378 0.00024232152 0.010577573 0.99910736 -0.018918425
259905660.37736 0.99924064 -0.020673841 0.00023030769 0.011034574 0.00025865668 0.011018308 0.99929786 -0.019695401
269901886.79245 0.9995594 -0.021305799 0.00026721135 0.011486081 0.00032646954 0.01146552 0.99957222 -0.02038756
279898113.20755 0.99961787 -0.022129983 0.00030627591 0.011903939 0.00027228752 0.011841423 0.99950391 -0.021198899
289894339.62264 0.99958861 -0.022963256 0.00034960313 0.012321174 0.00034849299 0.012246923 0.99948633 -0.022076994
299890566.03774 0.99951249 -0.023613691 0.00035066903 0.012746776 0.00037169363 0.012698952 0.99916947 -0.022631645
309886792.45283 0.99913239 -0.024315119 0.00037710147 0.013163389 0.00039863365 0.013121453 0.99898267 -0.0232412
319883018.86792 0.99891019 -0.025033236 0.00040900195 0.013565841 0.00035161059 0.013532975 0.99893445 -0.023747414
329879245.28302 0.99889004 -0.025734514 0.00042094104 0.014008749 0.00040770229 0.014001025 0.99903899 -0.024640471
339875471.69811 0.99893409 -0.026491523 0.00045603933 0.014455956 0.00039487064 0.014395164 0.99902058 -0.025425859
349871698.11321 0.99907583 -0.027467519 0.00046549132 0.014849613 0.00048613036 0.014828498 0.99907267 -0.026438504
359867924.5283 0.9990105 -0.028410077 0.00053743087 0.015234929 0.00049925502 0.015223777 0.99900979 -0.027479142
369864150.9434 0.99916369 -0.029237926 0.00053068902 0.015688904 0.00055649178 0.015689582 0.99897665 -0.028292477
379860377.35849 0.99897903 -0.030101448 0.00059642643 0.016112123 0.00055486546 0.016066797 0.99894011 -0.029100269
389856603.77358 0.9989289 -0.030787975 0.00060739694 0.016522076 0.00059451116 0.016454048 0.99888837 -0.029618979
399852830.18868 0.99879199 -0.031443924 0.00060868356 0.016911995 0.00057981536 0.016879439 0.99891889 -0.030162036
409849056.60377 0.99876976 -0.031924598 0.0006698349 0.017417088 0.00060728646 0.017319402 0.99893093 -0.030655749
419845283.01887 0.99873686 -0.032493412 0.00071481802 0.017807528 0.0006847484 0.017793864 0.99895132 -0.031343341
429841509.43396 0.99863845 -0.033204526 0.00074846484 0.018241176 0.00070291851 0.018172557 0.99907166 -0.032211334
439837735.84906 0.99866343 -0.03423354 0.00080704154 0.018623212 0.00079833949 0.018553201 0.99880326 -0.033226743
449833962.26415 0.99859691 -0.035227805 0.00078373728 0.01899419 0.000783036 0.018945111 0.99850929 -0.034131795
459830188.67925 0.99853969 -0.036096275 0.00075479597 0.01942089 0.00077917706 0.019361364 0.99838251 -0.035057724
469826415.09434 0.99845076 -0.037053734 0.00082509872 0.019854991 0.00077765621 0.019846607 0.99813271 -0.035690308
479822641.50943 0.99825352 -0.037746295 0.00086053135 0.020256212 0.00083528296 0.020271236 0.99813205 -0.036290899
489818867.92453 0.99837756 -0.03831476 0.00088918582 0.020750288 0.000876748 0.020696236 0.99847114 -0.036862791
499815094.33962 0.99856591 -0.038899183 0.00093841646 0.02113853 0.00094992947 0.02110404 0.9987011 -0.037605673
509811320.75472 0.99856764 -0.039476201 0.00097267958 0.021487128 0.0009486968 0.021505356 0.99889493 -0.038456343
519807547.16981 0.99857551 -0.040041834 0.0010556262 0.021956312 0.00099004619 0.021890113 0.99887794 -0.039420456
529803773.58491 0.99849761 -0.040918708 0.00098793674 0.022393741 0.0010163896 0.022398094 0.99857008 -0.040068179
539800000 0.99840921 -0.041650921 0.0010753791 0.022836214 0.0010380268 0.022802854 0.99832386 -0.040915325
549796226.41509 0.99814367 -0.042729408 0.0010799854 0.023244916 0.0010778159 0.023229625 0.99807364 -0.041542143
559792452.83019 0.99786758 -0.04357335 0.0011071162 0.023687001 0.0011416897 0.023580842 0.99794853 -0.042078853
569788679.24528 0.99782926 -0.044293821 0.0011875588 0.02410008 0.0011576153 0.02400467 0.99804831 -0.042845726
579784905.66038 0.9978013 -0.044895805 0.0012323116 0.02451358 0.0011766015 0.02449294 0.99825513 -0.043686248
589781132.07547 0.99794173 -0.045653343 0.0012939237 0.024945281 0.0012805946 0.02491308 0.99831611 -0.044757456
599777358.49057 0.99804056 -0.046460152 0.0013413103 0.025392076 0.0013222322 0.02533935 0.998474 -0.045654088
609773584.90566 0.99823767 -0.047256641 0.0014190257 0.025804035 0.0013987201 0.025784023 0.99817669 -0.046649717
619769811.32075 0.99822223 -0.048117012 0.0015263436 0.026209395 0.0014887983 0.026143944 0.99805057 -0.047205687
629766037.73585 0.99798948 -0.048791468 0.0015569301 0.026601031 0.0015179347 0.026515141 0.99782932 -0.047749698
639762264.15094 0.99775046 -0.049509078 0.0015598373 0.026973773 0.0015222491 0.026890136 0.99767578 -0.048301056
649758490.56604 0.99754906 -0.050225243 0.0015607537 0.02736005 0.0015195538 0.027287938 0.99772322 -0.048746869
659754716.98113 0.9974314 -0.050746351 0.0015834989 0.027781479 0.0015485426 0.027757481 0.99777269 -0.049442321
669750943.39623 0.99740565 -0.051302433 0.0016197059 0.028222354 0.0015593832 0.028198957 0.99795002 -0.050314367
679747169.81132 0.9973942 -0.052115768 0.0016652482 0.028716125 0.001647449 0.028634097 0.99779075 -0.051454619
689743396.22642 0.997563 -0.053185076 0.0017598467 0.029112134 0.0016941307 0.029042333 0.99756449 -0.052531064
699739622.64151 0.99773371 -0.054001808 0.0018080808 0.02953174 0.0017738668 0.029452041 0.99753135 -0.053334534
709735849.0566 0.99760795 -0.05503913 0.001896265 0.029927623 0.0018502919 0.029869217 0.9971689 -0.054060876
719732075.4717 0.99754792 -0.055801481 0.001876791 0.030315822 0.0018709833 0.030242426 0.99722528 -0.054584324
729728301.88679 0.99744844 -0.056383103 0.0019634767 0.030724118 0.0019240119 0.0306857 0.99735296 -0.055116057
739724528.30189 0.99716264 -0.057129279 0.0020318395 0.031139664 0.0019830102 0.031097205 0.99749839 -0.055825099
749720754.71698 0.99705708 -0.057651401 0.0020928248 0.031536587 0.0020092274 0.031509556 0.99759728 -0.056679934
759716981.13208 0.99715984 -0.058227271 0.0021135034 0.031966206 0.0020562466 0.031890959 0.99750853 -0.057511836
769713207.54717 0.99695897 -0.059076488 0.0021734079 0.032364525 0.0021151965 0.032315537 0.99719775 -0.058357835
779709433.96226 0.99712729 -0.059784055 0.0022406799 0.03279046 0.0022197366 0.032727737 0.99688005 -0.05910413
789705660.37736 0.99706793 -0.060903788 0.0023066942 0.033168212 0.0022570826 0.03313271 0.99657118 -0.059953958
799701886.79245 0.99696267 -0.061840296 0.0023617512 0.033603948 0.0022984492 0.033512838 0.99642557 -0.060554951
809698113.20755 0.99689943 -0.062532082 0.0023756367 0.033962443 0.0023235111 0.033931632 0.99647206 -0.061105534
819694339.62264 0.99677175 -0.063293487 0.0024521444 0.034413449 0.0023690872 0.03437734 0.99669772 -0.061758295
829690566.03774 0.99677306 -0.06392774 0.0025020968 0.034805052 0.0023972392 0.034752779 0.99691343 -0.062734097
839686792.45283 0.99670923 -0.064398557 0.0024827709 0.035191894 0.0024502994 0.035143994 0.99696797 -0.063704401
849683018.86792 0.99687511 -0.065160751 0.0025491903 0.035670444 0.0025263426 0.035612021 0.99682665 -0.064613923
859679245.28302 0.99689448 -0.065952867 0.002607666 0.036074359 0.0025743525 0.036015548 0.99651885 -0.065315932
869675471.69811 0.99674237 -0.066743106 0.0027036248 0.036475796 0.0026878901 0.036427926 0.99611437 -0.065853059
879671698.11321 0.9966206 -0.067595899 0.0027539593 0.036875471 0.0027032862 0.036812577 0.9960565 -0.06636139
889667924.5283 0.99630678 -0.068569958 0.0028118044 0.037257336 0.0027736761 0.037202928 0.99594218 -0.066992879
899664150.9434 0.99617863 -0.069349587 0.0028717536 0.037654243 0.0027926657 0.037631258 0.99590778 -0.067671537
909660377.35849 0.99604183 -0.070124239 0.0029349844 0.038058531 0.0028762515 0.03803717 0.99606174 -0.068738818
919656603.77358 0.99618375 -0.070956528 0.0029716059 0.038469572 0.00293238 0.038420886 0.99599284 -0.069745168
929652830.18868 0.99616587 -0.071776599 0.0030256752 0.038843501 0.0029892772 0.038842663 0.995821 -0.070682883
939649056.60377 0.99635476 -0.072408259 0.0030794879 0.039267495 0.0030165426 0.039252184 0.99567121 -0.071541935
949645283.01887 0.9962998 -0.073349357 0.0030777042 0.03967591 0.00304822 0.039650593 0.99536836 -0.072089501
959641509.43396 0.99617475 -0.073986292 0.0031404234 0.040121943 0.0030941833 0.040066354 0.99535418 -0.072692692
969637735.84906 0.99606442 -0.074925214 0.0032170806 0.040556874 0.003134096 0.04050957 0.99528539 -0.073040038
979633962.26415 0.995767 -0.075725384 0.0032753954 0.040954612 0.0032268818 0.040907212 0.99538422 -0.073801756
989630188.67925 0.99577433 -0.076370835 0.0033450825 0.041356079 0.0032834047 0.041326422 0.99548525 -0.074541301
999626415.09434 0.99575371 -0.077047855 0.0034057535 0.041787002 0.0033186171 0.04178419 0.99536514 -0.07551524
1009622641.5094 0.99590009 -0.077854201 0.0034381207 0.042236101 0.003416758 0.042197019 0.99520361 -0.076508418
1019618867.9245 0.99589705 -0.078806922 0.0035413909 0.042650715 0.0034928671 0.04261772 0.99488014 -0.07746841
1029615094.3396 0.99591374 -0.079865307 0.0036176033 0.043018319 0.0036024898 0.042998597 0.99449623 -0.078086227
1039611320.7547 0.99596512 -0.080874234 0.003676312 0.043406993 0.0036390088 0.043364815 0.99441403 -0.078821093
1049607547.1698 0.99567086 -0.081807025 0.003737713 0.043797854 0.0036863051 0.043785084 0.99437934 -0.079501256
1059603773.5849 0.99552804 -0.082686633 0.0038208459 0.044185586 0.0037582051 0.044153817 0.99434805 -0.080093563
1069600000 0.9952085 -0.083330184 0.0038335845 0.044595372 0.0038382299 0.044575091 0.99450254 -0.08090353
1079596226.4151 0.99508208 -0.083978608 0.0038649105 0.044981357 0.0039023589 0.044967946 0.99445981 -0.081747875
1089592452.8302 0.99511212 -0.084637225 0.0039072512 0.045393426 0.003947298 0.045397725 0.99434173 -0.082603365
1099588679.2453 0.99512798 -0.085365951 0.003949713 0.045797613 0.0039534047 0.045770362 0.99396884 -0.083221614
1109584905.6604 0.99529898 -0.0862602 0.0040071746 0.046251331 0.003998002 0.046179801 0.99363154 -0.083915427
1119581132.0755 0.99517035 -0.087383866 0.004054585 0.046658292 0.0040605473 0.046646122 0.99343544 -0.084470227
1129577358.4906 0.99496174 -0.088268399 0.0041148718 0.047108941 0.0041155182 0.047107562 0.99334753 -0.084925413
1139573584.9057 0.99472702 -0.08941853 0.004216237 0.047528744 0.0042334851 0.047514968 0.99338627 -0.085722983
1149569811.3208 0.99449754 -0.090328112 0.0043142424 0.047925036 0.0043065003 0.047897365 0.99353319 -0.086581349
1159566037.7358 0.99430382 -0.091066808 0.0043470915 0.048314925 0.0044004116 0.048297096 0.99349213 -0.08773315
1169562264.1509 0.99413633 -0.091785163 0.0043846499 0.048683427 0.004426185 0.048666149 0.99336082 -0.088641793
1179558490.566 0.99406183 -0.092518836 0.0044138199 0.049158067 0.0045001982 0.049117245 0.99313772 -0.089352272
1189554716.9811 0.99401522 -0.093270183 0.0045299092 0.049577348 0.0045516286 0.049523346 0.99279928 -0.089927882
1199550943.3962 0.99394393 -0.094230205 0.0045416337 0.050006457 0.0046431608 0.049967367 0.99264622 -0.090336651
1209547169.8113 0.99370384 -0.095220715 0.0046769949 0.050414473 0.0046489118 0.050325792 0.99250609 -0.090715632
1219543396.2264 0.99344504 -0.096165918 0.0047059855 0.050859161 0.0047723264 0.050777286 0.99257535 -0.091262802
1229539622.6415 0.9931705 -0.097015798 0.0048044547 0.051277407 0.0048846658 0.051214233 0.99272007 -0.092085898
1239535849.0566 0.99277687 -0.097870469 0.0048804991 0.051669944 0.0049600322 0.051599547 0.99277455 -0.09317565
1249532075.4717 0.99244994 -0.098717175 0.0049842796 0.052078433 0.0050835013 0.051999509 0.99262458 -0.094118014
1259528301.8868 0.99225974 -0.099256873 0.0050685052 0.05247375 0.0051787067 0.052394923 0.99221015 -0.095104963
1269524528.3019 0.99213135 -0.10005429 0.0051935185 0.05287103 0.0052655693 0.052768193 0.99202335 -0.095877111
1279520754.717 0.9916997 -0.10083823 0.005245842 0.053221937 0.0052912529 0.053115949 0.99166453 -0.09636049
1289516981.1321 0.99146742 -0.10176829 0.0053340755 0.053595506 0.005359035 0.053501319 0.99171817 -0.096996665
1299513207.5472 0.99117267 -0.10265359 0.0053772386 0.053977154 0.0054050647 0.053887747 0.99187088 -0.097318441
1309509433.9623 0.9906587 -0.10339855 0.0054068733 0.054396495 0.0054729264 0.054272603 0.99190027 -0.098055586
1319505660.3774 0.99018973 -0.10422088 0.0054182904 0.054803479 0.0054718815 0.054643996 0.99190855 -0.09887971
1329501886.7925 0.98983049 -0.10494933 0.005485788 0.055231258 0.0055508185 0.05504781 0.99182761 -0.099925905
1339498113.2075 0.9895373 -0.10560107 0.00555404 0.055605967 0.0056001171 0.055462856 0.99140501 -0.10071516
1349494339.6226 0.98929405 -0.10611517 0.005560834 0.056048393 0.0055962089 0.055883296 0.99101239 -0.1014232
1359490566.0377 0.98929632 -0.10692 0.0056050867 0.056481875 0.0056431834 0.056287207 0.99075556 -0.10206309
1369486792.4528 0.98903579 -0.1075398 0.0056457557 0.056960613 0.0057403073 0.056722499 0.99044716 -0.10259494
1379483018.8679 0.98860747 -0.10821186 0.0057018078 0.057341456 0.0056796703 0.057171185 0.9905104 -0.10302939
1389479245.283 0.98822409 -0.10887361 0.0058081523 0.057816155 0.0058175363 0.057618834 0.99037755 -0.10377255
1399475471.6981 0.9878037 -0.10931662 0.0058573987 0.05823556 0.0058032293 0.058045723 0.99065155 -0.10445958
1409471698.1132 0.98741293 -0.10969616 0.0059132488 0.058701199 0.0059243776 0.058509715 0.99062508 -0.10546022
1419467924.5283 0.98723114 -0.11007935 0.0059558675 0.05912241 0.0059876498 0.058991518 0.99041939 -0.10621178
1429464150.9434 0.98706675 -0.11051628 0.0060433913 0.059655979 0.0059958883 0.05943422 0.99026251 -0.10677907
1439460377.3585 0.98717618 -0.11110407 0.0061648404 0.0601383 0.0061322572 0.059937529 0.98999888 -0.10720694
1449456603.7736 0.98720032 -0.11166023 0.0063143075 0.060632415 0.0061963713 0.060422808 0.98975545 -0.10763416
1459452830.1887 0.98716193 -0.11253902 0.0064669289 0.061090779 0.0063577071 0.060928166 0.9899528 -0.10805422
1469449056.6038 0.98719144 -0.1133056 0.0066687167 0.061487533 0.006523218 0.061334826 0.99007696 -0.10882574
1479445283.0189 0.98693043 -0.11409076 0.0068156151 0.061868969 0.0067428611 0.061713465 0.99010348 -0.10982531
1489441509.434 0.98683476 -0.11468533 0.0069840029 0.062257048 0.0068893451 0.062067419 0.98994708 -0.11079258
1499437735.8491 0.98660141 -0.11510742 0.0071083736 0.06261342 0.0070331842 0.0624437 0.98981649 -0.11175254
1509433962.2642 0.98654866 -0.11558439 0.0072391536 0.062980197 0.0071417419 0.062830985 0.98959213 -0.11250692
1519430188.6792 0.9866305 -0.11616915 0.0073516462 0.063316308 0.0072412584 0.063178271 0.98940313 -0.11308441
1529426415.0943 0.98661506 -0.11691445 0.007412212 0.063696742 0.0073133558 0.063518532 0.98934543 -0.11357352
1539422641.5094 0.98667866 -0.11785287 0.0075485338 0.064077497 0.0073677711 0.063918553 0.98936832 -0.1140557
1549418867.9245 0.98643994 -0.11883396 0.0076381071 0.064468697 0.0074841697 0.064298876 0.98966306 -0.1148707
1559415094.3396 0.98630261 -0.11942708 0.0077123754 0.064835623 0.0075301174 0.064629376 0.98962641 -0.11568224
1569411320.7547 0.9860428 -0.12047867 0.0077926852 0.065186843 0.0076472647 0.065032557 0.98955876 -0.11660784
1579407547.1698 0.98595744 -0.12099876 0.0078387437 0.065538429 0.0076904474 0.065399364 0.98923326 -0.11754612
1589403773.5849 0.98590189 -0.12159631 0.0078619272 0.065910593 0.0077052303 0.065745994 0.98886275 -0.11833227
1599400000 0.98583269 -0.12219623 0.0079057533 0.066250838 0.0077235587 0.066118538 0.98838121 -0.11888549
1609396226.4151 0.98570281 -0.12292967 0.0079145459 0.06664966 0.0077515682 0.066544294 0.98826706 -0.11942324
1619392452.8302 0.98572648 -0.12357804 0.0079720896 0.0671134 0.0077945609 0.066979825 0.9881984 -0.11999741
1629388679.2453 0.98545384 -0.12440035 0.0080624893 0.067537501 0.0078327339 0.067423329 0.98841429 -0.12056231
1639384905.6604 0.98518115 -0.12518899 0.0080725458 0.06803073 0.00791403 0.067884125 0.98862404 -0.12156343
1649381132.0755 0.98484397 -0.12593395 0.008116506 0.068415299 0.0080180876 0.068343125 0.98855603 -0.12257203
1659377358.4906 0.9846487 -0.12674171 0.0081994031 0.068929307 0.0080532469 0.068820231 0.98850554 -0.12358922
1669373584.9057 0.98451996 -0.1273026 0.0082544461 0.069389559 0.0081081642 0.069260307 0.9880951 -0.1242381
1679369811.3208 0.98457527 -0.12806489 0.0083835963 0.069856226 0.0081805959 0.069720574 0.98774844 -0.12491597
1689366037.7358 0.98462009 -0.12873623 0.0084505193 0.070306316 0.0082761012 0.070188798 0.98756826 -0.12528184
1699362264.1509 0.98466074 -0.12946038 0.0085622156 0.070713602 0.0084188636 0.070713706 0.98777056 -0.12585218
1709358490.566 0.98444653 -0.13029842 0.0086874496 0.071207047 0.0084917545 0.071116567 0.98771644 -0.12636808
1719354716.9811 0.98409396 -0.13096628 0.0088290647 0.071618706 0.0086655095 0.071564808 0.98766679 -0.12728941
1729350943.3962 0.98362559 -0.13154384 0.0090150088 0.072075509 0.0088039823 0.072049379 0.98754579 -0.12827358
