!Keysight Technologies,N5222B,MY61253708,A.15.00.15
!Date: Wednesday, June 19, 2024 09:40:27
!Correction: S11(C  2-Port  ) 
!S21(C  2-Port  ) 
!S12(C  2-Port  ) 
!S22(C  2-Port  ) 
!S2P File: Measurements: S11, S21, S12, S22:
# Hz S  RI   R 50
10000000 0.99863315 -0.0026874244 0.00037665991 0.00040689597 -0.00011930792 0.0003796909 0.99844635 -0.0010136366
19996226.415094 0.99874663 -0.002643168 5.3437427e-005 0.00065759115 -0.00011831554 0.00070818234 0.99880707 -0.0029405355
29992452.830189 0.99976093 -0.0025113821 -1.6364502e-005 0.00099130929 -2.1520304e-005 0.0010347996 0.99950576 -0.0026950538
39988679.245283 1.0000353 -0.0030195862 6.4680353e-006 0.0013548898 1.9434679e-005 0.0014083959 0.99965942 -0.0031023026
49984905.660377 1.0001748 -0.00369367 -1.8280465e-005 0.0016654159 -6.5072672e-006 0.0016912911 0.99985385 -0.0036470294
59981132.075472 1.000308 -0.004594475 6.363698e-005 0.0019770768 1.8563122e-005 0.0020250184 0.99982119 -0.0042872429
69977358.490566 1.000126 -0.0051265936 -2.1334592e-005 0.002369643 4.185201e-005 0.002364967 0.99967331 -0.0047876798
79973584.90566 0.99992293 -0.0057369173 4.6030153e-005 0.0026482055 1.3837591e-005 0.0026336061 0.99934387 -0.005265981
89969811.320755 0.99997002 -0.0058310032 8.529285e-006 0.0029895881 5.8997655e-005 0.0029926703 0.99960589 -0.0055769086
99966037.735849 1.0001001 -0.0066056252 2.7835369e-005 0.0033161601 2.7836475e-005 0.0033328056 0.99963415 -0.0063749105
109962264.15094 1.0001 -0.0075123012 1.4520541e-005 0.0036499742 2.3731962e-005 0.0036803756 0.99964207 -0.0071697235
119958490.56604 1.0001371 -0.0084404051 1.5790574e-005 0.0039643701 4.8952992e-005 0.0040192381 0.99966735 -0.0080571771
129954716.98113 1.0000963 -0.0093875229 4.6256813e-005 0.0042996258 2.6436173e-005 0.0043557975 0.99967772 -0.0089545548
139950943.39623 1.0000268 -0.010166878 3.0837356e-005 0.0046548611 5.539741e-005 0.00468414 0.99959356 -0.0096590389
149947169.81132 0.99994022 -0.010852635 3.0654483e-005 0.0050006448 5.248026e-005 0.0050334614 0.99954081 -0.010302782
159943396.22642 0.9999119 -0.011418045 7.8480458e-005 0.005299753 5.8610924e-005 0.0053594429 0.99961483 -0.010786593
169939622.64151 0.99985194 -0.011841483 7.9145015e-005 0.0056551644 6.4263761e-005 0.0056887819 0.99966311 -0.011199772
179935849.0566 0.99994642 -0.012023151 7.2217896e-005 0.0059630452 9.2298491e-005 0.0060574552 0.9995898 -0.011614561
189932075.4717 1.0000831 -0.012830228 0.0001043214 0.0063129822 0.00011624466 0.0063665416 0.99979579 -0.012115031
199928301.88679 0.99999428 -0.013655484 0.00011450169 0.006636275 9.9864556e-005 0.0066716452 0.99969637 -0.013035506
209924528.30189 0.99979186 -0.014226243 7.4943295e-005 0.0069674691 9.4685121e-005 0.0070312917 0.9994514 -0.013712004
219920754.71698 0.99982584 -0.015077919 0.00010490837 0.0073144855 9.4467308e-005 0.0073509472 0.99931592 -0.014337838
229916981.13208 0.99954808 -0.015989959 0.00011725561 0.0076459916 0.0001113324 0.0077057979 0.99926472 -0.015180707
239913207.54717 0.99947172 -0.01661717 0.00012431663 0.0079605188 0.00013522895 0.0080385348 0.99921685 -0.015904231
249909433.96226 0.99956751 -0.017214954 0.00012537558 0.0082978169 0.00013822713 0.0083551481 0.99935639 -0.016520351
259905660.37736 0.9996351 -0.017814547 0.00013896404 0.0086121876 0.00011528376 0.0086731557 0.99950945 -0.017066777
269901886.79245 0.99969238 -0.018506914 0.00013924844 0.0089721438 0.00016401347 0.0090162018 0.99981177 -0.017776057
279898113.20755 0.99984777 -0.019191906 0.00014316593 0.0092789931 0.00015161815 0.0093530128 0.99975294 -0.018566012
289894339.62264 0.99981534 -0.019949168 0.0001981901 0.0095962454 0.00017127953 0.0096841389 0.9996351 -0.019285679
299890566.03774 0.99966562 -0.020422637 0.00023226254 0.0098982612 0.00016381778 0.0099750319 0.99932718 -0.019692481
309886792.45283 0.99954545 -0.020980529 0.00024962501 0.010268908 0.00022709486 0.010400594 0.99933392 -0.020187363
319883018.86792 0.99954855 -0.021660239 0.00022167526 0.010608843 0.00022098981 0.010714909 0.99939102 -0.020650864
329879245.28302 0.99960566 -0.022368491 0.00023221876 0.010956416 0.00022874493 0.011021089 0.99949956 -0.021405607
339875471.69811 0.99949044 -0.023039684 0.00025472429 0.011268813 0.00025424326 0.011396277 0.99932939 -0.022244863
349871698.11321 0.99963069 -0.02400896 0.0002698272 0.011601933 0.0003134443 0.011692558 0.99940568 -0.023141921
359867924.5283 0.99941897 -0.024746299 0.00030876789 0.011869455 0.00031623943 0.012024207 0.99934542 -0.024044305
369864150.9434 0.99953246 -0.025544912 0.00028838776 0.012267127 0.00033933879 0.012382425 0.99938053 -0.024749845
379860377.35849 0.999479 -0.02621454 0.00030446751 0.012583583 0.00035689678 0.012701768 0.99925333 -0.025439039
389856603.77358 0.99942052 -0.026736021 0.00036833808 0.012937589 0.00035805535 0.013026707 0.99924803 -0.025909394
399852830.18868 0.99923122 -0.027492344 0.00034204265 0.013298049 0.0003752592 0.013378346 0.99934042 -0.026299715
409849056.60377 0.99928647 -0.027920282 0.00038736663 0.013555544 0.00038053968 0.013688179 0.99928164 -0.0268285
419845283.01887 0.99909413 -0.02834177 0.00038933149 0.01389469 0.00040176231 0.014015036 0.99939018 -0.027404547
429841509.43396 0.99927092 -0.029001415 0.00044595497 0.014267433 0.00043737702 0.014409129 0.99955821 -0.028172851
439837735.84906 0.99914825 -0.029897332 0.00044766453 0.014530136 0.00049481553 0.014677134 0.99930495 -0.029145733
449833962.26415 0.99890941 -0.030644566 0.0004615509 0.014860302 0.00047867326 0.014994913 0.99902534 -0.029963434
459830188.67925 0.99888885 -0.031336248 0.00044523366 0.015203535 0.00043610903 0.015367748 0.99878931 -0.030676901
469826415.09434 0.99878573 -0.032136798 0.00046030106 0.015547123 0.0004609013 0.015701728 0.9985913 -0.0312379
479822641.50943 0.99868584 -0.032629676 0.00053051987 0.015866488 0.00049242377 0.016025381 0.99862021 -0.031727046
489818867.92453 0.99881911 -0.033188969 0.00053004408 0.016238965 0.00054020062 0.016354797 0.99888361 -0.032226413
499815094.33962 0.9989773 -0.033801526 0.00055226125 0.016538506 0.00055351015 0.016685015 0.99917525 -0.032851279
509811320.75472 0.99891746 -0.034150984 0.00060419715 0.016892647 0.00062905526 0.016998308 0.9992705 -0.033697058
519807547.16981 0.99887687 -0.034813672 0.00054112868 0.017172681 0.00059263781 0.017333999 0.99925643 -0.034380853
529803773.58491 0.99892402 -0.035382301 0.00059231464 0.017521877 0.00059890468 0.017669229 0.9990443 -0.035016447
539800000 0.99895388 -0.036126867 0.00062172534 0.017846338 0.00066806027 0.018024066 0.9988389 -0.035743043
549796226.41509 0.99875414 -0.036866426 0.00062809698 0.018178787 0.00066769356 0.018338641 0.99876267 -0.036188751
559792452.83019 0.9986285 -0.037547082 0.00068222731 0.01854305 0.00068963785 0.018694662 0.99854302 -0.036671668
569788679.24528 0.99846393 -0.038258016 0.00067451643 0.018868258 0.00069796387 0.019004559 0.99870896 -0.037492216
579784905.66038 0.99849737 -0.038840957 0.00074151368 0.019194968 0.00075635163 0.019372607 0.99887848 -0.038158946
589781132.07547 0.99855334 -0.039469421 0.00076357834 0.019519292 0.00075844955 0.019683618 0.99891061 -0.039022267
599777358.49057 0.99866432 -0.040134519 0.00080477074 0.019842502 0.00077850278 0.02001367 0.99898744 -0.039866358
609773584.90566 0.9988215 -0.040845729 0.00081109256 0.020222899 0.00083486771 0.020377802 0.99884027 -0.040642433
619769811.32075 0.9990173 -0.041519523 0.00088171242 0.020509211 0.00090548908 0.020692661 0.99878424 -0.041224599
629766037.73585 0.99882913 -0.042168498 0.00088251475 0.020820895 0.00088422187 0.020970605 0.99856049 -0.041810393
639762264.15094 0.99862534 -0.042834893 0.00089387735 0.021072807 0.00092546502 0.021305274 0.99844438 -0.042160586
649758490.56604 0.99849147 -0.043405175 0.00090587139 0.021420138 0.00089207059 0.02162509 0.99851751 -0.042652875
659754716.98113 0.99842095 -0.044064194 0.00093122758 0.021800568 0.00092269387 0.021980364 0.99853146 -0.043201923
669750943.39623 0.99840438 -0.044499189 0.00097677717 0.022125477 0.00093007553 0.022334168 0.99857044 -0.043934405
679747169.81132 0.99836028 -0.045244664 0.00098735816 0.022455897 0.00099786965 0.022684494 0.99858272 -0.044979058
689743396.22642 0.99860132 -0.046077043 0.0010276744 0.022802409 0.001041525 0.023005405 0.99837053 -0.045892864
699739622.64151 0.99870265 -0.046774 0.0010649245 0.023094155 0.0010411097 0.023362707 0.99831688 -0.0465267
709735849.0566 0.99861312 -0.047687195 0.0011629404 0.023491291 0.0011201438 0.023657875 0.99806243 -0.047221273
719732075.4717 0.99844307 -0.048323065 0.0011340589 0.023785843 0.00117356 0.02395544 0.99821192 -0.047837257
729728301.88679 0.99839634 -0.048830867 0.0011865757 0.024127483 0.0011868235 0.02429628 0.99822581 -0.048274159
739724528.30189 0.99832213 -0.049513236 0.0012066592 0.024416586 0.0011949851 0.024640229 0.99848229 -0.048906803
749720754.71698 0.99824196 -0.050077409 0.0012524487 0.024715625 0.0012737717 0.024979401 0.99842489 -0.049676433
759716981.13208 0.99825346 -0.05068782 0.0012610508 0.025048044 0.0012641186 0.025277629 0.99834859 -0.050420612
769713207.54717 0.998124 -0.051408827 0.0013001999 0.025369288 0.001322126 0.025595855 0.99812716 -0.051057428
779709433.96226 0.99830002 -0.052026559 0.001300012 0.025670435 0.0013313238 0.025897469 0.99790251 -0.05173419
789705660.37736 0.99810779 -0.052886337 0.0013449201 0.026015442 0.0013852613 0.026277285 0.99763948 -0.052441984
799701886.79245 0.99817711 -0.053658009 0.0013792021 0.026332347 0.0014305608 0.026565619 0.99751532 -0.052989632
809698113.20755 0.9980194 -0.054229587 0.0014149372 0.026622277 0.0014370268 0.026890643 0.99756819 -0.0534482
819694339.62264 0.99791265 -0.054919541 0.0014446978 0.026988914 0.0014591422 0.027219972 0.99767423 -0.054058403
829690566.03774 0.99788487 -0.055488884 0.0014987821 0.027272262 0.0015012864 0.027556945 0.9979769 -0.054967135
839686792.45283 0.9978838 -0.055994749 0.0014805067 0.027636234 0.0015015421 0.027849164 0.99800658 -0.055874944
849683018.86792 0.99799216 -0.056528822 0.0015230181 0.027947826 0.0015376233 0.028199898 0.99792862 -0.056550741
859679245.28302 0.9980334 -0.057381123 0.0015670657 0.028262194 0.0015751738 0.028537441 0.99758387 -0.057207555
869675471.69811 0.99792969 -0.058078021 0.0016243262 0.028596221 0.0016208095 0.028846346 0.99731684 -0.057739049
879671698.11321 0.99791533 -0.058692403 0.0016501099 0.028875889 0.0016616955 0.029168986 0.99727494 -0.058118388
889667924.5283 0.99769813 -0.05955711 0.0016875574 0.029194113 0.0016949633 0.029472847 0.99710393 -0.058627754
899664150.9434 0.99747467 -0.06017819 0.0016892562 0.029505603 0.0017412342 0.029806664 0.99717337 -0.059303969
909660377.35849 0.99756622 -0.06090422 0.0017386423 0.029839501 0.001753869 0.030129062 0.99731654 -0.060129449
919656603.77358 0.99760985 -0.061582565 0.001739277 0.030170655 0.0017558518 0.030455491 0.99730879 -0.060983375
929652830.18868 0.99759209 -0.062301934 0.001757741 0.030471485 0.0017697755 0.030793674 0.99718261 -0.061897099
939649056.60377 0.99775851 -0.062965333 0.0017632106 0.030804547 0.0018155733 0.031087955 0.99703723 -0.062621474
949645283.01887 0.99775547 -0.063740492 0.0017799104 0.03114488 0.0018296764 0.03140812 0.99674773 -0.063166574
959641509.43396 0.99769145 -0.064394265 0.0018243585 0.031539246 0.0018705083 0.031776123 0.99674845 -0.063686877
969637735.84906 0.99758798 -0.06510374 0.0018965378 0.031865615 0.0019220188 0.032139912 0.99674141 -0.064090729
979633962.26415 0.99745452 -0.065832369 0.0019068755 0.032143168 0.001965737 0.032443125 0.99678075 -0.064749241
989630188.67925 0.99747634 -0.066366643 0.0019434877 0.032456003 0.0020098751 0.032788008 0.99691832 -0.06527704
999626415.09434 0.9974972 -0.067000538 0.0020052223 0.032762185 0.0020342125 0.033133179 0.99692023 -0.066173851
1009622641.5094 0.9975338 -0.067636222 0.0019955654 0.033137165 0.00205818 0.03344325 0.99669731 -0.066982552
1019618867.9245 0.99761802 -0.068459779 0.0020770887 0.033458833 0.0021399581 0.033772863 0.99651062 -0.067856789
1029615094.3396 0.99759185 -0.069431484 0.0021565314 0.033738863 0.0021720426 0.034096066 0.99615407 -0.068381041
1039611320.7547 0.99762785 -0.070251018 0.0021662833 0.034073833 0.0021999646 0.03438659 0.99603307 -0.069004059
1049607547.1698 0.99742013 -0.071124159 0.0021759968 0.034349225 0.0022248651 0.03471237 0.99601793 -0.06963028
1059603773.5849 0.99735606 -0.071812391 0.0022328813 0.034639619 0.0022370676 0.035003074 0.99606812 -0.070179701
1069600000 0.9970988 -0.072477281 0.0022062883 0.034982279 0.0022714157 0.035335802 0.99620223 -0.070916921
1079596226.4151 0.99715322 -0.073158279 0.002221656 0.035305113 0.0023143929 0.03565697 0.99618804 -0.071667954
1089592452.8302 0.99718511 -0.073802352 0.0022466471 0.035668969 0.0023442702 0.036004364 0.99615854 -0.072406054
1099588679.2453 0.99714255 -0.074445605 0.0022786502 0.035971373 0.002346484 0.036321446 0.99583739 -0.072998464
1109584905.6604 0.99733883 -0.075319141 0.0023047281 0.03630599 0.0023617297 0.036675747 0.99564183 -0.073629394
1119581132.0755 0.99728906 -0.07624191 0.0023300657 0.036679942 0.0024010013 0.036996324 0.99536681 -0.07397531
1129577358.4906 0.99709243 -0.076968938 0.0023555569 0.037004843 0.0024362877 0.037363358 0.99528414 -0.074430972
1139573584.9057 0.99686068 -0.07789737 0.0024023727 0.037317958 0.0024702046 0.037689883 0.99532259 -0.075070381
1149569811.3208 0.99678153 -0.078712836 0.0024663254 0.037669268 0.0025746075 0.038030602 0.99544835 -0.075812988
1159566037.7358 0.99652362 -0.079472274 0.0025015427 0.037974183 0.0025904542 0.038326409 0.99560952 -0.076876551
1169562264.1509 0.9964323 -0.080088884 0.0024748147 0.038264062 0.0025582463 0.038648449 0.99540251 -0.077637076
1179558490.566 0.99635625 -0.080920294 0.0024971401 0.03864155 0.0026334957 0.039009113 0.99536729 -0.078360178
1189554716.9811 0.99636024 -0.081545562 0.0025734324 0.038997836 0.0026638899 0.039356064 0.99501431 -0.07895726
1199550943.3962 0.9962256 -0.082346022 0.0026053805 0.039364941 0.0026930571 0.039686013 0.99487853 -0.079359353
1209547169.8113 0.99607396 -0.083344012 0.0026359353 0.039673973 0.0027445313 0.03997907 0.99478447 -0.079653054
1219543396.2264 0.99592984 -0.084049538 0.0026798965 0.0400244 0.0027904417 0.040394835 0.99484545 -0.080006078
1229539622.6415 0.99567235 -0.084869981 0.0027515683 0.040372267 0.0028727241 0.040731646 0.99498415 -0.080740631
1239535849.0566 0.99547815 -0.085495621 0.002831623 0.040660895 0.0029316349 0.041062672 0.99509871 -0.081623554
1249532075.4717 0.9950785 -0.086187176 0.00285593 0.040965941 0.0030433843 0.041344389 0.99491549 -0.08247672
1259528301.8868 0.99485779 -0.086706191 0.0029125363 0.041304316 0.0030719936 0.041658226 0.99463326 -0.083297402
1269524528.3019 0.99474454 -0.087485403 0.0029726811 0.041615017 0.0031196773 0.041974615 0.99449152 -0.084027499
1279520754.717 0.99432534 -0.088118389 0.003038371 0.041909143 0.0031941654 0.04225817 0.99419665 -0.084564485
1289516981.1321 0.99416763 -0.088974565 0.0030662464 0.042206436 0.0031964779 0.042533953 0.99422538 -0.085048944
1299513207.5472 0.9938612 -0.089888215 0.0030475706 0.0425025 0.0032259729 0.04285863 0.99436229 -0.085431635
1309509433.9623 0.99342024 -0.090536624 0.0030801902 0.042812884 0.0032225661 0.043136153 0.99446762 -0.086126223
1319505660.3774 0.99313837 -0.091236323 0.0030836947 0.043138999 0.0032701734 0.043483969 0.99449939 -0.086730778
1329501886.7925 0.99281752 -0.091967404 0.003119003 0.04348018 0.0032417905 0.043812279 0.99456531 -0.08772558
1339498113.2075 0.99256986 -0.092438191 0.0031376006 0.043790497 0.003288826 0.044112369 0.99412787 -0.088453621
1349494339.6226 0.99234605 -0.09302476 0.003109334 0.044143289 0.0032445323 0.044457272 0.99376023 -0.089001149
1359490566.0377 0.99228859 -0.093508959 0.0031027738 0.044509266 0.0032183435 0.044785894 0.99356186 -0.089544594
1369486792.4528 0.99195254 -0.094123095 0.0031534014 0.044883553 0.0032741576 0.045168176 0.9934395 -0.090044796
1379483018.8679 0.9917751 -0.094685189 0.0031718949 0.045236222 0.0032796564 0.045523159 0.99339205 -0.090317696
1389479245.283 0.99150687 -0.095199734 0.0032005105 0.045569312 0.0033431947 0.04586393 0.99335766 -0.091045171
1399475471.6981 0.99109852 -0.095555186 0.003226243 0.045928556 0.0032983068 0.0462448 0.99351674 -0.091685414
1409471698.1132 0.99072927 -0.096024841 0.0032536651 0.046322554 0.003358949 0.046658184 0.9935441 -0.092486545
1419467924.5283 0.9904905 -0.096189708 0.003302034 0.046685681 0.0033746324 0.04703613 0.99336833 -0.093239218
1429464150.9434 0.99043083 -0.096648544 0.0033304039 0.04711508 0.003464384 0.047397286 0.99322051 -0.093819588
1439460377.3585 0.99052197 -0.097141042 0.0034030722 0.04755795 0.0034702513 0.047817908 0.9929949 -0.094179511
1449456603.7736 0.99063486 -0.097716525 0.0035099611 0.04794421 0.0035882797 0.048247114 0.99292451 -0.09451969
1459452830.1887 0.99075913 -0.098339498 0.0036593806 0.048355527 0.0036542658 0.0486308 0.99295652 -0.094857872
1469449056.6038 0.99058419 -0.099009007 0.003808598 0.048681382 0.0038576415 0.048957996 0.99320674 -0.095528811
1479445283.0189 0.9904393 -0.099629179 0.0039184382 0.048953898 0.0039583351 0.049294949 0.99323678 -0.096364692
1489441509.434 0.99039978 -0.10006016 0.0040734224 0.049263716 0.0041446723 0.049566612 0.99316508 -0.097229809
1499437735.8491 0.99018264 -0.10042104 0.0041992888 0.049515918 0.0042266548 0.049841579 0.99316078 -0.098041981
1509433962.2642 0.9902041 -0.10096399 0.0042781131 0.049837179 0.0042843381 0.05012513 0.99290913 -0.098752059
1519430188.6792 0.99031544 -0.10150033 0.0043590665 0.050086409 0.0043591429 0.050421722 0.99270022 -0.099312901
1529426415.0943 0.99032784 -0.10222888 0.0043696631 0.05037871 0.0044215005 0.050680384 0.99261814 -0.099885821
1539422641.5094 0.99032474 -0.10305248 0.004431562 0.050688364 0.0044328487 0.051018991 0.99271297 -0.1002486
1549418867.9245 0.99017525 -0.10383691 0.004505733 0.050956752 0.0044971574 0.051294297 0.99299312 -0.10094598
1559415094.3396 0.99011511 -0.10440549 0.0045371503 0.051233776 0.0045161676 0.051582135 0.99310708 -0.101601
1569411320.7547 0.98991346 -0.10532391 0.0045809923 0.051521011 0.0045861155 0.051898103 0.99306095 -0.10243586
1579407547.1698 0.9898302 -0.10567904 0.0045792279 0.051759735 0.0046171588 0.05215456 0.99265325 -0.10319725
1589403773.5849 0.98979068 -0.10624084 0.0045820251 0.052084431 0.0046463255 0.05251449 0.99249423 -0.10391495
1599400000 0.98975009 -0.10671848 0.0045919176 0.052409876 0.0045814821 0.052771352 0.99201143 -0.10442835
1609396226.4151 0.98973757 -0.10737883 0.0046007168 0.052682001 0.0045706164 0.053100932 0.99187285 -0.10494753
1619392452.8302 0.98970222 -0.10796496 0.0046495367 0.053030968 0.0046360437 0.053419728 0.99182832 -0.10534805
1629388679.2453 0.98951864 -0.10868183 0.0046137068 0.053396154 0.0045934245 0.05377952 0.9920153 -0.10588139
1639384905.6604 0.98927593 -0.10935641 0.0046151937 0.053729288 0.0046239924 0.054176368 0.99230087 -0.10675184
1649381132.0755 0.98911083 -0.10996431 0.0046488531 0.05408464 0.0046440344 0.054553282 0.99225831 -0.10767472
1659377358.4906 0.98897481 -0.11075112 0.0046712123 0.054452691 0.0046692844 0.054906242 0.99218822 -0.10854989
1669373584.9057 0.9889316 -0.11121267 0.0046788095 0.054871134 0.0046991496 0.055308834 0.99197537 -0.10920248
1679369811.3208 0.9889577 -0.11189532 0.0047787633 0.055265658 0.0047509521 0.055695388 0.99178159 -0.10966036
1689366037.7358 0.98886049 -0.11259875 0.0048033483 0.055590063 0.0047854725 0.056046046 0.99162734 -0.11003754
1699362264.1509 0.98902899 -0.11316337 0.0048322938 0.05586987 0.0048160506 0.05643652 0.99171948 -0.11056259
1709358490.566 0.98891264 -0.11375789 0.0048676608 0.056325067 0.0048806649 0.056805227 0.99174184 -0.1110709
1719354716.9811 0.9886322 -0.11439857 0.0049469676 0.056693666 0.0049513392 0.057182945 0.99182361 -0.11163136
1729350943.3962 0.98835963 -0.11490172 0.0050195251 0.057120822 0.0050542485 0.057561338 0.99187398 -0.11262038
