!Keysight Technologies,N5222B,MY61253708,A.15.00.15
!Date: Wednesday, June 19, 2024 09:42:54
!Correction: S11(C  2-Port  ) 
!S21(C  2-Port  ) 
!S12(C  2-Port  ) 
!S22(C  2-Port  ) 
!S2P File: Measurements: S11, S21, S12, S22:
# Hz S  RI   R 50
10000000 0.99868047 -0.0024254322 5.0565039e-005 0.00065872067 4.9839e-005 0.0003454127 0.99850196 -0.0014992356
19996226.415094 0.99874842 -0.002569586 -3.6366924e-005 0.00051671959 -3.3275574e-006 0.00057972845 0.99896497 -0.0028791428
29992452.830189 0.99982715 -0.0024729669 6.7248271e-005 0.00099960773 1.9911851e-005 0.00099103502 0.99940979 -0.0026654899
39988679.245283 1.0000726 -0.0029955804 2.7371119e-005 0.0013284381 8.3949126e-006 0.0013668013 0.99961948 -0.0030905902
49984905.660377 1.0002127 -0.0036654174 2.018665e-005 0.0016099133 1.3231009e-005 0.0016879684 0.9998461 -0.0037070513
59981132.075472 1.0003999 -0.0045795739 1.9039435e-005 0.0020130519 4.5787951e-005 0.0020289652 0.99985373 -0.00424999
69977358.490566 1.0001941 -0.0051413197 3.972149e-006 0.0023077466 -1.4989662e-005 0.0023462041 0.99971104 -0.0048464928
79973584.90566 0.99994552 -0.0056932867 3.4326222e-006 0.0026535613 2.9226067e-005 0.0026508123 0.99931347 -0.0053103864
89969811.320755 0.99993038 -0.0058959424 -5.1563838e-006 0.0029717644 6.4673368e-006 0.0030143003 0.99954838 -0.005538553
99966037.735849 1.0002098 -0.0066219866 2.1985616e-006 0.0032888805 4.0641113e-005 0.0033441959 0.99964112 -0.0063306838
109962264.15094 1.0001608 -0.0075061619 5.8882579e-005 0.0036576304 3.0537194e-005 0.0036714387 0.9996289 -0.0071671009
119958490.56604 1.0002196 -0.0084061325 3.3713761e-005 0.0039465684 3.2786164e-005 0.0040142075 0.99965072 -0.0080263317
129954716.98113 1.0001919 -0.0093744099 4.8985472e-005 0.0042933668 5.0687231e-005 0.0043569291 0.99966156 -0.0089158714
139950943.39623 1.0001445 -0.010152787 2.1580141e-005 0.0046233316 5.5054974e-005 0.0046749935 0.99953848 -0.0096843112
149947169.81132 0.99999326 -0.0108293 5.7583209e-005 0.0049695801 5.6238146e-005 0.0050065801 0.99950373 -0.01027301
159943396.22642 0.99992323 -0.011390477 6.2289182e-005 0.0052989996 6.2156469e-005 0.0053405454 0.99955052 -0.010762155
169939622.64151 0.99995011 -0.01175224 6.9903268e-005 0.0056393105 5.6821387e-005 0.005689404 0.99962229 -0.011198021
179935849.0566 1.0000275 -0.012027055 8.9182053e-005 0.0059634238 6.7000743e-005 0.0060202209 0.99949431 -0.011591762
189932075.4717 1.000088 -0.012814432 8.3964551e-005 0.0063064517 8.4103318e-005 0.0063457196 0.99975002 -0.012150586
199928301.88679 1.0000371 -0.013696849 9.4800023e-005 0.0066274568 8.3566178e-005 0.0066874335 0.99964792 -0.01302582
209924528.30189 0.99984831 -0.014232218 0.00013209588 0.0069602295 0.00010593398 0.0070116757 0.99938422 -0.013691515
219920754.71698 0.99985719 -0.015133053 0.00011106255 0.0072779767 0.00012132665 0.0073296502 0.99927348 -0.014367878
229916981.13208 0.99966955 -0.015936047 0.00012643589 0.0075952299 0.00011943909 0.007685062 0.99926311 -0.015160441
239913207.54717 0.99958307 -0.016597865 0.00014536636 0.0079087093 0.00013404591 0.0080067534 0.99917841 -0.015868479
249909433.96226 0.99958009 -0.017204195 0.00013488508 0.0082656769 0.00014920346 0.0083344094 0.99927318 -0.016551822
259905660.37736 0.99966568 -0.017814755 0.0001480761 0.0085905651 9.3154144e-005 0.0087079769 0.99945885 -0.01702553
269901886.79245 0.99989384 -0.018452808 0.00015735661 0.0089006154 9.9268043e-005 0.0090334564 0.99979049 -0.017685577
279898113.20755 0.99990183 -0.018997014 0.00018723821 0.0092688147 0.00019662781 0.0093386173 0.99977273 -0.018544465
289894339.62264 0.99980974 -0.019814432 0.00021345029 0.0095639527 0.00016956078 0.0096985213 0.99957603 -0.019268304
299890566.03774 0.9998191 -0.020308763 0.00020841789 0.0099290768 0.00017828797 0.010063399 0.9993124 -0.019680321
309886792.45283 0.99957955 -0.020945959 0.0002081322 0.010267305 0.00022380194 0.01036768 0.99922544 -0.020184711
319883018.86792 0.99961162 -0.021632582 0.00023353565 0.010612303 0.00019538542 0.010647849 0.99930555 -0.020577013
329879245.28302 0.99956733 -0.022448808 0.00024671666 0.01094956 0.00025845645 0.010965799 0.99939919 -0.021437794
339875471.69811 0.99958372 -0.023069531 0.0002067351 0.011232208 0.00025383872 0.011379571 0.99935943 -0.022170477
349871698.11321 0.99966931 -0.023949832 0.00023197057 0.011570211 0.00031456957 0.011687305 0.99933809 -0.023133516
359867924.5283 0.99949348 -0.024743319 0.0002637133 0.011880166 0.0002534627 0.012018632 0.99927163 -0.02400896
369864150.9434 0.99963671 -0.025474548 0.00031671696 0.012237933 0.00033144816 0.012362458 0.99938297 -0.024694294
379860377.35849 0.99962986 -0.026224285 0.00034079282 0.012530874 0.00030549942 0.012715138 0.99920374 -0.025366426
389856603.77358 0.99948013 -0.026781023 0.00036912644 0.012910954 0.0003569657 0.013030587 0.99926901 -0.025817543
399852830.18868 0.99934876 -0.027393103 0.00037434557 0.013214236 0.00035570376 0.013343969 0.9993031 -0.026284933
409849056.60377 0.99929571 -0.027830184 0.00036977971 0.013544093 0.00035309742 0.013649441 0.99929893 -0.02674843
419845283.01887 0.99923795 -0.028313696 0.00038413284 0.013859956 0.00040832907 0.01398073 0.99933642 -0.027309328
429841509.43396 0.99934328 -0.028912723 0.00039621815 0.014232188 0.0004134248 0.014330811 0.99949193 -0.028197974
439837735.84906 0.99914354 -0.029754207 0.00043039222 0.014534472 0.00045485806 0.014657551 0.99929595 -0.029055029
449833962.26415 0.99911153 -0.030522734 0.00042921351 0.014849635 0.00047145877 0.014974868 0.9989329 -0.029845715
459830188.67925 0.99891812 -0.031259567 0.00043504126 0.015180029 0.00046141585 0.015330432 0.99875647 -0.03064546
469826415.09434 0.99884778 -0.032036006 0.00046832208 0.015526844 0.00050693331 0.015662208 0.99853587 -0.031232119
479822641.50943 0.99882162 -0.032590561 0.00048803887 0.015817711 0.00051633269 0.015979154 0.99858242 -0.031630047
489818867.92453 0.99881661 -0.033114851 0.00051072007 0.016192026 0.0005463222 0.016352726 0.99886918 -0.032229036
499815094.33962 0.99886847 -0.033758253 0.0005214219 0.016499193 0.00054355478 0.016637767 0.99914098 -0.032809377
509811320.75472 0.99896526 -0.034204341 0.00060037815 0.016823921 0.00060937903 0.016979713 0.9993518 -0.033602476
519807547.16981 0.99895865 -0.034805626 0.00058968784 0.01716942 0.00060635852 0.017305978 0.99925816 -0.034403354
529803773.58491 0.99898446 -0.035301924 0.00058511924 0.017515777 0.00059480872 0.017629523 0.99894357 -0.034997553
539800000 0.99904293 -0.036013946 0.00064552948 0.017848881 0.00061304029 0.017973533 0.9988327 -0.035580978
549796226.41509 0.99887967 -0.03685993 0.0006013657 0.018165112 0.00066631893 0.018316578 0.9985829 -0.036055624
559792452.83019 0.99872798 -0.037511826 0.00063475687 0.018497936 0.00066149887 0.018669469 0.99860346 -0.036625296
569788679.24528 0.99856776 -0.03816539 0.00070662238 0.018787831 0.00068996893 0.019009661 0.99878401 -0.037348658
579784905.66038 0.99854439 -0.038809739 0.00071546051 0.019177223 0.000698925 0.019326966 0.99879062 -0.038110495
589781132.07547 0.99862874 -0.039373159 0.00075960346 0.019466806 0.00076838396 0.019706007 0.9988929 -0.038985223
599777358.49057 0.99879175 -0.040020645 0.00077330507 0.01985874 0.00075724348 0.020001974 0.99892485 -0.039816886
609773584.90566 0.99897718 -0.040857375 0.0008092043 0.020135114 0.00081053475 0.020355159 0.9988361 -0.040601242
619769811.32075 0.99901414 -0.041510105 0.00088036014 0.020468865 0.00084785139 0.020634871 0.99874824 -0.041202009
629766037.73585 0.99888152 -0.042129576 0.00088707265 0.020802295 0.00093032606 0.020947501 0.99854791 -0.04168722
639762264.15094 0.99868518 -0.042786837 0.00088949013 0.02109563 0.000904663 0.02128849 0.99840319 -0.042203203
649758490.56604 0.99853873 -0.043455362 0.0009257854 0.021422936 0.00091169262 0.02163681 0.99855173 -0.042590961
659754716.98113 0.99845606 -0.043906033 0.00094094779 0.021732511 0.00093711168 0.021974813 0.99851531 -0.043136805
669750943.39623 0.99841261 -0.044344723 0.00093054073 0.022094192 0.00097100902 0.022308784 0.99860859 -0.043899864
679747169.81132 0.99830824 -0.045162141 0.0010040118 0.022464355 0.001009336 0.022646902 0.99853075 -0.044873416
689743396.22642 0.99859691 -0.045895517 0.0010307664 0.022740617 0.0010272935 0.022970818 0.99838448 -0.045783222
699739622.64151 0.998698 -0.046796083 0.0010765437 0.023134016 0.0010567913 0.023285532 0.99835014 -0.046461642
709735849.0566 0.99865395 -0.047525153 0.0011187908 0.023401015 0.0011307481 0.023614254 0.99804896 -0.047159985
719732075.4717 0.99863696 -0.048289031 0.0011322349 0.023707327 0.0011585532 0.023935406 0.99809802 -0.047766387
729728301.88679 0.99844611 -0.048850179 0.0011680517 0.024020178 0.0011509769 0.024272615 0.99824584 -0.048134834
739724528.30189 0.99834782 -0.049491376 0.0011949237 0.024360802 0.0011998257 0.024598736 0.99839586 -0.048798233
749720754.71698 0.99826926 -0.050068706 0.0012191534 0.024702124 0.0012445664 0.024900477 0.99835181 -0.049535394
759716981.13208 0.99834311 -0.050599933 0.0012365812 0.02499513 0.0012660921 0.025255919 0.99832666 -0.05028379
769713207.54717 0.99827993 -0.051293522 0.0012968378 0.025313523 0.0012998553 0.025556304 0.99806005 -0.050974369
779709433.96226 0.99839425 -0.051890682 0.0013112004 0.02563712 0.0013145731 0.025885541 0.99793589 -0.051658526
789705660.37736 0.99823922 -0.052735209 0.0013718288 0.025993461 0.0013604686 0.026209973 0.99763179 -0.052373737
799701886.79245 0.9982487 -0.053593934 0.0013891207 0.026283881 0.0013733832 0.026497282 0.99752206 -0.052978665
809698113.20755 0.99813402 -0.054147825 0.0014145966 0.026601026 0.0014141959 0.026843611 0.99753082 -0.053443074
819694339.62264 0.99799055 -0.054801553 0.0014405386 0.02695768 0.0014408538 0.027154915 0.99766409 -0.053998113
829690566.03774 0.997944 -0.055413097 0.0014785491 0.027238609 0.0014751125 0.027511172 0.99790341 -0.054913491
839686792.45283 0.99807018 -0.055853993 0.0014839424 0.027589604 0.0015029814 0.027841099 0.99799258 -0.055717111
849683018.86792 0.99810994 -0.056557305 0.0015393349 0.027903089 0.0015080327 0.028173732 0.99782294 -0.056512579
859679245.28302 0.99808025 -0.057208776 0.0015642662 0.028240196 0.0015508151 0.028481277 0.99757004 -0.057118446
869675471.69811 0.99803329 -0.058018327 0.0016253376 0.028557269 0.0016225865 0.028807251 0.99725175 -0.057647616
879671698.11321 0.99795085 -0.058619436 0.001642119 0.02885906 0.0016403022 0.029103678 0.99721116 -0.058071427
889667924.5283 0.99776936 -0.059447527 0.0016574021 0.029158829 0.0017059138 0.029456696 0.99706227 -0.058524311
899664150.9434 0.99763107 -0.060185492 0.0016655941 0.029488545 0.0016960781 0.029767025 0.99719393 -0.059180379
909660377.35849 0.9975816 -0.060775325 0.0017296937 0.029844949 0.0017309175 0.030085614 0.99727368 -0.060048327
919656603.77358 0.99770486 -0.061395824 0.0017447188 0.030120701 0.0017851689 0.030429974 0.99728495 -0.060963184
929652830.18868 0.99765098 -0.062221676 0.0017483057 0.030427985 0.0017847689 0.030727752 0.99720585 -0.061853707
939649056.60377 0.99775761 -0.062775195 0.0017819963 0.030739795 0.0018042112 0.031035153 0.996961 -0.062508255
949645283.01887 0.99784857 -0.063665763 0.0017445144 0.031068243 0.0018205397 0.031388577 0.9967097 -0.063092232
959641509.43396 0.99775571 -0.064385146 0.0018255357 0.031462379 0.001837058 0.031746581 0.99670261 -0.063589245
969637735.84906 0.99765497 -0.065039903 0.0018614549 0.031788938 0.0019322932 0.032110851 0.99670023 -0.063945115
979633962.26415 0.9975642 -0.065749519 0.0019479708 0.032106534 0.001955302 0.032386288 0.99679118 -0.064639173
989630188.67925 0.99754465 -0.066257536 0.0019447962 0.032414272 0.0019686725 0.032741182 0.99689966 -0.065242499
999626415.09434 0.9976784 -0.066936105 0.0020011906 0.032733604 0.0020110738 0.033050776 0.99679571 -0.065987468
1009622641.5094 0.99764091 -0.06751965 0.0020157993 0.033072472 0.0020897444 0.033411961 0.99674046 -0.066870973
1019618867.9245 0.99767178 -0.068358138 0.0020465269 0.033421312 0.0021427325 0.033738259 0.99654651 -0.067715749
1029615094.3396 0.99766552 -0.069234669 0.0021140194 0.033714529 0.0021317229 0.03401228 0.99606711 -0.068268895
1039611320.7547 0.99768889 -0.07014665 0.0021588933 0.033976331 0.0022040298 0.03434572 0.99606812 -0.06894204
1049607547.1698 0.99760801 -0.071098924 0.0021815447 0.034315355 0.00222502 0.034640003 0.99608076 -0.069503516
1059603773.5849 0.9975341 -0.071697414 0.0022152849 0.034619607 0.0022584768 0.034965254 0.99600607 -0.070005476
1069600000 0.99724185 -0.072296292 0.0022140453 0.03490226 0.0022525825 0.035274263 0.99621654 -0.070811749
1079596226.4151 0.99721581 -0.07306315 0.0022114269 0.035252351 0.0022869213 0.03560276 0.99617916 -0.071510404
1089592452.8302 0.99725431 -0.073665172 0.0022381796 0.035604864 0.0023144223 0.035936251 0.99618369 -0.072277397
1099588679.2453 0.9972806 -0.074339986 0.0022635832 0.035898514 0.002328828 0.036273502 0.99585855 -0.072903663
1109584905.6604 0.99741876 -0.075134337 0.0023241425 0.036243077 0.0023482097 0.036613166 0.99551654 -0.073499784
1119581132.0755 0.99738592 -0.076038256 0.0023157871 0.036605034 0.0024033845 0.036974523 0.99537218 -0.073895693
1129577358.4906 0.99725515 -0.076844901 0.0023576003 0.036969729 0.0024440512 0.037313472 0.9952386 -0.074283361
1139573584.9057 0.99694872 -0.077745557 0.0023586126 0.037280656 0.002458483 0.037644517 0.99535477 -0.0749439
1149569811.3208 0.99686402 -0.078598805 0.0024540743 0.037621398 0.002558725 0.037938416 0.995489 -0.075699449
1159566037.7358 0.99656898 -0.079217345 0.0024932157 0.0379011 0.0026198477 0.038266033 0.99553418 -0.076766044
1169562264.1509 0.99651647 -0.079905689 0.0025156569 0.038224742 0.0025872961 0.038602337 0.99539566 -0.077551603
1179558490.566 0.99643892 -0.080702201 0.0025178024 0.038598921 0.0026171021 0.038966358 0.99532562 -0.078207478
1189554716.9811 0.99642074 -0.081388801 0.0025205603 0.038924851 0.0026900247 0.039304744 0.99502403 -0.078766465
1199550943.3962 0.99634874 -0.082179606 0.0025451779 0.039288968 0.0027166009 0.039650843 0.99478137 -0.079224229
1209547169.8113 0.99619734 -0.083093792 0.0026251273 0.039573919 0.0027664285 0.039946605 0.9947046 -0.079562441
1219543396.2264 0.99598902 -0.083913639 0.0026463624 0.039984144 0.0027825092 0.040322728 0.99485403 -0.079979286
1229539622.6415 0.99574101 -0.084734261 0.0027480498 0.040271707 0.0028889682 0.040672962 0.99498522 -0.080630302
1239535849.0566 0.99539995 -0.085465491 0.0028123604 0.040601626 0.0029182928 0.040971961 0.99503511 -0.081619859
1249532075.4717 0.99521089 -0.086075805 0.002837409 0.040920153 0.0029758797 0.041294239 0.99493474 -0.082330599
1259528301.8868 0.99496704 -0.086536705 0.0028847158 0.041247081 0.0030857939 0.041600741 0.99470061 -0.083233953
1269524528.3019 0.99480176 -0.087310344 0.0029901993 0.04156249 0.0031153616 0.041923802 0.99447274 -0.08390969
1279520754.717 0.99447596 -0.088026963 0.0030347207 0.041871138 0.0031721538 0.042170368 0.99415219 -0.084479101
1289516981.1321 0.99434137 -0.088813752 0.0030156681 0.042127017 0.0031855432 0.042464159 0.99426329 -0.08490023
1299513207.5472 0.99406624 -0.089602113 0.003058102 0.042449839 0.0032012127 0.042761341 0.99433374 -0.085300833
1309509433.9623 0.9935292 -0.090394437 0.0030671302 0.042755336 0.003203514 0.043123346 0.99447334 -0.086074933
1319505660.3774 0.99320292 -0.091112658 0.0030509224 0.043079026 0.0032297038 0.043424368 0.99448436 -0.086697757
1329501886.7925 0.99298131 -0.091768771 0.0030856207 0.043395236 0.0032280255 0.04375739 0.99451292 -0.087584347
1339498113.2075 0.99267399 -0.092241287 0.0031090397 0.043733604 0.0032329122 0.044059541 0.99406505 -0.088303089
1349494339.6226 0.99251342 -0.092917189 0.0030429023 0.044081897 0.003249119 0.044387136 0.9937439 -0.088936426
1359490566.0377 0.99240065 -0.093380004 0.0030725151 0.044432744 0.0032456703 0.044739 0.99361694 -0.089471489
1369486792.4528 0.99218059 -0.093987972 0.003110663 0.044762909 0.0032489179 0.045048941 0.99332649 -0.089932144
1379483018.8679 0.99185443 -0.094482929 0.0031354802 0.045150749 0.0032643485 0.045446254 0.99334103 -0.09024635
1389479245.283 0.99150932 -0.095019072 0.0032177996 0.04554154 0.0032997988 0.045834061 0.99339306 -0.09094575
1399475471.6981 0.99115407 -0.095443934 0.0031842813 0.045887798 0.0033087227 0.046200782 0.993554 -0.091597974
1409471698.1132 0.99082422 -0.095771551 0.0032368589 0.046259563 0.0033404331 0.046573803 0.99353838 -0.092454851
1419467924.5283 0.99066049 -0.096052468 0.0032500587 0.046648957 0.0033792006 0.046926036 0.99333644 -0.093148261
1429464150.9434 0.99057186 -0.096560448 0.0033239312 0.047019344 0.003424719 0.047322821 0.99323666 -0.093655199
1439460377.3585 0.99068904 -0.097023755 0.0033762529 0.04750761 0.0034797639 0.047759775 0.99295831 -0.093999371
1449456603.7736 0.99064046 -0.097495332 0.0034824423 0.047845587 0.0035980223 0.048161484 0.99287397 -0.094402328
1459452830.1887 0.99065167 -0.098170817 0.0036376398 0.04825547 0.0036782827 0.048524778 0.99305081 -0.094666928
1469449056.6038 0.99076355 -0.098708898 0.0037965132 0.048607282 0.0038527204 0.04892328 0.99331331 -0.095352858
1479445283.0189 0.99052149 -0.099439904 0.0039002488 0.048916698 0.0039487933 0.049192652 0.99329078 -0.096208051
1489441509.434 0.99059176 -0.099916965 0.004030345 0.049207918 0.0041279197 0.049522951 0.99314928 -0.097112298
1499437735.8491 0.99040723 -0.10031381 0.004140012 0.049461 0.0042350292 0.049762808 0.99310738 -0.097964376
1509433962.2642 0.99032658 -0.10083419 0.0042402255 0.049754184 0.0042831236 0.050062012 0.99285042 -0.098600633
1519430188.6792 0.9904421 -0.10131264 0.0043170732 0.049985155 0.0043486021 0.050313808 0.99274987 -0.099177152
1529426415.0943 0.99047726 -0.10209483 0.0043666009 0.050292157 0.0043730885 0.050655123 0.99272519 -0.099612087
1539422641.5094 0.99040008 -0.10284376 0.0044338014 0.05059053 0.0044607813 0.050907362 0.9927302 -0.1001448
1549418867.9245 0.99026465 -0.1036206 0.0045055598 0.050854731 0.0045008417 0.051189791 0.99302632 -0.10084108
1559415094.3396 0.99017191 -0.1041725 0.0045226328 0.05119738 0.0045438502 0.051531766 0.99310112 -0.10147321
1569411320.7547 0.99007189 -0.10502917 0.0045595309 0.05145435 0.0045659794 0.051802926 0.99310768 -0.10233627
1579407547.1698 0.98997337 -0.10550474 0.0045765494 0.051740184 0.0045830975 0.052074574 0.9926914 -0.10306291
1589403773.5849 0.98996097 -0.10610884 0.0046219584 0.052023917 0.0046277978 0.052366085 0.99247563 -0.10380504
1599400000 0.98979521 -0.10650504 0.0046003247 0.052309975 0.00458505 0.05266802 0.99208534 -0.10428944
1609396226.4151 0.98989654 -0.10719876 0.0045818482 0.052620143 0.004589323 0.052995514 0.99183464 -0.10470974
1619392452.8302 0.98990083 -0.10775316 0.0045848656 0.052942842 0.0045679379 0.053334795 0.99186993 -0.10516718
1629388679.2453 0.9896636 -0.10844314 0.0046073832 0.053270042 0.0045858603 0.053712483 0.99211156 -0.10577679
1639384905.6604 0.98934054 -0.10918585 0.0045870482 0.053664014 0.0045648078 0.054092273 0.99234486 -0.10655262
1649381132.0755 0.9892174 -0.10976025 0.0046419557 0.054007895 0.0046491828 0.054428425 0.99228537 -0.1075429
1659377358.4906 0.98903203 -0.11061034 0.0046601221 0.054364517 0.0046631191 0.054798279 0.99228573 -0.10838619
1669373584.9057 0.98898488 -0.11093122 0.0046447921 0.054771274 0.0046516177 0.055191442 0.99201632 -0.10899731
1679369811.3208 0.98906255 -0.11171895 0.0047187693 0.055154923 0.004731412 0.055618014 0.99178976 -0.10959607
1689366037.7358 0.98902518 -0.11232811 0.0047972817 0.055496983 0.0047424436 0.055955678 0.99163842 -0.10991678
1699362264.1509 0.98914927 -0.1129075 0.0048277602 0.055854302 0.0048388364 0.056319382 0.99167079 -0.11040889
1709358490.566 0.98910189 -0.1136864 0.0048532719 0.056256283 0.0048543392 0.056688834 0.99184263 -0.11084861
1719354716.9811 0.98879206 -0.1141957 0.0049297679 0.056651644 0.0049593858 0.057093814 0.99171156 -0.11162695
1729350943.3962 0.98849094 -0.11474082 0.004989218 0.057039026 0.0049788766 0.057505652 0.99178171 -0.11237171
