!Keysight Technologies,N5222B,MY61253708,A.15.00.15
!Date: Wednesday, June 19, 2024 10:18:42
!Correction: S11(C  2-Port  ) 
!S21(C  2-Port  ) 
!S12(C  2-Port  ) 
!S22(C  2-Port  ) 
!S2P File: Measurements: S11, S21, S12, S22:
# Hz S  RI   R 50
10000000 0.9982515 -0.0029902756 0.00019068582 0.00040033503 2.1438929e-005 0.00046899653 0.99832594 -0.0016654134
19996226.415094 1.0002166 -0.002428025 -6.5299566e-005 0.00066017744 2.7209375e-005 0.00067741575 1.0002021 -0.0023039579
29992452.830189 0.99968594 -0.0024894774 -2.6132591e-005 0.00097681768 3.2297103e-006 0.00099897874 0.99942327 -0.0026721656
39988679.245283 1.0000827 -0.0029780418 4.1930063e-005 0.0013069646 4.5219364e-005 0.0013650534 0.99972153 -0.0030586123
49984905.660377 1.0001892 -0.0036552846 -3.7891965e-005 0.0016821888 2.7527742e-005 0.0016478462 0.99991024 -0.0036380291
59981132.075472 1.0003824 -0.0044527352 1.9689091e-005 0.0019600268 2.3048895e-005 0.0019943169 0.99990821 -0.004240334
69977358.490566 1.000194 -0.005048573 1.6084832e-005 0.0022881879 2.3136337e-005 0.0023107114 0.99973238 -0.0048191827
79973584.90566 0.99990368 -0.0056376159 -4.5950292e-006 0.0025922167 1.6029458e-005 0.0026279071 0.99934763 -0.0052259266
89969811.320755 0.99998105 -0.0056999624 9.6951844e-006 0.0029625248 2.4015084e-005 0.00297134 0.99964845 -0.0054729879
99966037.735849 1.00021 -0.0064530224 2.9048009e-005 0.0032528443 3.416359e-005 0.0032814562 0.99971622 -0.006249994
109962264.15094 1.0001938 -0.007313475 2.3483299e-005 0.0035907612 2.2842723e-005 0.0036086675 0.99971294 -0.0069946945
119958490.56604 1.0002565 -0.0082060695 9.0431422e-006 0.003905453 4.6066707e-006 0.0039494764 0.99973154 -0.0078423619
129954716.98113 1.0002253 -0.00911659 5.4716016e-005 0.0042505274 5.1263021e-005 0.004286407 0.999735 -0.0087271035
139950943.39623 1.0001148 -0.0099411346 3.8761602e-005 0.0045915614 3.3818505e-005 0.0045854994 0.99966037 -0.0094291363
149947169.81132 1.000041 -0.010588586 6.0073799e-005 0.0048970953 5.7222554e-005 0.0049074586 0.99957073 -0.010049462
159943396.22642 0.99994898 -0.011157155 6.4476626e-005 0.0052364585 4.9186172e-005 0.0052495948 0.99964863 -0.010513365
169939622.64151 0.99987793 -0.011478595 6.4977328e-005 0.0055781095 7.4973912e-005 0.0055789785 0.99966305 -0.010982357
179935849.0566 0.99997675 -0.01173085 5.792419e-005 0.0058801305 6.5474189e-005 0.0058889338 0.9995653 -0.011311442
189932075.4717 1.0001067 -0.012586594 9.4483141e-005 0.0061635459 8.5877953e-005 0.0062466031 0.99983054 -0.011862785
199928301.88679 1.0000116 -0.013368905 8.8650268e-005 0.0065652239 9.5135183e-005 0.0065570306 0.99965119 -0.01273486
209924528.30189 0.99976897 -0.013870701 8.2973158e-005 0.0068643405 9.4073708e-005 0.0068651079 0.99948859 -0.013357222
219920754.71698 0.99996257 -0.014688849 9.101117e-005 0.0071808081 0.00011147023 0.00719928 0.99941158 -0.013988256
229916981.13208 0.99968332 -0.01560539 0.00011009327 0.0075228671 0.00010480778 0.0075310478 0.99941128 -0.014790833
239913207.54717 0.99960339 -0.016262528 0.00013529888 0.0078310864 0.00013688569 0.0078925602 0.99932218 -0.015516751
249909433.96226 0.99963361 -0.016791135 0.00013589417 0.0081451051 0.0001426721 0.0081760036 0.99940979 -0.01610446
259905660.37736 0.99977684 -0.017380416 0.0001489413 0.0084814187 0.00016419357 0.0085577033 0.99961644 -0.016601652
269901886.79245 0.9997654 -0.01798901 0.00016415562 0.0087976409 0.00015131372 0.0089173093 0.99994773 -0.017393425
279898113.20755 0.99984694 -0.018664226 0.00020225882 0.0091673136 0.00018522772 0.0091953138 0.99982864 -0.018131226
289894339.62264 0.99984568 -0.019484311 0.0001407885 0.0094631054 0.00012849784 0.0095056146 0.99973214 -0.018912405
299890566.03774 0.99982053 -0.019937217 0.0001645314 0.0097629894 0.00019714609 0.0097929873 0.99945599 -0.019327402
309886792.45283 0.9996888 -0.020416252 0.00017911289 0.010132471 0.00018061802 0.010111535 0.99926984 -0.019722342
319883018.86792 0.99975538 -0.02113986 0.00018817931 0.010465031 0.00024924101 0.01048245 0.99951768 -0.020227164
329879245.28302 0.99975944 -0.021931082 0.00027318671 0.010821857 0.00028096326 0.010818187 0.99958849 -0.020962954
339875471.69811 0.99963731 -0.02268967 0.00023612799 0.011089674 0.00025372405 0.011133762 0.99957079 -0.021681629
349871698.11321 0.99975163 -0.023469895 0.00026103179 0.011392047 0.00025276328 0.011469595 0.99953336 -0.02267167
359867924.5283 0.99959362 -0.024221808 0.00032028276 0.011742852 0.00027686683 0.011785607 0.99947053 -0.02357164
369864150.9434 0.9998126 -0.025054991 0.00030409149 0.012059983 0.00030781073 0.012130971 0.99945194 -0.024246603
379860377.35849 0.99965984 -0.025743872 0.00028691953 0.012412273 0.00032224995 0.012451757 0.99936497 -0.024950877
389856603.77358 0.99964881 -0.026295245 0.00034238817 0.012750108 0.00035204133 0.012766236 0.9993608 -0.02532497
399852830.18868 0.99939799 -0.026985288 0.0003876728 0.013067386 0.00036629662 0.013140781 0.99943018 -0.025880843
409849056.60377 0.99929577 -0.027499609 0.00036429419 0.01337769 0.00033771299 0.013428011 0.99940288 -0.026401568
419845283.01887 0.9992547 -0.027940422 0.00032064831 0.01370188 0.00039156154 0.013772 0.999327 -0.0269171
429841509.43396 0.9993574 -0.028545499 0.00040974328 0.014014211 0.00041407719 0.014050498 0.99953711 -0.027677655
439837735.84906 0.99919915 -0.02945745 0.00043384719 0.01434826 0.00045005418 0.014391757 0.99926603 -0.028585017
449833962.26415 0.99894863 -0.030207813 0.00043843128 0.014650924 0.00041037286 0.014729736 0.99891996 -0.029388398
459830188.67925 0.99875814 -0.030897319 0.00043527316 0.014981721 0.0004195217 0.015036726 0.99873531 -0.030083597
469826415.09434 0.99870473 -0.031571746 0.00043604197 0.015325466 0.0004337593 0.015372621 0.99849337 -0.030628741
479822641.50943 0.99851769 -0.032059103 0.00049913547 0.015650574 0.00045251823 0.015692085 0.99850547 -0.030993313
489818867.92453 0.99868035 -0.032550275 0.00053470116 0.015975915 0.00051895762 0.016062081 0.99884784 -0.031564534
499815094.33962 0.99878025 -0.033186078 0.00051647238 0.01630589 0.00054027 0.016324572 0.99909478 -0.032151818
509811320.75472 0.99881876 -0.033482745 0.00054745656 0.016641621 0.00055069616 0.016641555 0.99918592 -0.032912787
519807547.16981 0.99879873 -0.033984482 0.00055722799 0.016899493 0.00056457473 0.016967079 0.99914747 -0.033556163
529803773.58491 0.99875516 -0.034501404 0.00057815202 0.017212505 0.00058408361 0.017339168 0.99891484 -0.034186661
539800000 0.99882764 -0.035227656 0.00057885912 0.017592464 0.0005990339 0.017665552 0.99880075 -0.03487815
549796226.41509 0.99878514 -0.036019593 0.00065344479 0.017917652 0.00062061427 0.018004559 0.99868459 -0.035295844
559792452.83019 0.99853611 -0.036595851 0.00059367158 0.018249877 0.00065213256 0.018313177 0.99865794 -0.035755277
569788679.24528 0.99840397 -0.037371308 0.0006377208 0.018570872 0.00064225588 0.018677879 0.99875301 -0.036537439
579784905.66038 0.99851513 -0.037910663 0.00070717803 0.018936317 0.00072386872 0.018987464 0.99891037 -0.037294328
589781132.07547 0.99854457 -0.038525671 0.00074440334 0.019215394 0.00071305502 0.01928784 0.99903703 -0.038073629
599777358.49057 0.99875849 -0.039132446 0.00078387558 0.019581836 0.00075013284 0.019640474 0.99901623 -0.03885904
609773584.90566 0.99879414 -0.039872132 0.00080739654 0.019869238 0.00078160537 0.019935301 0.99887425 -0.039765991
619769811.32075 0.99899668 -0.040578216 0.00083477143 0.020220762 0.00083332602 0.020302167 0.99879581 -0.040253103
629766037.73585 0.9988091 -0.041217625 0.00084857084 0.020526916 0.00084300153 0.020579373 0.99867606 -0.040783256
639762264.15094 0.99865824 -0.041852683 0.00084856618 0.020835469 0.00084451726 0.020883631 0.99851257 -0.041177362
649758490.56604 0.99858117 -0.042400882 0.00085067563 0.021144075 0.00088502048 0.021237034 0.99860442 -0.041662991
659754716.98113 0.99848962 -0.042935401 0.00087366067 0.021459803 0.0008913558 0.021557484 0.9986465 -0.042297423
669750943.39623 0.99849212 -0.043430269 0.00090471841 0.02181826 0.0008610324 0.02187437 0.99876219 -0.042977214
679747169.81132 0.99852598 -0.044240914 0.00095779239 0.022156119 0.00093020638 0.022245383 0.99865174 -0.043978281
689743396.22642 0.99864239 -0.044935614 0.00097523816 0.022462968 0.00097670592 0.022604646 0.99851018 -0.044921726
699739622.64151 0.99880123 -0.04583329 0.0010429602 0.022805095 0.0010229452 0.022905938 0.99850619 -0.04551065
709735849.0566 0.99871349 -0.046656854 0.0010824659 0.023112662 0.0010658827 0.023212915 0.99826711 -0.046203896
719732075.4717 0.99869812 -0.047329932 0.0010955138 0.023441965 0.0011152513 0.023507696 0.99831295 -0.046808362
729728301.88679 0.9984808 -0.047936708 0.0011033872 0.023731062 0.0011184942 0.023826666 0.99832273 -0.04718411
739724528.30189 0.99839234 -0.048588961 0.0011364357 0.024028512 0.0011627991 0.024150608 0.99855363 -0.047915176
749720754.71698 0.99835104 -0.04910098 0.0012072134 0.024365894 0.0012011109 0.024450179 0.99854702 -0.048579514
759716981.13208 0.99838555 -0.049676687 0.0012267707 0.024688276 0.0012078686 0.024783075 0.99850607 -0.049336761
769713207.54717 0.99832827 -0.050399065 0.0012533423 0.024990596 0.0012608375 0.025073247 0.99821115 -0.050079286
779709433.96226 0.99841845 -0.051040109 0.0012689255 0.025324458 0.0012800362 0.02542695 0.99802303 -0.050635446
789705660.37736 0.99827707 -0.051839292 0.0013151905 0.02562641 0.0012814067 0.025738414 0.99774587 -0.051402003
799701886.79245 0.99828613 -0.052633375 0.0013442934 0.025951158 0.0013195341 0.026049208 0.99764085 -0.051955163
809698113.20755 0.99815488 -0.053184375 0.0013643175 0.026262403 0.0013504052 0.02637139 0.99767846 -0.05236797
819694339.62264 0.99795127 -0.053817809 0.0013945657 0.026591972 0.0013697497 0.026714604 0.99776435 -0.053019315
829690566.03774 0.99789226 -0.054421425 0.001439238 0.026887115 0.001428646 0.027023669 0.99795318 -0.053829998
839686792.45283 0.9979732 -0.054851979 0.0014488501 0.027230347 0.0014385725 0.027306534 0.99803722 -0.054639339
849683018.86792 0.99809253 -0.055539876 0.0014760455 0.027549127 0.0014602467 0.027632436 0.99790424 -0.055365875
859679245.28302 0.99811208 -0.056194484 0.0015201792 0.027875209 0.0015228419 0.027989347 0.99765503 -0.056007624
869675471.69811 0.99801558 -0.056990236 0.001567727 0.028180966 0.0015476337 0.028283861 0.99729276 -0.056520134
879671698.11321 0.99791491 -0.057511907 0.0015801582 0.028469501 0.001613198 0.028610369 0.99732095 -0.056969643
889667924.5283 0.99774724 -0.058361024 0.0016183872 0.028760754 0.0016033677 0.028918667 0.9971652 -0.057418525
899664150.9434 0.99761093 -0.059003204 0.0016505076 0.029080845 0.0016270969 0.029193595 0.99724746 -0.058041602
909660377.35849 0.99759614 -0.059634075 0.0016768011 0.029406626 0.001680098 0.029547658 0.99731398 -0.058870956
919656603.77358 0.99769545 -0.060332686 0.0016724346 0.02971747 0.0016609821 0.029857751 0.9973892 -0.059726089
929652830.18868 0.99764091 -0.061009943 0.0017134948 0.030025257 0.0017141551 0.030165333 0.99719441 -0.060593784
939649056.60377 0.9978469 -0.061612487 0.0017314982 0.030354371 0.0017132051 0.030485168 0.99706829 -0.061302245
949645283.01887 0.99773312 -0.062416632 0.0017022047 0.030694949 0.0017415773 0.030812634 0.9968065 -0.061795488
959641509.43396 0.99766594 -0.063080788 0.0017390633 0.031024206 0.0017645815 0.031147668 0.99678802 -0.062367886
969637735.84906 0.9976393 -0.063851237 0.0018096594 0.031392556 0.0018189307 0.031521987 0.99684727 -0.062667817
979633962.26415 0.99748665 -0.064527377 0.0018637823 0.031647731 0.001868522 0.031828035 0.99681729 -0.063360654
989630188.67925 0.99749929 -0.0650388 0.0019088015 0.032008212 0.0019018361 0.032144327 0.99703026 -0.063934565
999626415.09434 0.997576 -0.065651238 0.0019211406 0.032325353 0.0019122753 0.032470252 0.99694169 -0.064735591
1009622641.5094 0.99760252 -0.066330642 0.0019576661 0.032625251 0.0019716322 0.032804523 0.99683076 -0.065520182
1019618867.9245 0.99767709 -0.067069694 0.0019782493 0.032951552 0.0020127804 0.033101305 0.99661553 -0.066395506
1029615094.3396 0.9976725 -0.068055034 0.0020319633 0.033250049 0.0020800689 0.033399861 0.9962759 -0.066920072
1039611320.7547 0.99774379 -0.068827212 0.0020711413 0.033569381 0.0020996341 0.033681851 0.99622524 -0.06754145
1049607547.1698 0.99756676 -0.069673099 0.0021053383 0.033857312 0.0021024328 0.034023032 0.9962548 -0.068133578
1059603773.5849 0.9975211 -0.070430368 0.0021188613 0.034150328 0.0021542273 0.034325514 0.99623144 -0.068677098
1069600000 0.99728853 -0.07092005 0.002117089 0.034476489 0.0021677054 0.034621678 0.996387 -0.069422334
1079596226.4151 0.99728292 -0.071682341 0.0021287957 0.034776546 0.0022026831 0.034965988 0.99637169 -0.070153214
1089592452.8302 0.99728966 -0.072318405 0.0021602381 0.035110943 0.0022124536 0.035271525 0.99636209 -0.07087028
1099588679.2453 0.99738419 -0.072957635 0.0021785814 0.035457313 0.0022140592 0.035592347 0.99598527 -0.071514338
1109584905.6604 0.99744135 -0.073767424 0.002223039 0.035762161 0.0022405563 0.035965595 0.99577188 -0.072024658
1119581132.0755 0.9974767 -0.074731678 0.0022115293 0.036112577 0.0022588102 0.036313999 0.99560934 -0.072426021
1129577358.4906 0.99727654 -0.075490624 0.0022637751 0.036465198 0.0022994131 0.036651183 0.99551958 -0.072918326
1139573584.9057 0.99703848 -0.076312691 0.0022920631 0.036763247 0.00236372 0.036986135 0.99557155 -0.073553205
1149569811.3208 0.99693751 -0.0771688 0.0023488994 0.037106436 0.0024347967 0.037307397 0.99573773 -0.074236587
1159566037.7358 0.99676257 -0.077791035 0.0023968266 0.03742598 0.0024379138 0.037572015 0.99575835 -0.075249046
1169562264.1509 0.99660486 -0.078516334 0.0023781285 0.037711598 0.0024483502 0.037880156 0.99562025 -0.076022506
1179558490.566 0.9965232 -0.079195827 0.0023798787 0.038084496 0.0024787504 0.03824101 0.99553263 -0.076770015
1189554716.9811 0.99656403 -0.07997942 0.0024585631 0.038409673 0.0025117761 0.038581945 0.99525106 -0.077255815
1199550943.3962 0.99649084 -0.08079797 0.0025059078 0.038757101 0.0025804136 0.038925447 0.995067 -0.077713758
1209547169.8113 0.99634987 -0.081701323 0.0025165137 0.039070524 0.0026163012 0.039218899 0.99502498 -0.078071728
1219543396.2264 0.99612588 -0.082472563 0.0025787242 0.039473001 0.0026606591 0.039586071 0.99506497 -0.07841222
1229539622.6415 0.99580598 -0.083260357 0.0026526283 0.039736569 0.0027339682 0.039950117 0.995202 -0.079121262
1239535849.0566 0.99559379 -0.083874226 0.0027044741 0.040050287 0.0027984036 0.040249866 0.99528879 -0.080014288
1249532075.4717 0.99532133 -0.084556721 0.0027605516 0.040401272 0.0028539279 0.040548716 0.99515647 -0.08071965
1259528301.8868 0.99506652 -0.085007638 0.0027752668 0.040710919 0.0029205773 0.040835045 0.99495018 -0.081609607
1269524528.3019 0.99494874 -0.08579424 0.0028520208 0.041006375 0.0029834453 0.041135103 0.99471003 -0.082313299
1279520754.717 0.99460232 -0.086448699 0.00292982 0.041295439 0.0030286913 0.041419756 0.99444354 -0.082873374
1289516981.1321 0.99448037 -0.087304026 0.0029136725 0.041600332 0.003029665 0.041705426 0.9945088 -0.083308667
1299513207.5472 0.99417418 -0.088147432 0.0029364359 0.041898981 0.0030343421 0.042010769 0.99463779 -0.083677173
1309509433.9623 0.99376684 -0.088832483 0.0029753651 0.042200014 0.0030745296 0.042299192 0.99468273 -0.084453002
1319505660.3774 0.99345398 -0.089549839 0.0029495964 0.042535625 0.0030444218 0.042644627 0.99476153 -0.085014701
1329501886.7925 0.99319553 -0.090222627 0.0029630736 0.042836554 0.0030911677 0.04294762 0.99477476 -0.086041152
1339498113.2075 0.99288774 -0.090683818 0.0029754331 0.043168053 0.0031063613 0.043244153 0.99437374 -0.086761057
1349494339.6226 0.9927268 -0.091229804 0.002975997 0.043487635 0.003050745 0.04357034 0.99408019 -0.087286986
1359490566.0377 0.99265367 -0.091767609 0.003014816 0.043838654 0.0030814484 0.043933868 0.99388242 -0.08773917
1369486792.4528 0.99246901 -0.092353344 0.0029842881 0.044202223 0.0030757207 0.044304673 0.99366999 -0.088225424
1379483018.8679 0.99215674 -0.092873819 0.0029968871 0.044556852 0.0030753987 0.044623151 0.99370801 -0.088550858
1389479245.283 0.99184227 -0.093411893 0.0030876342 0.044943973 0.0031447485 0.044977941 0.99368066 -0.089272827
1399475471.6981 0.99138558 -0.093799144 0.0030863285 0.045267358 0.0031534918 0.045320164 0.99389559 -0.08995086
1409471698.1132 0.99109745 -0.094191484 0.0030956697 0.04569748 0.003199778 0.045743506 0.99386066 -0.090767145
1419467924.5283 0.9909181 -0.094429672 0.0031102775 0.046006836 0.0031801779 0.046099551 0.99365932 -0.091437101
1429464150.9434 0.99081182 -0.095013469 0.0031558033 0.046425879 0.0032376852 0.046486206 0.99360538 -0.092030942
1439460377.3585 0.99092895 -0.095422208 0.0032745954 0.046861794 0.0033153929 0.046915445 0.99338698 -0.092417911
1449456603.7736 0.99092287 -0.096012205 0.0033736574 0.047251489 0.0033795508 0.047288749 0.99323958 -0.092682153
1459452830.1887 0.9909364 -0.096618295 0.0035220403 0.047631089 0.0035252497 0.04769545 0.99335849 -0.093007892
1469449056.6038 0.99100232 -0.097237349 0.0036634142 0.047971103 0.0036427947 0.048035573 0.99355161 -0.093635857
1479445283.0189 0.99086976 -0.097869426 0.0038010031 0.048248246 0.0037838814 0.048329934 0.99362236 -0.094494283
1489441509.434 0.99083352 -0.098349363 0.003889462 0.048541635 0.0039044917 0.048657417 0.99355823 -0.095378041
1499437735.8491 0.99057686 -0.098750621 0.0040305872 0.048796035 0.0040339101 0.048924938 0.99346423 -0.096176237
1509433962.2642 0.99064314 -0.099273495 0.0041039069 0.049080767 0.0041045942 0.049185392 0.99334329 -0.096922383
1519430188.6792 0.99070179 -0.099813133 0.0041622557 0.04933203 0.0041618496 0.049458455 0.99316055 -0.097425789
1529426415.0943 0.99070936 -0.10045475 0.0042366758 0.049619019 0.0041741785 0.049733281 0.992975 -0.09789893
1539422641.5094 0.99075645 -0.1012423 0.0042491425 0.049927626 0.0042574359 0.050034616 0.99312288 -0.098379992
1549418867.9245 0.99046886 -0.1020129 0.0043320386 0.050199844 0.0043236492 0.050316378 0.99340928 -0.099065974
1559415094.3396 0.99043584 -0.1026611 0.004343763 0.050506923 0.0043439195 0.050592113 0.9935075 -0.099753439
1569411320.7547 0.99031329 -0.10345021 0.0044210833 0.050729234 0.0043568602 0.050865766 0.99337113 -0.10061872
1579407547.1698 0.99034345 -0.10386376 0.0044328794 0.051030189 0.0044209491 0.05114213 0.99300671 -0.10138619
1589403773.5849 0.99022365 -0.10453951 0.004423691 0.051334143 0.0043902081 0.051443126 0.99283957 -0.10202327
1599400000 0.99017125 -0.10493079 0.0044045998 0.051623512 0.0043764012 0.051772986 0.99251807 -0.10256138
1609396226.4151 0.99014795 -0.10564199 0.0044220788 0.051931836 0.0043743905 0.052032255 0.99240029 -0.10300512
1619392452.8302 0.99013883 -0.10620785 0.0044452883 0.052267697 0.004375333 0.052428052 0.99230731 -0.10351962
1629388679.2453 0.98994529 -0.10686988 0.0044256598 0.052587889 0.0043873359 0.052757151 0.99244916 -0.10395721
1639384905.6604 0.98969668 -0.1075322 0.0044385032 0.052948758 0.0043715127 0.053111367 0.99275112 -0.10486464
1649381132.0755 0.98951465 -0.10820079 0.0044667963 0.053323559 0.0044176113 0.053442493 0.99266499 -0.1057471
1659377358.4906 0.98937798 -0.1089882 0.0044781864 0.053689156 0.0044454355 0.053837575 0.99261224 -0.10657772
1669373584.9057 0.98933554 -0.10941882 0.0045463885 0.054068394 0.0045036501 0.054184154 0.99228823 -0.10717078
1679369811.3208 0.98926747 -0.1101245 0.0045619812 0.05440126 0.0044763945 0.054583937 0.99211502 -0.10775605
1689366037.7358 0.98931968 -0.11069942 0.0045768209 0.05475612 0.0045206752 0.054983784 0.99197841 -0.10802275
1699362264.1509 0.98945367 -0.11128618 0.0046540992 0.055115774 0.0045774793 0.055341341 0.99227202 -0.10845959
1709358490.566 0.98933631 -0.11189732 0.0046954732 0.055510983 0.004631144 0.055682037 0.99217069 -0.10901721
1719354716.9811 0.98909497 -0.11253783 0.0047198981 0.055858277 0.0047001336 0.05608369 0.99229729 -0.10968882
1729350943.3962 0.98875928 -0.11310348 0.0047911201 0.056248445 0.0047570188 0.056443918 0.99227357 -0.11057767
