!Keysight Technologies,N5222B,MY61253708,A.15.00.15
!Date: Wednesday, June 19, 2024 10:40:10
!Correction: S11(C  2-Port  ) 
!S21(C  2-Port  ) 
!S12(C  2-Port  ) 
!S22(C  2-Port  ) 
!S2P File: Measurements: S11, S21, S12, S22:
# Hz S  RI   R 50
10000000 0.99849665 -0.0032233298 0.00026698492 4.7971254e-005 -0.00028543765 0.00015529865 0.99802792 -0.0020256937
19996226.415094 0.99993128 -0.0023440719 6.8914582e-005 0.00068515143 7.2377676e-005 0.00060805067 0.99974632 -0.0024840534
29992452.830189 0.99969131 -0.0025627613 -2.5334142e-005 0.00089949154 -5.3008553e-005 0.00097060873 0.99919945 -0.0028175414
39988679.245283 1.000121 -0.0030434579 -4.2137282e-005 0.0013227152 2.4143228e-005 0.0013252991 0.99968344 -0.0030942559
49984905.660377 1.0003016 -0.003683269 1.0001066e-005 0.0016204221 2.0447595e-005 0.0016108408 0.99989045 -0.0036307573
59981132.075472 1.000483 -0.0044885576 3.815454e-006 0.0019129419 -4.0784944e-006 0.0019195389 0.99990302 -0.0042445064
69977358.490566 1.0002642 -0.0050932374 2.2296103e-005 0.0022686704 2.3841334e-005 0.0023007896 0.99980026 -0.0047860518
79973584.90566 0.99995321 -0.005638659 -1.8019928e-006 0.002620284 3.5121338e-006 0.0025579329 0.99937904 -0.0052193105
89969811.320755 0.99992847 -0.0056912601 1.2992066e-005 0.0029152255 -1.0807998e-005 0.0029004344 0.99956232 -0.0053911805
99966037.735849 1.0001572 -0.0063786358 1.0254967e-005 0.0032515295 2.137007e-005 0.0032396391 0.99966329 -0.0061171055
109962264.15094 1.0002029 -0.0072740614 4.6282483e-005 0.003552587 1.3548823e-005 0.0035623619 0.99970531 -0.0069235712
119958490.56604 1.0002756 -0.0081822872 1.4771358e-005 0.003857966 2.3910892e-005 0.0038924627 0.99974072 -0.0077856481
129954716.98113 1.0002273 -0.009182781 2.8554117e-005 0.0041807876 3.8368045e-005 0.0042001577 0.99976116 -0.0086618662
139950943.39623 1.0001584 -0.0099847876 5.2368967e-005 0.0045224861 3.7502425e-005 0.0045138053 0.99969125 -0.0094084479
149947169.81132 1.00002 -0.010635108 4.2241532e-005 0.0048490018 3.7207268e-005 0.0048337895 0.99958992 -0.010009319
159943396.22642 0.99992573 -0.011128157 5.7241414e-005 0.005156612 5.704537e-005 0.00517477 0.99965507 -0.010439962
169939622.64151 0.99994439 -0.011404276 5.8532401e-005 0.0054959147 5.5250304e-005 0.0054850057 0.99971265 -0.010841392
179935849.0566 1.0000442 -0.011696994 5.1305047e-005 0.0057984884 5.3383876e-005 0.0058385306 0.99961156 -0.011172682
189932075.4717 1.0001594 -0.01243636 6.5552536e-005 0.00611383 6.0211634e-005 0.0061265845 0.99983239 -0.01172927
199928301.88679 1.0000912 -0.013219565 0.00010537484 0.0064340881 8.1423088e-005 0.0064725084 0.99970227 -0.012538075
209924528.30189 0.99981093 -0.013830245 7.7118282e-005 0.0067457911 0.0001013329 0.0067568519 0.9994933 -0.013231918
219920754.71698 0.99995995 -0.014635473 0.00012122444 0.0070858249 0.00011480157 0.0071155299 0.99941415 -0.013849646
229916981.13208 0.9997074 -0.015500784 0.00013870513 0.0074163885 0.00013725366 0.0074362913 0.99939376 -0.014647871
239913207.54717 0.99956381 -0.01615669 0.0001351082 0.007740749 0.00012763253 0.0077692084 0.99932581 -0.01535718
249909433.96226 0.99963284 -0.016728431 0.00013596099 0.0080352621 0.00014482834 0.0080694137 0.99941194 -0.015878439
259905660.37736 0.9998244 -0.01724112 9.5665455e-005 0.0083637536 0.00012146542 0.0084038619 0.99962658 -0.016387463
269901886.79245 0.99988192 -0.017986402 0.00016531779 0.0087298462 0.00017915107 0.0087001463 1.0000843 -0.017133072
279898113.20755 1.0001118 -0.018547252 0.00017625722 0.0090222443 0.00013894122 0.0090506524 0.9999972 -0.017905056
289894339.62264 0.99994326 -0.019342721 0.00016833097 0.0093548819 0.00017012237 0.0093503613 0.9998312 -0.018732011
299890566.03774 0.99992055 -0.019824117 0.00016284455 0.0096681062 0.00020673405 0.0096916761 0.99954045 -0.019176871
309886792.45283 0.99963158 -0.02032765 0.00019490212 0.0099998796 0.00018555264 0.010021137 0.99934739 -0.019568637
319883018.86792 0.99969029 -0.02100414 0.00018981751 0.010294827 0.00026482437 0.010351545 0.99944425 -0.01998648
329879245.28302 0.99976599 -0.021732092 0.00023698714 0.010662748 0.00021887105 0.010671969 0.99957144 -0.02075544
339875471.69811 0.99966729 -0.022447787 0.00027559744 0.010973422 0.00027085363 0.010970369 0.99959499 -0.021530919
349871698.11321 0.99978608 -0.023264319 0.00026140176 0.011267226 0.00027924962 0.011342636 0.99958146 -0.022491574
359867924.5283 0.9997279 -0.024116755 0.00025730114 0.01158363 0.0002536145 0.011641962 0.99954367 -0.023413479
369864150.9434 0.99982774 -0.024895519 0.00027277181 0.011916961 0.00032194331 0.011950581 0.99957854 -0.024070859
379860377.35849 0.99976534 -0.02569887 0.00030411431 0.012264894 0.00031197816 0.012271429 0.99938929 -0.024755567
389856603.77358 0.99957675 -0.026116997 0.0003095828 0.012560269 0.00030932762 0.01257485 0.99942899 -0.025165528
399852830.18868 0.99940789 -0.026847899 0.00033285934 0.012854837 0.00031829067 0.012894543 0.99946451 -0.025676012
409849056.60377 0.99936944 -0.027339349 0.00038499426 0.013183866 0.00034014511 0.013223223 0.99945939 -0.026123654
419845283.01887 0.99925172 -0.027787119 0.00036634924 0.013542157 0.00036874879 0.01355534 0.99941462 -0.026743799
429841509.43396 0.9992193 -0.028369397 0.00040118769 0.013845742 0.00037201308 0.013900606 0.99953002 -0.027434498
439837735.84906 0.99910796 -0.029333264 0.00042228831 0.014167981 0.0004040153 0.014179288 0.99922484 -0.028436884
449833962.26415 0.99885118 -0.03011179 0.00038931938 0.01444489 0.00043175137 0.014521707 0.99879706 -0.029200852
459830188.67925 0.99863201 -0.030791342 0.00041696196 0.014793974 0.00043206522 0.014816269 0.99862659 -0.029885054
469826415.09434 0.99853593 -0.031487733 0.00045637134 0.015120312 0.00043764478 0.015147478 0.99839008 -0.030378431
479822641.50943 0.99839711 -0.031892404 0.00047331001 0.015430642 0.00047848665 0.015484376 0.99838507 -0.030828103
489818867.92453 0.99853647 -0.032375395 0.00051231449 0.015775237 0.00051156478 0.015838154 0.99870259 -0.031200737
499815094.33962 0.9985038 -0.03289035 0.0005201106 0.016090561 0.00048840186 0.016115267 0.99900007 -0.031732053
509811320.75472 0.99868399 -0.033161554 0.00054142223 0.016401453 0.00055780553 0.016439723 0.99914604 -0.032487947
519807547.16981 0.99865985 -0.033676475 0.00057853712 0.01669842 0.00055625243 0.01674344 0.99910998 -0.033243418
529803773.58491 0.99859917 -0.034187824 0.00056419987 0.017032808 0.00056522852 0.017053546 0.99887383 -0.033770978
539800000 0.99872464 -0.03481783 0.00055517559 0.017358219 0.00055871205 0.017453754 0.99872071 -0.034433782
549796226.41509 0.99851835 -0.035584718 0.00060116546 0.017694412 0.00060407445 0.017756525 0.99854982 -0.034832925
559792452.83019 0.99830306 -0.036309898 0.00058514252 0.017978862 0.00066143274 0.018070385 0.99855167 -0.035302401
569788679.24528 0.99826705 -0.036903381 0.00065106852 0.018322872 0.0006075264 0.018377606 0.99871218 -0.036040872
579784905.66038 0.99836069 -0.037445799 0.00067124527 0.018614238 0.0006733113 0.018699465 0.99878442 -0.036753297
589781132.07547 0.998532 -0.038101703 0.00071620941 0.018991016 0.00068003871 0.01896959 0.99901962 -0.037586302
599777358.49057 0.99863392 -0.038637519 0.00075634103 0.019290883 0.00075917877 0.019331498 0.99903941 -0.038433403
609773584.90566 0.99887794 -0.039339654 0.00079589064 0.019615596 0.00075617246 0.019656716 0.9989168 -0.039236665
619769811.32075 0.99891901 -0.040188551 0.0008103908 0.019887175 0.00078605535 0.020013278 0.9988488 -0.039759874
629766037.73585 0.99873567 -0.040769011 0.00081666093 0.020236686 0.00085197855 0.020286981 0.99864292 -0.040272087
639762264.15094 0.99858981 -0.041349024 0.00082986779 0.020537341 0.00081864884 0.020594036 0.99855244 -0.040672421
649758490.56604 0.99853146 -0.041936025 0.00088011939 0.020855766 0.0008697384 0.020911111 0.99862111 -0.041111588
659754716.98113 0.99835342 -0.042404562 0.00084805768 0.021196816 0.00086642522 0.021206714 0.99869871 -0.041670263
669750943.39623 0.99841648 -0.042892396 0.00088836718 0.021532556 0.00089713419 0.021541607 0.99883437 -0.042477727
679747169.81132 0.99844778 -0.0437598 0.00090715196 0.021860905 0.00089976599 0.021937955 0.99879682 -0.043436833
689743396.22642 0.99868768 -0.044554442 0.00097518694 0.022189505 0.00095592253 0.022235271 0.99860907 -0.044366986
699739622.64151 0.99878263 -0.045296669 0.0010159453 0.022504773 0.001040075 0.022545105 0.99854434 -0.045074165
709735849.0566 0.99879348 -0.046201535 0.0010579606 0.022801844 0.0010488023 0.022845836 0.99827623 -0.045718744
719732075.4717 0.99863106 -0.046876252 0.001063725 0.023102636 0.0010585915 0.023170723 0.99833286 -0.046230286
729728301.88679 0.99853659 -0.047494948 0.0011020377 0.023407605 0.001084513 0.023496347 0.99840319 -0.046674311
739724528.30189 0.99840063 -0.048079506 0.0011414555 0.023754818 0.0011329991 0.023795819 0.99864441 -0.047356471
749720754.71698 0.99832261 -0.048631832 0.0011813226 0.024033958 0.0011679856 0.02409875 0.99864972 -0.048029527
759716981.13208 0.9984228 -0.049155176 0.0012252517 0.024360795 0.0011884701 0.024442062 0.99854857 -0.048821509
769713207.54717 0.9982878 -0.049847841 0.0011896156 0.024658747 0.0012248009 0.024734885 0.99829751 -0.049518824
779709433.96226 0.99844128 -0.050496884 0.0012519545 0.025000092 0.0012444089 0.025031488 0.9979912 -0.05017291
789705660.37736 0.99823529 -0.05143106 0.0012641568 0.025311422 0.001276074 0.025330888 0.99775666 -0.050874859
799701886.79245 0.99820375 -0.052207798 0.001311712 0.025596809 0.0012945095 0.025673155 0.99761629 -0.051407903
809698113.20755 0.99814171 -0.052841425 0.0013172948 0.025928017 0.0013272981 0.025992028 0.99764645 -0.051865667
819694339.62264 0.99787074 -0.053479135 0.0013775011 0.026238061 0.0013316683 0.026313893 0.99784315 -0.052504689
829690566.03774 0.99790668 -0.053977579 0.0014067665 0.026542306 0.0013714992 0.026632488 0.99804783 -0.053353935
839686792.45283 0.99796224 -0.054406703 0.0014033187 0.026839262 0.0014257911 0.026926907 0.99811697 -0.054139495
849683018.86792 0.99799043 -0.054998308 0.0014433907 0.027160339 0.0014465954 0.027240839 0.99797314 -0.054782748
859679245.28302 0.99798214 -0.055642903 0.0014493382 0.027492892 0.0014571482 0.027567027 0.99760783 -0.055458337
869675471.69811 0.99796724 -0.056446373 0.0015270198 0.027807066 0.0015014624 0.027876556 0.99729019 -0.055917531
879671698.11321 0.9978677 -0.057078991 0.0015477892 0.028090522 0.0015595211 0.028176952 0.99730861 -0.05633463
889667924.5283 0.9977237 -0.05778867 0.0015719496 0.028377254 0.0015512882 0.028479166 0.99713445 -0.056751072
899664150.9434 0.99747348 -0.058490872 0.0015793955 0.028711434 0.0016050357 0.028789233 0.99722224 -0.057399452
909660377.35849 0.99747801 -0.059192315 0.0016007461 0.029020859 0.0016241628 0.029113514 0.99739575 -0.058233455
919656603.77358 0.99751925 -0.059747592 0.0016571712 0.029361777 0.0016292538 0.029402312 0.99738145 -0.059135228
929652830.18868 0.99753535 -0.060498387 0.0016543753 0.029635519 0.0016555591 0.029730711 0.99721313 -0.059956789
939649056.60377 0.99770236 -0.061081797 0.0016589388 0.029931245 0.0016380381 0.030027615 0.99709404 -0.060653329
949645283.01887 0.99767447 -0.061877437 0.0016548502 0.030281667 0.0016825253 0.030365188 0.99685484 -0.061225351
959641509.43396 0.99767315 -0.062514693 0.0016911784 0.030641874 0.0016994411 0.030738192 0.9967801 -0.061643004
969637735.84906 0.99753392 -0.063213468 0.0017565992 0.030958749 0.0017484603 0.031004667 0.99681365 -0.061952591
979633962.26415 0.99735725 -0.063881375 0.0018267899 0.031296916 0.0018063125 0.031352919 0.99687397 -0.062574968
989630188.67925 0.99739838 -0.06441775 0.0018405709 0.03158132 0.0018256558 0.031697765 0.99707365 -0.063212395
999626415.09434 0.99750835 -0.065004975 0.0018647686 0.031888403 0.0018628407 0.032000706 0.99700379 -0.063985765
1009622641.5094 0.99752307 -0.065621674 0.0018992135 0.032212831 0.0019220491 0.032305237 0.99685735 -0.064861298
1019618867.9245 0.99753255 -0.066395223 0.0019357298 0.032532837 0.0019694297 0.032610673 0.99662149 -0.065692648
1029615094.3396 0.99755937 -0.067301244 0.001990132 0.032835964 0.0020188475 0.03288867 0.9962554 -0.06619972
1039611320.7547 0.99757874 -0.068168759 0.0020245695 0.033123583 0.0020166337 0.033231668 0.9962427 -0.066856623
1049607547.1698 0.99754971 -0.069004796 0.0020630315 0.03341018 0.0020323079 0.033511028 0.99623567 -0.067384347
1059603773.5849 0.99736637 -0.069651514 0.0020392369 0.033730675 0.0020696856 0.03382574 0.99624693 -0.067940205
1069600000 0.99723423 -0.070299298 0.0020579882 0.03401988 0.0021228148 0.034119472 0.99642038 -0.068577558
1079596226.4151 0.99721092 -0.070933968 0.0020846655 0.034342889 0.0021395464 0.034463856 0.99641818 -0.069384485
1089592452.8302 0.99719423 -0.071543276 0.0021206019 0.034658808 0.0021598125 0.034774758 0.99640363 -0.070128679
1099588679.2453 0.99727964 -0.072217971 0.0021317583 0.034972306 0.0021569636 0.035076976 0.99604905 -0.070688397
1109584905.6604 0.99737614 -0.073036611 0.0021422561 0.035322487 0.0021711057 0.035424523 0.9958716 -0.071228534
1119581132.0755 0.99743104 -0.073966831 0.0021762643 0.035638757 0.0022224109 0.035769559 0.99566621 -0.071614817
1129577358.4906 0.99719709 -0.074747771 0.0022052899 0.035991494 0.0022524484 0.036113352 0.99553514 -0.072083175
1139573584.9057 0.99702764 -0.075683057 0.0022416441 0.036297157 0.0022855029 0.036420405 0.99569976 -0.072755694
1149569811.3208 0.99695277 -0.076414406 0.0022983791 0.036642026 0.0023674692 0.036733992 0.99582517 -0.073537439
1159566037.7358 0.99668729 -0.077051759 0.0023282804 0.03689032 0.0023872061 0.037026234 0.99591887 -0.074481994
1169562264.1509 0.99660158 -0.077698439 0.0023357421 0.03722503 0.0023728348 0.037331998 0.99575692 -0.075254083
1179558490.566 0.99653685 -0.078534856 0.0023315714 0.037565514 0.0024012709 0.037714072 0.99564773 -0.076000407
1189554716.9811 0.99647045 -0.07915765 0.0023593297 0.037901573 0.0024689129 0.038047288 0.99534464 -0.076514482
1199550943.3962 0.99645162 -0.079947054 0.0024074018 0.038259491 0.0025177319 0.03836279 0.99513471 -0.07687676
1209547169.8113 0.9963004 -0.080858395 0.0024508601 0.038585931 0.002549042 0.038665049 0.99511003 -0.077144533
1219543396.2264 0.9960531 -0.081662297 0.0025007608 0.038946912 0.0025923653 0.03904555 0.99517584 -0.077577442
1229539622.6415 0.99587005 -0.082446575 0.0025750082 0.039212361 0.002629824 0.03934389 0.99538147 -0.078261256
1239535849.0566 0.99560392 -0.083100617 0.002612873 0.039549291 0.0027254261 0.039655 0.99542373 -0.079219371
1249532075.4717 0.99532539 -0.083794564 0.002668042 0.039860312 0.0027803027 0.039952442 0.99524695 -0.080000967
1259528301.8868 0.99512076 -0.084288806 0.0027014464 0.040178277 0.0028327312 0.040242676 0.99502426 -0.080846429
1269524528.3019 0.99503529 -0.085001379 0.0027852552 0.040459529 0.0029350044 0.040534686 0.99483448 -0.081488639
1279520754.717 0.99467582 -0.085619591 0.0028351659 0.040754113 0.0029243282 0.040791437 0.99458736 -0.0819657
1289516981.1321 0.99458838 -0.086488694 0.0028763395 0.041036922 0.0029337201 0.041104928 0.99469113 -0.082479686
1299513207.5472 0.99424917 -0.087297052 0.0028428193 0.041348077 0.0029529706 0.04140586 0.99474108 -0.082825989
1309509433.9623 0.99382949 -0.08801946 0.0028501945 0.041635156 0.0029661423 0.041695688 0.99491954 -0.083495364
1319505660.3774 0.99351782 -0.088760063 0.0028412621 0.041960567 0.0029311255 0.042014845 0.99495798 -0.084133402
1329501886.7925 0.9931739 -0.08940354 0.0028776694 0.04228913 0.0029873159 0.042321645 0.99497992 -0.085161746
1339498113.2075 0.99298716 -0.089913756 0.0029016519 0.042569518 0.0030219331 0.042640448 0.994578 -0.085855901
1349494339.6226 0.99282748 -0.090426587 0.0028867223 0.042909581 0.0029833852 0.042948648 0.99422175 -0.086419426
1359490566.0377 0.99272799 -0.091073662 0.0028843731 0.043279629 0.0029859301 0.043296441 0.99400425 -0.086942554
1369486792.4528 0.99259627 -0.091530561 0.002911251 0.043653514 0.0029969951 0.043638274 0.99381351 -0.087421864
1379483018.8679 0.99225456 -0.092128724 0.0029111467 0.043998156 0.0029742164 0.043970771 0.99387592 -0.087694578
1389479245.283 0.99196339 -0.092692494 0.0029316004 0.044391219 0.003033597 0.044362471 0.99386585 -0.088401258
1399475471.6981 0.99157792 -0.093040764 0.0029851068 0.044682354 0.0030529946 0.04471473 0.99409485 -0.089082718
1409471698.1132 0.99118233 -0.093470693 0.0029949551 0.045057312 0.0030428858 0.045085479 0.99411261 -0.089869559
1419467924.5283 0.99103135 -0.093696207 0.0030266866 0.045419808 0.0030771866 0.045442149 0.99391824 -0.090566486
1429464150.9434 0.99092638 -0.094098657 0.0030430052 0.04580671 0.0030976757 0.045819856 0.99379456 -0.091122061
1439460377.3585 0.9910742 -0.09459573 0.0031730682 0.0462372 0.0031904792 0.046257734 0.99355811 -0.091478169
1449456603.7736 0.99112952 -0.095206425 0.0032556923 0.046648528 0.0032865964 0.046633922 0.99347115 -0.09173131
1459452830.1887 0.99111855 -0.095884591 0.0034110118 0.047054879 0.0033919141 0.047052167 0.99357927 -0.092036247
1469449056.6038 0.99115402 -0.096550822 0.0035441015 0.047348302 0.0035404181 0.047368098 0.99378318 -0.092763931
1479445283.0189 0.99108118 -0.097174734 0.0036770189 0.047634263 0.0036871117 0.047646273 0.9939 -0.093704835
1489441509.434 0.99089843 -0.097673655 0.0037902184 0.047924958 0.0038082078 0.04797649 0.99373949 -0.094568461
1499437735.8491 0.99074411 -0.09798491 0.0038991813 0.048204903 0.0039146319 0.048193019 0.99370265 -0.0953466
1509433962.2642 0.99077946 -0.098523512 0.0039963671 0.048452664 0.0039964048 0.048495021 0.99346751 -0.096041262
1519430188.6792 0.99084151 -0.098948509 0.0040644165 0.048732687 0.0040273312 0.048765942 0.99329549 -0.096511126
1529426415.0943 0.99077606 -0.099676967 0.0040728189 0.049014717 0.0040861331 0.049045213 0.99327648 -0.09696269
1539422641.5094 0.99083412 -0.10045932 0.0041443757 0.049274676 0.0041185948 0.049296934 0.99333644 -0.097453289
1549418867.9245 0.99066651 -0.10122751 0.004215735 0.049552277 0.004175026 0.049595457 0.99355882 -0.098180726
1559415094.3396 0.99064767 -0.10195377 0.0042739939 0.049850658 0.0042278748 0.049877562 0.99372005 -0.098821282
1569411320.7547 0.99045134 -0.10268484 0.004277885 0.05010866 0.0042403024 0.050166275 0.9936502 -0.099665672
1579407547.1698 0.99035245 -0.1031722 0.0042979508 0.050377227 0.0042791897 0.050429378 0.99325782 -0.10046437
1589403773.5849 0.99021363 -0.10374686 0.004291432 0.050659094 0.0042814612 0.050729819 0.99304491 -0.10119084
1599400000 0.99020934 -0.10414001 0.0043145372 0.050943721 0.0042586001 0.051005814 0.99258524 -0.1016674
1609396226.4151 0.99023783 -0.10478258 0.0042820261 0.051250543 0.004227174 0.051284201 0.99248636 -0.10215852
1619392452.8302 0.99019712 -0.10536033 0.0043259058 0.051596254 0.0042468235 0.051678099 0.99250484 -0.10253471
1629388679.2453 0.99004364 -0.10609636 0.0042869654 0.05195171 0.0042634197 0.051988795 0.99273431 -0.10308343
1639384905.6604 0.98979259 -0.10671546 0.0042928117 0.052267063 0.0042508929 0.052384723 0.99290663 -0.10389873
1649381132.0755 0.98952317 -0.10737896 0.0043639466 0.052591249 0.0042723157 0.052700553 0.99291927 -0.10484952
1659377358.4906 0.98941475 -0.10818952 0.0043363757 0.052987151 0.0043107588 0.053090766 0.99295902 -0.10572344
1669373584.9057 0.98936611 -0.10865768 0.004328107 0.05336136 0.0043315026 0.053481475 0.99259239 -0.10627741
1679369811.3208 0.98940283 -0.10926205 0.0043650307 0.053713385 0.0043349378 0.05380518 0.99232215 -0.10684547
1689366037.7358 0.98944348 -0.11000657 0.004446499 0.0540751 0.0043936241 0.054196861 0.99216628 -0.10715818
1699362264.1509 0.9896096 -0.11046831 0.0044758413 0.054432508 0.0044152932 0.054589979 0.99241734 -0.1075442
1709358490.566 0.98947173 -0.11105855 0.0045515336 0.054740302 0.0044660708 0.054884169 0.99245799 -0.10806519
1719354716.9811 0.98912627 -0.11172292 0.0045720376 0.055134833 0.0045565497 0.055266783 0.99249816 -0.10877067
