!Keysight Technologies,N5222B,MY61253708,A.15.00.15
!Date: Wednesday, June 19, 2024 09:45:59
!Correction: S11(C  2-Port  ) 
!S21(C  2-Port  ) 
!S12(C  2-Port  ) 
!S22(C  2-Port  ) 
!S2P File: Measurements: S11, S21, S12, S22:
# Hz S  RI   R 50
10000000 0.99869001 -0.0029159188 -5.5553988e-005 0.00033638466 0.00010166974 6.8706875e-005 0.99854064 -0.0016567707
19996226.415094 0.99898356 -0.003320694 4.8134418e-005 0.0006728489 -4.7186259e-005 0.00052057684 0.99928594 -0.0034703612
29992452.830189 0.99975646 -0.0023866296 -3.3322605e-005 0.0010038537 2.7092756e-005 0.0010040435 0.99946851 -0.0026957691
39988679.245283 1.0000547 -0.0029915571 2.1566186e-005 0.0013506234 1.7767888e-008 0.0013192637 0.99968529 -0.0030298084
49984905.660377 1.0003047 -0.0036661625 1.7126382e-005 0.0016752521 3.5583449e-005 0.0016713252 0.999816 -0.0036126673
59981132.075472 1.0003505 -0.0046207309 -2.0752952e-005 0.0019478226 -6.2540639e-006 0.0019847723 0.99983853 -0.0041795671
69977358.490566 1.0002062 -0.0052018464 -1.0600699e-005 0.0023009591 1.4866833e-005 0.0022965749 0.99970257 -0.0047550555
79973584.90566 0.9999339 -0.0057994425 4.2764121e-005 0.0026308829 1.9008294e-005 0.0026865928 0.99935973 -0.0051784813
89969811.320755 0.99996889 -0.0058556199 3.1889998e-005 0.0029774706 2.2990163e-005 0.0029979744 0.99959856 -0.0054595768
99966037.735849 1.0001429 -0.0066585839 3.3983029e-005 0.0033189335 3.3352931e-005 0.0033241168 0.99967057 -0.006267786
109962264.15094 1.0002189 -0.0075371414 3.3208693e-005 0.0036232944 4.382577e-005 0.0036685155 0.99966115 -0.0070701391
119958490.56604 1.000149 -0.0084094107 7.3364936e-006 0.003957496 2.7312199e-005 0.0040172497 0.99971592 -0.0078989267
129954716.98113 1.0001442 -0.0094099939 2.4985173e-005 0.0042758724 7.2650495e-005 0.0043464322 0.99968863 -0.0087872744
139950943.39623 1.0001109 -0.010208603 4.8514412e-005 0.0046162084 6.544964e-005 0.0046707434 0.99963623 -0.0095088743
149947169.81132 0.99995792 -0.010857463 4.9330061e-005 0.0049456879 4.903716e-005 0.0049885726 0.99955541 -0.010116369
159943396.22642 0.99992365 -0.011427253 3.290805e-005 0.0052895322 4.8401998e-005 0.005316088 0.99964619 -0.010618389
169939622.64151 0.99992007 -0.011799499 7.3010568e-005 0.0056172409 6.5220171e-005 0.0056763468 0.9996776 -0.011048101
179935849.0566 0.99996352 -0.012084097 7.9651712e-005 0.005948402 5.7775411e-005 0.005992393 0.99957633 -0.011423767
189932075.4717 1.00009 -0.012848228 9.8164426e-005 0.0062914463 0.00010562874 0.0063318312 0.99979132 -0.011947304
199928301.88679 1.0000299 -0.013674974 8.2357437e-005 0.0065756976 9.2196278e-005 0.0066692675 0.99975491 -0.01287666
209924528.30189 0.99973232 -0.014234737 8.5667591e-005 0.0069223568 9.1524213e-005 0.00699325 0.99951398 -0.013548627
219920754.71698 0.99987066 -0.015013009 0.00012556068 0.007258215 0.0001062532 0.0073308274 0.99936223 -0.014146417
229916981.13208 0.99962181 -0.015998513 0.00012045726 0.0075975396 0.00011556526 0.0076295258 0.99932832 -0.014915287
239913207.54717 0.99951208 -0.016617367 0.00013036575 0.0079179518 0.00013521744 0.0079960534 0.99933785 -0.015657188
249909433.96226 0.9996013 -0.017209977 0.00013758568 0.0082534803 0.00014212145 0.0083193276 0.99937558 -0.016296148
259905660.37736 0.99960673 -0.017908484 0.00012824219 0.0085586682 0.0001502051 0.0086740041 0.9995383 -0.01681599
269901886.79245 0.99979001 -0.018475741 0.00013560592 0.0088772997 0.00017027452 0.0089895232 0.99995029 -0.017483547
279898113.20755 0.99990302 -0.01917699 0.00022253604 0.0093035651 0.00020113587 0.0092465673 0.99971157 -0.018238559
289894339.62264 0.99976707 -0.019906551 0.00018829573 0.009563325 0.00020451797 0.0096456371 0.999668 -0.019001961
299890566.03774 0.99972397 -0.020441562 0.0001984993 0.0098946337 0.00019983528 0.0099842614 0.99942726 -0.019452244
309886792.45283 0.99951732 -0.021009281 0.0002091091 0.010191487 0.0002117448 0.010328466 0.99936545 -0.01987417
319883018.86792 0.99962366 -0.02157703 0.00022364082 0.010596536 0.00020916108 0.010669203 0.99947143 -0.020334721
329879245.28302 0.99955916 -0.022418439 0.000251933 0.010902829 0.00024235854 0.01102906 0.99958253 -0.021167666
339875471.69811 0.99949831 -0.02311153 0.00027161185 0.011247751 0.00022587983 0.01133668 0.99950117 -0.022008665
349871698.11321 0.99952179 -0.023965746 0.0002716973 0.011518775 0.00023394078 0.011655579 0.99949229 -0.022853374
359867924.5283 0.99945211 -0.024725348 0.00030686054 0.011854472 0.00030043768 0.011985794 0.99943781 -0.023810714
369864150.9434 0.99958909 -0.02547881 0.00031495653 0.01223215 0.00031133508 0.012280207 0.99947226 -0.024504632
379860377.35849 0.99952936 -0.02612327 0.00032006414 0.012546965 0.00034416444 0.012636268 0.99933231 -0.0252022
389856603.77358 0.99943334 -0.026626289 0.00035748165 0.012882627 0.00037100026 0.012987708 0.99936289 -0.025668353
399852830.18868 0.99915206 -0.027303129 0.00036739046 0.013180522 0.00035425555 0.013279723 0.99934947 -0.0261015
409849056.60377 0.99927849 -0.027836001 0.00038273583 0.013507729 0.00036889684 0.013625841 0.99941367 -0.026697967
419845283.01887 0.99916655 -0.028244346 0.00040668808 0.013841347 0.00034964131 0.013983365 0.99933285 -0.027157545
429841509.43396 0.99925148 -0.028907686 0.00039146375 0.014132029 0.00037921546 0.014280859 0.99947649 -0.027928144
439837735.84906 0.99919599 -0.029791608 0.00043309259 0.014467663 0.00042618229 0.014624403 0.99920839 -0.028926671
449833962.26415 0.99904269 -0.030633748 0.00040939869 0.014792211 0.00043169223 0.014919155 0.99879384 -0.029665291
459830188.67925 0.99900115 -0.031336397 0.00047499547 0.015140597 0.0004683407 0.015254677 0.9986288 -0.030380547
469826415.09434 0.99895978 -0.032073349 0.00047054607 0.01549646 0.00043482939 0.015617603 0.99843597 -0.030884445
479822641.50943 0.99885756 -0.032710269 0.00047274446 0.015835363 0.00049974257 0.015973628 0.99841475 -0.031288803
489818867.92453 0.99890518 -0.033246249 0.00052210037 0.016136434 0.00054854713 0.016271612 0.99874151 -0.031774193
499815094.33962 0.99906373 -0.033864766 0.00054395618 0.016468663 0.00055187056 0.016616112 0.99899566 -0.03239724
509811320.75472 0.99919748 -0.034235708 0.00052982155 0.016840735 0.0005836403 0.016942177 0.99914652 -0.033198126
519807547.16981 0.99900043 -0.034854531 0.00056190416 0.017120289 0.00058745407 0.017281871 0.99905133 -0.033917457
529803773.58491 0.99894053 -0.03545782 0.00057840254 0.017410792 0.00058124401 0.017604269 0.99881011 -0.034424394
539800000 0.99906814 -0.036092266 0.00061628968 0.01776736 0.00061374134 0.017990487 0.9987089 -0.035080269
549796226.41509 0.99896079 -0.036886901 0.00060995435 0.018066524 0.000633494 0.018237254 0.99853659 -0.035636097
559792452.83019 0.99866575 -0.037576854 0.0006407667 0.018440653 0.0006695427 0.018576365 0.99854946 -0.036022365
569788679.24528 0.99850005 -0.038307101 0.00067939842 0.018753409 0.00068173138 0.018951477 0.99867409 -0.036765933
579784905.66038 0.99858516 -0.038842939 0.00072215812 0.019128622 0.000716059 0.019243671 0.99881744 -0.037514277
589781132.07547 0.99867606 -0.039489895 0.00072156265 0.019473592 0.00076946151 0.019577404 0.99887347 -0.038445085
599777358.49057 0.99875546 -0.040223002 0.00076568965 0.019774631 0.00077759381 0.019979091 0.9989596 -0.039201111
609773584.90566 0.9988907 -0.040917359 0.00083635078 0.020106215 0.00083373138 0.020265669 0.99877369 -0.040027771
619769811.32075 0.99901348 -0.04151997 0.00086931977 0.020413179 0.00084594544 0.020613892 0.9986738 -0.040615141
629766037.73585 0.99891734 -0.042206436 0.00086167362 0.0207338 0.00086027477 0.020912278 0.9986189 -0.041097671
639762264.15094 0.99864382 -0.042877272 0.00092693046 0.021036237 0.00089701521 0.02123047 0.99845469 -0.041548789
649758490.56604 0.99863243 -0.043463111 0.00090343878 0.021344716 0.00088922633 0.021509361 0.99854445 -0.042025521
659754716.98113 0.99838305 -0.043852001 0.00092086755 0.021689571 0.00089457911 0.021898922 0.99863124 -0.042607605
669750943.39623 0.99833333 -0.044457734 0.00096010137 0.022058005 0.0009229253 0.022267768 0.99867892 -0.04333812
679747169.81132 0.99830317 -0.045272045 0.00099021848 0.022380797 0.00095736911 0.022593517 0.99864691 -0.044306874
689743396.22642 0.99854124 -0.046031296 0.0010327054 0.022726037 0.0010413388 0.022918511 0.99852079 -0.045198381
699739622.64151 0.99865115 -0.046805888 0.0011071945 0.023071511 0.0010519652 0.023224706 0.99842423 -0.045874059
709735849.0566 0.99867535 -0.04767023 0.0010841978 0.023328386 0.0011398596 0.02353183 0.99809766 -0.046637341
719732075.4717 0.99854833 -0.048352897 0.0010893149 0.023611246 0.0011416757 0.023882922 0.99829668 -0.047181159
729728301.88679 0.99846005 -0.048966616 0.0011805343 0.023991294 0.0011864631 0.024208166 0.99832398 -0.047555447
739724528.30189 0.99828327 -0.04963088 0.0012118444 0.024313677 0.0012054951 0.024498442 0.99845815 -0.048290029
749720754.71698 0.99827385 -0.050097615 0.0012016478 0.024600068 0.0012264219 0.02481938 0.99850672 -0.049022049
759716981.13208 0.99822652 -0.050636947 0.0012378385 0.024927653 0.0012411354 0.025169702 0.99842119 -0.04973954
769713207.54717 0.99825788 -0.051311046 0.0012416244 0.025276134 0.0012685945 0.025475573 0.99814522 -0.050470769
779709433.96226 0.99835443 -0.051933203 0.001302744 0.025609592 0.001343038 0.02581566 0.99789637 -0.051121101
789705660.37736 0.99815595 -0.052836627 0.0013309428 0.025919247 0.0013444507 0.026131779 0.9976989 -0.051862061
799701886.79245 0.99824345 -0.053613096 0.0013876995 0.026211873 0.001387096 0.026450839 0.99758005 -0.052429616
809698113.20755 0.99810869 -0.05424051 0.0014115022 0.026512492 0.0013982491 0.026744433 0.99763829 -0.052820519
819694339.62264 0.99799258 -0.054900318 0.001428328 0.026845772 0.0014376496 0.027107211 0.99771708 -0.053452045
829690566.03774 0.99795139 -0.055503339 0.0014674412 0.027184058 0.0014659287 0.02742723 0.99787664 -0.05430299
839686792.45283 0.99802303 -0.055975854 0.0014686715 0.02750021 0.0014970745 0.027775714 0.99794424 -0.055061013
849683018.86792 0.99815398 -0.056589894 0.0015217133 0.027834099 0.00154706 0.028084368 0.99781215 -0.055885985
859679245.28302 0.99816227 -0.057335675 0.001536835 0.028141577 0.0015562121 0.028430618 0.99759567 -0.056463569
869675471.69811 0.99804199 -0.058072895 0.0016055126 0.028471382 0.0015981477 0.028737934 0.99719471 -0.056999177
879671698.11321 0.99796653 -0.058764078 0.0016358031 0.028754653 0.0016554676 0.029048584 0.99723899 -0.057422273
889667924.5283 0.99777001 -0.059518248 0.0016714148 0.02907688 0.0016827714 0.029336959 0.99708843 -0.057885677
899664150.9434 0.99772322 -0.060114861 0.0016844701 0.029395282 0.0017042514 0.029663421 0.99712431 -0.058462888
909660377.35849 0.99777472 -0.06085442 0.0017001908 0.029719584 0.0017325142 0.029989175 0.99729228 -0.059347034
919656603.77358 0.99770272 -0.061567396 0.0017124708 0.030059999 0.0017389865 0.030353809 0.9972896 -0.060221314
929652830.18868 0.99768823 -0.062225848 0.0017785402 0.030363807 0.0017557181 0.030648325 0.99709761 -0.061180294
939649056.60377 0.9978438 -0.062853992 0.0017509647 0.030661549 0.0017337175 0.030986734 0.99700296 -0.061838418
949645283.01887 0.99776131 -0.063702047 0.0017744075 0.031012218 0.0018016782 0.031297646 0.99665022 -0.062358502
959641509.43396 0.99770421 -0.06441167 0.0018199552 0.031365208 0.0018480374 0.031652562 0.99665087 -0.062916726
969637735.84906 0.99765897 -0.065143466 0.0018674312 0.031718984 0.0018668482 0.032032479 0.99666584 -0.063191652
979633962.26415 0.9975248 -0.065890528 0.0019066697 0.03200601 0.0019228796 0.032307744 0.99681079 -0.063901536
989630188.67925 0.99754822 -0.066349 0.001965886 0.03234645 0.0019374304 0.032666627 0.99693954 -0.064506114
999626415.09434 0.99752271 -0.066985846 0.0019547138 0.032662429 0.0020056004 0.032971233 0.99686778 -0.065291703
1009622641.5094 0.99763429 -0.067664221 0.0019921558 0.032980822 0.0020398851 0.033330232 0.99673879 -0.066060826
1019618867.9245 0.99774176 -0.068397656 0.0020354856 0.033316717 0.0020886217 0.033650938 0.99646795 -0.066906691
1029615094.3396 0.99765217 -0.069332838 0.0021103937 0.033601142 0.0021235598 0.033923179 0.99611115 -0.067488551
1039611320.7547 0.99771583 -0.0702205 0.0021263491 0.033918973 0.0021668039 0.034222063 0.99608713 -0.068163335
1049607547.1698 0.99764144 -0.071074903 0.0021776706 0.034206402 0.002193237 0.034543592 0.99609655 -0.068777613
1059603773.5849 0.99743342 -0.071727544 0.0021773241 0.034541342 0.0022087684 0.034835849 0.9960773 -0.06924364
1069600000 0.99726331 -0.07240507 0.0021619033 0.034823172 0.0022151992 0.035168968 0.9962213 -0.069989562
1079596226.4151 0.99729878 -0.073098958 0.0022119135 0.035126004 0.0023133326 0.035519585 0.9962737 -0.070751235
1089592452.8302 0.99724644 -0.073726118 0.0022429284 0.035517011 0.0022925679 0.035837252 0.99623156 -0.071464896
1099588679.2453 0.99728471 -0.074495524 0.0022781771 0.035796277 0.0023008287 0.036176588 0.99586332 -0.072106987
1109584905.6604 0.99740368 -0.07515195 0.002250812 0.036147624 0.0023322497 0.03651911 0.9956246 -0.07271114
1119581132.0755 0.99735922 -0.076182425 0.0023076609 0.036458831 0.0023520477 0.036833517 0.99539971 -0.073097914
1129577358.4906 0.99718833 -0.076923847 0.0022993367 0.036847077 0.0023786705 0.03721777 0.99527335 -0.073462129
1139573584.9057 0.99698997 -0.077755094 0.0023686802 0.037171725 0.0024598036 0.037548661 0.99539632 -0.074180394
1149569811.3208 0.99691164 -0.078667559 0.0024158673 0.037509877 0.0025276956 0.037856247 0.99552149 -0.074879467
1159566037.7358 0.9966802 -0.079294682 0.0024574958 0.037822425 0.0025368771 0.038138069 0.99559802 -0.075871468
1169562264.1509 0.99646854 -0.07994312 0.0024467967 0.038081065 0.0025703032 0.038479157 0.99548054 -0.076732963
1179558490.566 0.99638766 -0.080797799 0.002470416 0.038483474 0.0025728107 0.038878702 0.9953258 -0.077387616
1189554716.9811 0.99649072 -0.081422687 0.0025062123 0.038811181 0.0026298771 0.039177053 0.99506605 -0.077990115
1199550943.3962 0.99637651 -0.08230859 0.0025841054 0.039144121 0.0026772544 0.039522611 0.99485123 -0.078395814
1209547169.8113 0.99625081 -0.083135232 0.0025809752 0.039487738 0.0027302466 0.039824434 0.99487674 -0.078705996
1219543396.2264 0.99606043 -0.084005326 0.00266496 0.039851863 0.0027670236 0.040223971 0.99482262 -0.079112813
1229539622.6415 0.99577129 -0.084773302 0.0027146228 0.040167011 0.002825506 0.040539421 0.99499905 -0.07980755
1239535849.0566 0.99545169 -0.085467786 0.0027637742 0.04048017 0.0029160818 0.040888261 0.99515456 -0.0807181
1249532075.4717 0.99520558 -0.086152583 0.0028343566 0.040812466 0.0029884307 0.041150667 0.9949736 -0.081453674
1259528301.8868 0.99501312 -0.086639911 0.0028468724 0.041112699 0.0030060131 0.041482344 0.99468172 -0.082299083
1269524528.3019 0.99485934 -0.087346911 0.0029421337 0.041432515 0.0031030346 0.041767627 0.99446088 -0.083002001
1279520754.717 0.99446088 -0.088065639 0.0029945676 0.041725282 0.0031381622 0.042040899 0.99428928 -0.083513044
1289516981.1321 0.99440706 -0.088872075 0.0030284123 0.042015873 0.0031498633 0.042337749 0.99432021 -0.083999783
1299513207.5472 0.99402297 -0.089707434 0.0029932354 0.042330645 0.0031996332 0.042675659 0.99440879 -0.084445655
1309509433.9623 0.99366009 -0.090499848 0.0030475287 0.042627495 0.0031696213 0.042955257 0.9945792 -0.085159153
1319505660.3774 0.99321777 -0.091192648 0.0030267742 0.0429748 0.0032124631 0.043266974 0.99458069 -0.085775465
1329501886.7925 0.99300754 -0.09181276 0.0030449647 0.043272443 0.0032207128 0.043626621 0.99455023 -0.086647451
1339498113.2075 0.99273002 -0.092286915 0.003093699 0.043615587 0.0032487931 0.043905996 0.99423629 -0.087386727
1349494339.6226 0.99248958 -0.092857525 0.0030719312 0.04390711 0.003194205 0.044260595 0.99383771 -0.08802861
1359490566.0377 0.99239945 -0.093484193 0.0030864365 0.044316612 0.0032294095 0.044604458 0.99361658 -0.088501126
1369486792.4528 0.99223119 -0.093966454 0.0030780789 0.044700131 0.0032386947 0.044958103 0.9934876 -0.088949323
1379483018.8679 0.99189067 -0.09453176 0.0031218384 0.045042817 0.0032044465 0.045312002 0.9935233 -0.089290291
1389479245.283 0.99157459 -0.095088989 0.0031474177 0.045421358 0.0032762121 0.045692455 0.99342114 -0.090014726
1399475471.6981 0.99120498 -0.095477194 0.0031598248 0.045777142 0.0032816343 0.046045914 0.99370295 -0.09071216
1409471698.1132 0.99088645 -0.095937528 0.0032232157 0.046108585 0.0033374648 0.046444487 0.99359053 -0.091561772
1419467924.5283 0.99069142 -0.096119523 0.0032387236 0.046460841 0.0033241175 0.046768524 0.99349296 -0.0922122
1429464150.9434 0.99058485 -0.096614838 0.0032567959 0.046944007 0.0033988338 0.047214337 0.99327707 -0.092783868
1439460377.3585 0.99072373 -0.097078949 0.003366787 0.047340404 0.0034496868 0.047617193 0.99316424 -0.093044877
1449456603.7736 0.99070829 -0.097638533 0.0034864172 0.04775412 0.0035720402 0.048012689 0.99300134 -0.093461156
1459452830.1887 0.99069929 -0.098328173 0.0035837963 0.048160832 0.0036767256 0.048422001 0.99315989 -0.093757987
1469449056.6038 0.99075323 -0.09895888 0.0037776213 0.048495032 0.0038211113 0.048775788 0.99335688 -0.094441265
1479445283.0189 0.99059695 -0.099491991 0.0038532738 0.048737939 0.0039512385 0.049056951 0.99340755 -0.095299207
1489441509.434 0.99054039 -0.10002562 0.0039867554 0.049089998 0.0040721223 0.049357362 0.99330395 -0.096104562
1499437735.8491 0.99040473 -0.1003634 0.0041172262 0.049295291 0.0041917879 0.049650725 0.99326342 -0.096942276
1509433962.2642 0.99041659 -0.10090055 0.0042244 0.049618669 0.004250743 0.049909681 0.99304104 -0.097638279
1519430188.6792 0.99041128 -0.10143068 0.0042348448 0.049885266 0.004321428 0.050190974 0.99290991 -0.098224819
1529426415.0943 0.99045885 -0.10210297 0.004298348 0.050142527 0.004357649 0.050464965 0.99281633 -0.098766148
1539422641.5094 0.99039388 -0.10292384 0.0043835146 0.050453588 0.0044371341 0.050804496 0.99286151 -0.099145494
1549418867.9245 0.99032241 -0.10373928 0.0044422243 0.050744798 0.0044472776 0.051084999 0.99312001 -0.099919066
1559415094.3396 0.99013913 -0.10438681 0.004472224 0.05105098 0.0045189876 0.051381707 0.99324858 -0.10050383
1569411320.7547 0.99009782 -0.10511862 0.0044875182 0.051276498 0.0045428863 0.051625255 0.99321961 -0.10126455
1579407547.1698 0.98994619 -0.10562648 0.0045437929 0.051549453 0.0045759962 0.051964242 0.99287486 -0.10208108
1589403773.5849 0.98986423 -0.1062232 0.0045213457 0.051852085 0.0045834575 0.052214883 0.99267662 -0.10286969
1599400000 0.98989081 -0.10660544 0.0045592142 0.05214987 0.0045766896 0.052564241 0.9922576 -0.10331377
1609396226.4151 0.98987931 -0.10731165 0.0045596524 0.052490592 0.0045416374 0.052849598 0.99210316 -0.10378334
1619392452.8302 0.98980683 -0.1079295 0.0045514237 0.052854866 0.0045602247 0.053230211 0.99210173 -0.10425213
1629388679.2453 0.98963094 -0.10854721 0.0045721345 0.053198759 0.0045648217 0.053558007 0.99242353 -0.1047942
1639384905.6604 0.98945594 -0.10926288 0.0045542414 0.0535293 0.0045383857 0.053917095 0.99256963 -0.10555503
1649381132.0755 0.98918641 -0.10989937 0.0045933686 0.053869169 0.0045586769 0.054292701 0.99251473 -0.10658941
1659377358.4906 0.98908645 -0.11071002 0.0046008304 0.054245006 0.0045924913 0.054678656 0.99254179 -0.10741299
1669373584.9057 0.98900145 -0.11110838 0.0045790505 0.05463843 0.004674979 0.055046577 0.99221331 -0.10814763
1679369811.3208 0.98904777 -0.11180177 0.0046591815 0.054976735 0.0046983007 0.0554532 0.99203402 -0.10859108
1689366037.7358 0.98904335 -0.11244291 0.0047037825 0.055346049 0.004721161 0.05577492 0.99185616 -0.10889533
1699362264.1509 0.9892087 -0.11301933 0.0048004454 0.055732265 0.0047652852 0.056194242 0.99205494 -0.10931849
1709358490.566 0.9890129 -0.11365943 0.0048323823 0.056066353 0.0048392816 0.056593236 0.99196869 -0.10987243
1719354716.9811 0.98880088 -0.11433277 0.0048793741 0.056489155 0.0048732851 0.056952961 0.99210477 -0.11048713
1729350943.3962 0.98850703 -0.11480752 0.004967317 0.056846831 0.0050216466 0.0573138 0.9921146 -0.1114389
