!Keysight Technologies,N5222B,MY61253708,A.15.00.15
!Date: Wednesday, June 19, 2024 10:03:56
!Correction: S11(C  2-Port  ) 
!S21(C  2-Port  ) 
!S12(C  2-Port  ) 
!S22(C  2-Port  ) 
!S2P File: Measurements: S11, S21, S12, S22:
# Hz S  RI   R 50
10000000 0.99846339 -0.0025992095 0.00016578785 0.00048083829 5.9436949e-005 0.00033160078 0.99822748 -0.0016137958
19996226.415094 1.0002589 -0.0032517612 -1.5764352e-005 0.0006241916 3.9053819e-005 0.00067123119 1.00042 -0.0027201176
29992452.830189 0.99974722 -0.0025007725 3.7498859e-005 0.0009895612 9.2437112e-005 0.00094704761 0.99944335 -0.0027147233
39988679.245283 1.0000721 -0.0029578656 1.3082317e-005 0.0013756485 9.0264657e-006 0.0013232416 0.99962074 -0.0030599236
49984905.660377 1.0002203 -0.0036638975 4.0340587e-005 0.0016403894 -2.0128791e-006 0.0016508307 0.99987495 -0.0036338568
59981132.075472 1.0004097 -0.0044737756 5.9347367e-006 0.0019617127 2.8595445e-005 0.001964076 0.99983799 -0.004222095
69977358.490566 1.0002319 -0.0050508771 6.0087332e-006 0.0023076527 2.2101271e-005 0.0022771235 0.99970365 -0.0047959387
79973584.90566 0.9999488 -0.0056520104 1.8602354e-005 0.0026257453 -1.5157275e-005 0.0026148339 0.99934173 -0.00523296
89969811.320755 1.000006 -0.0057521164 -1.5492202e-005 0.0029515226 -6.2419567e-006 0.0029738559 0.99960506 -0.0054955781
99966037.735849 1.0002648 -0.0065321922 7.526658e-006 0.003304197 2.8518494e-005 0.0032897647 0.9996897 -0.0062813759
109962264.15094 1.0002325 -0.0073768795 2.9325194e-005 0.0036160932 2.0068372e-005 0.0036283978 0.99967378 -0.0070517063
119958490.56604 1.0002601 -0.0082831979 5.3801341e-005 0.0039264052 3.9871898e-005 0.0039795227 0.99969113 -0.0079017878
129954716.98113 1.0002089 -0.0092161596 4.9961382e-005 0.0042809146 6.2575215e-005 0.0043062801 0.99968839 -0.0087807178
139950943.39623 1.0001543 -0.0099694226 1.7907005e-005 0.0045796037 2.8836468e-005 0.0046050227 0.99962664 -0.0095308032
149947169.81132 1.000046 -0.010653287 4.3734442e-005 0.0049275262 5.132053e-005 0.0049405359 0.99959159 -0.010122448
159943396.22642 1.0000008 -0.011215478 6.6609355e-005 0.0052597933 6.5022614e-005 0.0052760663 0.99966109 -0.010627657
169939622.64151 0.99993855 -0.011616752 7.382757e-005 0.0055837203 6.2173058e-005 0.0056069032 0.99968487 -0.011064358
179935849.0566 1.0000069 -0.011861414 4.1335239e-005 0.0058889068 5.5039185e-005 0.0059362771 0.99957323 -0.01146993
189932075.4717 1.000118 -0.01266104 7.514609e-005 0.0062379232 8.2444865e-005 0.006266728 0.99976635 -0.011942297
199928301.88679 1.0000786 -0.013425797 0.00010948034 0.0065561715 8.3890627e-005 0.0065804962 0.99968272 -0.012840867
209924528.30189 0.99981219 -0.014021233 9.112258e-005 0.0069065886 9.528629e-005 0.0069196546 0.99942911 -0.013501391
219920754.71698 0.99994957 -0.014825851 9.0468442e-005 0.0072479728 0.00011293404 0.0072496822 0.99936855 -0.014067113
229916981.13208 0.99975121 -0.015693784 0.00011490495 0.0075638653 0.00011939276 0.0075756656 0.99941599 -0.014918834
239913207.54717 0.99964482 -0.016326439 0.00011828293 0.0078849932 0.00010448266 0.0079302732 0.99931872 -0.015662329
249909433.96226 0.9996807 -0.016957283 0.00014718948 0.0081945499 0.00012459676 0.008238324 0.99939162 -0.016283572
259905660.37736 0.99966806 -0.017642379 0.00016648835 0.0085417721 0.0001712977 0.0085533252 0.99961329 -0.016858846
269901886.79245 0.99983567 -0.018216312 0.00014338398 0.0088556465 0.00020250713 0.0089204172 0.99995565 -0.017496943
279898113.20755 0.99995333 -0.018819481 0.0002683932 0.009189954 0.00014596619 0.0092214588 0.99978924 -0.018301412
289894339.62264 0.99988252 -0.019564003 0.00020695804 0.0095346225 0.00016559055 0.0095404228 0.99966127 -0.019091636
299890566.03774 0.9998557 -0.020128518 0.00020496827 0.0098560126 0.00019589951 0.009908692 0.99934942 -0.019416213
309886792.45283 0.99966466 -0.020598739 0.00021219719 0.01019978 0.0001939123 0.010211772 0.99934363 -0.019859158
319883018.86792 0.9998641 -0.021232784 0.00022224104 0.010550402 0.00024069101 0.010537988 0.99944526 -0.020394087
329879245.28302 0.99980444 -0.022062689 0.00021705031 0.010827679 0.00027911551 0.010862563 0.99957508 -0.021180153
339875471.69811 0.99966061 -0.022760272 0.00028127397 0.011143125 0.00021899096 0.011227214 0.99943936 -0.021914288
349871698.11321 0.99977964 -0.0235883 0.00028127036 0.011453605 0.00024119555 0.011538289 0.99947345 -0.022758931
359867924.5283 0.99960184 -0.024352342 0.0002721888 0.011792849 0.00029073423 0.011882028 0.99941218 -0.023734421
369864150.9434 0.99980462 -0.025208086 0.00031607784 0.012128281 0.00031068129 0.012182735 0.99939251 -0.024392158
379860377.35849 0.99965531 -0.025849551 0.0003339441 0.012476698 0.0003323073 0.01251392 0.99928105 -0.025043622
389856603.77358 0.99951786 -0.026512384 0.00032987958 0.012799391 0.00034388062 0.012862657 0.9992705 -0.025532454
399852830.18868 0.99940121 -0.027124166 0.00036913948 0.013098793 0.00037084287 0.013160736 0.99939191 -0.026028156
409849056.60377 0.99932516 -0.027545359 0.00037273948 0.013418009 0.00035579916 0.013499273 0.99936527 -0.026513679
419845283.01887 0.99923438 -0.028021395 0.00038908981 0.013733453 0.00038042897 0.013819325 0.99933904 -0.027016997
429841509.43396 0.99941444 -0.028655171 0.00039905729 0.014104392 0.00038074236 0.014171474 0.99953675 -0.027878374
439837735.84906 0.99919742 -0.029524371 0.00043531542 0.014395998 0.00043383113 0.014493787 0.99929643 -0.028778911
449833962.26415 0.99908364 -0.030396879 0.00043528713 0.014747028 0.00042427797 0.014790387 0.99893469 -0.029564738
459830188.67925 0.99886775 -0.031021088 0.00041268067 0.015040828 0.00044272467 0.015117608 0.99875617 -0.030255079
469826415.09434 0.99876523 -0.031700104 0.00042593479 0.01540332 0.00046463218 0.015478545 0.99858975 -0.030804306
479822641.50943 0.9987734 -0.032215796 0.00050242327 0.015726941 0.00048848498 0.01581409 0.99857533 -0.031206816
489818867.92453 0.99884307 -0.032794952 0.00050175702 0.016046632 0.00055002514 0.016146038 0.99889064 -0.031809002
499815094.33962 0.99889141 -0.033351809 0.00056022545 0.016383663 0.00053379824 0.016430434 0.99914628 -0.032384336
509811320.75472 0.99894303 -0.033710733 0.00055041909 0.016682299 0.00050816638 0.016743898 0.99929649 -0.033170931
519807547.16981 0.99892801 -0.034257501 0.00056801829 0.016999776 0.00059468951 0.017093308 0.99920964 -0.033895582
529803773.58491 0.99890077 -0.034827739 0.00056031998 0.017314613 0.00056054071 0.017445751 0.99902129 -0.034460455
539800000 0.99890906 -0.03547664 0.00061376649 0.017625552 0.0006139183 0.017767314 0.99887979 -0.035125092
549796226.41509 0.99886465 -0.036301613 0.00061503099 0.017992323 0.00063109351 0.018125307 0.99872243 -0.035568446
559792452.83019 0.99877751 -0.036959648 0.00065974705 0.0183526 0.00063826889 0.018437769 0.99870127 -0.036119848
569788679.24528 0.99852031 -0.037611127 0.00068762945 0.018663047 0.00064404542 0.018755939 0.99872583 -0.036853254
579784905.66038 0.99851471 -0.038201727 0.00072016672 0.01901079 0.00071728614 0.019086663 0.99886006 -0.037569426
589781132.07547 0.99870443 -0.038854986 0.00073624123 0.019311264 0.0006919438 0.01940845 0.99898374 -0.038424462
599777358.49057 0.99878252 -0.039455324 0.00077339914 0.019613815 0.00079506636 0.019746298 0.99898779 -0.039220065
609773584.90566 0.99888563 -0.040199503 0.00079447252 0.019947812 0.00080540503 0.020086102 0.99883276 -0.040048167
619769811.32075 0.99895263 -0.040887117 0.00082885241 0.02031053 0.0008131084 0.020353757 0.99882305 -0.040542603
629766037.73585 0.99885601 -0.041575283 0.00089131575 0.020598684 0.00084579084 0.020701963 0.99863589 -0.041096687
639762264.15094 0.99868494 -0.042200685 0.00086481799 0.020921892 0.00086421147 0.020994361 0.99850017 -0.041610658
649758490.56604 0.99865246 -0.042802259 0.00087511819 0.021258591 0.00088566355 0.021365328 0.99863243 -0.041995734
659754716.98113 0.99850029 -0.043274403 0.00088913832 0.021559238 0.00086425152 0.02167587 0.9986248 -0.04259038
669750943.39623 0.99852264 -0.043764144 0.00090140011 0.021905141 0.00090065831 0.022048194 0.99874794 -0.043349504
679747169.81132 0.99851215 -0.044494919 0.00093611167 0.022259995 0.00095748517 0.022348406 0.9986977 -0.044330902
689743396.22642 0.99866331 -0.045356661 0.0010021031 0.022560528 0.0010218993 0.022707565 0.99848425 -0.045142561
699739622.64151 0.99878395 -0.046096176 0.0010404773 0.022883715 0.0010367883 0.023008954 0.99842477 -0.045852989
709735849.0566 0.99873674 -0.046938024 0.0011161086 0.023193639 0.0010576722 0.023306085 0.99818546 -0.046465054
719732075.4717 0.99862939 -0.047729582 0.0011025057 0.02351217 0.0011236202 0.023645172 0.99829447 -0.047152579
729728301.88679 0.99852741 -0.048205614 0.0011216579 0.023855608 0.0011485694 0.023967361 0.99827069 -0.047584325
739724528.30189 0.99838966 -0.048924282 0.0012000268 0.024142295 0.0011972873 0.024277385 0.9984318 -0.048203096
749720754.71698 0.99836755 -0.049505427 0.0012043645 0.024481446 0.001231249 0.024620732 0.99847907 -0.048932955
759716981.13208 0.99833995 -0.049983114 0.0012272634 0.024807289 0.0012254743 0.024944879 0.99841559 -0.049737155
769713207.54717 0.99828976 -0.050686717 0.0012502102 0.025098652 0.0012861807 0.025239808 0.998209 -0.05039537
779709433.96226 0.99853241 -0.051333215 0.0012826624 0.025451018 0.001309776 0.025601754 0.99795699 -0.050966822
789705660.37736 0.99831831 -0.052187413 0.0013300693 0.025738742 0.0013057543 0.025895372 0.9978103 -0.051670998
799701886.79245 0.99820518 -0.053020924 0.0013537426 0.026051629 0.0013516434 0.026211888 0.99767828 -0.052262664
809698113.20755 0.99817061 -0.053531557 0.0013776154 0.026389893 0.0013832932 0.026527779 0.9976815 -0.052695543
819694339.62264 0.99796712 -0.054178357 0.0014165873 0.026702398 0.0013721138 0.026866525 0.99775994 -0.053322107
829690566.03774 0.99796033 -0.054847479 0.0014342563 0.027009148 0.0014448073 0.027161101 0.99803644 -0.054240108
839686792.45283 0.99809813 -0.055249393 0.0014561592 0.027340449 0.0014686515 0.027485469 0.99804026 -0.055011749
849683018.86792 0.99813753 -0.055871442 0.001505225 0.027657462 0.0015014592 0.027795954 0.99792647 -0.055790447
859679245.28302 0.99823046 -0.056641072 0.0015288657 0.027984817 0.0015380299 0.028148454 0.99767607 -0.056387842
869675471.69811 0.99801886 -0.057335079 0.001571144 0.028277682 0.0015638415 0.028427305 0.99737078 -0.056907654
879671698.11321 0.99798816 -0.057974018 0.0016075049 0.028599693 0.0016072602 0.028780224 0.99734575 -0.057335835
889667924.5283 0.99781609 -0.05874005 0.0016192198 0.028913416 0.0016374234 0.029062437 0.99718899 -0.057829678
899664150.9434 0.99768078 -0.059461415 0.0016553914 0.029234152 0.0016491972 0.029400764 0.99725085 -0.058442265
909660377.35849 0.997693 -0.060035065 0.0016752356 0.029531667 0.0016895705 0.029698877 0.99733055 -0.059270874
919656603.77358 0.99774224 -0.060770631 0.0016733096 0.029862184 0.0017089434 0.030046152 0.99735427 -0.060170293
929652830.18868 0.99765861 -0.0614461 0.0017481977 0.030159716 0.0017465241 0.030349463 0.99722266 -0.060922056
939649056.60377 0.99787164 -0.062048912 0.0017359741 0.030500432 0.0017632954 0.0306667 0.99708927 -0.061720997
949645283.01887 0.99776518 -0.06291575 0.0017317452 0.030828355 0.0017626747 0.030990532 0.99680638 -0.062253702
959641509.43396 0.99771881 -0.063559473 0.0017734235 0.03116866 0.0017901864 0.031359784 0.99677783 -0.062769502
969637735.84906 0.99778068 -0.064287603 0.0018126657 0.03151606 0.0018458599 0.03170852 0.9968164 -0.063122928
979633962.26415 0.99755073 -0.065005891 0.0018941551 0.03182397 0.0018624647 0.032000057 0.996858 -0.06373442
989630188.67925 0.99758732 -0.065499753 0.0019046441 0.032137796 0.0018836781 0.032344915 0.99705893 -0.06435138
999626415.09434 0.9977001 -0.066113293 0.0019438434 0.032441348 0.0019568997 0.032679111 0.9969815 -0.065151572
1009622641.5094 0.99762428 -0.066786602 0.0019613523 0.032800779 0.0019890191 0.033011284 0.99683565 -0.065943748
1019618867.9245 0.99777198 -0.067542985 0.0019986266 0.033119056 0.0020953449 0.033319961 0.99657309 -0.066845939
1029615094.3396 0.99774027 -0.068455011 0.002082306 0.033450142 0.0020990102 0.033595759 0.9962064 -0.067402542
1039611320.7547 0.9977802 -0.069280326 0.0021161754 0.033705406 0.0021161055 0.033907946 0.99620551 -0.068034381
1049607547.1698 0.99767852 -0.070121691 0.0021452617 0.034007486 0.0021466133 0.034206554 0.99619907 -0.068661004
1059603773.5849 0.99757236 -0.070855111 0.002150964 0.034301177 0.0021680146 0.034531958 0.99609822 -0.06915161
1069600000 0.99731398 -0.071484566 0.0021435814 0.034624487 0.0022041583 0.034827858 0.99634457 -0.069922209
1079596226.4151 0.9973191 -0.072188623 0.0021640146 0.034949232 0.0021926113 0.035142254 0.99633372 -0.070668548
1089592452.8302 0.99734575 -0.072822392 0.0021909522 0.035296254 0.0022545578 0.03548421 0.9962824 -0.071404457
1099588679.2453 0.99742699 -0.073494136 0.0021966696 0.035623632 0.0022404082 0.035823438 0.99593705 -0.07200402
1109584905.6604 0.99752086 -0.074325889 0.0022350121 0.035937361 0.0022722641 0.036148995 0.99576533 -0.072558567
1119581132.0755 0.99742848 -0.075198442 0.0022386233 0.036267716 0.0022987374 0.0364937 0.99552441 -0.072973073
1129577358.4906 0.99738443 -0.075920731 0.0023053419 0.036630083 0.0023378152 0.03687457 0.99544585 -0.073362321
1139573584.9057 0.99706686 -0.076848924 0.0023134109 0.036948647 0.0024030954 0.037182055 0.99555361 -0.074066341
1149569811.3208 0.99693817 -0.077675626 0.0023964725 0.037282102 0.0024841791 0.037504822 0.99568224 -0.074800745
1159566037.7358 0.99677622 -0.078311563 0.0024095299 0.037605576 0.0025214665 0.037810922 0.99577385 -0.075719476
1169562264.1509 0.9966048 -0.078996152 0.0024102535 0.037875861 0.0024828874 0.038139425 0.99561322 -0.076498777
1179558490.566 0.99653894 -0.079795957 0.0024287745 0.038243391 0.0025138846 0.038503204 0.99551696 -0.077264458
1189554716.9811 0.99659801 -0.080559641 0.0024754917 0.038581833 0.0025606295 0.038789824 0.99518096 -0.077828079
1199550943.3962 0.99653661 -0.081359774 0.0025006607 0.038939998 0.0026153382 0.039134137 0.99502635 -0.078285098
1209547169.8113 0.9963851 -0.082240999 0.0025464315 0.039267965 0.0026704799 0.039454777 0.99488747 -0.078574374
1219543396.2264 0.99608296 -0.082990214 0.0025828206 0.039604153 0.0027140183 0.039835956 0.99502063 -0.078923136
1229539622.6415 0.99578691 -0.083784372 0.002666587 0.039935499 0.0027721468 0.04014964 0.9951607 -0.07964468
1239535849.0566 0.99562788 -0.084383488 0.0027166558 0.040243689 0.002845333 0.04047389 0.99530375 -0.080512017
1249532075.4717 0.99535596 -0.085093103 0.0027712206 0.040562652 0.0028990889 0.040820561 0.99515629 -0.081364349
1259528301.8868 0.99515945 -0.085567057 0.0028218199 0.040894292 0.0029603615 0.041077964 0.99498808 -0.082117826
1269524528.3019 0.99499315 -0.086292177 0.002907794 0.041222636 0.0030277111 0.041397452 0.99470425 -0.082839549
1279520754.717 0.99467134 -0.0870336 0.0029417167 0.041489661 0.003063366 0.04164324 0.99444109 -0.083408512
1289516981.1321 0.99460626 -0.087908238 0.0029569399 0.041779045 0.0030868975 0.041953038 0.99447393 -0.08386451
1299513207.5472 0.99420494 -0.088676751 0.0029826239 0.042074777 0.0030727237 0.042269796 0.99459064 -0.084266961
1309509433.9623 0.99385011 -0.089405134 0.0030021267 0.042395309 0.0031314334 0.042539574 0.99462461 -0.084984884
1319505660.3774 0.99344158 -0.090149909 0.0029872432 0.042724073 0.0031005973 0.042884704 0.99470055 -0.085603565
1329501886.7925 0.99318612 -0.090744793 0.0030026268 0.043041706 0.0031445511 0.043191951 0.99476349 -0.086537629
1339498113.2075 0.99292845 -0.091290355 0.0030551106 0.043359417 0.0031722132 0.043505419 0.99436665 -0.087261468
1349494339.6226 0.99277639 -0.091761291 0.0030077207 0.043716565 0.003094824 0.043855205 0.99404371 -0.08786872
1359490566.0377 0.99262691 -0.092366427 0.0030426793 0.044084921 0.003145963 0.044193048 0.99385697 -0.088333428
1369486792.4528 0.99234283 -0.092897713 0.0030581569 0.044418052 0.0031610839 0.044543676 0.99368358 -0.08885166
1379483018.8679 0.99216431 -0.093440883 0.0030456802 0.044773269 0.0031549369 0.044915248 0.99364775 -0.089106463
1389479245.283 0.99178195 -0.093956351 0.0031226333 0.045134131 0.0031706281 0.045262866 0.99362695 -0.089824587
1399475471.6981 0.99143875 -0.094429165 0.0030800793 0.045488805 0.0032081436 0.045602221 0.99382234 -0.090465367
1409471698.1132 0.99109054 -0.094792649 0.0031786053 0.045855448 0.0032257349 0.045997489 0.99381685 -0.091332182
1419467924.5283 0.99091202 -0.09506017 0.0031886129 0.046237957 0.0032678619 0.046358317 0.99362147 -0.092024773
1429464150.9434 0.9908253 -0.095535487 0.0032030717 0.046626106 0.0032839403 0.046747304 0.99357653 -0.092603952
1439460377.3585 0.99104267 -0.09601821 0.0033301031 0.047057509 0.0033777459 0.047201127 0.99336541 -0.092949867
1449456603.7736 0.99096125 -0.096520439 0.0034059407 0.047464352 0.0034435503 0.047577389 0.99320936 -0.09327589
1459452830.1887 0.9910388 -0.097168982 0.0035273898 0.047867335 0.0035505649 0.047994338 0.99334311 -0.093612075
1469449056.6038 0.99094629 -0.097858518 0.0036923038 0.048212942 0.0037384564 0.048320927 0.99351561 -0.094300836
1479445283.0189 0.99084777 -0.098335817 0.0037845576 0.048468176 0.0038348834 0.048619833 0.99363637 -0.095053621
1489441509.434 0.99089265 -0.098945975 0.0039211363 0.048810959 0.0039544106 0.048893683 0.99347317 -0.095966369
1499437735.8491 0.9906584 -0.099213392 0.0040531978 0.049064688 0.004070757 0.049199417 0.99340367 -0.096770316
1509433962.2642 0.99074334 -0.09979742 0.0041524251 0.049326379 0.0041461512 0.049467176 0.99330848 -0.097467601
1519430188.6792 0.9907558 -0.10038903 0.0042123199 0.049590565 0.0042139497 0.049714886 0.99316162 -0.098083287
1529426415.0943 0.99064589 -0.10100958 0.0042324569 0.049861267 0.0042431075 0.050009694 0.99297953 -0.098545909
1539422641.5094 0.99070352 -0.10181757 0.0043103583 0.050131772 0.0042991503 0.050323285 0.99308079 -0.098965675
1549418867.9245 0.9906202 -0.1026333 0.0043788953 0.050468266 0.0043936158 0.050622575 0.99327338 -0.099763647
1559415094.3396 0.99050033 -0.10325068 0.0043929275 0.050719805 0.004409954 0.050898921 0.9934895 -0.1003136
1569411320.7547 0.99038291 -0.1041064 0.0044504758 0.050999813 0.004426037 0.051213428 0.99333662 -0.101134
1579407547.1698 0.99030626 -0.10450932 0.0044685192 0.051253483 0.0044471417 0.051451109 0.99296689 -0.10191557
1589403773.5849 0.99019444 -0.10511291 0.0044866353 0.05155471 0.0044707358 0.05174616 0.99287045 -0.10266697
1599400000 0.99022305 -0.10552511 0.0044909464 0.051840648 0.0044905748 0.052063711 0.99240351 -0.10306787
1609396226.4151 0.99014181 -0.10615513 0.0044799121 0.052137606 0.0044333274 0.052362248 0.99225307 -0.10358728
1619392452.8302 0.99012548 -0.10680065 0.0044561811 0.052489929 0.0044200141 0.05269837 0.99217397 -0.1040746
1629388679.2453 0.9899556 -0.10753173 0.0044754948 0.052854724 0.0044413637 0.053072594 0.99247539 -0.10460007
1639384905.6604 0.98977798 -0.10811877 0.0045080986 0.05319196 0.0044373563 0.053418912 0.99266636 -0.10540858
1649381132.0755 0.98949385 -0.10877252 0.004498098 0.053557143 0.0044830535 0.053774275 0.99261141 -0.1063734
1659377358.4906 0.98943967 -0.10954133 0.0045430716 0.053941138 0.0045118034 0.054167766 0.99258417 -0.10716382
1669373584.9057 0.98933721 -0.11000705 0.0045821746 0.054318164 0.0045596808 0.05453945 0.99235284 -0.10792316
1679369811.3208 0.98944688 -0.11064094 0.0045817019 0.054698423 0.0045202849 0.054884672 0.99208766 -0.10839063
1689366037.7358 0.98935628 -0.11125034 0.0046593975 0.055038445 0.0045890249 0.055269077 0.99194717 -0.10867023
1699362264.1509 0.98945373 -0.11178811 0.0046793511 0.055390451 0.0046461569 0.055692285 0.99210107 -0.10915826
1709358490.566 0.98929858 -0.11246687 0.0047502387 0.055798464 0.0047349958 0.056027435 0.99213457 -0.10970648
1719354716.9811 0.9891783 -0.11314958 0.0048024431 0.056167569 0.0047678258 0.056386814 0.992248 -0.11035317
1729350943.3962 0.98879993 -0.1136905 0.0048441831 0.056496453 0.0048362557 0.05676581 0.99222863 -0.1111834
