!Keysight Technologies,N5222B,MY61253708,A.15.00.15
!Date: Wednesday, June 19, 2024 09:08:59
!Correction: S11(C  2-Port  ) 
!S21(C  2-Port  ) 
!S12(C  2-Port  ) 
!S22(C  2-Port  ) 
!S2P File: Measurements: S11, S21, S12, S22:
# Hz S  RI   R 50
10000000 0.99879563 -0.0022439957 -0.00024574704 0.0005472062 -0.00021524668 0.00042164521 0.9985503 -0.0010141134
19996226.415094 0.99914724 -0.0019769967 -0.00015383447 0.00072728412 7.9331221e-007 0.00070667418 0.99927783 -0.0020933151
29992452.830189 0.9997322 -0.0024400949 -6.5123619e-005 0.0010476966 -0.00013265849 0.0010668017 0.99949282 -0.0026390553
39988679.245283 1.000132 -0.003060624 7.1997347e-006 0.0014022591 2.4961293e-005 0.0013783664 0.99964851 -0.0031364858
49984905.660377 1.0001683 -0.0038171411 -1.2683391e-005 0.0017141991 2.7118891e-005 0.0017498445 0.99981368 -0.0037350655
59981132.075472 1.0003213 -0.0047192276 -2.7233036e-005 0.0020694311 8.1961043e-006 0.0020797565 0.99975348 -0.0043005943
69977358.490566 1.0001078 -0.0053083245 -4.4078199e-005 0.0023514109 3.8542745e-005 0.0024428153 0.99963379 -0.0047867615
79973584.90566 0.99981093 -0.0057712495 -1.7122366e-006 0.0027412637 2.008013e-005 0.0028055126 0.99936962 -0.005338341
89969811.320755 0.99983841 -0.0060245693 5.0384202e-005 0.0030793599 2.6170164e-005 0.0031014355 0.99957013 -0.0056361258
99966037.735849 1.0000788 -0.0067763478 3.5228964e-005 0.0034493809 2.376904e-005 0.0034638403 0.99963021 -0.0063933283
109962264.15094 1.0001395 -0.0077448338 5.9782527e-005 0.0037779964 3.600237e-005 0.0038286182 0.99960709 -0.0072612464
119958490.56604 1.0001369 -0.0086698234 3.5865698e-005 0.0041429098 3.2379758e-005 0.0041731345 0.99968934 -0.0082117915
129954716.98113 1.0000821 -0.0097281039 2.8624083e-005 0.004463566 4.8477668e-005 0.0045190467 0.99964952 -0.0091170669
139950943.39623 1.0000087 -0.010642385 3.7134829e-005 0.004801143 5.5741781e-005 0.0048617446 0.99954468 -0.009866206
149947169.81132 0.99985796 -0.011261642 7.6862052e-005 0.0051878053 6.9045462e-005 0.0051981504 0.99946904 -0.010498941
159943396.22642 0.99982768 -0.01182726 4.8769405e-005 0.0055068103 6.3800719e-005 0.0055618668 0.99958491 -0.010954142
169939622.64151 0.99982846 -0.012177229 8.7895954e-005 0.0058679073 6.2929816e-005 0.0058974903 0.9996354 -0.011398859
179935849.0566 0.99993718 -0.01241979 0.00010467321 0.0062014144 7.1710558e-005 0.0062609236 0.99956894 -0.011781603
189932075.4717 1.0000032 -0.013209224 0.00010357215 0.0065381937 0.00010181288 0.0066087958 0.99980038 -0.012351722
199928301.88679 1.0000125 -0.014153808 6.3546351e-005 0.0068860669 0.00012089894 0.0069724508 0.99965644 -0.01328072
209924528.30189 0.99967438 -0.014840931 0.00010442117 0.0072336979 0.0001539666 0.0072734677 0.99940497 -0.014072955
219920754.71698 0.99973476 -0.015666068 0.00011974387 0.007579403 0.00014575524 0.0076502832 0.99927235 -0.01479888
229916981.13208 0.99943554 -0.01657182 0.00013499474 0.0079195872 0.00011779252 0.0079927901 0.99912477 -0.015553504
239913207.54717 0.99935073 -0.017251862 0.00014820951 0.0082692243 0.0001821825 0.0083408691 0.9991346 -0.01623776
249909433.96226 0.99939668 -0.01782468 0.0001528 0.0085959779 0.00016716798 0.0086785033 0.99928147 -0.016866058
259905660.37736 0.99945909 -0.018431783 0.00019091554 0.0089452155 0.00011874922 0.0090033123 0.99946404 -0.017540723
269901886.79245 0.99959058 -0.01913242 0.00019417785 0.0092682075 0.00018829969 0.009379277 0.99980909 -0.018213823
279898113.20755 0.99986422 -0.019872025 0.00017456873 0.0096745025 0.000192306 0.0097402865 0.99974066 -0.018906161
289894339.62264 0.99969882 -0.020567715 0.00020449143 0.0099245477 0.00019744923 0.010095412 0.99952883 -0.019787103
299890566.03774 0.99964243 -0.021144927 0.00020400574 0.010329376 0.00018452643 0.010413231 0.99930394 -0.020142943
309886792.45283 0.99935895 -0.021779403 0.00019977521 0.010686057 0.00023750425 0.010764132 0.9991442 -0.020701542
319883018.86792 0.99943489 -0.02237767 0.00025173044 0.011027313 0.00023179268 0.011067496 0.99922639 -0.021184474
329879245.28302 0.99929118 -0.02312398 0.0003235545 0.011355081 0.00024615414 0.011473261 0.99938166 -0.021986902
339875471.69811 0.99920988 -0.023790374 0.00023785036 0.011763997 0.00027699734 0.011803389 0.99929422 -0.022719331
349871698.11321 0.99943501 -0.02463901 0.00031678961 0.012043074 0.00029864931 0.012191128 0.99938595 -0.023593783
359867924.5283 0.99928272 -0.025632888 0.00031142682 0.012431597 0.00029566512 0.012490517 0.99929035 -0.0245893
369864150.9434 0.99951255 -0.026314914 0.0003317364 0.012760658 0.00034131645 0.012856222 0.99926686 -0.025326908
379860377.35849 0.99943531 -0.027075678 0.00037843827 0.013077819 0.00033938629 0.013182178 0.99916452 -0.026041716
389856603.77358 0.999336 -0.027586251 0.00040823547 0.013358705 0.00038497802 0.013530783 0.99920553 -0.026455283
399852830.18868 0.99911857 -0.028253168 0.0004157261 0.013758339 0.00038522016 0.013835713 0.99921799 -0.026976645
409849056.60377 0.99902147 -0.028666951 0.00042175892 0.014092168 0.00042642569 0.014200975 0.99926734 -0.027519688
419845283.01887 0.99908382 -0.029073358 0.00048570149 0.014422514 0.00043334579 0.014567154 0.99930215 -0.027980357
429841509.43396 0.99912483 -0.029795349 0.00046033738 0.014797049 0.00044795079 0.014922608 0.99942744 -0.028817296
439837735.84906 0.99913341 -0.030673176 0.00050059939 0.015110962 0.00047808269 0.015275558 0.9991886 -0.029796243
449833962.26415 0.99904478 -0.031621933 0.00050030276 0.015463937 0.00052539585 0.01558932 0.99883437 -0.030629456
459830188.67925 0.99893129 -0.03238672 0.00052526407 0.015770381 0.00053047622 0.01592971 0.99865198 -0.031346232
469826415.09434 0.99887985 -0.033249527 0.00052880542 0.016140826 0.00052847341 0.016262472 0.99842978 -0.032017529
479822641.50943 0.9988153 -0.033823878 0.00053217821 0.016541947 0.00054883608 0.016621629 0.99846154 -0.032450303
489818867.92453 0.99881601 -0.034471273 0.00055820262 0.016887216 0.00058265962 0.016978504 0.99878567 -0.033021748
499815094.33962 0.9988358 -0.035000145 0.00060404791 0.017162427 0.00062978128 0.017296715 0.99899 -0.03361392
509811320.75472 0.99907315 -0.035471316 0.00063395262 0.017540738 0.00058557751 0.017686799 0.99915648 -0.034465045
519807547.16981 0.99905288 -0.036090493 0.00060202973 0.01785448 0.00061879121 0.018006302 0.99926031 -0.035232395
529803773.58491 0.99885833 -0.036691397 0.00063227583 0.01822599 0.00063425954 0.018357757 0.99891669 -0.035927474
539800000 0.99902374 -0.037334234 0.00070170546 0.018559884 0.0006605275 0.018695025 0.99874103 -0.036627844
549796226.41509 0.99877667 -0.038178593 0.00071462896 0.018914131 0.00073054805 0.019070851 0.99851227 -0.037077814
559792452.83019 0.99854851 -0.039035738 0.00069873407 0.019247845 0.00073900167 0.019400533 0.99843711 -0.0375669
569788679.24528 0.99836773 -0.03971386 0.00077637145 0.019616518 0.00075666606 0.019742573 0.99851573 -0.038296849
579784905.66038 0.99829888 -0.040339641 0.00079372711 0.01994841 0.00078709633 0.020115566 0.99871582 -0.039067753
589781132.07547 0.99851161 -0.040987074 0.00082224328 0.020268485 0.00083871651 0.020448709 0.99882293 -0.039955974
599777358.49057 0.9986279 -0.041656435 0.00085188914 0.020649916 0.0008739708 0.020814497 0.9987759 -0.040797681
609773584.90566 0.99875408 -0.042394482 0.00086049968 0.020981971 0.00086661702 0.021144431 0.99868894 -0.041710131
619769811.32075 0.99880046 -0.043161005 0.00093661854 0.02130102 0.00096175447 0.021474961 0.99859476 -0.042228609
629766037.73585 0.99861979 -0.043745726 0.00099184457 0.021599106 0.0010099784 0.021804549 0.99841213 -0.042787433
639762264.15094 0.99844164 -0.044464678 0.00098246406 0.021947751 0.00098352227 0.022092799 0.99824017 -0.043220922
649758490.56604 0.99824995 -0.045028225 0.0010229652 0.022279933 0.0010220115 0.022449192 0.99835712 -0.043660581
659754716.98113 0.99808824 -0.045599669 0.0010289466 0.022630423 0.0010037581 0.022808503 0.99840069 -0.044255227
669750943.39623 0.99812174 -0.046069711 0.0010553217 0.022986978 0.0010264423 0.023178695 0.99847782 -0.045067132
679747169.81132 0.99813426 -0.046824634 0.0010712495 0.023339296 0.0010865453 0.023541348 0.99837309 -0.046071738
689743396.22642 0.99833059 -0.04766646 0.0011315001 0.023679834 0.0011228165 0.023885474 0.99821198 -0.046986848
699739622.64151 0.99841511 -0.048548728 0.0011585252 0.02405118 0.0011985116 0.024244716 0.99819219 -0.047735244
709735849.0566 0.99841303 -0.049390197 0.0012391993 0.024357393 0.001214733 0.024559971 0.99792212 -0.048434936
719732075.4717 0.99826634 -0.050121784 0.0012468011 0.024706975 0.0012483229 0.024853569 0.99801952 -0.048945844
729728301.88679 0.99818349 -0.05063951 0.0012851907 0.02501801 0.0012919251 0.025187129 0.99799991 -0.049353123
739724528.30189 0.99802077 -0.05135791 0.0013013198 0.025366291 0.0013005342 0.025561588 0.99825323 -0.050068066
749720754.71698 0.99790698 -0.051789865 0.0013446286 0.025680471 0.0013302178 0.025884738 0.99823451 -0.050790012
759716981.13208 0.99803281 -0.052396625 0.0013851477 0.026047075 0.0014238721 0.026225373 0.99826908 -0.051638782
769713207.54717 0.99792027 -0.05308938 0.0013827924 0.026359828 0.0014106659 0.02654675 0.99793774 -0.05229795
779709433.96226 0.998101 -0.053761836 0.0014669836 0.026698105 0.0014347165 0.026894346 0.99768847 -0.052993581
789705660.37736 0.99797726 -0.054636747 0.0015092799 0.027032498 0.0015255846 0.027224286 0.99743021 -0.053772062
799701886.79245 0.99787742 -0.055488169 0.0015192414 0.027349547 0.0015216405 0.02755102 0.99731046 -0.054311007
809698113.20755 0.99781436 -0.056174308 0.0015592603 0.02764965 0.0015258351 0.027891409 0.99737275 -0.054751411
819694339.62264 0.99767393 -0.056824863 0.0015484067 0.028001122 0.0015699277 0.028261822 0.99748224 -0.055455178
829690566.03774 0.9977423 -0.057489276 0.0016032057 0.028336087 0.0015972601 0.028582215 0.99778199 -0.05630511
839686792.45283 0.99774259 -0.05793646 0.0016285954 0.028689878 0.0016650558 0.028934216 0.99782336 -0.057170302
849683018.86792 0.99788845 -0.058501042 0.0016587724 0.02903563 0.0016868699 0.029270474 0.99767518 -0.057937808
859679245.28302 0.99789453 -0.059307098 0.0017238576 0.029355707 0.0017278315 0.029603763 0.99735087 -0.058553189
869675471.69811 0.99779695 -0.060063779 0.0017675748 0.029693363 0.0017519221 0.029944371 0.99703914 -0.059103191
879671698.11321 0.99769169 -0.060704466 0.0017701637 0.030018669 0.0018123435 0.030242134 0.99699229 -0.059538551
889667924.5283 0.99750793 -0.06164071 0.0018410385 0.030325966 0.0018295618 0.030601688 0.99691617 -0.060062885
899664150.9434 0.99726194 -0.062252223 0.0018457016 0.030686926 0.0018371129 0.030953795 0.99689054 -0.060676396
909660377.35849 0.99734467 -0.063004911 0.0018785368 0.031013127 0.0018932256 0.031261686 0.99710715 -0.061638489
919656603.77358 0.99738449 -0.063697949 0.0019134097 0.031356521 0.0019497559 0.031597469 0.99712747 -0.062546626
929652830.18868 0.99737215 -0.064515769 0.0019243527 0.031653594 0.0019766018 0.031946763 0.99691522 -0.063419789
939649056.60377 0.99759531 -0.065061569 0.001951783 0.031994879 0.0019564843 0.032248985 0.996737 -0.064179868
949645283.01887 0.99748111 -0.065908 0.0019657514 0.032331936 0.0019751713 0.032605816 0.9964956 -0.064761236
959641509.43396 0.99754268 -0.066640109 0.0019999696 0.032708555 0.0020180438 0.032958034 0.99641681 -0.065222263
969637735.84906 0.99726629 -0.067413479 0.0020613195 0.033056315 0.002067809 0.033341706 0.99647129 -0.065577865
979633962.26415 0.99720687 -0.068131223 0.0021100249 0.033398017 0.0021280816 0.03367221 0.99647558 -0.066289842
989630188.67925 0.997163 -0.068667114 0.0021618912 0.033721533 0.002175767 0.034030404 0.99663013 -0.066874504
999626415.09434 0.99723965 -0.069333822 0.0021850783 0.034024462 0.0022298638 0.034359913 0.99664849 -0.067774415
1009622641.5094 0.99715674 -0.069987684 0.0021927124 0.03442568 0.0022611301 0.034726545 0.99642915 -0.068631217
1019618867.9245 0.99726903 -0.070842072 0.0022732173 0.034738917 0.0023230347 0.035065185 0.99616808 -0.069452614
1029615094.3396 0.99729991 -0.071780801 0.0023407731 0.035061847 0.0023691934 0.035375427 0.99572605 -0.070079625
1039611320.7547 0.99734491 -0.072687835 0.0023631658 0.035386134 0.0023933807 0.035669774 0.9957329 -0.070813358
1049607547.1698 0.99717623 -0.073657453 0.00240804 0.03570585 0.0024327135 0.035993729 0.9957121 -0.071325846
1059603773.5849 0.99702513 -0.074391663 0.0024372647 0.036005072 0.002474945 0.036343325 0.99574411 -0.071891159
1069600000 0.99673796 -0.074959576 0.0024229586 0.036324896 0.0025224891 0.036664512 0.99586141 -0.072652578
1079596226.4151 0.99676168 -0.07565783 0.0024551465 0.036656603 0.0025194823 0.037015941 0.99583948 -0.073339678
1089592452.8302 0.99674761 -0.076243401 0.0024771141 0.037020825 0.0025309455 0.037339095 0.99576306 -0.074065655
1099588679.2453 0.99678463 -0.076910019 0.0024930704 0.037353173 0.0025793985 0.037663043 0.99541587 -0.074753225
1109584905.6604 0.99694997 -0.077774361 0.0025312519 0.037701696 0.0025960188 0.03802624 0.99515551 -0.075378805
1119581132.0755 0.99692428 -0.078765884 0.0025333613 0.038058914 0.0026554768 0.038399637 0.99498981 -0.075776696
1129577358.4906 0.99671447 -0.079521656 0.0025844537 0.038435016 0.0026882179 0.038751829 0.99490082 -0.076268792
1139573584.9057 0.99646509 -0.080589354 0.00263556 0.038765859 0.0027280068 0.039099488 0.99499273 -0.076929659
1149569811.3208 0.99628943 -0.081387296 0.0026946354 0.039103605 0.0027976085 0.039424498 0.99509984 -0.077690311
1159566037.7358 0.99606824 -0.08210507 0.0027762558 0.039394807 0.0028365105 0.039769102 0.99520236 -0.078719586
1169562264.1509 0.99597001 -0.082778245 0.0027655214 0.039739046 0.0028392393 0.040077694 0.99500793 -0.079575419
1179558490.566 0.99580956 -0.083509617 0.0027644555 0.040109411 0.002896355 0.040484983 0.99483436 -0.08022669
1189554716.9811 0.99587107 -0.08419776 0.0028245375 0.040456817 0.0029458255 0.040784854 0.99452645 -0.080803484
1199550943.3962 0.99585056 -0.085060924 0.002869321 0.040831178 0.0029887985 0.04116587 0.99435079 -0.081194043
1209547169.8113 0.99563152 -0.086037591 0.0029156106 0.041198023 0.0030227276 0.041486472 0.9943217 -0.081598297
1219543396.2264 0.9954654 -0.086886391 0.0029615113 0.041545209 0.003061051 0.041871853 0.99438989 -0.081961662
1229539622.6415 0.99517357 -0.087759584 0.0030115359 0.041863341 0.0031262655 0.042216815 0.99461603 -0.082704276
1239535849.0566 0.99480653 -0.088343799 0.0031042341 0.042219464 0.003200843 0.042535286 0.99463284 -0.083643258
1249532075.4717 0.99456233 -0.089093708 0.0031420516 0.04253456 0.0032810369 0.042888112 0.99433959 -0.084452793
1259528301.8868 0.99435306 -0.08956629 0.0032078475 0.042893499 0.003358867 0.043210581 0.994183 -0.08539319
1269524528.3019 0.99420702 -0.090399832 0.0032982603 0.043197483 0.003433127 0.043515388 0.99398541 -0.08611241
1279520754.717 0.99377471 -0.091101535 0.003348808 0.043523289 0.003484223 0.043783639 0.99365997 -0.086617514
1289516981.1321 0.99372202 -0.091950446 0.0033611106 0.04380893 0.0035119019 0.044106007 0.99373007 -0.08706376
1299513207.5472 0.99341238 -0.09280163 0.0033949595 0.044117983 0.0035013873 0.044454362 0.99385619 -0.087483138
1309509433.9623 0.99292958 -0.093432248 0.0033883918 0.044422477 0.0035091927 0.04475994 0.99399257 -0.088171884
1319505660.3774 0.99249506 -0.09417665 0.0033979146 0.044786654 0.0035474682 0.045098063 0.99402535 -0.08887209
1329501886.7925 0.9921397 -0.09491083 0.0034067761 0.045127813 0.003566619 0.045442734 0.99391115 -0.089929402
1339498113.2075 0.99190104 -0.0953587 0.0034326883 0.04545505 0.0035686949 0.045742288 0.99348301 -0.090613306
1349494339.6226 0.99169064 -0.095920295 0.0034589241 0.045802012 0.0035889093 0.046085723 0.99313039 -0.091191269
1359490566.0377 0.99156666 -0.096602887 0.0034579244 0.046144225 0.0035953727 0.046465222 0.99287426 -0.091698885
1369486792.4528 0.99135131 -0.097128034 0.0034747906 0.046584588 0.00360143 0.0468201 0.99274039 -0.09224239
1379483018.8679 0.99117148 -0.097680233 0.0035163299 0.046936676 0.0036074556 0.047156885 0.99276263 -0.092492811
1389479245.283 0.99078339 -0.098256052 0.0035490785 0.047313254 0.003651645 0.047551081 0.99276596 -0.09321627
1399475471.6981 0.99033225 -0.098653883 0.0035634767 0.047673352 0.0036431998 0.04795013 0.99296468 -0.093928516
1409471698.1132 0.99000961 -0.099075757 0.0036071115 0.048090242 0.0037080038 0.048325188 0.99294841 -0.094811276
1419467924.5283 0.98983562 -0.099273264 0.0036236281 0.048440892 0.0037561273 0.048687425 0.99276489 -0.095556706
1429464150.9434 0.98963428 -0.099767119 0.0036281496 0.048868909 0.0037647597 0.049123906 0.99267066 -0.09610346
1439460377.3585 0.9898634 -0.10023764 0.003763264 0.049331829 0.0038428549 0.049581695 0.99241215 -0.096380115
1449456603.7736 0.98980808 -0.100917 0.0038791476 0.049726762 0.0039372593 0.049980912 0.99221724 -0.096732244
1459452830.1887 0.98976487 -0.10160106 0.0040364787 0.050147377 0.0040757991 0.050366908 0.99234933 -0.097045541
1469449056.6038 0.98994547 -0.10218096 0.0041886773 0.050468873 0.0042354679 0.050769474 0.99260819 -0.097778112
1479445283.0189 0.98973829 -0.10287769 0.004319252 0.050802592 0.0043625925 0.051054064 0.99266505 -0.098700576
1489441509.434 0.98955292 -0.10350171 0.00446954 0.051126778 0.004479181 0.051436443 0.99249017 -0.099608779
1499437735.8491 0.98944879 -0.10367489 0.0045951493 0.051419627 0.0046097804 0.051680002 0.99243164 -0.10052803
1509433962.2642 0.98944569 -0.10422246 0.004644928 0.051667817 0.0047294749 0.051992659 0.99221802 -0.10115671
1519430188.6792 0.98954087 -0.10484871 0.0047449972 0.051960755 0.0047683064 0.052212626 0.99208421 -0.10175532
1529426415.0943 0.9894591 -0.1054287 0.0048196539 0.052258432 0.0047740731 0.052553035 0.99204195 -0.10218731
1539422641.5094 0.98955983 -0.10625549 0.0048477864 0.052580953 0.0048665651 0.052892718 0.99208534 -0.10262328
1549418867.9245 0.98942429 -0.10716593 0.0049356995 0.052818738 0.0049251076 0.053169325 0.99227351 -0.10334581
1559415094.3396 0.98921967 -0.10780942 0.0049819071 0.053184383 0.0049709603 0.053478204 0.99246645 -0.10407704
1569411320.7547 0.98913056 -0.10855944 0.0050163725 0.053454492 0.005024258 0.053755742 0.99232674 -0.10486074
1579407547.1698 0.98895419 -0.10907312 0.0050342423 0.053727243 0.0049806442 0.054049581 0.99197614 -0.10570249
1589403773.5849 0.98882061 -0.10958147 0.00503622 0.054033332 0.0050184596 0.054363772 0.99181592 -0.10646996
1599400000 0.9888671 -0.11009517 0.0050339121 0.054340016 0.0050709452 0.054668423 0.99134052 -0.10692939
1609396226.4151 0.98886007 -0.11080745 0.0050636856 0.05468706 0.0050230622 0.055008601 0.99118888 -0.10738885
1619392452.8302 0.98889601 -0.11135581 0.0050475504 0.055057004 0.0050380304 0.055381078 0.99120086 -0.10787687
1629388679.2453 0.98860204 -0.11215058 0.0050729886 0.055371404 0.0050133411 0.055762753 0.99145281 -0.10838288
1639384905.6604 0.98835409 -0.11292713 0.0050858306 0.05574479 0.0050629256 0.056127146 0.99173164 -0.10932556
1649381132.0755 0.98810244 -0.11344087 0.0050992928 0.056100179 0.0050811358 0.05648461 0.99167538 -0.11019054
1659377358.4906 0.98793477 -0.11431617 0.0051305126 0.056511849 0.0051556192 0.056941386 0.99161553 -0.11115977
1669373584.9057 0.98788005 -0.1147013 0.0051462422 0.056883927 0.0051698345 0.057308838 0.9912138 -0.11182272
1679369811.3208 0.98800343 -0.11543912 0.0052297786 0.057273861 0.0052305553 0.057649773 0.99111664 -0.11234069
1689366037.7358 0.98807204 -0.11605275 0.0052880216 0.057703562 0.0052642189 0.058089867 0.99087703 -0.11267406
1699362264.1509 0.98812944 -0.11673093 0.00535837 0.058028668 0.0052923635 0.058481585 0.99114382 -0.11305812
1709358490.566 0.98800451 -0.11742838 0.0053976895 0.05842077 0.0054006809 0.058853555 0.99105829 -0.11367036
1719354716.9811 0.98771334 -0.11797491 0.0054874886 0.058815394 0.0054520126 0.059283473 0.9910512 -0.11438704
1729350943.3962 0.98732895 -0.11856171 0.0055632312 0.059234049 0.0055442788 0.059675235 0.99116725 -0.11535582
