!Keysight Technologies,N5222B,MY61253708,A.15.00.15
!Date: Wednesday, June 19, 2024 09:07:45
!Correction: S11(C  2-Port  ) 
!S21(C  2-Port  ) 
!S12(C  2-Port  ) 
!S22(C  2-Port  ) 
!S2P File: Measurements: S11, S21, S12, S22:
# Hz S  RI   R 50
10000000 0.99866509 -0.0019750297 9.5412106e-006 0.00051423046 -0.00019739501 0.0003600874 0.99952805 -0.00064656138
19996226.415094 0.99909925 -0.0021558702 -7.0953713e-005 0.00071584177 0.00012094545 0.0008039372 0.99937177 -0.0020746291
29992452.830189 0.99981487 -0.0024912059 -5.7695492e-005 0.00099891063 4.5448163e-005 0.0010002344 0.99960309 -0.0027222037
39988679.245283 1.0000615 -0.0030360669 -1.0393604e-005 0.0014099624 1.0987947e-005 0.0013833232 0.99973446 -0.0031514019
49984905.660377 1.0002509 -0.0038330555 6.4676628e-005 0.0017454475 1.1974887e-005 0.0017551081 0.99984407 -0.0037328005
59981132.075472 1.0003353 -0.0047157109 4.0163461e-005 0.0020668593 1.5294063e-006 0.0020713971 0.99984843 -0.0042550266
69977358.490566 1.0000975 -0.0052614268 1.5520345e-005 0.0024492566 -2.4760651e-005 0.0024686479 0.99969494 -0.0047604237
79973584.90566 0.99985468 -0.0058311522 3.7901802e-005 0.0027463604 1.5843892e-005 0.0028059005 0.99941587 -0.0052944422
89969811.320755 0.99984568 -0.0059894323 2.8233742e-005 0.0031205465 3.6969315e-005 0.0031395711 0.99958575 -0.0056182742
99966037.735849 1.0000497 -0.0067753345 1.4357851e-005 0.0034470737 2.0110805e-005 0.0034783576 0.99966401 -0.0063784271
109962264.15094 1.0000799 -0.0076984167 5.2869204e-005 0.0038138756 -1.2183795e-005 0.0038258566 0.99965334 -0.0072396249
119958490.56604 1.0001936 -0.0087098181 2.9181363e-005 0.0041362592 2.5813933e-005 0.0041757184 0.99971437 -0.008161813
129954716.98113 1.0001223 -0.0097083747 4.8312242e-005 0.0044871941 4.2382628e-005 0.0045469762 0.99966693 -0.0091094077
139950943.39623 0.99999243 -0.01056258 4.1179868e-005 0.0048433212 4.4767556e-005 0.0048755044 0.99955571 -0.0098843835
149947169.81132 0.99986976 -0.011231005 6.6678273e-005 0.0051789884 2.7750386e-005 0.0052328091 0.99950063 -0.010484964
159943396.22642 0.99984157 -0.011774957 5.346071e-005 0.0055259541 7.05563e-005 0.0055852323 0.99961919 -0.010963768
169939622.64151 0.99980986 -0.01217372 7.2471623e-005 0.0058889198 6.8686029e-005 0.0059195035 0.99966568 -0.011409901
179935849.0566 0.99992132 -0.01244241 8.4218802e-005 0.0062461006 0.00011109386 0.0062699243 0.99957472 -0.011775821
189932075.4717 0.99997324 -0.013197243 7.7262521e-005 0.0065869363 7.754378e-005 0.0066447714 0.99978209 -0.012416214
199928301.88679 0.99998981 -0.014156878 9.1060298e-005 0.0069179176 8.9722918e-005 0.0069647878 0.99968976 -0.013331205
209924528.30189 0.99969757 -0.014832169 0.00010698219 0.0072666183 0.00013710838 0.0073311948 0.9994387 -0.014085025
219920754.71698 0.99967647 -0.015611768 0.00014413451 0.007630575 0.0001282997 0.0076566972 0.99925703 -0.014786512
229916981.13208 0.99948764 -0.016567171 0.00012443913 0.0079472065 0.00013826322 0.0079854913 0.99919528 -0.015591711
239913207.54717 0.99927485 -0.017212413 0.00015705288 0.0083010634 0.00013832501 0.0083642676 0.99916959 -0.016240142
249909433.96226 0.99936664 -0.017920613 0.00016283407 0.008623777 0.00016441266 0.0087112254 0.99928397 -0.016948521
259905660.37736 0.99951708 -0.018543839 0.00017079292 0.0089826938 0.00019314652 0.0090004103 0.99950331 -0.017537296
269901886.79245 0.99959379 -0.019139573 0.00016021449 0.0092874821 0.00014674873 0.0094181299 0.99980289 -0.018214762
279898113.20755 0.99982786 -0.019829065 0.00016997592 0.0096775265 0.00020950101 0.0097344425 0.99974996 -0.018960819
289894339.62264 0.99966872 -0.020583272 0.0001848978 0.010011161 0.00021876907 0.010057962 0.99962819 -0.019752175
299890566.03774 0.99968821 -0.021152169 0.00020584441 0.010375003 0.00021998258 0.010442673 0.99933273 -0.020192891
309886792.45283 0.99938679 -0.021718457 0.00017971883 0.010739171 0.00021172024 0.010836184 0.99914646 -0.020679258
319883018.86792 0.99939358 -0.022377729 0.00021966733 0.011050203 0.00022637844 0.011158098 0.99937171 -0.021196961
329879245.28302 0.99930781 -0.023098022 0.00026214542 0.01139239 0.00028525107 0.011471132 0.99937272 -0.021942616
339875471.69811 0.99913895 -0.02389127 0.00027652597 0.011735225 0.00031334034 0.011815966 0.99934077 -0.022811972
349871698.11321 0.99936861 -0.024754971 0.00034792721 0.01209325 0.00030915812 0.012186836 0.99935138 -0.023675352
359867924.5283 0.99920589 -0.025527179 0.00032173097 0.012428584 0.00033356855 0.012544323 0.99935484 -0.024737358
369864150.9434 0.99947882 -0.026382834 0.00031579309 0.012797885 0.00029322458 0.012900567 0.99932992 -0.02539432
379860377.35849 0.99936646 -0.027080014 0.00037939637 0.013137379 0.000354975 0.013178949 0.99926734 -0.026051208
389856603.77358 0.99926221 -0.027761191 0.00040162867 0.013451077 0.00036208145 0.013551502 0.99915516 -0.026566952
399852830.18868 0.99909002 -0.028200597 0.00040558865 0.013783496 0.00039658928 0.013892239 0.99924654 -0.027051091
409849056.60377 0.99910724 -0.028744008 0.00044373694 0.01415844 0.00043374902 0.014241243 0.99924153 -0.027512612
419845283.01887 0.99907792 -0.029191107 0.00046537351 0.014473681 0.00044160383 0.014639549 0.99930948 -0.028043449
429841509.43396 0.99907947 -0.029839814 0.00046981126 0.014845582 0.00042974902 0.014955927 0.99944007 -0.028881162
439837735.84906 0.99906492 -0.030737683 0.0005028228 0.015170341 0.00049143238 0.0153215 0.99922425 -0.029804021
449833962.26415 0.99901724 -0.031502903 0.00051579345 0.01545907 0.00052176509 0.015627395 0.99884462 -0.030724764
459830188.67925 0.99876124 -0.032402843 0.00044126483 0.015829237 0.00051688123 0.015969884 0.99867004 -0.031474948
469826415.09434 0.99884015 -0.033279091 0.00052070618 0.016181221 0.0005405047 0.016321968 0.99843633 -0.032039523
479822641.50943 0.99872661 -0.033847317 0.00051259482 0.016550707 0.00056809955 0.016694631 0.99850285 -0.032504022
489818867.92453 0.99880928 -0.034507394 0.00058884639 0.016901013 0.00061298348 0.017050641 0.99881542 -0.033109844
499815094.33962 0.99889958 -0.034978241 0.00059267413 0.017237842 0.00060707703 0.017366853 0.99914706 -0.033723623
509811320.75472 0.99904639 -0.035511114 0.0006171281 0.017574547 0.00062559167 0.017686443 0.99925369 -0.034548968
519807547.16981 0.9989934 -0.036105752 0.00070259068 0.017880613 0.0006179139 0.018081758 0.99925578 -0.035337031
529803773.58491 0.99889022 -0.036786616 0.00063961465 0.01826397 0.00065879151 0.018377615 0.99891889 -0.035979092
539800000 0.99893218 -0.037501708 0.00071276585 0.018646991 0.00069388677 0.018744573 0.99883211 -0.036627516
549796226.41509 0.99873322 -0.038382798 0.00066327862 0.018981861 0.00070064049 0.019098671 0.99857205 -0.037123114
559792452.83019 0.99846041 -0.039030522 0.00076409243 0.019319234 0.00072717015 0.019472525 0.99852324 -0.037705898
569788679.24528 0.99831504 -0.03988269 0.00076089008 0.019665221 0.000729213 0.019802665 0.99863988 -0.038391501
579784905.66038 0.99833137 -0.040400051 0.00078440353 0.020032156 0.00078603462 0.020157129 0.99876064 -0.039104074
589781132.07547 0.99840319 -0.041039914 0.00080069527 0.020338487 0.00084249303 0.02050519 0.9989056 -0.040132374
599777358.49057 0.99856746 -0.041715264 0.00088201091 0.02071958 0.00086710043 0.020870976 0.99892217 -0.040896147
609773584.90566 0.99878073 -0.042527817 0.00092163589 0.021088898 0.00094033597 0.021251826 0.99885184 -0.041761696
619769811.32075 0.99878502 -0.043263346 0.00092644151 0.021379929 0.00096863322 0.021502234 0.99869961 -0.042327195
629766037.73585 0.99860525 -0.043771982 0.00098978542 0.02169697 0.00098610763 0.021824334 0.99843109 -0.042857498
639762264.15094 0.99841499 -0.044448853 0.00098836096 0.022012027 0.00099276542 0.02220316 0.99830449 -0.043310091
649758490.56604 0.99827534 -0.045032322 0.0010378133 0.022379933 0.00097929221 0.022484411 0.99841923 -0.04370755
659754716.98113 0.99809164 -0.045572221 0.0010144217 0.022723589 0.0010224245 0.022876959 0.99839664 -0.04429397
669750943.39623 0.99811679 -0.046091378 0.0010329154 0.023066988 0.0010670894 0.023231108 0.99841583 -0.045207053
679747169.81132 0.99804765 -0.046902012 0.0010992253 0.023426358 0.0010536902 0.02359746 0.99848044 -0.046131395
689743396.22642 0.99830961 -0.047767878 0.0011441624 0.023774432 0.0011566645 0.023948751 0.99825013 -0.047109872
699739622.64151 0.99842155 -0.048544317 0.0011629276 0.024100747 0.0011876933 0.024283119 0.9982599 -0.047804236
709735849.0566 0.99841714 -0.049460918 0.0012512202 0.024469279 0.0012391716 0.024619307 0.99791652 -0.048531264
719732075.4717 0.99827802 -0.050137579 0.0012513911 0.024746509 0.0012736297 0.024928227 0.99797016 -0.049082637
729728301.88679 0.99814641 -0.050635457 0.0012633409 0.025101565 0.0012975251 0.025283445 0.99804699 -0.049520075
739724528.30189 0.99808812 -0.051425546 0.0013294052 0.025476957 0.0012861919 0.025647378 0.99824959 -0.050156325
749720754.71698 0.99790829 -0.051876009 0.0013671108 0.025758227 0.0013596178 0.025967211 0.99826109 -0.05097115
759716981.13208 0.99797648 -0.052471817 0.0014099432 0.026104782 0.0013937615 0.026296435 0.99822509 -0.051775664
769713207.54717 0.99789703 -0.053082198 0.0014074361 0.026450701 0.0014363443 0.026650075 0.9979341 -0.052425355
779709433.96226 0.99805373 -0.053795882 0.0014567351 0.026772389 0.0014878195 0.026967021 0.99770755 -0.053111516
789705660.37736 0.99796981 -0.054779261 0.0015171748 0.027078614 0.0015231101 0.027283467 0.9974699 -0.053827703
799701886.79245 0.99803424 -0.055613041 0.001557094 0.027444903 0.0015208172 0.027652401 0.99732149 -0.054420739
809698113.20755 0.99787581 -0.056152314 0.0015396525 0.027753282 0.001551487 0.028014958 0.99739552 -0.054836094
819694339.62264 0.99767762 -0.056879878 0.0015817662 0.028128292 0.0015733275 0.028307706 0.99750251 -0.055545449
829690566.03774 0.99766588 -0.057514846 0.0016323635 0.02844123 0.0016483814 0.028659273 0.99778819 -0.056366235
839686792.45283 0.99773264 -0.057907909 0.0016532773 0.028792785 0.0016631484 0.028997235 0.99785513 -0.057285994
849683018.86792 0.99788666 -0.058614604 0.0016605784 0.02911417 0.0017102794 0.029357648 0.99772149 -0.058079071
859679245.28302 0.99785328 -0.059410155 0.0017218199 0.029449707 0.0017248988 0.029692881 0.99735153 -0.05869475
869675471.69811 0.99775857 -0.060194701 0.0017973753 0.029813824 0.0017904285 0.03004518 0.99703074 -0.059234917
879671698.11321 0.99764651 -0.060988631 0.0018316363 0.030082352 0.0018238766 0.03038385 0.9970305 -0.059630021
889667924.5283 0.99750227 -0.061658591 0.00183596 0.03041734 0.001851826 0.030694257 0.99690926 -0.060141176
899664150.9434 0.99726665 -0.062369615 0.001877889 0.030741487 0.0018804194 0.031039506 0.9969365 -0.060849518
909660377.35849 0.99726433 -0.063112631 0.001891789 0.031103199 0.0019258126 0.031366106 0.99702877 -0.061713681
919656603.77358 0.99732971 -0.063782647 0.00190375 0.03141978 0.0019682855 0.031688802 0.99706274 -0.062646031
929652830.18868 0.99737972 -0.064582318 0.0019333437 0.031773251 0.0019874852 0.032036934 0.99690855 -0.063577235
939649056.60377 0.99754655 -0.065229446 0.0019352371 0.03206826 0.0019607209 0.032349143 0.99675143 -0.064308226
949645283.01887 0.99755555 -0.066048354 0.0019697528 0.032443456 0.0020148447 0.032711167 0.99650216 -0.064886279
959641509.43396 0.99740112 -0.066764385 0.001972775 0.032810934 0.002021675 0.033092257 0.99639553 -0.065356463
969637735.84906 0.99726653 -0.067509592 0.0020488761 0.033203192 0.0020811176 0.033451028 0.99649072 -0.065710932
979633962.26415 0.99707621 -0.068270713 0.0021430359 0.033503462 0.0021488543 0.033748243 0.99652505 -0.066322252
989630188.67925 0.99715126 -0.068765521 0.0021726955 0.033851486 0.0021883501 0.034113627 0.99674731 -0.067016989
999626415.09434 0.99720418 -0.06947124 0.0021845475 0.034174256 0.0022107512 0.034456484 0.99658155 -0.067834616
1009622641.5094 0.99718571 -0.070065439 0.0022353595 0.034542173 0.0022584032 0.034812145 0.9964292 -0.068749279
1019618867.9245 0.99732167 -0.070952907 0.0022896654 0.034869604 0.0023561767 0.035167322 0.99623287 -0.069694713
1029615094.3396 0.99727678 -0.071970642 0.0023281779 0.035155952 0.0023804605 0.035481665 0.99580038 -0.070144594
1039611320.7547 0.99730504 -0.07278198 0.0023770137 0.035496969 0.0024324814 0.035788205 0.99576211 -0.070927083
1049607547.1698 0.99719143 -0.073704109 0.0024288462 0.035816938 0.0024297792 0.036113385 0.99570781 -0.071466751
1059603773.5849 0.99695861 -0.0743469 0.0024465919 0.036112171 0.0024914751 0.036448143 0.9957152 -0.071939766
1069600000 0.99670923 -0.075118601 0.0024488736 0.036466449 0.0024925638 0.036791857 0.9958837 -0.072795212
1079596226.4151 0.99668437 -0.075720981 0.0024796361 0.036783658 0.0025477037 0.037095264 0.99588716 -0.073458344
1089592452.8302 0.99675435 -0.07625711 0.0025126794 0.037136085 0.002579351 0.037475318 0.99578208 -0.074277282
1099588679.2453 0.99679083 -0.077081025 0.0025488269 0.037457619 0.002587162 0.037783138 0.99545139 -0.074929535
1109584905.6604 0.99688512 -0.077953041 0.0025506895 0.037802633 0.0026270254 0.038129944 0.99519289 -0.075531274
1119581132.0755 0.99678004 -0.078927495 0.0025831144 0.03817524 0.002634394 0.03850529 0.994937 -0.075910807
1129577358.4906 0.99669087 -0.079792857 0.0026177745 0.038560905 0.0026800688 0.038896326 0.99494696 -0.076430172
1139573584.9057 0.99647146 -0.080669224 0.002654518 0.038884625 0.0027507553 0.039236981 0.9949978 -0.077063173
1149569811.3208 0.99630225 -0.081506737 0.002741646 0.039238174 0.0027859914 0.039588425 0.99504751 -0.077902056
1159566037.7358 0.99608809 -0.082222134 0.0027525481 0.039533261 0.0028473437 0.039868567 0.99524349 -0.078903735
1169562264.1509 0.99583989 -0.082887888 0.0027973466 0.03984271 0.002871938 0.040220328 0.99501354 -0.079712451
1179558490.566 0.99590051 -0.083571002 0.0027923854 0.040248252 0.0029057085 0.040596899 0.99481338 -0.080441788
1189554716.9811 0.99595618 -0.084366083 0.0028484743 0.040626377 0.0029718494 0.040925004 0.99455786 -0.080960393
1199550943.3962 0.9957757 -0.085268527 0.0028846674 0.040958837 0.0030001979 0.041273013 0.99434757 -0.081352413
1209547169.8113 0.99553585 -0.086145043 0.0029203407 0.041287705 0.0030361786 0.041615263 0.99426603 -0.081724882
1219543396.2264 0.99531376 -0.0869378 0.0029754392 0.041667987 0.0030880445 0.042014927 0.99438643 -0.082100108
1229539622.6415 0.99506938 -0.087896138 0.0030725896 0.042018764 0.0031482559 0.042364869 0.99448979 -0.082839221
1239535849.0566 0.99490213 -0.088476032 0.0031225868 0.042340644 0.0032372093 0.042683434 0.99458289 -0.083822578
1249532075.4717 0.99451172 -0.089263856 0.003179759 0.042660289 0.0033257541 0.04299764 0.99439573 -0.084643774
1259528301.8868 0.99428606 -0.089758903 0.0032304693 0.043017365 0.0033861492 0.043327015 0.99418926 -0.085556686
1269524528.3019 0.99420601 -0.090530753 0.0032992102 0.043354217 0.0034352411 0.043625891 0.99394065 -0.086264193
1279520754.717 0.99383342 -0.091264799 0.0033662983 0.043615166 0.0035021887 0.043939009 0.99359822 -0.08678887
1289516981.1321 0.99374509 -0.092015594 0.0033897515 0.043921813 0.0035382118 0.044249237 0.99363875 -0.08728078
1299513207.5472 0.99330622 -0.092957258 0.0033775084 0.044257458 0.0035254378 0.04457419 0.99392563 -0.087553829
1309509433.9623 0.99282807 -0.093644619 0.0034361584 0.044619896 0.0035794564 0.044873577 0.9939878 -0.088407516
1319505660.3774 0.99251491 -0.094367132 0.0034249946 0.044919923 0.0035741115 0.04522986 0.9940055 -0.089072719
1329501886.7925 0.99212837 -0.095025182 0.0034411475 0.045281149 0.0035857409 0.045538545 0.99395359 -0.090001583
1339498113.2075 0.99185681 -0.09561488 0.0034776833 0.045576394 0.0036101313 0.045894172 0.99358547 -0.090779573
1349494339.6226 0.99178785 -0.096079595 0.0034569628 0.04596249 0.0035982165 0.046228379 0.99314517 -0.09137585
1359490566.0377 0.99160212 -0.096800834 0.003490705 0.046308346 0.0036103185 0.046604365 0.99293095 -0.091944337
1369486792.4528 0.99134368 -0.097316682 0.0034954287 0.046723932 0.0036356486 0.046950575 0.99278009 -0.092370629
1379483018.8679 0.99114943 -0.097922757 0.0035099655 0.047059987 0.0036326351 0.047306281 0.9927671 -0.092704855
1389479245.283 0.99074739 -0.098468125 0.0035939682 0.047452156 0.0036649331 0.047713429 0.99273336 -0.093445718
1399475471.6981 0.99032032 -0.098736882 0.0035866648 0.047820799 0.0036804006 0.048060875 0.99290872 -0.094069988
1409471698.1132 0.98989481 -0.099189647 0.0036310393 0.0482256 0.0037361134 0.04848602 0.99298418 -0.094897233
1419467924.5283 0.98975652 -0.099579304 0.0036776243 0.048570551 0.00374767 0.04887544 0.99274057 -0.095648587
1429464150.9434 0.9896543 -0.09992227 0.0037207883 0.049060047 0.0037819594 0.049255773 0.99261379 -0.09632045
1439460377.3585 0.98978829 -0.10043125 0.0037990659 0.049465071 0.0038540214 0.049727887 0.99234885 -0.096640855
1449456603.7736 0.98980993 -0.10100815 0.0039029634 0.049885698 0.0039880732 0.050114982 0.99222988 -0.096952662
1459452830.1887 0.98981023 -0.1017502 0.0040429793 0.050319701 0.0040795319 0.050534047 0.99245489 -0.097280055
1469449056.6038 0.98984289 -0.10234663 0.004207857 0.05067344 0.0042389715 0.050901022 0.99261183 -0.097954214
1479445283.0189 0.98968869 -0.10300604 0.004321665 0.050927758 0.0043777232 0.051246163 0.99261475 -0.098821603
1489441509.434 0.98953998 -0.10354367 0.004513748 0.051305149 0.0045098085 0.051527787 0.99245048 -0.099714309
1499437735.8491 0.98942024 -0.10393429 0.004620187 0.051563088 0.0046366714 0.051808782 0.9924407 -0.10063729
1509433962.2642 0.98941153 -0.1043711 0.0046971105 0.051856663 0.0047107604 0.052092653 0.99218637 -0.10135658
1519430188.6792 0.98947948 -0.10495704 0.0047926418 0.052142195 0.0047755465 0.052395225 0.99206203 -0.10189813
1529426415.0943 0.98944831 -0.10559908 0.0048410781 0.052397203 0.0048023686 0.052708976 0.99199772 -0.10231465
1539422641.5094 0.98952943 -0.10638984 0.0048792069 0.052753415 0.0048876037 0.053035043 0.9920308 -0.10279933
1549418867.9245 0.98932844 -0.10729358 0.0049766973 0.053052589 0.0049503921 0.053315315 0.99237001 -0.10354279
1559415094.3396 0.98915249 -0.10788929 0.00504894 0.053340532 0.0050174613 0.053638536 0.9924733 -0.10421973
1569411320.7547 0.98901385 -0.10873196 0.0050633345 0.053603198 0.005031785 0.053914651 0.99239975 -0.10502128
1579407547.1698 0.98893464 -0.10928059 0.0050461348 0.053924508 0.00504719 0.054224245 0.99200678 -0.10591492
1589403773.5849 0.98879921 -0.1098491 0.0051047318 0.054195438 0.0050675422 0.05457136 0.99183118 -0.10653389
1599400000 0.98882079 -0.1102787 0.0050829872 0.054483686 0.005034348 0.054834224 0.99142718 -0.10709152
1609396226.4151 0.98886609 -0.11100468 0.0050694551 0.054854233 0.0050790431 0.055151496 0.99110478 -0.10764037
1619392452.8302 0.98884302 -0.11155561 0.0051368289 0.055191115 0.0050553977 0.055547353 0.99114275 -0.10799867
1629388679.2453 0.98858786 -0.11236843 0.0050896518 0.055552568 0.0050784778 0.055949222 0.99143434 -0.10861599
1639384905.6604 0.98832119 -0.11294391 0.0051074671 0.055927966 0.0050956481 0.056304522 0.99163902 -0.10948917
1649381132.0755 0.98799163 -0.11369696 0.0051203668 0.056286946 0.0051145274 0.05667359 0.99161768 -0.11037669
1659377358.4906 0.98790908 -0.11444896 0.005176669 0.056693837 0.0051633958 0.05708091 0.99157071 -0.11122045
1669373584.9057 0.9878304 -0.1149249 0.005209527 0.057115037 0.0051708706 0.057459433 0.99126101 -0.11197939
1679369811.3208 0.98788869 -0.11562884 0.0052692592 0.057477891 0.0052610151 0.057863265 0.99098241 -0.1126186
1689366037.7358 0.98787165 -0.11620569 0.0053044036 0.057832759 0.0052967612 0.058214866 0.99082047 -0.11278158
1699362264.1509 0.98808575 -0.11694306 0.005378372 0.058190949 0.0053497283 0.058652569 0.99097699 -0.1132838
1709358490.566 0.98797542 -0.11759533 0.0054327892 0.058630779 0.0054176226 0.059063077 0.99108309 -0.11388691
1719354716.9811 0.98759961 -0.11815777 0.0055169333 0.058995619 0.0054786615 0.059430473 0.99113363 -0.11467412
1729350943.3962 0.98728627 -0.11878604 0.0056117214 0.059416614 0.0055790916 0.059839264 0.9910906 -0.11543301
