!Keysight Technologies,N5222B,MY61253708,A.15.00.15
!Date: Wednesday, June 19, 2024 10:14:40
!Correction: S11(C  2-Port  ) 
!S21(C  2-Port  ) 
!S12(C  2-Port  ) 
!S22(C  2-Port  ) 
!S2P File: Measurements: S11, S21, S12, S22:
# Hz S  RI   R 50
10000000 0.99850541 -0.003013581 3.9626641e-005 0.00024478996 -0.00016663785 0.00022581889 0.99830914 -0.0016978681
19996226.415094 1.0002018 -0.0023653209 5.0214701e-005 0.0006815138 -6.4153195e-005 0.00069788808 1.0002686 -0.0024493039
29992452.830189 0.99975908 -0.0024837852 4.997768e-006 0.00095827022 -8.8144443e-006 0.00095891731 0.99933165 -0.0026907623
39988679.245283 1.0001084 -0.0029839724 -6.1633618e-006 0.0012976761 -7.5483113e-006 0.0013739591 0.99961299 -0.0030126125
49984905.660377 1.0001813 -0.003642112 -2.2560707e-006 0.0016276177 7.3817791e-006 0.0016500059 0.99984962 -0.0035872161
59981132.075472 1.0005178 -0.00443542 6.5770757e-005 0.0019255768 2.6539259e-005 0.0019806465 0.99986285 -0.0042066276
69977358.490566 1.0002725 -0.0050629452 3.4031815e-005 0.0022567324 6.4541673e-006 0.0022873825 0.99973184 -0.0047662109
79973584.90566 0.99996984 -0.0056332946 -7.3527917e-007 0.0026315369 1.5060068e-005 0.0026201322 0.999349 -0.0052094758
89969811.320755 1.0000556 -0.0056929886 1.0649557e-005 0.0029552812 1.3266574e-005 0.0029543065 0.99961329 -0.0054617524
99966037.735849 1.0002818 -0.0064595938 4.3636479e-005 0.0032611424 2.4835987e-005 0.0032708752 0.99974924 -0.0062309951
109962264.15094 1.0002943 -0.0073331147 3.0688709e-005 0.0035998495 3.5307778e-005 0.0036126792 0.99970317 -0.0069853812
119958490.56604 1.000295 -0.0081834495 3.4464872e-005 0.0039124982 3.7760707e-005 0.0039482983 0.99971342 -0.0078462958
129954716.98113 1.0002662 -0.0091529191 4.8830057e-005 0.0042317235 3.1036325e-005 0.0042695235 0.9997322 -0.0087131262
139950943.39623 1.0001494 -0.0099272858 9.9079916e-006 0.0045647551 3.7148362e-005 0.004579409 0.99963498 -0.0094266962
149947169.81132 1.0000407 -0.010577232 5.4081902e-005 0.0049088979 4.6543544e-005 0.0049158824 0.99961108 -0.010069877
159943396.22642 1.0000174 -0.01119253 4.3009175e-005 0.0052260598 5.5453042e-005 0.0052364357 0.99965549 -0.010531604
169939622.64151 0.99996299 -0.0115325 5.1668147e-005 0.0055374387 5.3986325e-005 0.0055796918 0.99968994 -0.010990083
179935849.0566 1.0000442 -0.011764437 7.7311997e-005 0.0058827912 6.6927867e-005 0.0059279236 0.99957252 -0.011367947
189932075.4717 1.0001627 -0.012565553 7.5064832e-005 0.0061926274 8.313288e-005 0.0062386049 0.99974 -0.011889994
199928301.88679 1.0000981 -0.01341334 6.0609542e-005 0.0065100929 9.4423653e-005 0.0065497775 0.99967396 -0.012754381
209924528.30189 0.99986827 -0.013961583 0.00010075339 0.0068450724 9.6659292e-005 0.0068831053 0.99944454 -0.013361171
219920754.71698 1.0000045 -0.01472804 0.00010057096 0.0071688145 0.00010119728 0.0071998867 0.99940771 -0.013975143
229916981.13208 0.99978268 -0.015586972 0.00011250353 0.0074887853 0.00010828488 0.0075277761 0.99943578 -0.014817268
239913207.54717 0.999686 -0.016240977 0.00010393727 0.0078123785 0.0001390149 0.0078580258 0.99931562 -0.015544347
249909433.96226 0.99969327 -0.01685667 0.00013625948 0.0081545291 0.00013223686 0.0081898132 0.99938214 -0.016106039
259905660.37736 0.99976879 -0.017435223 0.00014442811 0.0084616216 0.00013400149 0.0085190497 0.99955475 -0.016626716
269901886.79245 0.99992979 -0.01801917 0.00014424615 0.0088067558 0.0001568225 0.0088315848 1.0000031 -0.017406583
279898113.20755 0.99992675 -0.018716604 0.0001813157 0.009160677 0.00016432535 0.0091688922 0.99972034 -0.018157467
289894339.62264 0.99991119 -0.01949808 0.0001840503 0.0094517823 0.00015759142 0.0094906799 0.99968117 -0.018859446
299890566.03774 0.99979877 -0.019982725 0.00017860811 0.0097538149 0.00017852476 0.0098241968 0.99937689 -0.019355208
309886792.45283 0.99967873 -0.020570047 0.00019086315 0.01011379 0.00025099359 0.010139251 0.99935246 -0.019724943
319883018.86792 0.99989808 -0.021085888 0.00024751434 0.010436777 0.00023359759 0.010498247 0.9994998 -0.02018851
329879245.28302 0.99991369 -0.021812648 0.00026638014 0.010757159 0.00023320224 0.010798953 0.99960816 -0.020972848
339875471.69811 0.99966925 -0.022685267 0.00022453186 0.011097115 0.0002579987 0.011118697 0.99948484 -0.021772303
349871698.11321 0.99985653 -0.023549527 0.00025771209 0.011378578 0.00029333797 0.011420276 0.9996016 -0.022666633
359867924.5283 0.99968743 -0.024249971 0.00028129946 0.011724878 0.00029314216 0.011806375 0.99943411 -0.023617923
369864150.9434 0.99987632 -0.025126666 0.0003295939 0.01205647 0.00030919048 0.012108595 0.99946684 -0.02422297
379860377.35849 0.999686 -0.02575402 0.00033123256 0.012415281 0.0003449549 0.012443268 0.99939507 -0.024909869
389856603.77358 0.99958026 -0.026255757 0.00035085855 0.012730156 0.00036005257 0.01274444 0.99936855 -0.025351048
399852830.18868 0.99939489 -0.027042687 0.00035392586 0.013030564 0.00033416459 0.013068593 0.99941134 -0.02592361
409849056.60377 0.9993847 -0.027467174 0.00034402392 0.01339117 0.00036752681 0.013389821 0.99938852 -0.026333673
419845283.01887 0.99925423 -0.027866036 0.00038576126 0.013685973 0.00036281673 0.013727777 0.9994238 -0.026883662
429841509.43396 0.99941224 -0.028496772 0.00041296612 0.013983438 0.00037013507 0.014057793 0.99956357 -0.027665317
439837735.84906 0.99910778 -0.029376775 0.0004187919 0.014329555 0.0004341735 0.014398299 0.99932009 -0.028621003
449833962.26415 0.9990589 -0.030122817 0.00041616103 0.014639438 0.00045321509 0.014698586 0.99899304 -0.029450506
459830188.67925 0.99893737 -0.030880809 0.00044112653 0.014985714 0.00042992132 0.015032526 0.9988001 -0.030137151
469826415.09434 0.99876547 -0.031573147 0.00043386361 0.015322962 0.00043856166 0.015371308 0.99846971 -0.030607045
479822641.50943 0.99863416 -0.032060489 0.00048610708 0.015645523 0.000475195 0.015716605 0.99856091 -0.031064324
489818867.92453 0.99874735 -0.032563865 0.00049307197 0.015949484 0.00051963562 0.016038777 0.99882632 -0.031627268
499815094.33962 0.99879044 -0.033230603 0.00053276727 0.016287256 0.00052430481 0.016356463 0.99910367 -0.03211689
509811320.75472 0.99887681 -0.033613924 0.0005141244 0.016590055 0.00050792046 0.016675435 0.99922079 -0.032943804
519807547.16981 0.99884701 -0.03400299 0.00060637016 0.016917508 0.00056482526 0.016960043 0.99918431 -0.03363508
529803773.58491 0.99881423 -0.034564197 0.00054486655 0.017209325 0.00056284294 0.017295701 0.99893934 -0.03423214
539800000 0.99895781 -0.035317898 0.00061349315 0.017595001 0.00058793044 0.017655786 0.99883801 -0.034858063
549796226.41509 0.99885684 -0.036019832 0.00062322943 0.017902408 0.0005826368 0.017968945 0.99874443 -0.035330206
559792452.83019 0.9987042 -0.036739022 0.0006318884 0.018235102 0.00064291805 0.018253932 0.99865234 -0.035804391
569788679.24528 0.99854803 -0.037415177 0.0006576078 0.018556563 0.0006263894 0.018627878 0.99879014 -0.036587238
579784905.66038 0.99853092 -0.0379076 0.00070022466 0.018906685 0.00068992085 0.018925143 0.99890947 -0.037316829
589781132.07547 0.99872124 -0.038486451 0.00069864281 0.019187801 0.00070095714 0.019277895 0.99898469 -0.038146079
599777358.49057 0.99873364 -0.039114088 0.00073677301 0.019546025 0.00071187597 0.019606097 0.99901372 -0.038898855
609773584.90566 0.99896127 -0.039975338 0.00077511312 0.019884156 0.00076605199 0.019951135 0.99891442 -0.039716825
619769811.32075 0.99902415 -0.040629625 0.00082416134 0.020155877 0.00083630159 0.02026012 0.99887133 -0.040301979
629766037.73585 0.99887574 -0.041189313 0.00088158157 0.020489726 0.00083715282 0.020560494 0.99868309 -0.040816635
639762264.15094 0.99871027 -0.041904822 0.00083519355 0.020796997 0.00085914624 0.020869201 0.99853253 -0.041312829
649758490.56604 0.99865317 -0.042526513 0.00085701142 0.021118797 0.00088064792 0.021189831 0.99860591 -0.041741192
659754716.98113 0.99850631 -0.042928755 0.00088123977 0.021436324 0.00089434721 0.021531906 0.99871397 -0.042290211
669750943.39623 0.99861544 -0.043317735 0.00086797681 0.021778652 0.00090372097 0.021869464 0.99879861 -0.043090582
679747169.81132 0.99856502 -0.044203147 0.00094074837 0.022107506 0.00093577453 0.022222975 0.99872315 -0.044007778
689743396.22642 0.99874824 -0.045022994 0.0009782631 0.022462176 0.0010197442 0.022537122 0.99855399 -0.044899821
699739622.64151 0.99886477 -0.045813501 0.0010402109 0.022781838 0.0010348679 0.022839231 0.99849927 -0.045491219
709735849.0566 0.9988001 -0.046704814 0.0010683829 0.023046318 0.0010602192 0.023163971 0.99824452 -0.046234362
719732075.4717 0.99867654 -0.047331512 0.0011003474 0.02340946 0.001101641 0.023488609 0.99834085 -0.046785116
729728301.88679 0.9985826 -0.047929972 0.0010880772 0.023719627 0.001132329 0.023810348 0.99835229 -0.047261029
739724528.30189 0.99851435 -0.048641369 0.0011427565 0.024012845 0.0011351239 0.024104752 0.99852514 -0.047900051
749720754.71698 0.99840474 -0.049191013 0.0011816393 0.024311053 0.0012003207 0.024442632 0.99847776 -0.048638627
759716981.13208 0.99845695 -0.04965657 0.0011941772 0.024635872 0.0012136372 0.024725731 0.99851453 -0.049447358
769713207.54717 0.99846989 -0.050372392 0.0012315735 0.024944596 0.0012649149 0.025075132 0.99822426 -0.050092846
779709433.96226 0.99857438 -0.051001854 0.0012951522 0.025272561 0.0012514184 0.025364492 0.99800664 -0.050655272
789705660.37736 0.99847728 -0.051918477 0.001314952 0.025600258 0.0012980811 0.025714325 0.99776137 -0.05137828
799701886.79245 0.99830449 -0.052654266 0.0013345079 0.025907839 0.0013095681 0.026023533 0.99764955 -0.051950425
809698113.20755 0.99827731 -0.053193793 0.001377505 0.026228564 0.0013363042 0.026331015 0.99767148 -0.052359074
819694339.62264 0.99803042 -0.053840667 0.0013995012 0.026521226 0.0013939682 0.026674479 0.99780011 -0.053013027
829690566.03774 0.99807668 -0.054503173 0.0014254088 0.026865762 0.0014248062 0.026958214 0.99794042 -0.053919345
839686792.45283 0.99803805 -0.054947197 0.0014283531 0.027174324 0.0014321003 0.02728463 0.99806118 -0.054650337
849683018.86792 0.99820852 -0.055574551 0.0014591196 0.027480943 0.0014829619 0.027593367 0.99794984 -0.055410795
859679245.28302 0.99824643 -0.056216002 0.0014880598 0.027817067 0.0015076315 0.027955437 0.99771321 -0.056048423
869675471.69811 0.99810004 -0.056967527 0.0015424583 0.028130997 0.001540456 0.028246427 0.99743879 -0.056545436
879671698.11321 0.99803764 -0.057642389 0.0015706604 0.028435798 0.0015897976 0.028578892 0.99737453 -0.056907125
889667924.5283 0.99784523 -0.058441043 0.0016002059 0.02874298 0.0016234126 0.028882265 0.99721146 -0.057462245
899664150.9434 0.99768412 -0.058987617 0.0016401038 0.02906826 0.001644006 0.029189479 0.9972176 -0.058093399
909660377.35849 0.99765515 -0.05973883 0.001661906 0.029376989 0.0016501751 0.029495684 0.99744505 -0.058865726
919656603.77358 0.99774313 -0.060328498 0.0016455227 0.029681062 0.0016703112 0.029845653 0.99738097 -0.059717268
929652830.18868 0.99773967 -0.061080635 0.0017021 0.029988803 0.0017007394 0.03011151 0.99723327 -0.060636044
939649056.60377 0.99795628 -0.061624676 0.0017200187 0.030305313 0.0017282283 0.030442329 0.99713808 -0.061322451
949645283.01887 0.99779969 -0.062507063 0.0017298323 0.0306287 0.0017330488 0.030785644 0.99691701 -0.06183688
959641509.43396 0.99781102 -0.063178152 0.001743529 0.030978408 0.0017549861 0.031116419 0.9968133 -0.062346309
969637735.84906 0.99770319 -0.06389609 0.0018092915 0.031316817 0.0018139267 0.031450793 0.99679601 -0.062729478
979633962.26415 0.99758947 -0.064641178 0.0018160406 0.031630713 0.0018450876 0.031802628 0.99690211 -0.063323863
989630188.67925 0.99766618 -0.065121412 0.0018826332 0.031952791 0.0018995702 0.032091714 0.99708998 -0.063948452
999626415.09434 0.99771678 -0.065649599 0.0019149147 0.032262862 0.0019120434 0.032446973 0.99692428 -0.064718008
1009622641.5094 0.99774933 -0.066344902 0.0019482863 0.032598764 0.0019472763 0.032755215 0.99685341 -0.065599099
1019618867.9245 0.99780655 -0.067139879 0.0019917996 0.032912817 0.00202459 0.033061478 0.99665469 -0.066339105
1029615094.3396 0.99780124 -0.068056405 0.0020407466 0.033219974 0.0020746617 0.03335784 0.99627149 -0.06692338
1039611320.7547 0.99779189 -0.068833232 0.0020712307 0.033516057 0.0020824336 0.03368314 0.99620491 -0.067601085
1049607547.1698 0.99762785 -0.069710299 0.002088771 0.033793695 0.002096561 0.033988066 0.99623567 -0.068179667
1059603773.5849 0.9975965 -0.070450574 0.0021114936 0.034087773 0.0021242565 0.034280401 0.99622351 -0.068693519
1069600000 0.99741042 -0.071090817 0.0021291934 0.034415327 0.0021678042 0.034619186 0.99640715 -0.069415838
1079596226.4151 0.99734014 -0.071731709 0.0021348651 0.034728356 0.0021971869 0.034926727 0.99642366 -0.070214331
1089592452.8302 0.99742627 -0.072354972 0.002163101 0.035066497 0.0021917811 0.035245895 0.99633926 -0.070940226
1099588679.2453 0.99745703 -0.073026597 0.0021679252 0.035399713 0.0022178032 0.035565436 0.99599612 -0.07152611
1109584905.6604 0.99762601 -0.073853597 0.0021892907 0.035719983 0.0022445563 0.035918467 0.99577105 -0.072104901
1119581132.0755 0.99756199 -0.074765354 0.0022033751 0.036090333 0.0022682631 0.036221731 0.99562138 -0.072518796
1129577358.4906 0.99739063 -0.075436175 0.002248805 0.036419451 0.0022912435 0.036583345 0.99551618 -0.072933316
1139573584.9057 0.99713898 -0.076382458 0.0022799512 0.036743194 0.0023617949 0.036947496 0.99563605 -0.0735434
1149569811.3208 0.99698752 -0.077211469 0.0023403554 0.037062254 0.0024054826 0.037225928 0.99570686 -0.074257545
1159566037.7358 0.99684566 -0.077909082 0.0023951204 0.037390564 0.0024298681 0.037526909 0.99585295 -0.075295955
1169562264.1509 0.99667305 -0.078585327 0.0023936667 0.03767262 0.0024590958 0.037847724 0.99568808 -0.076040298
1179558490.566 0.99662977 -0.079309978 0.0023913209 0.038025219 0.0024527733 0.038218133 0.99556881 -0.076795384
1189554716.9811 0.99660468 -0.080115944 0.0024391729 0.038369767 0.0025083926 0.038554009 0.99530894 -0.077306658
1199550943.3962 0.99661189 -0.080834091 0.0024556182 0.03871211 0.0025737062 0.038878761 0.99505043 -0.077723503
1209547169.8113 0.99644667 -0.08182542 0.0025000079 0.039035752 0.0026098303 0.039178509 0.99504131 -0.078123868
1219543396.2264 0.99620402 -0.08254014 0.0025910009 0.039391052 0.0026822379 0.039534118 0.995107 -0.078415006
1229539622.6415 0.99594915 -0.083360612 0.0026317816 0.039728507 0.0027308576 0.039880507 0.99522305 -0.079201102
1239535849.0566 0.99565941 -0.083981872 0.0026578465 0.040025316 0.0027760481 0.040185604 0.99534702 -0.079993039
1249532075.4717 0.99550092 -0.084607333 0.0027083152 0.040342517 0.0028643939 0.040493228 0.99521863 -0.08079084
1259528301.8868 0.99526942 -0.0850766 0.0027662776 0.040655114 0.0029103644 0.040793717 0.9949801 -0.081687182
1269524528.3019 0.99506611 -0.085856766 0.0028564446 0.040957447 0.0029695844 0.04110197 0.99475604 -0.082323104
1279520754.717 0.99476731 -0.086528085 0.0029006251 0.041243047 0.0030176004 0.041342437 0.99455023 -0.08290343
1289516981.1321 0.99465263 -0.087398857 0.0029076068 0.041516859 0.0030139834 0.041655697 0.99457073 -0.083257705
1299513207.5472 0.9942826 -0.088187009 0.0029469319 0.041833475 0.0030348022 0.041983489 0.99471432 -0.08374998
1309509433.9623 0.99391901 -0.088926271 0.0029361462 0.042154476 0.0030541858 0.042268291 0.99479902 -0.084446386
1319505660.3774 0.99354994 -0.089657828 0.0029302873 0.042473443 0.0030419733 0.04259181 0.99485463 -0.085115656
1329501886.7925 0.99326205 -0.090300232 0.0029605757 0.042789068 0.0030704103 0.042877108 0.99482423 -0.08604598
1339498113.2075 0.99302876 -0.090722769 0.0029758811 0.043095566 0.0031251581 0.043214351 0.99441928 -0.086740166
1349494339.6226 0.99288148 -0.091298066 0.002976425 0.043442525 0.0030520381 0.043561246 0.9941324 -0.087331131
1359490566.0377 0.99274755 -0.091899931 0.0029731467 0.043795414 0.0030919798 0.043907374 0.99392807 -0.087809652
1369486792.4528 0.99250799 -0.09248057 0.0030135931 0.044143789 0.0030874582 0.044226982 0.99369317 -0.088265866
1379483018.8679 0.9922024 -0.092954293 0.0030007733 0.044514235 0.0030799394 0.044592544 0.9936949 -0.088664167
1389479245.283 0.99192345 -0.093474805 0.0030517504 0.044856891 0.0031406954 0.044960972 0.99373096 -0.089273274
1399475471.6981 0.99149704 -0.093863428 0.003042208 0.045221291 0.0031271651 0.045315146 0.99390686 -0.089941949
1409471698.1132 0.99118924 -0.094268583 0.003122895 0.045620825 0.0031846103 0.045690536 0.99388397 -0.090795271
1419467924.5283 0.9909665 -0.094583869 0.003120726 0.045936972 0.003181532 0.046067223 0.99369967 -0.091501236
1429464150.9434 0.99094594 -0.095020413 0.0031689797 0.046375182 0.0032295957 0.046440367 0.99361956 -0.092033505
1439460377.3585 0.99103975 -0.095455661 0.003220452 0.046792854 0.0032910602 0.046877105 0.99339283 -0.092363819
1449456603.7736 0.99106735 -0.095959812 0.0033722734 0.047217064 0.0033840425 0.047255464 0.9933008 -0.092694953
1459452830.1887 0.991099 -0.096661061 0.003499357 0.047585301 0.0034978222 0.047685158 0.99337405 -0.092978418
1469449056.6038 0.99118114 -0.097273946 0.0036629215 0.047927432 0.0036544697 0.047998633 0.99364388 -0.093648851
1479445283.0189 0.99094248 -0.097903177 0.0037941472 0.048175737 0.0037856724 0.048264865 0.99370921 -0.094510272
1489441509.434 0.99092847 -0.098356426 0.0038693603 0.048487201 0.003912054 0.048585802 0.99360251 -0.095453292
1499437735.8491 0.99078846 -0.09876141 0.0040048268 0.048759554 0.0040167905 0.048844926 0.9935227 -0.096189916
1509433962.2642 0.99075586 -0.099244848 0.0040460769 0.049047619 0.0040981588 0.049145859 0.99334913 -0.096913919
1519430188.6792 0.99091768 -0.099854529 0.0041338485 0.049305573 0.0041451436 0.049384486 0.99314964 -0.097522169
1529426415.0943 0.9907577 -0.10046238 0.0041853469 0.049568512 0.0042039808 0.049666241 0.99306953 -0.097955912
1539422641.5094 0.99084002 -0.10131694 0.0042698379 0.049869262 0.0042199311 0.049991902 0.99317634 -0.098383538
1549418867.9245 0.99063915 -0.10209693 0.0043327538 0.050136361 0.0042786449 0.050241128 0.99338758 -0.099072203
1559415094.3396 0.99057758 -0.10275307 0.0043691993 0.050432403 0.0043385103 0.050535265 0.99352247 -0.099729568
1569411320.7547 0.99044824 -0.10342664 0.004374492 0.050675225 0.004368199 0.050788026 0.9934659 -0.10055953
1579407547.1698 0.99043971 -0.10391444 0.0044170525 0.050966591 0.0043647867 0.051101957 0.99321628 -0.10136935
1589403773.5849 0.99043763 -0.10447457 0.0044468045 0.051247291 0.0044287294 0.051401671 0.99295837 -0.10208926
1599400000 0.99032652 -0.10495046 0.0044022305 0.051571324 0.0043597724 0.051667009 0.99246037 -0.10244602
1609396226.4151 0.99031359 -0.10554132 0.0044309655 0.051871616 0.0043827146 0.051978704 0.99245459 -0.10299099
1619392452.8302 0.9903326 -0.10618776 0.0044189394 0.052231904 0.0043924935 0.052340325 0.99236465 -0.10353059
1629388679.2453 0.99002731 -0.10687768 0.0044229459 0.052529044 0.0043598544 0.052694 0.99248314 -0.10402986
1639384905.6604 0.98987418 -0.10758232 0.0044217021 0.052903872 0.004347777 0.053077303 0.99283141 -0.10474146
1649381132.0755 0.98964876 -0.10829973 0.0044648107 0.053252161 0.0044081863 0.053399786 0.99278772 -0.10575509
1659377358.4906 0.98950177 -0.10900158 0.004464468 0.053622007 0.0044049453 0.05379425 0.99269009 -0.10665509
1669373584.9057 0.9894219 -0.10941313 0.0044620889 0.054019734 0.0044489419 0.054151438 0.99240768 -0.10720247
1679369811.3208 0.98952079 -0.11010718 0.0045182267 0.054344639 0.0045015151 0.054515585 0.99224526 -0.10778961
1689366037.7358 0.98948699 -0.11067918 0.0045550298 0.054693162 0.0044970494 0.054921173 0.99206221 -0.10810807
1699362264.1509 0.98962128 -0.11132182 0.0046427771 0.055066895 0.0045415433 0.055287346 0.99231857 -0.10858504
1709358490.566 0.98948222 -0.11191912 0.0046612443 0.055406421 0.0046631666 0.055653937 0.99229205 -0.10905984
1719354716.9811 0.98919332 -0.11250332 0.0047432091 0.055813853 0.004665928 0.056000713 0.99232554 -0.10972142
1729350943.3962 0.98897862 -0.11314282 0.0047977027 0.056192458 0.0047621988 0.056416385 0.99234414 -0.11058414
