!Keysight Technologies,N5222B,MY61253708,A.15.00.15
!Date: Wednesday, June 19, 2024 09:26:15
!Correction: S11(C  2-Port  ) 
!S21(C  2-Port  ) 
!S12(C  2-Port  ) 
!S22(C  2-Port  ) 
!S2P File: Measurements: S11, S21, S12, S22:
# Hz S  RI   R 50
10000000 0.99877292 -0.0025489926 6.9209796e-005 0.0005764573 0.00013663359 0.00051502109 0.99843121 -0.001064986
19996226.415094 0.99892247 -0.0023256838 9.6653879e-005 0.00069831242 -2.9275398e-005 0.00069421116 0.9991141 -0.0022270977
29992452.830189 0.99977452 -0.0024648905 0.00010037216 0.0010491872 -7.3744115e-005 0.001028178 0.99953824 -0.0025989115
39988679.245283 1.0000415 -0.0029937774 -1.770255e-005 0.0013240981 5.170441e-006 0.0013297427 0.99970096 -0.0031575263
49984905.660377 1.0001574 -0.003764987 1.2204575e-005 0.0017103292 1.988397e-005 0.0016394811 0.99979722 -0.0037267208
59981132.075472 1.0003872 -0.0046473742 -1.0236923e-005 0.002020854 4.7810958e-005 0.0020292024 0.99979192 -0.0042616129
69977358.490566 1.0001411 -0.0051965807 3.0042847e-005 0.0023475387 3.6706253e-005 0.0023660099 0.99968696 -0.004836319
79973584.90566 0.99986207 -0.0057804585 2.960139e-005 0.0027092861 5.0890725e-005 0.0026933835 0.99929255 -0.0052837431
89969811.320755 0.9998861 -0.0059267581 -1.2557721e-006 0.0030369556 1.5754253e-005 0.0030387132 0.99953556 -0.0055789053
99966037.735849 1.0000608 -0.0066675246 8.2701445e-006 0.0033604722 1.6229809e-005 0.0034026925 0.99964601 -0.0063554496
109962264.15094 1.0000689 -0.0076534748 4.6136149e-005 0.0036630309 4.4315704e-005 0.0037006829 0.99963599 -0.007169947
119958490.56604 1.0001066 -0.0085754693 4.4552609e-005 0.0040219617 4.1301129e-005 0.0040761656 0.99966544 -0.0080385804
129954716.98113 1.0000725 -0.0095596313 4.5120018e-005 0.0043644067 5.8136415e-005 0.0044067432 0.99962443 -0.0089430809
139950943.39623 1.0000278 -0.010367757 2.7711896e-005 0.00469688 5.3381271e-005 0.0047363406 0.99955571 -0.0096996501
149947169.81132 0.99988514 -0.011044323 4.5192195e-005 0.0050352295 6.1452156e-005 0.0050801365 0.99953604 -0.010316104
159943396.22642 0.99982917 -0.011617035 6.7200279e-005 0.0053659095 5.6448625e-005 0.0053977761 0.99959588 -0.010759473
169939622.64151 0.99983668 -0.011980049 8.3824154e-005 0.0057118535 5.9210579e-005 0.0057410919 0.99963504 -0.011204273
179935849.0566 0.99993849 -0.01225546 9.283016e-005 0.0060534822 6.0297083e-005 0.0060933032 0.99960947 -0.01159355
189932075.4717 0.99996483 -0.013052642 6.6113891e-005 0.0063730562 9.7526005e-005 0.0063904505 0.9997611 -0.012153953
199928301.88679 0.99995124 -0.013838321 8.8496832e-005 0.0067347721 9.8690623e-005 0.0067620901 0.99965918 -0.013033897
209924528.30189 0.99968016 -0.014473051 0.00010375073 0.0070258067 0.00010751095 0.00708545 0.99941069 -0.013832733
219920754.71698 0.99978566 -0.015397072 0.00012034737 0.0073599378 0.00011854596 0.0074261986 0.99929702 -0.014434606
229916981.13208 0.99952924 -0.016211838 0.00014374568 0.0077116294 0.0001220142 0.0077801896 0.99921948 -0.015184611
239913207.54717 0.9993909 -0.016876588 0.0001232783 0.0080179991 0.00015144136 0.0081230924 0.99922013 -0.015920356
249909433.96226 0.99941361 -0.01751551 0.00013323198 0.0083819544 0.00013595168 0.0084304772 0.99931157 -0.016568661
259905660.37736 0.99947619 -0.018126041 0.000186319 0.0087474808 0.00016919244 0.0087847989 0.99946731 -0.017190993
269901886.79245 0.99964327 -0.018907368 0.0001868757 0.0090095932 0.00010474434 0.0091522662 0.99979156 -0.017792061
279898113.20755 0.99981534 -0.019465402 0.00017987145 0.0093294494 0.00016127108 0.0094333505 0.99969935 -0.018532336
289894339.62264 0.99968022 -0.020203918 0.00021342142 0.009720657 0.00019819289 0.0097710975 0.99959683 -0.019303799
299890566.03774 0.99965674 -0.020744294 0.0002024353 0.010037738 0.00019268063 0.010121886 0.99935901 -0.019784182
309886792.45283 0.99944592 -0.021319315 0.00023987406 0.010384729 0.00019901211 0.010474051 0.99926883 -0.020279072
319883018.86792 0.99944043 -0.02188468 0.00020287884 0.010694332 0.00027879467 0.010840524 0.99932516 -0.020783424
329879245.28302 0.99942708 -0.022705406 0.00029177731 0.011071702 0.00023665326 0.011145806 0.9994489 -0.021482229
339875471.69811 0.99930018 -0.023458414 0.00030474353 0.011356862 0.00026126741 0.011502519 0.99940777 -0.022392467
349871698.11321 0.99947327 -0.024219275 0.00028161192 0.011716913 0.00028323126 0.011824206 0.99941909 -0.023174167
359867924.5283 0.99929982 -0.025031567 0.0003136578 0.012084715 0.000330918 0.012157659 0.99939525 -0.024129808
369864150.9434 0.9995203 -0.025850087 0.0003238502 0.012358712 0.00032892986 0.01252057 0.99936682 -0.024872482
379860377.35849 0.99933773 -0.026606023 0.00032833777 0.01271041 0.00032520154 0.01285222 0.99926877 -0.025578946
389856603.77358 0.99939406 -0.027032286 0.00039101113 0.013059795 0.00037752744 0.013179526 0.99927139 -0.026038259
399852830.18868 0.99912119 -0.027696222 0.00035082735 0.01340335 0.00042139646 0.013494217 0.99933362 -0.02653414
409849056.60377 0.99914736 -0.028158342 0.00038193507 0.013703926 0.00037250266 0.013841076 0.99925268 -0.027022136
419845283.01887 0.99911398 -0.028554082 0.00039927242 0.014067842 0.0004135482 0.014203589 0.99927437 -0.027537763
429841509.43396 0.99919987 -0.029201627 0.00045231823 0.014357336 0.00040599797 0.014502067 0.9994514 -0.028292805
439837735.84906 0.9991135 -0.030065194 0.0004231924 0.014711709 0.0004538889 0.014861725 0.99921 -0.029257312
449833962.26415 0.9990018 -0.030984461 0.00043267757 0.015020299 0.00048576668 0.015123219 0.99881262 -0.030072838
459830188.67925 0.99883747 -0.031711578 0.00048354734 0.015387159 0.00045302883 0.01549894 0.99863911 -0.030770808
469826415.09434 0.99883711 -0.032545596 0.00045252126 0.01573479 0.00048130564 0.015842285 0.99841326 -0.031400532
479822641.50943 0.99882078 -0.033107527 0.00053867628 0.01609158 0.00052590366 0.01619795 0.99837834 -0.031767644
489818867.92453 0.99885088 -0.033754647 0.00052936235 0.016393851 0.00053947698 0.01651673 0.99871767 -0.032351196
499815094.33962 0.99889088 -0.034296036 0.00056372536 0.016731592 0.00057917368 0.016863624 0.99903488 -0.032976985
509811320.75472 0.99903637 -0.034801688 0.00060380122 0.017060468 0.00056892284 0.017170645 0.99919063 -0.033705249
519807547.16981 0.99899971 -0.035297304 0.00063414546 0.01739243 0.00060430728 0.017516296 0.99919975 -0.034504294
529803773.58491 0.99889016 -0.0359236 0.00060491078 0.017738916 0.00064176694 0.017899275 0.99893796 -0.035117865
539800000 0.9989385 -0.036694884 0.00063698692 0.018053655 0.00064362469 0.018201824 0.99869752 -0.035841241
549796226.41509 0.99885792 -0.037552953 0.00066377549 0.018408718 0.00065989373 0.018555 0.9984687 -0.03622666
559792452.83019 0.99856246 -0.038208723 0.00068804994 0.018726159 0.00074845646 0.018916296 0.9985401 -0.036718875
569788679.24528 0.99840969 -0.038940907 0.00071384525 0.019046713 0.00069365371 0.0192175 0.99865103 -0.037520707
579784905.66038 0.9983924 -0.039439119 0.00076531689 0.019366598 0.00074649043 0.019540977 0.99874455 -0.038203247
589781132.07547 0.99853778 -0.04008916 0.00076524355 0.019703796 0.0007492071 0.019908074 0.99890929 -0.039133608
599777358.49057 0.99865353 -0.040745616 0.00083692092 0.02008109 0.00079843681 0.020269636 0.99891317 -0.039877146
609773584.90566 0.99881965 -0.041541878 0.00087552308 0.020417305 0.00087345421 0.020586144 0.99881828 -0.040733408
619769811.32075 0.99884844 -0.042260647 0.00083451578 0.020730529 0.00088647986 0.020886362 0.9986667 -0.04133296
629766037.73585 0.99867153 -0.042889744 0.0009150207 0.021042466 0.00091680791 0.021215521 0.99851692 -0.041782677
639762264.15094 0.9985795 -0.043504477 0.00091941003 0.021336187 0.00092380471 0.021503758 0.99837232 -0.042257741
649758490.56604 0.99840397 -0.044099435 0.0009531402 0.021682233 0.00093266834 0.021862682 0.99839884 -0.042682558
659754716.98113 0.99824619 -0.044641882 0.00097216386 0.022009602 0.00093143806 0.022224355 0.99841428 -0.043257147
669750943.39623 0.99818647 -0.04510808 0.00095222984 0.022354729 0.00099671306 0.022571316 0.99855852 -0.044106364
679747169.81132 0.99828523 -0.045904174 0.00101845 0.022718351 0.0010232144 0.022924582 0.99855739 -0.045075409
689743396.22642 0.99838519 -0.046743274 0.0010632426 0.023077777 0.001078329 0.023254823 0.99836892 -0.046004653
699739622.64151 0.99852061 -0.047489613 0.0011237152 0.023369627 0.0011069309 0.023572564 0.99823767 -0.046715289
709735849.0566 0.9984442 -0.0483668 0.0011565016 0.023679668 0.0011702518 0.023899762 0.99805081 -0.047402233
719732075.4717 0.99834973 -0.049134284 0.0011493387 0.024013981 0.0011840812 0.024211634 0.99811029 -0.047902167
729728301.88679 0.9983505 -0.049597293 0.0012166491 0.024337741 0.0012101047 0.024572395 0.9981423 -0.04838419
739724528.30189 0.99816728 -0.050273836 0.0011994024 0.024650136 0.0012549488 0.024891913 0.99836165 -0.049060971
749720754.71698 0.99815857 -0.050769448 0.0012650825 0.025001518 0.0012835539 0.025203723 0.99837774 -0.049748182
759716981.13208 0.9981491 -0.051232249 0.0012883926 0.025285264 0.001301351 0.025543388 0.99834698 -0.050486118
769713207.54717 0.99812579 -0.052045912 0.0013140375 0.025658371 0.0013597952 0.025868751 0.99804407 -0.051297575
779709433.96226 0.99820161 -0.052573256 0.0013809128 0.025940884 0.0013745396 0.026205247 0.99782175 -0.051920451
789705660.37736 0.99809867 -0.05364415 0.0014105141 0.026284438 0.0014185561 0.026517913 0.99757278 -0.05262202
799701886.79245 0.99802029 -0.054421395 0.0014303382 0.026611345 0.0014403006 0.02685646 0.99742401 -0.053240299
809698113.20755 0.9979462 -0.055000216 0.0014393239 0.026928872 0.0014562602 0.02717177 0.99744582 -0.053659752
819694339.62264 0.99779439 -0.055694103 0.0014814031 0.027236188 0.0014943001 0.027508907 0.99758691 -0.054280221
829690566.03774 0.99781466 -0.056216717 0.0015179301 0.027556211 0.0015403591 0.027800925 0.99781764 -0.055157602
839686792.45283 0.99787235 -0.056682914 0.0015481184 0.027892394 0.0015406231 0.028180825 0.99790967 -0.055983037
849683018.86792 0.99798214 -0.057413369 0.0015648291 0.02825455 0.0015863101 0.028464969 0.99778992 -0.056685932
859679245.28302 0.99797273 -0.058071643 0.0016091289 0.028581515 0.001627245 0.028856633 0.99751365 -0.057384431
869675471.69811 0.99791402 -0.058818281 0.0016638124 0.028903611 0.0016626772 0.029155483 0.99715179 -0.057896376
879671698.11321 0.99781007 -0.059449054 0.0016905438 0.029182071 0.0017143283 0.029486941 0.99710786 -0.058292851
889667924.5283 0.99760675 -0.060343862 0.0017225565 0.02950385 0.0017320588 0.029774219 0.99698865 -0.058825105
899664150.9434 0.99750018 -0.061024636 0.0017526681 0.029843632 0.0017310446 0.030097326 0.99699843 -0.059402883
909660377.35849 0.99746311 -0.061746746 0.0017744298 0.030173516 0.0017901468 0.030455982 0.99718493 -0.060312063
919656603.77358 0.99755383 -0.062395632 0.0018355031 0.030473098 0.0018176651 0.030756883 0.99716711 -0.061155528
929652830.18868 0.99749565 -0.063129604 0.0018159905 0.030815348 0.0018378329 0.031110384 0.99703097 -0.062082708
939649056.60377 0.99770105 -0.06377238 0.0018040724 0.031126605 0.0018464159 0.031406719 0.996858 -0.062781483
949645283.01887 0.99760544 -0.064608894 0.001834048 0.031464301 0.0018552123 0.031766646 0.99662966 -0.063376017
959641509.43396 0.99759543 -0.065275162 0.0018521631 0.031852387 0.0018991586 0.032138772 0.99655735 -0.063860685
969637735.84906 0.99745703 -0.066097558 0.0019047745 0.03218665 0.001950074 0.032475971 0.99660516 -0.064252675
979633962.26415 0.9972952 -0.066776738 0.0019923779 0.032490075 0.0019880149 0.03278752 0.99654335 -0.06482219
989630188.67925 0.99732912 -0.067294627 0.0020226892 0.032811183 0.002040307 0.033138309 0.99676877 -0.065478861
999626415.09434 0.99737501 -0.067884803 0.0020269807 0.033194136 0.0020698141 0.033475645 0.9968009 -0.066309214
1009622641.5094 0.99737614 -0.068573922 0.0020769546 0.033470795 0.0021246327 0.033855204 0.99664259 -0.067115948
1019618867.9245 0.99751872 -0.069404349 0.002120371 0.033812501 0.0022075814 0.034104541 0.99632269 -0.067995295
1029615094.3396 0.99747574 -0.070317656 0.0021793414 0.034113102 0.0022306889 0.034438018 0.99592239 -0.068560064
1039611320.7547 0.99751157 -0.071187079 0.0022258135 0.034409147 0.0022428045 0.034748454 0.99593318 -0.069285244
1049607547.1698 0.99735653 -0.072105944 0.0022534204 0.034749687 0.0022891711 0.035055887 0.99589789 -0.069886684
1059603773.5849 0.99731684 -0.072879702 0.0022650808 0.035037227 0.0023192521 0.035358466 0.99596322 -0.070395321
1069600000 0.99703324 -0.073532164 0.0022892412 0.035346314 0.0023431946 0.035686523 0.99601173 -0.071086198
1079596226.4151 0.99697995 -0.07406424 0.0022804257 0.035662703 0.0023727329 0.036036678 0.99605322 -0.071898431
1089592452.8302 0.99698985 -0.074775696 0.0023333216 0.03601462 0.0024067406 0.036374025 0.99598289 -0.072562844
1099588679.2453 0.99704933 -0.075425029 0.0023311041 0.036357787 0.0024124011 0.03669025 0.99558783 -0.073208332
1109584905.6604 0.99715459 -0.076224297 0.0023598159 0.036681093 0.0024408186 0.037052006 0.99539572 -0.073740885
1119581132.0755 0.99712306 -0.077193402 0.0023893407 0.037025645 0.0024368162 0.037382048 0.99522257 -0.07423456
1129577358.4906 0.99690652 -0.077975154 0.002416851 0.037402973 0.0025064647 0.037763327 0.99504602 -0.074685246
1139573584.9057 0.99671662 -0.078912377 0.0024489937 0.037718531 0.0025289506 0.038091343 0.99516845 -0.075409174
1149569811.3208 0.99654967 -0.079807669 0.0025506828 0.038077019 0.0026360473 0.038412575 0.99530679 -0.076133542
1159566037.7358 0.99636108 -0.080479383 0.0025565373 0.038344271 0.0026564039 0.038751528 0.99542576 -0.077132314
1169562264.1509 0.99622309 -0.081091225 0.0025616866 0.038672853 0.0026814081 0.039056893 0.9952842 -0.077943504
1179558490.566 0.99621648 -0.081849784 0.0025761034 0.039047137 0.0026694501 0.039436616 0.99517167 -0.078526519
1189554716.9811 0.99618554 -0.082565308 0.0026253527 0.039394788 0.0027702758 0.039774504 0.9948284 -0.079142421
1199550943.3962 0.99612993 -0.083384514 0.0026643928 0.039756902 0.0027772021 0.040089861 0.99460089 -0.079488248
1209547169.8113 0.9959448 -0.084302485 0.0027045105 0.040099334 0.0028427178 0.040392201 0.99453133 -0.079891384
1219543396.2264 0.99567646 -0.085182175 0.00278184 0.04043103 0.0028954949 0.040799666 0.99466372 -0.08031854
1229539622.6415 0.99541444 -0.085957348 0.0028296486 0.040770374 0.0029537883 0.041162208 0.99478722 -0.081009656
1239535849.0566 0.99513066 -0.086620837 0.0029133204 0.041080605 0.0029893694 0.041448586 0.9948926 -0.081971109
1249532075.4717 0.99487203 -0.087266587 0.0029355555 0.041384209 0.0030835937 0.041781351 0.99476594 -0.082728319
1259528301.8868 0.99471211 -0.087815553 0.0030149966 0.041765019 0.0031478293 0.042096153 0.99447215 -0.083593071
1269524528.3019 0.99453747 -0.088518947 0.0030862689 0.042084567 0.0032276157 0.042393457 0.99430954 -0.084201217
1279520754.717 0.99416625 -0.089275196 0.0031104207 0.042344302 0.0032538767 0.042670019 0.99407244 -0.084764756
1289516981.1321 0.99406105 -0.09007588 0.0031449283 0.042614114 0.0032780543 0.042932078 0.9940027 -0.085260004
1299513207.5472 0.9937132 -0.090932369 0.003142802 0.042949434 0.0033118334 0.043270387 0.99416488 -0.085657626
1309509433.9623 0.99326295 -0.091612518 0.0031516356 0.043258376 0.003329155 0.043566056 0.99428093 -0.086396873
1319505660.3774 0.99291444 -0.092390493 0.0031609228 0.043611631 0.0033455156 0.043944247 0.99428105 -0.08704266
1329501886.7925 0.99257952 -0.093036354 0.003187079 0.043956161 0.0033308677 0.044223886 0.99425304 -0.088004291
1339498113.2075 0.99229449 -0.093559712 0.0031948769 0.0442532 0.00338801 0.044544313 0.99389011 -0.088672101
1349494339.6226 0.99210495 -0.094123177 0.0032027308 0.044605251 0.0033218646 0.044893194 0.99356407 -0.089277931
1359490566.0377 0.9920783 -0.09464696 0.0032201018 0.045000523 0.0033659507 0.045275718 0.99336559 -0.089844793
1369486792.4528 0.991822 -0.095344692 0.0032443395 0.045294624 0.0033872351 0.045627616 0.99314278 -0.090328276
1379483018.8679 0.99145526 -0.095791399 0.0032909934 0.045690343 0.003372035 0.045975596 0.99309647 -0.090647124
1389479245.283 0.99110496 -0.096383333 0.0032902807 0.046079315 0.003374232 0.046331283 0.99311656 -0.09133172
1399475471.6981 0.99083591 -0.096782833 0.003306916 0.046409197 0.0034315251 0.046711352 0.99336988 -0.091936976
1409471698.1132 0.9904592 -0.097140685 0.0033634654 0.046801984 0.0034710167 0.047115788 0.99339688 -0.09284015
1419467924.5283 0.99030721 -0.097460002 0.0033500632 0.047164451 0.0034752861 0.047476746 0.99316025 -0.093543321
1429464150.9434 0.99011427 -0.097802877 0.0034140535 0.047603648 0.0035018437 0.047872957 0.99302626 -0.094041437
1439460377.3585 0.990282 -0.098249257 0.0035113292 0.048025157 0.0035856375 0.048343875 0.99277836 -0.094379067
1449456603.7736 0.99026209 -0.098827839 0.003622585 0.048432898 0.0036700517 0.048681751 0.99265414 -0.094800159
1459452830.1887 0.99031538 -0.09954372 0.003744578 0.048839115 0.0037946925 0.049112115 0.992746 -0.095090985
1469449056.6038 0.99034053 -0.10027999 0.0039295349 0.049188219 0.0039575482 0.049478304 0.99308109 -0.095772266
1479445283.0189 0.99015176 -0.10085814 0.0039898232 0.049461547 0.0041218409 0.049794473 0.99300086 -0.096712649
1489441509.434 0.9900375 -0.10140765 0.0042052027 0.049792439 0.0042215642 0.050062321 0.99293518 -0.097530395
1499437735.8491 0.9899416 -0.10169375 0.0042541474 0.050044753 0.0043378212 0.050404083 0.99285787 -0.09838438
1509433962.2642 0.98988646 -0.10222283 0.0043577896 0.050303865 0.0043778224 0.050648414 0.99262941 -0.099048391
1519430188.6792 0.99002731 -0.10278004 0.0044315252 0.05057285 0.0044510011 0.050931174 0.99253553 -0.099683464
1529426415.0943 0.9898895 -0.10343233 0.0044588726 0.050887533 0.0044930708 0.051193304 0.99241042 -0.1000526
1539422641.5094 0.98998737 -0.10417616 0.0045570689 0.051176436 0.0045711091 0.051525503 0.99255103 -0.10053778
1549418867.9245 0.98988825 -0.10506918 0.0046187127 0.051492132 0.0046072714 0.051802505 0.99271446 -0.10121553
1559415094.3396 0.98975849 -0.10566053 0.0046568215 0.051756814 0.004650522 0.052125171 0.99285221 -0.10191154
1569411320.7547 0.98957992 -0.10649864 0.0046882257 0.052065041 0.0046947049 0.052386466 0.99280405 -0.10275196
1579407547.1698 0.98948377 -0.10704768 0.0047067055 0.05234335 0.0047146631 0.052678257 0.99252713 -0.10353318
1589403773.5849 0.98947978 -0.10749924 0.0047200266 0.052598912 0.0047638454 0.052996617 0.99228036 -0.10428211
1599400000 0.98941147 -0.10800728 0.0047050156 0.05292061 0.004731901 0.053291522 0.99178994 -0.10475701
1609396226.4151 0.98938775 -0.10863142 0.0047344351 0.0532199 0.0047211815 0.053610004 0.99173099 -0.10528132
1619392452.8302 0.98931265 -0.10928592 0.0047275517 0.053598419 0.0047423542 0.05398953 0.99163651 -0.10570696
1629388679.2453 0.98909307 -0.10996228 0.0047520809 0.053894714 0.0047352947 0.054320429 0.99183768 -0.10620117
1639384905.6604 0.98883092 -0.11053899 0.004731846 0.054260064 0.0047361222 0.054692697 0.99215883 -0.10718982
1649381132.0755 0.98869282 -0.11132982 0.0047864951 0.054668449 0.0047760718 0.055111781 0.99212861 -0.1080516
1659377358.4906 0.98854387 -0.11211276 0.0047852881 0.055037439 0.0048112329 0.055454858 0.99205834 -0.1089032
1669373584.9057 0.98846763 -0.11249088 0.004800057 0.055397548 0.0048540817 0.055861354 0.99173307 -0.10952549
1679369811.3208 0.98854172 -0.11318746 0.0048831338 0.055793535 0.0048625991 0.056213081 0.99156427 -0.11002734
1689366037.7358 0.98858696 -0.11385486 0.0048938822 0.056112632 0.0049240235 0.056614168 0.99147034 -0.11034149
1699362264.1509 0.9886663 -0.11444423 0.0049537597 0.056521647 0.004958896 0.056967173 0.99150276 -0.11083852
1709358490.566 0.98846942 -0.11499581 0.005009043 0.056904133 0.0050591575 0.057392661 0.99164236 -0.11137629
1719354716.9811 0.98822534 -0.11573848 0.0050495602 0.057281941 0.0051225871 0.057773225 0.99166304 -0.11207911
1729350943.3962 0.98790324 -0.11627969 0.005156422 0.057667606 0.0051909722 0.058117941 0.99165332 -0.11295244
