!Keysight Technologies,N5222B,MY61253708,A.15.00.15
!Date: Wednesday, June 19, 2024 09:10:13
!Correction: S11(C  2-Port  ) 
!S21(C  2-Port  ) 
!S12(C  2-Port  ) 
!S22(C  2-Port  ) 
!S2P File: Measurements: S11, S21, S12, S22:
# Hz S  RI   R 50
10000000 0.99882483 -0.0023836195 8.9764064e-005 -0.00011841724 -0.00027974584 0.00039760405 0.99853796 -0.00084772706
19996226.415094 0.99903047 -0.0020690858 0.00014705752 0.00074813428 0.0001031103 0.00068823289 0.99932712 -0.002073884
29992452.830189 0.99980396 -0.0024546385 6.6282344e-005 0.0010801988 2.4882931e-005 0.0010570528 0.99950689 -0.0025949478
39988679.245283 1.0000403 -0.0030454099 7.2523544e-006 0.0013740793 -1.2687116e-005 0.0013911164 0.99964786 -0.0031907409
49984905.660377 1.0001886 -0.00385952 2.4183944e-005 0.0017224893 -8.1571052e-006 0.001786917 0.99978548 -0.0037299395
59981132.075472 1.0003471 -0.0047607124 1.6612466e-005 0.002042616 9.7512384e-006 0.0021083024 0.99973583 -0.0042873025
69977358.490566 1.0001056 -0.0053383913 3.5452955e-005 0.002437793 -3.2691223e-005 0.0024200757 0.99957556 -0.0047710557
79973584.90566 0.9998076 -0.0058857203 2.6516966e-005 0.0027864606 3.7005171e-005 0.0028076828 0.9993062 -0.0053119659
89969811.320755 0.99987781 -0.0060111582 1.8757535e-005 0.0030914773 9.2396513e-006 0.0031052437 0.99951065 -0.0056157708
99966037.735849 1.0001096 -0.0067791492 4.5811059e-005 0.0034644709 1.7443206e-005 0.0034650057 0.99960297 -0.0064104646
109962264.15094 1.000075 -0.0077197403 3.8315775e-005 0.0037915839 2.6909867e-005 0.00381007 0.99959707 -0.0072458088
119958490.56604 1.0001743 -0.0087032914 3.7946505e-005 0.0041101882 3.4929486e-005 0.0041494886 0.99964356 -0.0081761479
129954716.98113 1.0000876 -0.0097328126 4.8655085e-005 0.0044653937 2.8392882e-005 0.0045031905 0.99960661 -0.0091174841
139950943.39623 0.99997991 -0.010593584 4.3901018e-005 0.0048350538 5.4771881e-005 0.004858484 0.99954396 -0.0098757204
149947169.81132 0.99986207 -0.011290997 4.6803616e-005 0.0051723449 6.1512226e-005 0.0051867133 0.99945903 -0.010488212
159943396.22642 0.99985933 -0.0117746 5.8512436e-005 0.0055062072 4.3610577e-005 0.005551422 0.99954033 -0.01095286
169939622.64151 0.99981713 -0.012167946 6.9950009e-005 0.0058504669 5.5565906e-005 0.0058978782 0.99962831 -0.011377148
179935849.0566 0.99987137 -0.012420148 5.1724142e-005 0.0061829644 5.2882009e-005 0.0062388461 0.99955404 -0.011817068
189932075.4717 0.99994266 -0.013242334 6.3275453e-005 0.0065269009 9.4614923e-005 0.0066071027 0.99973023 -0.012425154
199928301.88679 0.99994278 -0.014088243 8.2897604e-005 0.0068912548 0.00010640244 0.0069434308 0.99966079 -0.013329566
209924528.30189 0.99964768 -0.01480034 9.2029455e-005 0.007219892 8.8104978e-005 0.0072886436 0.99943632 -0.014088213
219920754.71698 0.9997189 -0.015673965 0.00010981481 0.0075552287 0.00013978686 0.0076095033 0.99920249 -0.014705926
229916981.13208 0.99942738 -0.016603053 0.00013951166 0.0078939954 0.00012440584 0.0079847723 0.99915648 -0.015557528
239913207.54717 0.99926436 -0.017200435 0.00013610585 0.0082383147 0.00014168768 0.0083355848 0.99914885 -0.016241133
249909433.96226 0.99935609 -0.017833918 0.00016878941 0.0086029526 0.00017089956 0.0086487019 0.99922097 -0.016876817
259905660.37736 0.99939716 -0.018508554 0.00017889775 0.00898684 0.00019196142 0.009034629 0.99942911 -0.017476797
269901886.79245 0.99970192 -0.019196928 0.000176979 0.0093062464 0.00019469019 0.0093096122 0.99976885 -0.018182337
279898113.20755 0.99966562 -0.019743457 0.00021925126 0.0096322279 0.00019356236 0.009706297 0.99965018 -0.018942624
289894339.62264 0.9995966 -0.020478964 0.00017501786 0.0099656153 0.00025163125 0.010049842 0.99959874 -0.019795537
299890566.03774 0.99959886 -0.021148652 0.00019785343 0.010335602 0.00022594025 0.010406042 0.99933618 -0.020149946
309886792.45283 0.99934411 -0.021712258 0.0001781499 0.010625266 0.00022719125 0.010742605 0.99915224 -0.020647742
319883018.86792 0.99931109 -0.022285938 0.00025353767 0.010993361 0.0002810522 0.011081019 0.99918902 -0.021075457
329879245.28302 0.99923515 -0.023097098 0.00026633823 0.011366888 0.00024899794 0.011403906 0.99934697 -0.021831751
339875471.69811 0.99924451 -0.023806162 0.00031668227 0.011663663 0.00027328439 0.011741853 0.99930072 -0.022686772
349871698.11321 0.99932986 -0.024641037 0.00027320324 0.012063425 0.00028140447 0.012143794 0.99928349 -0.023664176
359867924.5283 0.99929386 -0.02549848 0.00027093012 0.012374787 0.00034264894 0.012488291 0.99931824 -0.024667829
369864150.9434 0.99946254 -0.026267022 0.00035406114 0.012727996 0.00039228168 0.01278939 0.99932277 -0.025266558
379860377.35849 0.99931794 -0.027105704 0.00032993057 0.013053638 0.00035317638 0.013159771 0.99923396 -0.026000306
389856603.77358 0.9992398 -0.027549058 0.00036238367 0.013386745 0.00037429901 0.01353382 0.99924058 -0.026474595
399852830.18868 0.99910432 -0.028166175 0.00036210334 0.013722002 0.00039320299 0.013829753 0.99919742 -0.026901364
409849056.60377 0.99907517 -0.028630417 0.00042582859 0.014071962 0.00043852106 0.014138583 0.99920553 -0.027445091
419845283.01887 0.99910009 -0.029134005 0.00046144892 0.014428671 0.00045146048 0.014492336 0.99921638 -0.027938187
429841509.43396 0.99924386 -0.029739559 0.00045822281 0.014742723 0.00043837028 0.014882755 0.99939799 -0.028743088
439837735.84906 0.99903327 -0.030695423 0.00046843814 0.015078101 0.00049137138 0.015224099 0.9991681 -0.029766828
449833962.26415 0.99906713 -0.031526268 0.0004917183 0.015388817 0.00047317706 0.015525649 0.99886632 -0.030577391
459830188.67925 0.99890471 -0.032354504 0.00048245769 0.015731793 0.00046483707 0.015872786 0.99862123 -0.031371325
469826415.09434 0.99885088 -0.033197939 0.00053302804 0.016119983 0.00052034063 0.016247837 0.99837232 -0.03199923
479822641.50943 0.99874806 -0.03378953 0.00052891299 0.016435977 0.00052413833 0.01657795 0.998393 -0.032374926
489818867.92453 0.99888247 -0.034322172 0.00060401065 0.016819678 0.00053621735 0.016918486 0.99869853 -0.032913685
499815094.33962 0.99879879 -0.03493005 0.00059975358 0.017123204 0.00062243594 0.017282452 0.99903435 -0.033601463
509811320.75472 0.99903131 -0.035393316 0.00062568963 0.017458348 0.00059002871 0.017626388 0.99923182 -0.034411624
519807547.16981 0.99895275 -0.03595081 0.0006419085 0.017809376 0.0006646337 0.017966673 0.99912858 -0.035203874
529803773.58491 0.998923 -0.03664875 0.00067150127 0.018115923 0.00066326279 0.018315246 0.99891061 -0.0358136
539800000 0.99884826 -0.037370548 0.00064360164 0.018505586 0.00066935201 0.018649252 0.99868846 -0.036492348
549796226.41509 0.99865371 -0.038204253 0.00075041689 0.018885493 0.00073934812 0.01901097 0.99852526 -0.037016362
559792452.83019 0.99852836 -0.038992345 0.00072452333 0.019189022 0.00074126013 0.019361563 0.99844146 -0.03745839
569788679.24528 0.9983784 -0.039706081 0.00074208481 0.019510072 0.00075616548 0.019704031 0.99855644 -0.038262844
579784905.66038 0.99836057 -0.040296756 0.00078718551 0.019913677 0.00076371664 0.020056397 0.99873209 -0.039084643
589781132.07547 0.99853361 -0.040938795 0.00079456531 0.020221874 0.00081666 0.020381834 0.99888158 -0.039891273
599777358.49057 0.99856019 -0.041511863 0.00087786 0.020532317 0.00087326113 0.020742387 0.99884957 -0.040711105
609773584.90566 0.99877208 -0.042296812 0.00091676571 0.020944728 0.00091772119 0.021048142 0.99870652 -0.041646384
619769811.32075 0.99876153 -0.043023288 0.00095268153 0.021259164 0.001005698 0.021374345 0.99860924 -0.042159647
629766037.73585 0.99869192 -0.043744981 0.0009826906 0.021520909 0.00099559966 0.021734288 0.99846864 -0.04268533
639762264.15094 0.99839723 -0.044361532 0.0009905831 0.021862447 0.00099489023 0.022064254 0.99822807 -0.043134436
649758490.56604 0.99828583 -0.044974655 0.00098643685 0.02223422 0.00098604523 0.022402482 0.99837315 -0.043524176
659754716.98113 0.9980616 -0.045513481 0.0010081325 0.022555582 0.0010000318 0.022725761 0.99837095 -0.04411456
669750943.39623 0.99809331 -0.046045303 0.001039187 0.02291018 0.0010353928 0.023102736 0.99845159 -0.045053571
679747169.81132 0.9980635 -0.046774216 0.0010941237 0.023304405 0.0010435177 0.023479016 0.99850017 -0.045981772
689743396.22642 0.99826068 -0.047594666 0.0011339793 0.023627337 0.0011162013 0.02383405 0.9982934 -0.046906769
699739622.64151 0.99840415 -0.048411816 0.0011631176 0.023983825 0.001129807 0.024164805 0.99814874 -0.047639787
709735849.0566 0.99837261 -0.049231641 0.001217974 0.024299018 0.0012399083 0.024485597 0.99792427 -0.048323207
719732075.4717 0.99816501 -0.050076574 0.0012530577 0.024619501 0.0012365575 0.024824014 0.99803787 -0.048861891
729728301.88679 0.99813557 -0.050521791 0.0012866817 0.024942685 0.0012516165 0.025162965 0.99803168 -0.049278975
739724528.30189 0.99800175 -0.051199421 0.0013234108 0.025282966 0.0012942841 0.025483385 0.99822766 -0.050074711
749720754.71698 0.99791729 -0.051714614 0.00136205 0.025606159 0.0013518715 0.025798043 0.99826574 -0.050686166
759716981.13208 0.99792981 -0.052219927 0.0013513844 0.025942486 0.0013498664 0.026152074 0.99816668 -0.051516086
769713207.54717 0.99790365 -0.05304721 0.0013900008 0.026256695 0.001420428 0.026506513 0.99794328 -0.052269131
779709433.96226 0.99813735 -0.053645372 0.0014479577 0.026667064 0.0014407421 0.026802547 0.99767786 -0.05291637
789705660.37736 0.99793994 -0.054593712 0.0014847722 0.026965348 0.0014858916 0.027138459 0.99742627 -0.053653508
799701886.79245 0.99791473 -0.055400699 0.0014935182 0.027293617 0.0015040524 0.027474353 0.99726152 -0.054203838
809698113.20755 0.99784601 -0.056064755 0.0015592005 0.027590271 0.0015409437 0.027838806 0.99736029 -0.054682493
819694339.62264 0.99761587 -0.056760103 0.0015388625 0.027957892 0.0015588342 0.028168572 0.99746537 -0.055300951
829690566.03774 0.99768096 -0.05729267 0.0016031004 0.028279025 0.0015957337 0.028513454 0.9977113 -0.056275994
839686792.45283 0.99774289 -0.057710588 0.0016011372 0.028601641 0.0016238317 0.028844837 0.99780226 -0.057091832
849683018.86792 0.99783105 -0.058345549 0.0016448062 0.028935943 0.0016613011 0.02919478 0.99769121 -0.057860762
859679245.28302 0.99789262 -0.05916366 0.0017001117 0.029276261 0.001684485 0.029529117 0.99735868 -0.058486938
869675471.69811 0.99777102 -0.059975654 0.0017754752 0.029594069 0.0017416393 0.029871013 0.99707437 -0.059045076
879671698.11321 0.99769998 -0.0606592 0.0018022958 0.029913338 0.0018105637 0.030217562 0.99700576 -0.059443053
889667924.5283 0.99746424 -0.061481237 0.0018197028 0.030270411 0.0018461505 0.030524142 0.99688357 -0.059976757
899664150.9434 0.9973498 -0.062253922 0.0018411744 0.030587535 0.0018600281 0.030854635 0.99690723 -0.060587555
909660377.35849 0.99725783 -0.062939227 0.001879001 0.030924955 0.0018903278 0.031207955 0.99706221 -0.061558649
919656603.77358 0.99732095 -0.063608617 0.0018804581 0.031251583 0.0019082385 0.031542487 0.99709994 -0.062415838
929652830.18868 0.99733496 -0.064334124 0.0019441666 0.031596623 0.0019393833 0.031838611 0.99684918 -0.063316435
939649056.60377 0.99748737 -0.064906895 0.0019315043 0.03190719 0.0019586254 0.032184247 0.99668413 -0.064102471
949645283.01887 0.99750537 -0.065754585 0.0019446569 0.032273594 0.0019542354 0.032500941 0.99650574 -0.064621642
959641509.43396 0.99738085 -0.066582054 0.0020009829 0.032626659 0.0019892305 0.032939561 0.99645531 -0.065129906
969637735.84906 0.99725211 -0.067243099 0.0020317817 0.032972421 0.0020508887 0.033266835 0.99644738 -0.065502971
979633962.26415 0.99717045 -0.067997135 0.0020894723 0.033327404 0.002118893 0.033535253 0.99647397 -0.066137202
989630188.67925 0.99718022 -0.068533748 0.0021374915 0.033652104 0.0021653632 0.033933934 0.99667102 -0.066799909
999626415.09434 0.99715728 -0.069196582 0.0021512154 0.033971019 0.0021906141 0.034264661 0.99654913 -0.06765902
1009622641.5094 0.99716282 -0.069857225 0.0021944381 0.034315486 0.002245184 0.034618434 0.99642968 -0.068514779
1019618867.9245 0.99730217 -0.07071583 0.0022762935 0.034671221 0.0023017274 0.034935724 0.99614263 -0.069343358
1029615094.3396 0.99726021 -0.071682543 0.0023219176 0.034964517 0.0023434535 0.035244755 0.99581158 -0.070001334
1039611320.7547 0.99730098 -0.072649926 0.0023684418 0.035286412 0.0023776954 0.03561208 0.99569726 -0.070637584
1049607547.1698 0.99709678 -0.073481068 0.0024079231 0.035618659 0.0024021682 0.035924979 0.99567884 -0.071212217
1059603773.5849 0.99705327 -0.074081481 0.0024180319 0.035912476 0.0024554152 0.036238406 0.99573004 -0.071813732
1069600000 0.99679339 -0.074811488 0.002417678 0.036226384 0.0024740063 0.036565091 0.99585497 -0.072552115
1079596226.4151 0.9967289 -0.075549506 0.0024317382 0.036560521 0.0025088936 0.036898453 0.99584973 -0.073334172
1089592452.8302 0.99673337 -0.076141298 0.0024643065 0.036927253 0.0025383541 0.037227239 0.99575448 -0.074015319
1099588679.2453 0.99679893 -0.076851547 0.0025071893 0.037257709 0.0025551636 0.037567891 0.9953903 -0.07466954
1109584905.6604 0.99691862 -0.077704772 0.0024956604 0.037624758 0.0025666859 0.037940048 0.99523401 -0.075287297
1119581132.0755 0.99690318 -0.078670561 0.0025521498 0.03793022 0.002614758 0.038283389 0.99496359 -0.075641558
1129577358.4906 0.9967066 -0.079424053 0.0025772359 0.038312364 0.002666967 0.038695917 0.99484211 -0.076103956
1139573584.9057 0.99647224 -0.080396831 0.0026170071 0.03867111 0.0027217763 0.039016325 0.99497724 -0.07688278
1149569811.3208 0.99632663 -0.081278831 0.0026789366 0.0390075 0.0027653449 0.039359648 0.99509925 -0.077569224
1159566037.7358 0.99610281 -0.081935734 0.0027354341 0.039328411 0.0028140899 0.039650224 0.99515957 -0.078622967
1169562264.1509 0.99588132 -0.082512587 0.0027390067 0.039633986 0.0028072018 0.039985735 0.99495876 -0.079458416
1179558490.566 0.99591738 -0.083360538 0.002729655 0.040020373 0.0028672342 0.040376402 0.9948765 -0.080114186
1189554716.9811 0.9958899 -0.084074587 0.0027922587 0.040361535 0.0029433332 0.040696539 0.99455673 -0.080697298
1199550943.3962 0.99580336 -0.084990472 0.0028394237 0.040729389 0.0029830299 0.041076556 0.99434984 -0.081112027
1209547169.8113 0.99566144 -0.085794955 0.0029213857 0.041078582 0.0030160742 0.04136895 0.9943437 -0.08140552
1219543396.2264 0.99537849 -0.08668685 0.0029529938 0.04142195 0.0030612592 0.041769594 0.99440646 -0.081803232
1229539622.6415 0.99516559 -0.087604195 0.0030379016 0.041769288 0.0031292886 0.04212068 0.99451685 -0.082596928
1239535849.0566 0.99489415 -0.088251531 0.0030850647 0.042065326 0.003245458 0.042429313 0.99462628 -0.0835132
1249532075.4717 0.99453604 -0.088975951 0.0031187767 0.042435843 0.003291354 0.042777371 0.99443567 -0.084423579
1259528301.8868 0.99432123 -0.089536071 0.0031975769 0.042761933 0.003346432 0.043077473 0.99419475 -0.085273743
1269524528.3019 0.99416244 -0.090236247 0.0032681506 0.043063715 0.003428638 0.043413267 0.99394482 -0.085971832
1279520754.717 0.9937765 -0.090901665 0.0033272319 0.043363262 0.0034481867 0.043690499 0.99365556 -0.08653257
1289516981.1321 0.99363339 -0.091790229 0.0033120653 0.043662336 0.0034764307 0.043997079 0.99366629 -0.086991161
1299513207.5472 0.99332249 -0.092610568 0.0033436716 0.044017501 0.0035003591 0.044294745 0.9937917 -0.087318033
1309509433.9623 0.99285764 -0.093338683 0.0033399099 0.044318005 0.0034972131 0.044612806 0.99393839 -0.088083774
1319505660.3774 0.99245924 -0.094080761 0.0033642249 0.044669308 0.0035357596 0.044965044 0.99400651 -0.088738263
1329501886.7925 0.99217868 -0.094740719 0.0034043342 0.045002468 0.0035656206 0.045288801 0.99394548 -0.089761138
1339498113.2075 0.99193758 -0.095222354 0.0034382194 0.04532313 0.0035748202 0.045615964 0.99354184 -0.090462267
1349494339.6226 0.9915846 -0.095894337 0.0034249742 0.045702234 0.0035645142 0.045959625 0.9931249 -0.090967022
1359490566.0377 0.99164486 -0.096463025 0.0034516267 0.046037875 0.0035788175 0.046312451 0.99297559 -0.091609836
1369486792.4528 0.99141663 -0.097042739 0.003422888 0.046422802 0.0035617631 0.04663628 0.99277896 -0.092013091
1379483018.8679 0.99106967 -0.097521722 0.0034486724 0.046795718 0.0035999657 0.047037929 0.99275404 -0.092439219
1389479245.283 0.99078083 -0.098156691 0.0035449397 0.047187649 0.0036376864 0.047422893 0.99279457 -0.093097448
1399475471.6981 0.99031758 -0.098489165 0.0035527889 0.04755412 0.0036381334 0.047822639 0.99299049 -0.093791693
1409471698.1132 0.99001551 -0.098882057 0.0035645096 0.04791208 0.003664525 0.048198957 0.99299699 -0.094642907
1419467924.5283 0.9898715 -0.099133611 0.0035862271 0.048345782 0.0037299739 0.048625082 0.99284625 -0.095404685
1429464150.9434 0.98968649 -0.099646479 0.00364599 0.048752982 0.0037625451 0.048970334 0.99265039 -0.095904797
1439460377.3585 0.98980802 -0.10010406 0.0037657488 0.049214587 0.0038219364 0.049462344 0.99242842 -0.096186817
1449456603.7736 0.98988324 -0.10058482 0.0038524214 0.049618274 0.0039112056 0.04984089 0.99231648 -0.096513063
1459452830.1887 0.98982584 -0.10137442 0.0040083081 0.050014067 0.004038319 0.050268322 0.99243158 -0.096910626
1469449056.6038 0.98990506 -0.10206562 0.0041391328 0.050343528 0.0041708928 0.050627563 0.99266303 -0.097577274
1479445283.0189 0.98966753 -0.10274858 0.0043041138 0.050605737 0.0043134168 0.050916322 0.99267185 -0.098583445
1489441509.434 0.98961604 -0.10319048 0.0044421125 0.050986394 0.0044751409 0.051251642 0.99260765 -0.099446058
1499437735.8491 0.98947108 -0.10357371 0.0045378171 0.051265862 0.0045696739 0.051550865 0.99243104 -0.10025501
1509433962.2642 0.98934317 -0.10406882 0.004638508 0.051535703 0.0046533151 0.051809501 0.99223375 -0.1010617
1519430188.6792 0.98955458 -0.10464752 0.0046908688 0.051809873 0.0046958216 0.052105732 0.99210703 -0.10152575
1529426415.0943 0.989461 -0.10531569 0.0047781076 0.052100435 0.004785357 0.052453309 0.99215269 -0.10200694
1539422641.5094 0.98958492 -0.10605448 0.0048130695 0.052444555 0.0048243483 0.052721903 0.99212551 -0.10243334
1549418867.9245 0.98940182 -0.10696705 0.0049025863 0.052698385 0.0048969118 0.053025961 0.99235809 -0.10314448
1559415094.3396 0.98922223 -0.10763478 0.0049537737 0.052992519 0.0049213767 0.053304106 0.99240816 -0.10379207
1569411320.7547 0.98909903 -0.10838838 0.0049603498 0.053306151 0.0049694441 0.053658839 0.99245143 -0.10473202
1579407547.1698 0.98898089 -0.10894853 0.0050170706 0.053578038 0.0050421939 0.053930517 0.99204808 -0.10547616
1589403773.5849 0.98893952 -0.10950121 0.0050368961 0.053908195 0.005003538 0.054273158 0.9917264 -0.10621175
1599400000 0.98896295 -0.10999298 0.0050165951 0.054175138 0.005027147 0.05454595 0.99132502 -0.10675225
1609396226.4151 0.98885465 -0.11064747 0.0050264094 0.054542623 0.0050055902 0.054886594 0.99122602 -0.10729146
1619392452.8302 0.98884118 -0.11118507 0.0050331783 0.05488988 0.0049984083 0.055246245 0.99116755 -0.10766172
1629388679.2453 0.98866332 -0.11197197 0.0050714538 0.055214759 0.0050304029 0.055610165 0.99145615 -0.10830393
1639384905.6604 0.98841995 -0.11266615 0.0050375774 0.055613402 0.0050168363 0.056017641 0.99168813 -0.10906837
1649381132.0755 0.98820138 -0.11329368 0.0050738044 0.055967979 0.0050783902 0.056344893 0.99160713 -0.1100224
1659377358.4906 0.98799527 -0.1140779 0.0051203668 0.056352757 0.0050863922 0.056763567 0.9915874 -0.11094275
1669373584.9057 0.98793662 -0.11454102 0.00511791 0.056750093 0.0051691961 0.057120819 0.99134576 -0.11163178
1679369811.3208 0.98803341 -0.11524458 0.0052349977 0.057114057 0.0052124131 0.0575426 0.9910146 -0.11210719
1689366037.7358 0.98798335 -0.11584404 0.0052240267 0.057542954 0.0052338578 0.057932332 0.99087346 -0.11244598
1699362264.1509 0.98816204 -0.11649042 0.0053166077 0.057886884 0.0052746441 0.058312166 0.99106133 -0.11290286
1709358490.566 0.98803145 -0.11721942 0.0053801741 0.058273643 0.0053708451 0.05871227 0.9910869 -0.11340797
1719354716.9811 0.98766285 -0.1177938 0.0054335594 0.058642775 0.0053863544 0.059106566 0.99117798 -0.11416763
1729350943.3962 0.98734546 -0.11846095 0.0054945853 0.059104521 0.0054985415 0.059533469 0.99121296 -0.11509594
