!Keysight Technologies,N5222B,MY61253708,A.15.00.15
!Date: Wednesday, June 19, 2024 10:34:48
!Correction: S11(C  2-Port  ) 
!S21(C  2-Port  ) 
!S12(C  2-Port  ) 
!S22(C  2-Port  ) 
!S2P File: Measurements: S11, S21, S12, S22:
# Hz S  RI   R 50
10000000 0.99839783 -0.0030476451 0.00015092267 0.00015309533 0.00012879468 6.9495014e-005 0.99847567 -0.0020706356
19996226.415094 0.99986756 -0.0023604333 4.6718837e-005 0.00061474292 0.00011801301 0.00074232317 0.99998075 -0.0024185181
29992452.830189 0.9996807 -0.0024923384 -3.6044425e-005 0.00092470471 1.0969408e-005 0.00094441319 0.99924928 -0.002671659
39988679.245283 1.0001272 -0.0029804558 4.2978645e-006 0.0012560349 1.6883132e-007 0.0013392058 0.99969947 -0.003098473
49984905.660377 1.0002456 -0.0036808848 4.8662769e-006 0.001622305 2.225989e-005 0.0016386888 0.99991059 -0.0036274791
59981132.075472 1.0004588 -0.004463017 5.8012258e-005 0.0019512118 2.8084149e-005 0.0019601937 0.99989861 -0.0042409301
69977358.490566 1.0002748 -0.0050421022 1.0734475e-005 0.0022156707 2.191876e-005 0.0022792676 0.99977279 -0.0048007537
79973584.90566 0.99998105 -0.0056244433 1.1768425e-006 0.0025722852 1.503306e-005 0.0025693648 0.99938864 -0.0052400529
89969811.320755 1.0000296 -0.0056329072 -5.0452072e-006 0.0028819535 1.3821642e-005 0.0029199226 0.99959725 -0.0054288507
99966037.735849 1.0002277 -0.0063597858 1.9847706e-005 0.0032354703 2.3408094e-005 0.0032364917 0.99967629 -0.0061372072
109962264.15094 1.0002507 -0.0072900802 2.1655229e-005 0.0035556066 2.5841699e-005 0.0035375759 0.99969572 -0.0069389641
119958490.56604 1.0003119 -0.0081896484 3.809086e-005 0.003870077 2.4457346e-005 0.0038808419 0.99977744 -0.0078008473
129954716.98113 1.0002636 -0.0091468692 3.3616205e-005 0.0041816602 5.2642659e-005 0.0042037377 0.99974734 -0.0087084174
139950943.39623 1.0001594 -0.0099708531 3.156664e-005 0.0045232228 2.7293019e-005 0.0045195245 0.99968052 -0.0094305202
149947169.81132 1.000056 -0.01061219 4.0952582e-005 0.0048624482 4.2344211e-005 0.0048551643 0.99962699 -0.010038972
159943396.22642 0.99999166 -0.011161715 5.4013217e-005 0.0051827459 5.1132636e-005 0.0051735444 0.99966973 -0.010458648
169939622.64151 0.99994254 -0.01146666 5.7081925e-005 0.0055071115 5.7822501e-005 0.0055017765 0.9997049 -0.010884017
179935849.0566 1.0001043 -0.011624843 6.005296e-005 0.0058270982 7.4103707e-005 0.0058088885 0.99963129 -0.01123026
189932075.4717 1.0001439 -0.01242739 7.6305121e-005 0.006139149 6.842264e-005 0.0061473898 0.99984288 -0.011712641
199928301.88679 1.0001218 -0.013289392 6.8494119e-005 0.0064513725 8.5763051e-005 0.0064794878 0.99969512 -0.012577474
209924528.30189 0.99988079 -0.013789237 9.5720054e-005 0.006780128 9.089394e-005 0.0068021314 0.99950486 -0.013240516
219920754.71698 0.99997807 -0.014590353 0.00012406171 0.0070932875 0.00010473514 0.0071139005 0.9994483 -0.01382786
229916981.13208 0.99972272 -0.015474945 0.0001393659 0.0074353111 0.0001250403 0.0074456562 0.99937999 -0.014667839
239913207.54717 0.99956274 -0.016147839 0.0001143437 0.0077395164 0.00012340221 0.007764874 0.99930114 -0.015395617
249909433.96226 0.99960363 -0.016759008 0.00011868868 0.0080624186 0.00014629913 0.0080893356 0.99935937 -0.015965044
259905660.37736 0.99970496 -0.017238587 0.00017241482 0.008433775 0.00013521733 0.0083778631 0.99958801 -0.016472667
269901886.79245 1.0000124 -0.017982498 0.00014144438 0.0087338006 0.00015114958 0.0087686041 1.0000172 -0.017222777
279898113.20755 1.0001092 -0.018704057 0.00015577581 0.009077562 0.00013375911 0.0090156822 0.99995071 -0.018011779
289894339.62264 0.9999162 -0.019351184 0.00021865219 0.0093457755 0.00015448267 0.0093798134 0.9997623 -0.018740565
299890566.03774 0.99989128 -0.019828379 0.00020029326 0.0096906004 0.00018754811 0.0096760457 0.99953341 -0.019194692
309886792.45283 0.99975222 -0.020488463 0.00018162548 0.0099957678 0.00020847592 0.010056401 0.99937564 -0.019574255
319883018.86792 0.99965459 -0.021010607 0.00024085259 0.010312879 0.0002070968 0.010362602 0.99946362 -0.02001673
329879245.28302 0.99973404 -0.021862656 0.00022175768 0.010676291 0.00026676524 0.010707751 0.99955589 -0.020753592
339875471.69811 0.99960101 -0.02243638 0.000219131 0.010986473 0.00024473155 0.010981318 0.99952608 -0.021616712
349871698.11321 0.99978292 -0.023332804 0.00024982914 0.011265578 0.00023827492 0.011304957 0.99957091 -0.022480994
359867924.5283 0.9997195 -0.024194866 0.00032512005 0.01160988 0.00023131492 0.011649 0.99954504 -0.023381144
369864150.9434 0.99993885 -0.024967253 0.00027178507 0.011948734 0.00029267161 0.011989977 0.99954593 -0.024135053
379860377.35849 0.99963444 -0.025612488 0.0003166534 0.012286648 0.00030485052 0.012282277 0.99930239 -0.024807096
389856603.77358 0.99963653 -0.026286662 0.00035871984 0.012578532 0.00032568863 0.012613499 0.99940807 -0.025167584
399852830.18868 0.99936694 -0.026927143 0.00032589398 0.012913217 0.0003539077 0.012929088 0.99946487 -0.025669336
409849056.60377 0.99933082 -0.027334319 0.00035702842 0.013213398 0.00034516788 0.013264623 0.99941015 -0.026152641
419845283.01887 0.99918562 -0.027791888 0.00035119709 0.013516321 0.00037788553 0.013563852 0.99939919 -0.026694298
429841509.43396 0.99917233 -0.02842921 0.00039061904 0.013865659 0.0003899727 0.013906963 0.99960566 -0.02746591
439837735.84906 0.99907821 -0.029464617 0.00040127034 0.014198661 0.00044293469 0.014225555 0.99926376 -0.028514966
449833962.26415 0.99891031 -0.030214757 0.00042875065 0.014476386 0.00045121554 0.014491274 0.9988299 -0.029225588
459830188.67925 0.99867451 -0.03080228 0.00042739604 0.01482018 0.00041031279 0.014822381 0.99862009 -0.029909879
469826415.09434 0.99859571 -0.031436205 0.00045329006 0.015180156 0.00043483078 0.015160209 0.99834669 -0.030405343
479822641.50943 0.99849427 -0.03201922 0.00049397931 0.015448464 0.00049943675 0.01550974 0.99842048 -0.030820757
489818867.92453 0.99859083 -0.032398224 0.00047112815 0.015818564 0.00050944882 0.015799984 0.99870014 -0.031285018
499815094.33962 0.9985882 -0.03289935 0.00053761294 0.016092561 0.00054702768 0.016137753 0.99903548 -0.031814933
509811320.75472 0.99873269 -0.033351921 0.0005989176 0.016444258 0.00054840138 0.016420884 0.99918717 -0.032564797
519807547.16981 0.9986493 -0.033750027 0.0005424167 0.016731685 0.00057233823 0.016750857 0.99913549 -0.033319384
529803773.58491 0.9986499 -0.034225017 0.00061094575 0.017051788 0.00054900721 0.017098617 0.99889481 -0.033869117
539800000 0.99879867 -0.034936756 0.00061052153 0.017378727 0.00057424931 0.017450862 0.99876219 -0.034485087
549796226.41509 0.99865031 -0.035687566 0.00059963856 0.017711747 0.00062510185 0.017713867 0.99861956 -0.034937352
559792452.83019 0.99848127 -0.036311924 0.00061658956 0.018041758 0.00066936389 0.018037917 0.99855351 -0.035410702
569788679.24528 0.99829936 -0.037031084 0.00065980013 0.018340241 0.00063764211 0.018399237 0.99875277 -0.0361875
579784905.66038 0.9983592 -0.03759449 0.00067272189 0.018704981 0.00067912263 0.018690731 0.99886107 -0.036846347
589781132.07547 0.99851298 -0.038100004 0.00069086719 0.018990599 0.00071947463 0.019059932 0.998963 -0.037735909
599777358.49057 0.99871063 -0.038749933 0.00077818613 0.019338295 0.00070684403 0.019361366 0.9990316 -0.038462907
609773584.90566 0.99889553 -0.039496683 0.00078227208 0.01966691 0.00075996929 0.019706061 0.99893916 -0.039388314
619769811.32075 0.99888843 -0.040269107 0.00079312036 0.019976523 0.00082695391 0.020045953 0.998878 -0.039840102
629766037.73585 0.9987675 -0.040898651 0.00079424679 0.02027081 0.00082315318 0.020311963 0.99867904 -0.040389895
639762264.15094 0.99871296 -0.041509226 0.00086914306 0.020593222 0.00083815283 0.020615373 0.99854428 -0.040816978
649758490.56604 0.99852133 -0.042011589 0.00085375039 0.020907171 0.00084322924 0.020930463 0.99856603 -0.04125461
659754716.98113 0.99848151 -0.042506337 0.00086714234 0.021232799 0.00084632821 0.021272525 0.99868798 -0.041817069
669750943.39623 0.99845326 -0.043035507 0.00089964829 0.021537909 0.00090044597 0.021572448 0.99879456 -0.042586714
679747169.81132 0.99853742 -0.043773852 0.00092173845 0.021921089 0.00092321774 0.021932488 0.99880344 -0.043545954
689743396.22642 0.99868023 -0.044595987 0.00094636623 0.022217751 0.00095834676 0.022289582 0.9985981 -0.044489145
699739622.64151 0.99876922 -0.045410007 0.0010103574 0.022501161 0.0010011913 0.022558846 0.99851656 -0.045096368
709735849.0566 0.99878216 -0.046339393 0.0010522541 0.022801256 0.0010497167 0.022910781 0.99827564 -0.045758098
719732075.4717 0.99864465 -0.04702723 0.0010700752 0.023154555 0.0010959809 0.023212515 0.99836177 -0.04637444
729728301.88679 0.99854147 -0.047551751 0.0011000391 0.023465119 0.0010919906 0.023499958 0.99840999 -0.046696037
739724528.30189 0.99841917 -0.048180699 0.0011098119 0.023762442 0.001137211 0.023836577 0.99857301 -0.047403172
749720754.71698 0.99837852 -0.048724666 0.0011526123 0.024083376 0.0011512823 0.024154801 0.99858791 -0.048140496
759716981.13208 0.99838042 -0.049269021 0.0011909222 0.024389677 0.001213233 0.024456494 0.99856192 -0.048899919
769713207.54717 0.99827588 -0.049930483 0.0012304625 0.024709132 0.0012072949 0.024744887 0.99825358 -0.049628973
779709433.96226 0.99842823 -0.050586026 0.0012517922 0.025062118 0.0012580219 0.025095018 0.99801826 -0.050290689
789705660.37736 0.99833035 -0.051465899 0.0012739403 0.025336126 0.001290042 0.025379792 0.99781048 -0.050959975
799701886.79245 0.99824506 -0.05228743 0.0013277577 0.025628518 0.0013134042 0.025707942 0.99763203 -0.051502049
809698113.20755 0.99814212 -0.052923545 0.0013320758 0.025957432 0.0013257933 0.02603527 0.99771118 -0.051923931
819694339.62264 0.99793392 -0.05346629 0.0013461057 0.026264234 0.0013553794 0.026311761 0.99782085 -0.052518636
829690566.03774 0.99790204 -0.054090589 0.0013892846 0.026588907 0.0013876371 0.026659466 0.99803424 -0.053359121
839686792.45283 0.99792153 -0.054514974 0.0014148154 0.026885051 0.0014234823 0.026943518 0.99812973 -0.054193079
849683018.86792 0.99799562 -0.055090033 0.0014542937 0.027187672 0.0014623376 0.027301164 0.99799955 -0.054917984
859679245.28302 0.99803662 -0.055772275 0.0014714152 0.027565084 0.0014616568 0.027590023 0.9977541 -0.055523425
869675471.69811 0.99794614 -0.056526452 0.0015277639 0.027844217 0.0015152944 0.027905818 0.99730402 -0.056049526
879671698.11321 0.99785334 -0.057123471 0.0015717929 0.02812347 0.0015506863 0.028193666 0.99732214 -0.056387767
889667924.5283 0.99764299 -0.057922363 0.0015658988 0.028418563 0.0015761936 0.028516319 0.99714762 -0.056906462
899664150.9434 0.9974066 -0.058504283 0.0015705582 0.028744861 0.001591336 0.028797025 0.99721831 -0.057526648
909660377.35849 0.99748939 -0.059191778 0.0016089017 0.029058585 0.0016402802 0.029113848 0.99737829 -0.058327988
919656603.77358 0.99753779 -0.059879899 0.0016495548 0.02938023 0.001627624 0.029443715 0.99741435 -0.059173748
929652830.18868 0.99758661 -0.060603261 0.0016691722 0.029704589 0.0016629817 0.029761873 0.99725556 -0.060094476
939649056.60377 0.99768692 -0.061124355 0.0016648807 0.029980347 0.0016892115 0.030072283 0.99712121 -0.06076321
949645283.01887 0.99775386 -0.061990045 0.0016635763 0.030333696 0.0016932597 0.030406073 0.99687231 -0.061270218
959641509.43396 0.9976564 -0.062632918 0.0017124237 0.030651061 0.0017147651 0.030748302 0.9968437 -0.061765254
969637735.84906 0.99754518 -0.063331723 0.001737142 0.031034686 0.0017477395 0.031096686 0.99683022 -0.062073976
979633962.26415 0.99739462 -0.06405399 0.0018229976 0.031305518 0.0018010226 0.031389117 0.99689162 -0.06269908
989630188.67925 0.99745291 -0.064504951 0.0018605813 0.031646363 0.0018179836 0.031731118 0.9971236 -0.06330356
999626415.09434 0.99749833 -0.065104127 0.0018765619 0.031957023 0.0018643085 0.032027047 0.99701178 -0.064078659
1009622641.5094 0.99755239 -0.065714628 0.0019122763 0.032274909 0.0019127694 0.032360666 0.9969238 -0.06494078
1019618867.9245 0.99758732 -0.066466823 0.0019421494 0.032573994 0.0019766139 0.032686766 0.99663472 -0.065826535
1029615094.3396 0.99766123 -0.067368925 0.0020200461 0.032880522 0.0020289589 0.032959126 0.99630284 -0.066354632
1039611320.7547 0.99767864 -0.068280071 0.0020623589 0.033169806 0.0020315228 0.033254087 0.99621767 -0.067006677
1049607547.1698 0.99749714 -0.06914378 0.0020600518 0.033455875 0.0020630802 0.033539802 0.99623346 -0.067537896
1059603773.5849 0.99738836 -0.069829375 0.0020662537 0.033748783 0.0020841463 0.033866204 0.99628413 -0.068011016
1069600000 0.99722457 -0.070351779 0.002075525 0.034057256 0.0020923689 0.034159869 0.9964416 -0.068739384
1079596226.4151 0.99727553 -0.070998065 0.0020832969 0.034381401 0.0021343851 0.034475844 0.9964698 -0.069497921
1089592452.8302 0.99727112 -0.07165879 0.0021133423 0.034721341 0.0021598106 0.034823891 0.99641013 -0.07025218
1099588679.2453 0.99725974 -0.072322786 0.0021153521 0.035031855 0.0021544565 0.035104856 0.99600279 -0.070758849
1109584905.6604 0.99745256 -0.073096305 0.0021694992 0.035353586 0.0022008531 0.035457212 0.9958334 -0.071393669
1119581132.0755 0.99746758 -0.074086487 0.0021611471 0.035674289 0.0021955809 0.035809398 0.99566424 -0.071739674
1129577358.4906 0.99725068 -0.074851066 0.0022066981 0.036050342 0.002218375 0.036140651 0.99556619 -0.072191954
1139573584.9057 0.99698269 -0.075738966 0.0022516893 0.03631945 0.0023201555 0.03648629 0.99565059 -0.072913945
1149569811.3208 0.99690133 -0.076563053 0.0022696087 0.036678717 0.0023345707 0.036771834 0.99586248 -0.073623762
1159566037.7358 0.99669957 -0.077219874 0.0023582373 0.036965273 0.0023594964 0.037086815 0.99593472 -0.074676186
1169562264.1509 0.99656534 -0.077898979 0.0023290031 0.037270669 0.0023776293 0.037381623 0.99579489 -0.075383037
1179558490.566 0.99656409 -0.078592107 0.0023520887 0.037602805 0.0024180219 0.03776034 0.99561173 -0.076096579
1189554716.9811 0.99654549 -0.079260916 0.0023760796 0.037962418 0.002465738 0.038103025 0.99529099 -0.07660836
1199550943.3962 0.9964819 -0.080045819 0.0024161208 0.038314588 0.0025104545 0.038386658 0.99514925 -0.077006608
1209547169.8113 0.99634755 -0.080959558 0.0024650795 0.038633205 0.0025532171 0.038698375 0.99507546 -0.077358022
1219543396.2264 0.99618125 -0.081769139 0.0025107763 0.0389967 0.0025869869 0.039076246 0.99519074 -0.077694863
1229539622.6415 0.99586797 -0.082514912 0.002564868 0.03929238 0.0026664622 0.03941318 0.9953267 -0.078361332
1239535849.0566 0.99561036 -0.083291918 0.0026424648 0.039616756 0.0027326299 0.03971459 0.99542707 -0.079320163
1249532075.4717 0.99535221 -0.08395274 0.0026935281 0.039923336 0.0027916499 0.04000834 0.99534398 -0.080084309
1259528301.8868 0.99519634 -0.084386319 0.0027261376 0.040236361 0.0028643273 0.040323921 0.99505085 -0.080971867
1269524528.3019 0.99502277 -0.085071266 0.0027953833 0.040535413 0.0028867796 0.040597141 0.99484688 -0.081625849
1279520754.717 0.9947446 -0.085783437 0.0028359618 0.04080319 0.0029383046 0.040850189 0.99464345 -0.082207903
1289516981.1321 0.99458069 -0.086639583 0.002866298 0.041095346 0.0029410487 0.041143242 0.99466115 -0.082604766
1299513207.5472 0.99427199 -0.08741188 0.002847746 0.041412618 0.0029417854 0.041468509 0.99477911 -0.08294183
1309509433.9623 0.99387103 -0.088131472 0.0028689569 0.041695166 0.0029920992 0.041748855 0.99492848 -0.08369565
1319505660.3774 0.99352127 -0.088815704 0.0028615007 0.041994095 0.0029559406 0.042072926 0.99495643 -0.084314421
1329501886.7925 0.99328387 -0.089496613 0.002885906 0.042318031 0.0029947292 0.042383254 0.99490714 -0.085234761
1339498113.2075 0.99293423 -0.090070665 0.0028950637 0.042660974 0.0030281795 0.042670432 0.99453574 -0.08596909
1349494339.6226 0.99279159 -0.090520285 0.0028810813 0.042997915 0.0029734932 0.043007646 0.99414045 -0.086596921
1359490566.0377 0.99276584 -0.09117955 0.0028950628 0.043353107 0.0029936153 0.043345325 0.99396712 -0.087038875
1369486792.4528 0.99255168 -0.091671705 0.0029349998 0.043673523 0.0029847808 0.043669242 0.99386251 -0.087467849
1379483018.8679 0.99225634 -0.092232384 0.0029306533 0.044054758 0.0029985961 0.044039007 0.99383295 -0.087821215
1389479245.283 0.99192482 -0.092782497 0.0029601455 0.044402745 0.0030192267 0.044409983 0.99380851 -0.088507205
1399475471.6981 0.99151421 -0.093110353 0.0029692538 0.044760101 0.0030232836 0.044747669 0.9940486 -0.089161426
1409471698.1132 0.99126393 -0.093529865 0.0029815759 0.045118533 0.0030743661 0.045113795 0.9940933 -0.090019569
1419467924.5283 0.9910683 -0.093837053 0.0030629039 0.045510903 0.0030736076 0.045520458 0.99380893 -0.090694398
1429464150.9434 0.99094307 -0.09420225 0.003063878 0.045909874 0.0031282455 0.045874245 0.993756 -0.091203928
1439460377.3585 0.99107015 -0.0947579 0.0031694286 0.046326373 0.0031969799 0.046311107 0.99353546 -0.09161216
1449456603.7736 0.99114108 -0.095225096 0.0032517835 0.046726838 0.0032805428 0.046696305 0.99341434 -0.091939747
1459452830.1887 0.991189 -0.095993727 0.0033999663 0.047139615 0.0033876095 0.047107216 0.99357319 -0.092216313
1469449056.6038 0.99117714 -0.096726596 0.0035543684 0.047446471 0.0035618432 0.047408402 0.99378479 -0.092860997
1479445283.0189 0.99104846 -0.097350925 0.0036909583 0.047723971 0.003660633 0.047710396 0.993864 -0.093822382
1489441509.434 0.99093437 -0.097779393 0.0037765335 0.048017211 0.0038343258 0.048000161 0.99375677 -0.094639033
1499437735.8491 0.99084926 -0.098144531 0.0039133001 0.04829742 0.0039281398 0.048267227 0.9936527 -0.095479429
1509433962.2642 0.99079251 -0.098594658 0.0039808992 0.048533767 0.0039873309 0.048551317 0.99343622 -0.096187793
1519430188.6792 0.99089825 -0.099112481 0.004081957 0.0488123 0.0040423442 0.048784945 0.99334466 -0.096669734
1529426415.0943 0.99078858 -0.099763215 0.004091518 0.049069069 0.0040801037 0.049081728 0.99323153 -0.097162455
1539422641.5094 0.99088323 -0.10052153 0.0041567399 0.04935788 0.0041356087 0.049391672 0.99332798 -0.097564824
1549418867.9245 0.99071449 -0.10133564 0.00420052 0.049626417 0.004175744 0.049652733 0.99361789 -0.098280504
1559415094.3396 0.99063337 -0.10203141 0.0042507797 0.04994395 0.0042176917 0.049966596 0.99370819 -0.098936945
1569411320.7547 0.99045771 -0.10280131 0.0043184347 0.05019844 0.0042763818 0.050235715 0.99361199 -0.099766389
1579407547.1698 0.99037635 -0.10330966 0.0043014823 0.050451927 0.0043025408 0.050530929 0.99332154 -0.10067326
1589403773.5849 0.99033928 -0.10386625 0.0043454114 0.05074311 0.0042908806 0.050782971 0.99303961 -0.10127109
1599400000 0.99021876 -0.10427427 0.0042831143 0.051061213 0.004264202 0.051072285 0.99270284 -0.10177392
1609396226.4151 0.99026304 -0.10495463 0.0043090209 0.051327936 0.0042641214 0.051349513 0.99238795 -0.10226649
1619392452.8302 0.99025917 -0.10554275 0.0042926595 0.051659681 0.0042585377 0.051693641 0.9924503 -0.10270599
1629388679.2453 0.99003398 -0.10626122 0.004322201 0.052022494 0.0042610094 0.052096054 0.99278164 -0.10313603
1639384905.6604 0.98982143 -0.10690814 0.0043427241 0.052364413 0.004269823 0.05242312 0.99292159 -0.10405727
1649381132.0755 0.98959559 -0.10744727 0.0043340251 0.052724048 0.0042617097 0.052777927 0.99292719 -0.10493663
1659377358.4906 0.98946953 -0.10835359 0.0043526534 0.053048223 0.0043272581 0.05316383 0.99284244 -0.10578185
1669373584.9057 0.98938644 -0.10870325 0.0043949052 0.053413566 0.0043293107 0.053476468 0.99253649 -0.10641308
1679369811.3208 0.98945498 -0.1094023 0.0044136997 0.053810958 0.0043375194 0.053886369 0.99231988 -0.10691643
1689366037.7358 0.98935139 -0.11004519 0.0044663828 0.054145329 0.0043789931 0.054233763 0.99218655 -0.10723913
1699362264.1509 0.98964405 -0.11060126 0.004489705 0.054506313 0.004440085 0.054620359 0.99235773 -0.10765661
1709358490.566 0.98950195 -0.11125498 0.0045630271 0.054885898 0.004475357 0.054982118 0.9924252 -0.10819581
1719354716.9811 0.98924279 -0.1117959 0.0046169944 0.055214003 0.0045376308 0.055314921 0.99247503 -0.10888073
1729350943.3962 0.98890173 -0.11245322 0.0046590827 0.055636443 0.0046089962 0.055761501 0.99255586 -0.10972178
