!Keysight Technologies,N5222B,MY61253708,A.15.00.15
!Date: Wednesday, June 19, 2024 09:30:35
!Correction: S11(C  2-Port  ) 
!S21(C  2-Port  ) 
!S12(C  2-Port  ) 
!S22(C  2-Port  ) 
!S2P File: Measurements: S11, S21, S12, S22:
# Hz S  RI   R 50
10000000 0.99867016 -0.0024580956 -8.6377666e-005 0.00075605261 -0.0004298714 9.2855938e-005 0.99848777 -0.0011775196
19996226.415094 0.99899018 -0.0022803843 0.00018952397 0.00079397846 -1.1602649e-005 0.00083085848 0.99903542 -0.0023070872
29992452.830189 0.99974668 -0.0024283826 3.0421477e-005 0.0010300737 5.6445104e-005 0.0010327902 0.99945331 -0.0026391447
39988679.245283 1.0000304 -0.0030537397 4.2364074e-005 0.0013850568 6.1398925e-005 0.0013877938 0.99963313 -0.0031723678
49984905.660377 1.0001678 -0.0037477314 -1.4619902e-005 0.0016778298 2.1902728e-005 0.0017126468 0.99976701 -0.0036611557
59981132.075472 1.0003676 -0.0046379268 3.2651122e-005 0.0020033682 -2.8475828e-005 0.0020560604 0.99972957 -0.0042799115
69977358.490566 1.0001724 -0.005205486 3.3568809e-005 0.0022956093 3.0047526e-005 0.0023460658 0.99965274 -0.0048492718
79973584.90566 0.99989235 -0.0057111979 3.1083822e-005 0.0026373952 2.5236281e-005 0.0026860163 0.99932581 -0.0053659678
89969811.320755 0.99994111 -0.0059326589 -4.9991067e-006 0.0030090802 1.8796534e-005 0.0030522123 0.99954736 -0.0056314766
99966037.735849 1.0001539 -0.0066521764 2.6860856e-005 0.0033627395 3.4090481e-005 0.0033385183 0.99966168 -0.006414637
109962264.15094 1.0001796 -0.0076020062 2.6164693e-005 0.0036835852 1.9290543e-005 0.003716815 0.99961489 -0.0072275549
119958490.56604 1.000147 -0.0085336268 3.7595048e-005 0.0040068044 3.5334378e-005 0.0040323497 0.99965322 -0.0081118047
129954716.98113 1.0001351 -0.0094985366 6.7932298e-005 0.0043532732 3.615499e-005 0.0043985406 0.9996351 -0.0090139806
139950943.39623 1.0000426 -0.010298535 3.1178279e-005 0.0046560066 5.6805555e-005 0.0047263592 0.99955475 -0.0097834114
149947169.81132 0.99992108 -0.010953516 5.0562667e-005 0.0050274367 5.3464435e-005 0.0050559565 0.99949443 -0.010345846
159943396.22642 0.99982607 -0.011546493 5.8675883e-005 0.005358933 6.4731576e-005 0.0054141749 0.9995721 -0.01084581
169939622.64151 0.99985963 -0.011851944 7.1166141e-005 0.0056861769 6.3343265e-005 0.005762564 0.99962288 -0.011283539
179935849.0566 0.99993855 -0.012141585 7.5076707e-005 0.0059778132 0.00010597659 0.0060619181 0.9995451 -0.011702597
189932075.4717 1.0000162 -0.012949497 8.2889339e-005 0.0063705593 7.3754694e-005 0.0063903634 0.99978232 -0.012267798
199928301.88679 0.99999994 -0.013725698 6.9810194e-005 0.0066878479 7.7333185e-005 0.0067465473 0.9996255 -0.013144672
209924528.30189 0.99977338 -0.01439406 0.00010843226 0.0070384233 0.00011849718 0.0070722662 0.99941128 -0.013842404
219920754.71698 0.99981278 -0.015258282 0.00011661393 0.007351337 0.0001395361 0.0074251862 0.99928331 -0.014495999
229916981.13208 0.99955755 -0.016130716 0.00013669953 0.0076927766 0.00011995132 0.0077376114 0.99922901 -0.015308201
239913207.54717 0.99946034 -0.016745729 0.00013568232 0.0080137048 0.00012745743 0.0080927126 0.9991681 -0.016025266
249909433.96226 0.99949515 -0.017403305 0.00015590061 0.0083692083 0.00012822775 0.0084108114 0.99929512 -0.01665774
259905660.37736 0.99961942 -0.017985195 0.00015584892 0.008708166 0.00010347413 0.008751573 0.99944299 -0.01721257
269901886.79245 0.99969393 -0.018619955 0.00016229018 0.0090329032 0.00017999392 0.0091043869 0.99984223 -0.017971098
279898113.20755 0.99982011 -0.019336432 0.00016994309 0.0093271695 0.00020412751 0.0094756596 0.99965572 -0.01869978
289894339.62264 0.99972308 -0.020169199 0.00013888627 0.0096647972 0.00020133751 0.009809427 0.9995811 -0.019453436
299890566.03774 0.99968302 -0.020536453 0.00022757449 0.010023113 0.00021193735 0.010141208 0.99926233 -0.019926429
309886792.45283 0.99952883 -0.021123223 0.00018905988 0.010356632 0.00027108111 0.010453939 0.99918509 -0.020350479
319883018.86792 0.99952549 -0.02178514 0.00024218019 0.010706212 0.00026010023 0.010740168 0.99931943 -0.020906448
329879245.28302 0.99953961 -0.022550404 0.00025640335 0.011001909 0.00025880244 0.011091694 0.9993912 -0.021622628
339875471.69811 0.99936634 -0.023229145 0.00025020284 0.011399172 0.00031076558 0.011447876 0.999327 -0.022483855
349871698.11321 0.99951285 -0.024173379 0.00028341194 0.011700782 0.00029101735 0.011806872 0.99935848 -0.023333877
359867924.5283 0.99938929 -0.024926931 0.00027083652 0.012038022 0.00031122472 0.012124959 0.99924445 -0.024191469
369864150.9434 0.99947679 -0.025671899 0.00031993515 0.012348748 0.0003663376 0.012469111 0.99929452 -0.024868071
379860377.35849 0.99950129 -0.02632843 0.00035929796 0.012683014 0.00035245507 0.012804978 0.99924701 -0.025589466
389856603.77358 0.99945176 -0.02695635 0.00038413983 0.013013482 0.00038225856 0.013128184 0.99918234 -0.026083827
399852830.18868 0.99913263 -0.027547657 0.0003947909 0.01334016 0.00037676468 0.013424989 0.99929172 -0.026537567
409849056.60377 0.99912995 -0.028012117 0.00036003682 0.013654319 0.00039813379 0.013801172 0.9993 -0.027007064
419845283.01887 0.99914312 -0.028508693 0.00039294409 0.014022177 0.00039734878 0.014139116 0.99926257 -0.027559161
429841509.43396 0.99915123 -0.029132515 0.00045362907 0.014340669 0.0004507252 0.014491607 0.99948162 -0.028344512
439837735.84906 0.9990868 -0.030065253 0.00046136836 0.014677854 0.00044864661 0.014781308 0.99934113 -0.029281795
449833962.26415 0.99905771 -0.030810922 0.00045154849 0.014991993 0.00045339856 0.01510937 0.99897575 -0.03015551
459830188.67925 0.99888158 -0.031559229 0.00043434696 0.015324322 0.00045222696 0.015464483 0.99879396 -0.030866414
469826415.09434 0.99884939 -0.032384604 0.00044987909 0.015654288 0.00048847357 0.015823709 0.99852633 -0.031478137
479822641.50943 0.99868667 -0.032865785 0.0004846917 0.016059207 0.00053095189 0.016164964 0.99858874 -0.031948283
489818867.92453 0.9987421 -0.03345865 0.00055807084 0.016331697 0.00056767277 0.016477488 0.99891025 -0.032509357
499815094.33962 0.99900782 -0.034042478 0.0005598776 0.016689226 0.00056118891 0.016823692 0.99915642 -0.033087283
509811320.75472 0.99901104 -0.03446231 0.0006336646 0.017012576 0.00055764976 0.017118046 0.99926543 -0.034024317
519807547.16981 0.99898076 -0.035148978 0.00059632445 0.017335139 0.00059507787 0.017453445 0.99924487 -0.034740925
529803773.58491 0.99891651 -0.035625696 0.00061043445 0.017693926 0.0006025508 0.017825933 0.99894738 -0.035307825
539800000 0.99897027 -0.036330551 0.00059747789 0.017978346 0.00061143842 0.018167194 0.99883771 -0.035976589
549796226.41509 0.9987911 -0.037235528 0.00067018438 0.018361717 0.00065660942 0.018492261 0.99863303 -0.036509395
559792452.83019 0.99858594 -0.037911952 0.00063004997 0.018653341 0.00068124384 0.018877413 0.99855638 -0.037061304
569788679.24528 0.99839646 -0.038531333 0.00071687577 0.018938031 0.00069352472 0.01918681 0.99869275 -0.037758201
579784905.66038 0.99843204 -0.039115466 0.00074673048 0.019390671 0.00073963217 0.019487634 0.99883258 -0.038459048
589781132.07547 0.99860549 -0.039821506 0.00078925956 0.01964421 0.00078737177 0.019816967 0.99895227 -0.039431602
599777358.49057 0.99875373 -0.040430605 0.00076874252 0.020040147 0.0008212924 0.020197157 0.9990111 -0.040187389
609773584.90566 0.99882984 -0.041285038 0.00084076705 0.020295402 0.00085441099 0.020503109 0.99879658 -0.041123658
619769811.32075 0.99896646 -0.04186821 0.00089990487 0.02065981 0.00090867048 0.020814287 0.99871135 -0.041558206
629766037.73585 0.99875784 -0.042507142 0.00089213438 0.020965891 0.00090953335 0.021132506 0.99847412 -0.04207322
639762264.15094 0.99862677 -0.043167651 0.00092978636 0.021322055 0.00092726178 0.021482836 0.99838161 -0.042584881
649758490.56604 0.99851632 -0.043781891 0.0009397231 0.021597847 0.00092432089 0.021811759 0.99847263 -0.043060288
659754716.98113 0.99839938 -0.044362217 0.00094781723 0.02192986 0.00091030635 0.022128273 0.99849367 -0.043600798
669750943.39623 0.99828249 -0.044759691 0.0009288108 0.022329036 0.0009636404 0.022497525 0.99855518 -0.044390678
679747169.81132 0.99837655 -0.045576662 0.001009921 0.022643033 0.0010108916 0.022834493 0.998505 -0.04527282
689743396.22642 0.99845421 -0.046430022 0.0010907808 0.022998223 0.0010690037 0.023205815 0.998335 -0.046231151
699739622.64151 0.99859494 -0.047160864 0.0010940898 0.023335217 0.0011261115 0.02352654 0.99825108 -0.046919435
709735849.0566 0.99861628 -0.048013747 0.0011661283 0.023612354 0.0011063862 0.023847433 0.99800777 -0.047575541
719732075.4717 0.99846435 -0.048805416 0.0011776579 0.023933362 0.0011762483 0.024128545 0.99810642 -0.04817903
729728301.88679 0.99838865 -0.04934445 0.0012040529 0.024304515 0.00118561 0.024477609 0.99814665 -0.048645467
739724528.30189 0.99820554 -0.049982339 0.0012403596 0.024584014 0.0012442525 0.024818733 0.99826807 -0.049272016
749720754.71698 0.99814612 -0.050468549 0.0012284755 0.02489648 0.0012707692 0.025167067 0.99836022 -0.049978048
759716981.13208 0.99820477 -0.051010489 0.0012791632 0.025229629 0.0012673531 0.025470342 0.99832582 -0.050756425
769713207.54717 0.99810904 -0.051646322 0.0013161572 0.025574025 0.0013575647 0.025791537 0.99804932 -0.051413476
779709433.96226 0.99825466 -0.052308265 0.0013092452 0.025896765 0.0013589342 0.02613428 0.9978112 -0.052102793
789705660.37736 0.99805927 -0.053227276 0.0013905475 0.026213162 0.001398189 0.026434192 0.99757314 -0.052886009
799701886.79245 0.99809712 -0.0540829 0.0014168788 0.026542865 0.0014234111 0.026763922 0.9974789 -0.053361773
809698113.20755 0.99799347 -0.054633752 0.0014368778 0.026848292 0.0014549645 0.027104942 0.99751502 -0.053850591
819694339.62264 0.99784881 -0.055308998 0.0014788159 0.02718932 0.0014868667 0.027454646 0.99761164 -0.05453223
829690566.03774 0.99785161 -0.055928737 0.001496518 0.027502943 0.0015362483 0.027754894 0.99782944 -0.05540657
839686792.45283 0.99794799 -0.056376368 0.0015178411 0.02780704 0.0015546991 0.028067995 0.99792045 -0.056282997
849683018.86792 0.99801177 -0.057005577 0.0015456097 0.028166758 0.0015678657 0.0283936 0.99780375 -0.056950279
859679245.28302 0.99802828 -0.057695329 0.0015994804 0.028506584 0.0016219066 0.028747715 0.99753737 -0.05763936
869675471.69811 0.99790895 -0.058491856 0.0016339896 0.028825173 0.0016403897 0.029049436 0.99717659 -0.058176607
879671698.11321 0.99784213 -0.059073057 0.0017048479 0.0291177 0.0017191935 0.029387373 0.99715745 -0.058570363
889667924.5283 0.99760914 -0.059928536 0.0017246008 0.02942365 0.0017168606 0.029688995 0.99701679 -0.059104204
899664150.9434 0.99746299 -0.060685307 0.0017385446 0.029741995 0.0017480245 0.030010467 0.99706793 -0.059716016
909660377.35849 0.99742031 -0.061342388 0.0017570811 0.030113481 0.001808763 0.030336032 0.99718589 -0.060591236
919656603.77358 0.99753743 -0.062010065 0.0017807316 0.030377457 0.0018018498 0.030677959 0.99721533 -0.061489254
929652830.18868 0.99749041 -0.062809527 0.0018048845 0.030724743 0.0018272046 0.031039115 0.99704754 -0.062399238
939649056.60377 0.99768829 -0.063394904 0.0018037185 0.031038238 0.001841736 0.031313084 0.99691653 -0.063083053
949645283.01887 0.99771821 -0.064251274 0.0018248112 0.031402227 0.0018589798 0.031682514 0.99671549 -0.063662812
959641509.43396 0.99760306 -0.064907372 0.0018544411 0.03174277 0.0018768739 0.032036699 0.99663508 -0.064160436
969637735.84906 0.99755049 -0.065623015 0.0019073756 0.032080129 0.0019557895 0.032381475 0.99660552 -0.064456224
979633962.26415 0.99729389 -0.066335998 0.0019506102 0.032399356 0.001989946 0.032687396 0.99670261 -0.065220244
989630188.67925 0.99741489 -0.066857845 0.0020064097 0.032723792 0.0020273551 0.033057757 0.99683797 -0.065854698
999626415.09434 0.99744087 -0.067431003 0.0020192601 0.033041388 0.0020629689 0.033394791 0.99680769 -0.066635489
1009622641.5094 0.99743199 -0.068092778 0.0020528296 0.033380132 0.0020879619 0.033727262 0.99667388 -0.067469448
1019618867.9245 0.99750674 -0.06899409 0.0020957571 0.033718593 0.0021704296 0.034029178 0.99638069 -0.068335533
1029615094.3396 0.99750185 -0.069908261 0.0021841461 0.034010287 0.0022185398 0.034356859 0.99608976 -0.068888724
1039611320.7547 0.99759245 -0.070737094 0.0022060964 0.034321465 0.0022479557 0.034641407 0.99592793 -0.069559067
1049607547.1698 0.99740434 -0.071641207 0.0022240712 0.034642614 0.0022936019 0.034959991 0.99599648 -0.070201814
1059603773.5849 0.99730366 -0.072363108 0.0022489363 0.034916926 0.002310832 0.035260495 0.99594241 -0.070717335
1069600000 0.997069 -0.073013574 0.0022781081 0.03522592 0.0022952668 0.035612922 0.99614322 -0.071393847
1079596226.4151 0.99702865 -0.073647313 0.0022802665 0.035568826 0.002336794 0.035922445 0.99605602 -0.072195753
1089592452.8302 0.99709243 -0.074278355 0.002297936 0.035925388 0.0023859106 0.036250986 0.99601674 -0.072960734
1099588679.2453 0.99706024 -0.07501471 0.0023312811 0.036211088 0.0024179891 0.036570739 0.99563324 -0.073565722
1109584905.6604 0.99725038 -0.075772569 0.0023608236 0.036583278 0.0024236543 0.036925845 0.99541551 -0.074151844
1119581132.0755 0.99711978 -0.07676895 0.0023453115 0.036933377 0.002470905 0.037289672 0.99522394 -0.074596718
1129577358.4906 0.99699736 -0.077495962 0.0024059806 0.037276134 0.0024930015 0.037629515 0.99505687 -0.07500872
1139573584.9057 0.99670911 -0.078445554 0.0024478426 0.03758638 0.0025536986 0.038029511 0.99523753 -0.075695276
1149569811.3208 0.99663156 -0.079252809 0.0025212693 0.037936985 0.002627936 0.038306739 0.99533063 -0.076356441
1159566037.7358 0.99640727 -0.079889715 0.002533026 0.03823217 0.0026313616 0.038592678 0.99541289 -0.07746765
1169562264.1509 0.99626863 -0.080564916 0.0025454219 0.038563795 0.0026469156 0.038929295 0.99529183 -0.078235954
1179558490.566 0.99620473 -0.081335835 0.0025710645 0.038923394 0.0026897809 0.039299525 0.99510032 -0.078942105
1189554716.9811 0.99624604 -0.082147628 0.0026097642 0.03930356 0.0027129985 0.03968548 0.99482685 -0.07950893
1199550943.3962 0.99606574 -0.08291927 0.002639275 0.039652105 0.0027665067 0.040034249 0.99468756 -0.079887062
1209547169.8113 0.99595279 -0.083806366 0.0027006362 0.039971359 0.0028031301 0.040319484 0.99455541 -0.080261648
1219543396.2264 0.99571186 -0.084590629 0.0027486291 0.040349182 0.0028906139 0.040699888 0.99462289 -0.080633655
1229539622.6415 0.99550664 -0.085419565 0.0028327983 0.040660463 0.0029566456 0.041061044 0.99478984 -0.081351906
1239535849.0566 0.99526697 -0.086130649 0.002885161 0.040974244 0.0030009169 0.041341875 0.99492812 -0.082230777
1249532075.4717 0.99490756 -0.086806528 0.0029091968 0.041273508 0.0030749515 0.041657656 0.99468994 -0.083111279
1259528301.8868 0.99473631 -0.087354749 0.0029892977 0.041619275 0.0031052791 0.0419719 0.99446428 -0.083976984
1269524528.3019 0.99455822 -0.088045955 0.003051674 0.04192622 0.0032098852 0.042261541 0.99421954 -0.084642112
1279520754.717 0.99421859 -0.088722661 0.0031117019 0.042235166 0.0032545489 0.042531855 0.99398321 -0.085187525
1289516981.1321 0.9940865 -0.089522034 0.0030784877 0.042532757 0.0032673227 0.04281329 0.99402761 -0.085621864
1299513207.5472 0.9937607 -0.09038344 0.0031461846 0.042857744 0.0032606646 0.043167252 0.99413693 -0.086004704
1309509433.9623 0.99340194 -0.091106966 0.0031475462 0.043158937 0.0033117188 0.043460686 0.99426043 -0.086808443
1319505660.3774 0.99292272 -0.091814861 0.0031501865 0.043493479 0.0033119405 0.043787535 0.99435234 -0.087363198
1329501886.7925 0.99269867 -0.092445463 0.0031578038 0.043792576 0.0033045374 0.044126391 0.99431479 -0.088287473
1339498113.2075 0.99227482 -0.093098968 0.0031945202 0.04409945 0.0033410182 0.044440698 0.99391133 -0.089094371
1349494339.6226 0.99221891 -0.093625806 0.003176189 0.044452045 0.0033160918 0.044782761 0.99345255 -0.08963225
1359490566.0377 0.99200517 -0.0942173 0.003182169 0.044831932 0.0033440366 0.045167413 0.99334455 -0.090263903
1369486792.4528 0.99190772 -0.094689518 0.0031889994 0.045212597 0.0033657188 0.045475915 0.99322534 -0.090698332
1379483018.8679 0.99159545 -0.095225826 0.0032199621 0.04557842 0.0033701647 0.045848109 0.99310756 -0.09100806
1389479245.283 0.99128222 -0.095831603 0.0033033174 0.045925941 0.0033963174 0.0462371 0.99316674 -0.091665238
1399475471.6981 0.99081767 -0.096146941 0.003268661 0.046305254 0.0033950638 0.046612978 0.99335277 -0.092395723
1409471698.1132 0.99050379 -0.096562855 0.0033430683 0.046673473 0.0034727431 0.046950322 0.99334294 -0.093240842
1419467924.5283 0.99031699 -0.096803397 0.0033630216 0.04702346 0.0034530852 0.047340177 0.99318081 -0.093967438
1429464150.9434 0.99023974 -0.097268522 0.0033968277 0.047451783 0.0034786388 0.047779739 0.99304825 -0.094483942
1439460377.3585 0.99033809 -0.09777014 0.0034697866 0.047911391 0.0035537584 0.048187174 0.99281406 -0.094832659
1449456603.7736 0.9903664 -0.098301664 0.0035965918 0.048292592 0.0036503989 0.048617031 0.9927277 -0.095227778
1459452830.1887 0.99042094 -0.098997056 0.0037228782 0.048689425 0.0037796237 0.048977014 0.99282581 -0.09549126
1469449056.6038 0.99043548 -0.099663794 0.0038775988 0.049045328 0.003922388 0.049357224 0.99303621 -0.096156508
1479445283.0189 0.99029183 -0.10028183 0.0040062512 0.049330093 0.0040348214 0.049636852 0.99314612 -0.096992269
1489441509.434 0.99014819 -0.10068968 0.004157668 0.049613632 0.0041935779 0.049966812 0.99293655 -0.097926468
1499437735.8491 0.99008757 -0.10112762 0.0042509902 0.049916029 0.0042966679 0.050251417 0.99290413 -0.098783314
1509433962.2642 0.99001741 -0.10155471 0.0043565147 0.050201196 0.0043971334 0.050514411 0.99267673 -0.099487767
1519430188.6792 0.99018192 -0.10210982 0.0044153035 0.050454598 0.0044134967 0.050776102 0.99257499 -0.099917352
1529426415.0943 0.99004525 -0.10281676 0.0044818539 0.05074998 0.0044883583 0.051080875 0.9925245 -0.10047546
1539422641.5094 0.99006522 -0.10362525 0.0045435112 0.05103936 0.0045338492 0.051388685 0.99260253 -0.10094202
1549418867.9245 0.98996055 -0.10447474 0.0046009468 0.05130269 0.004584657 0.051661089 0.99277103 -0.10163574
1559415094.3396 0.98987091 -0.10515416 0.0046394821 0.051599409 0.0046536773 0.051981777 0.99290085 -0.10219762
1569411320.7547 0.98966229 -0.10587154 0.0046770032 0.051877998 0.0046931375 0.052262831 0.99285311 -0.10305737
1579407547.1698 0.98969233 -0.10632147 0.0046708896 0.052150741 0.0047445823 0.052552782 0.99238455 -0.10398723
1589403773.5849 0.98959315 -0.10688078 0.0046989471 0.052460045 0.004687909 0.052843727 0.99220335 -0.10471413
1599400000 0.98953271 -0.10738483 0.0046986965 0.052747365 0.004710868 0.053134479 0.99178499 -0.10517189
1609396226.4151 0.98953754 -0.10808066 0.004682201 0.053103689 0.0046902183 0.05346965 0.99162412 -0.10559733
1619392452.8302 0.98942578 -0.10861221 0.0046654902 0.053471789 0.0046855789 0.053797849 0.99157321 -0.10618281
1629388679.2453 0.98926514 -0.10930407 0.0047410075 0.053768057 0.0047016051 0.054204237 0.99187535 -0.10654718
1639384905.6604 0.98901469 -0.10998298 0.0047053522 0.054133467 0.004688832 0.054578222 0.99208438 -0.10742822
1649381132.0755 0.9888646 -0.1106317 0.0047225785 0.054492172 0.0047506336 0.054921459 0.99213439 -0.10832733
1659377358.4906 0.98867702 -0.11147594 0.0047563184 0.054870699 0.0047840532 0.055293236 0.99196464 -0.1092566
1669373584.9057 0.98856807 -0.11185042 0.0047954051 0.055291452 0.0047955913 0.055647209 0.9916684 -0.10994579
1679369811.3208 0.98863006 -0.11249605 0.0048608687 0.055609457 0.0048384648 0.056061622 0.99147737 -0.11054349
1689366037.7358 0.9886052 -0.11315906 0.0048964005 0.055956021 0.004887335 0.056445375 0.9912855 -0.1108081
1699362264.1509 0.98875046 -0.11386436 0.0049541947 0.056342352 0.00494105 0.056814257 0.99156153 -0.11115998
1709358490.566 0.98860157 -0.11448221 0.0049775736 0.056754388 0.0049961936 0.057198323 0.99148083 -0.11171225
1719354716.9811 0.98836827 -0.11498573 0.0050375946 0.057121158 0.0050701927 0.057604246 0.99154943 -0.11241415
1729350943.3962 0.98810071 -0.1156165 0.0051127095 0.057512879 0.0051359739 0.058000483 0.99160159 -0.11325303
