!Keysight Technologies,N5222B,MY61253708,A.15.00.15
!Date: Wednesday, June 19, 2024 08:56:01
!Correction: S11(C  2-Port  ) 
!S21(C  2-Port  ) 
!S12(C  2-Port  ) 
!S22(C  2-Port  ) 
!S2P File: Measurements: S11, S21, S12, S22:
# Hz S  RI   R 50
10000000 0.99862099 -0.0023392737 0.00010197306 0.00048491804 -4.1043066e-005 0.0007127992 0.99856699 -0.00070258975
19996226.415094 0.99908698 -0.0020135343 1.6500417e-006 0.00069915951 -5.9669837e-005 0.00074546924 0.99898612 -0.0021831095
29992452.830189 0.99972457 -0.0024924278 -7.3001385e-005 0.0010742772 -2.6380003e-005 0.0010792245 0.99944448 -0.0026728213
39988679.245283 1.0000666 -0.0031652749 3.3212069e-005 0.0014154274 -2.224755e-006 0.0014489616 0.99963456 -0.0033099353
49984905.660377 1.0001047 -0.0039457083 4.3569249e-005 0.0017946465 -2.3519271e-005 0.0018125564 0.99973643 -0.0038922131
59981132.075472 1.0003088 -0.0047530234 1.9202766e-005 0.0022162888 -1.7977436e-006 0.002146258 0.99970394 -0.0044057667
69977358.490566 1.0000771 -0.0053059105 3.1710195e-005 0.0025261878 2.0717664e-005 0.0025652461 0.99959075 -0.0049053691
79973584.90566 0.99980938 -0.0058786273 3.3550547e-005 0.0028528483 2.2038119e-005 0.002893511 0.99937201 -0.0054821074
89969811.320755 0.99984241 -0.0061332881 2.3261178e-005 0.003272037 7.1396353e-006 0.0032609794 0.99949354 -0.0058215857
99966037.735849 1.0000302 -0.0069016963 9.1545517e-006 0.0036149418 3.4712604e-005 0.0036465679 0.99951994 -0.0066414773
109962264.15094 1.0000185 -0.0078813285 3.117451e-005 0.0039537963 5.5135926e-005 0.0039867535 0.99957877 -0.0074924827
119958490.56604 1.0001007 -0.0088536441 2.5079818e-005 0.0043436028 4.7493959e-005 0.0043693893 0.99959171 -0.0084252059
129954716.98113 1.0000249 -0.009906441 2.2702268e-005 0.0047018989 4.7352281e-005 0.0047147316 0.99960738 -0.0094203055
139950943.39623 0.99995679 -0.010755438 6.2415536e-005 0.0050511998 3.1222356e-005 0.0050894436 0.99945945 -0.010169689
149947169.81132 0.99978739 -0.011493504 7.2750729e-005 0.0054268562 5.7654455e-005 0.0054368549 0.99943233 -0.010793924
159943396.22642 0.99984539 -0.011962026 8.4140571e-005 0.0057756947 7.7616656e-005 0.0058145942 0.9994998 -0.011278749
169939622.64151 0.99980485 -0.012370273 7.3513831e-005 0.0061259004 8.6173415e-005 0.006170772 0.99957991 -0.011764698
179935849.0566 0.99987966 -0.012724578 8.2514482e-005 0.0065269442 7.4283918e-005 0.0065535493 0.9995271 -0.012181282
189932075.4717 0.99995804 -0.0134978 9.1159251e-005 0.0068349168 0.00010070368 0.0068959789 0.99970269 -0.012797147
199928301.88679 0.99996477 -0.014331669 7.8571029e-005 0.0072263451 9.5451018e-005 0.0072964346 0.99959129 -0.013743132
209924528.30189 0.9996841 -0.015104607 0.00012329058 0.0075891409 0.00011768274 0.0075984024 0.99933791 -0.014475003
219920754.71698 0.99962699 -0.016015679 0.00013435865 0.0079416512 0.00015554577 0.0079943631 0.99918962 -0.015216559
229916981.13208 0.99932295 -0.016894668 0.00015433668 0.0082926378 0.00014664838 0.0083382092 0.99907577 -0.016029596
239913207.54717 0.99923742 -0.017644938 0.00015201916 0.0086459955 0.00015505672 0.0087181078 0.99909836 -0.016738541
249909433.96226 0.99934578 -0.018250972 0.00017783325 0.0089994706 0.00018111849 0.0090562403 0.99920291 -0.017407179
259905660.37736 0.99945092 -0.018813103 0.00013823854 0.0093958527 0.00016624527 0.0094440104 0.99943316 -0.018018216
269901886.79245 0.99954963 -0.019531801 0.00018214155 0.0097476281 0.00018986082 0.0097884033 0.99977964 -0.018772662
279898113.20755 0.99973232 -0.020348579 0.00018543145 0.010070503 0.00023476686 0.010153593 0.99958682 -0.019602299
289894339.62264 0.99967766 -0.021061182 0.00021374179 0.010473329 0.0002114675 0.010503951 0.99946737 -0.020322233
299890566.03774 0.99956453 -0.021670163 0.00028937636 0.010770557 0.00022586272 0.010893105 0.99924451 -0.020879596
309886792.45283 0.99927759 -0.022253335 0.00026746816 0.011175136 0.00023949717 0.011200531 0.99901587 -0.021304309
319883018.86792 0.99925172 -0.022862554 0.00028759334 0.011530751 0.00031344034 0.01163947 0.99903387 -0.021834046
329879245.28302 0.99916792 -0.023624212 0.00029173167 0.011869429 0.00029983977 0.011949428 0.99920571 -0.02260831
339875471.69811 0.99907434 -0.024339542 0.00028940802 0.012270577 0.00025541557 0.012299581 0.99912626 -0.023386948
349871698.11321 0.99927944 -0.025324732 0.00032956759 0.012621705 0.00029597525 0.01268889 0.99914914 -0.024351329
359867924.5283 0.99926037 -0.026056617 0.00035596639 0.012968772 0.00033974554 0.013074594 0.99921453 -0.025292307
369864150.9434 0.99934137 -0.026884079 0.00040169456 0.013330774 0.00034565129 0.013409777 0.99918443 -0.026133239
379860377.35849 0.99922156 -0.027698725 0.00039757835 0.013699299 0.00035699201 0.013804139 0.99901831 -0.026790723
389856603.77358 0.99917972 -0.028327823 0.00042239856 0.014050353 0.00044631073 0.014123684 0.99907076 -0.027290523
399852830.18868 0.99905181 -0.028916121 0.0004510521 0.01440751 0.00042629102 0.014460003 0.99924791 -0.02769798
409849056.60377 0.9990021 -0.029268637 0.00049478328 0.014768563 0.00044938375 0.01478752 0.99919957 -0.028239602
419845283.01887 0.99897313 -0.029817522 0.00049296208 0.015098963 0.00049705151 0.015239766 0.99921215 -0.028820395
429841509.43396 0.9990561 -0.030517131 0.00051172217 0.015497757 0.00050990144 0.015572246 0.99935317 -0.029611766
439837735.84906 0.99897742 -0.03138718 0.00052644615 0.015842503 0.00055967737 0.015942359 0.99916774 -0.030596152
449833962.26415 0.99886233 -0.032316923 0.00054659322 0.016140837 0.00053953333 0.01626881 0.99879456 -0.031531632
459830188.67925 0.99876404 -0.033179522 0.00054656249 0.016517119 0.00054365862 0.016630452 0.99863803 -0.032247066
469826415.09434 0.9987241 -0.034019142 0.00058075506 0.016883327 0.00058573904 0.017001953 0.99845058 -0.032857835
479822641.50943 0.99858135 -0.034575574 0.0006070477 0.017265944 0.00058172527 0.017366309 0.99847686 -0.033408597
489818867.92453 0.9985584 -0.035198331 0.00064364076 0.017638817 0.00065508951 0.017709434 0.9987855 -0.033986896
499815094.33962 0.99880284 -0.035759747 0.00069678482 0.017977355 0.00065295445 0.018096738 0.99906272 -0.034639597
509811320.75472 0.99889314 -0.036221944 0.00066921371 0.018325754 0.0006397838 0.018508241 0.99918139 -0.035544179
519807547.16981 0.99879992 -0.036812127 0.00071970653 0.018707879 0.00072147604 0.018802702 0.99914855 -0.036343992
529803773.58491 0.99882966 -0.037558198 0.0007143002 0.019039489 0.00073064305 0.019171977 0.99887168 -0.036994487
539800000 0.99865305 -0.038286746 0.00076218601 0.019394662 0.00074789138 0.019533323 0.99866241 -0.037633985
549796226.41509 0.99862087 -0.039201647 0.00077169714 0.019759884 0.00075323321 0.019924356 0.99844408 -0.038193256
559792452.83019 0.99836779 -0.039859205 0.00082416274 0.020147171 0.00077549648 0.020246465 0.99832952 -0.038798064
569788679.24528 0.99811673 -0.040599227 0.00081615429 0.020465679 0.00081152143 0.020611487 0.99850345 -0.039563954
579784905.66038 0.99819046 -0.041215867 0.00087266858 0.020865072 0.00083839591 0.021024385 0.99857742 -0.040316202
589781132.07547 0.99830198 -0.041915208 0.00084106158 0.02121646 0.00091421977 0.021367498 0.99871004 -0.041162372
599777358.49057 0.99844456 -0.042650759 0.0009701848 0.021590671 0.00093967468 0.021729598 0.99874926 -0.042107821
609773584.90566 0.99856508 -0.043391503 0.00098967156 0.021926243 0.00099685066 0.022102853 0.99868089 -0.043044619
619769811.32075 0.99863267 -0.044084132 0.0010483051 0.022337865 0.0010386929 0.022420878 0.99852532 -0.043515235
629766037.73585 0.99838448 -0.044764429 0.0011180779 0.022603624 0.0010913238 0.022764273 0.99830997 -0.044117868
639762264.15094 0.99827832 -0.045465067 0.0011022126 0.022952946 0.0010923247 0.023091136 0.99808627 -0.044539794
649758490.56604 0.99808252 -0.046023056 0.0011208928 0.02326473 0.0010981848 0.023441436 0.99818027 -0.044948325
659754716.98113 0.99785882 -0.046535522 0.0010896372 0.02367606 0.001107824 0.023839064 0.99828571 -0.045544356
669750943.39623 0.99794233 -0.047089189 0.0011314172 0.024018537 0.0011237501 0.02425006 0.99828726 -0.046468198
679747169.81132 0.99795157 -0.04790685 0.0011805517 0.024423543 0.0011761325 0.024595929 0.99830723 -0.047430642
689743396.22642 0.99817044 -0.04875645 0.0012239022 0.024732871 0.0012251055 0.024925634 0.99813777 -0.048422575
699739622.64151 0.99826396 -0.049584925 0.0012814542 0.025142428 0.0012795972 0.025299687 0.99798441 -0.0491831
709735849.0566 0.9981972 -0.050580099 0.0013249242 0.025462871 0.0013429819 0.025626941 0.99771136 -0.049840532
719732075.4717 0.99800014 -0.05127275 0.0013496466 0.025806893 0.0013517523 0.025966367 0.99783099 -0.050406605
729728301.88679 0.99803472 -0.051866412 0.0014244681 0.026163749 0.0014233859 0.026357772 0.99790615 -0.050801933
739724528.30189 0.99784887 -0.052477345 0.0014491733 0.026519986 0.0014708159 0.026703469 0.99802625 -0.051567405
749720754.71698 0.99772173 -0.053021193 0.0014592581 0.026840454 0.0014945474 0.027081154 0.99808431 -0.052316979
759716981.13208 0.99776387 -0.053495288 0.001520101 0.027193118 0.0014966344 0.027411699 0.99804878 -0.053062499
769713207.54717 0.9977119 -0.054365069 0.0015645595 0.027559539 0.0015252875 0.027760884 0.99776053 -0.053847551
779709433.96226 0.99782252 -0.054984845 0.0015988851 0.027945749 0.0015641237 0.028094959 0.99744511 -0.05450787
789705660.37736 0.99778461 -0.055924684 0.0016318541 0.028250858 0.0016262438 0.028442292 0.99730933 -0.055217981
799701886.79245 0.9976176 -0.05685401 0.0016604746 0.028587446 0.0016477369 0.028800221 0.99714798 -0.055865705
809698113.20755 0.99760157 -0.057447284 0.0017071678 0.02890585 0.0017011138 0.029146038 0.99717182 -0.056349769
819694339.62264 0.99743998 -0.058151037 0.0017259158 0.029277097 0.0017196084 0.029504744 0.99735761 -0.057055771
829690566.03774 0.99750137 -0.0588319 0.0017981064 0.029639022 0.0017715627 0.029865567 0.99765885 -0.057948411
839686792.45283 0.99751836 -0.059259176 0.001758608 0.030007431 0.0018057832 0.030217666 0.99762303 -0.058835804
849683018.86792 0.99765289 -0.059896812 0.0018035362 0.030353986 0.0018450026 0.0305737 0.99747485 -0.059541374
859679245.28302 0.99761665 -0.06056869 0.0018849578 0.030725671 0.0018677609 0.0309215 0.99727082 -0.060257882
869675471.69811 0.99759614 -0.061433434 0.0019340562 0.031062631 0.0019266233 0.031261593 0.99680853 -0.060803711
879671698.11321 0.99735653 -0.062174901 0.0019799147 0.031371348 0.0019757398 0.03161405 0.99681377 -0.061231777
889667924.5283 0.99721432 -0.063013583 0.0019806921 0.031726301 0.0020064618 0.031939648 0.99666852 -0.061835825
899664150.9434 0.99694496 -0.063782692 0.002030611 0.032088991 0.002023166 0.032303981 0.99668396 -0.062447101
909660377.35849 0.99694657 -0.064465791 0.0020879116 0.032440193 0.0020930455 0.032662854 0.99685585 -0.063490346
919656603.77358 0.9970693 -0.065170735 0.0020910525 0.032750651 0.0021002055 0.03301923 0.99687082 -0.064416364
929652830.18868 0.99704123 -0.06595546 0.002151805 0.033109978 0.0021668598 0.033350613 0.99666446 -0.065274596
939649056.60377 0.99722123 -0.06667614 0.0021532429 0.033438932 0.0021876711 0.033689529 0.99650162 -0.066092014
949645283.01887 0.99716836 -0.067488223 0.0021567973 0.033814132 0.0021901797 0.034045741 0.99624729 -0.066606559
959641509.43396 0.99710256 -0.068155676 0.0022035008 0.034193769 0.0022367211 0.034442667 0.9962365 -0.067093998
969637735.84906 0.99696398 -0.06895417 0.0022758013 0.034544773 0.0022555711 0.03482002 0.9961952 -0.067477733
979633962.26415 0.9967773 -0.069688365 0.0023403899 0.034908574 0.0023261055 0.035148416 0.99623221 -0.068195499
989630188.67925 0.99679381 -0.07024461 0.0023451792 0.035252735 0.0023805359 0.035536494 0.99634308 -0.068800688
999626415.09434 0.99683201 -0.07084015 0.0023731887 0.035597276 0.0024210569 0.035891674 0.99629056 -0.069676995
1009622641.5094 0.9968698 -0.071565703 0.0024347818 0.035972096 0.0024818219 0.03623341 0.99611348 -0.07061933
1019618867.9245 0.99697191 -0.072522938 0.0024929466 0.036340088 0.0025358088 0.036629476 0.99590582 -0.071546361
1029615094.3396 0.99690658 -0.073513448 0.0025480874 0.036646768 0.0026080571 0.036942258 0.99546826 -0.072125912
1039611320.7547 0.99696541 -0.074371666 0.0025812769 0.03696008 0.0026300447 0.03725994 0.99544197 -0.072845817
1049607547.1698 0.99676681 -0.075350307 0.0026472327 0.037323691 0.0026899558 0.037621047 0.99541467 -0.073390692
1059603773.5849 0.9966464 -0.076074362 0.0026881006 0.037630342 0.0027050423 0.037947379 0.9953925 -0.073975027
1069600000 0.9964636 -0.076610088 0.0026815683 0.037953615 0.0027484559 0.038277127 0.99559081 -0.074754059
1079596226.4151 0.99626827 -0.077377476 0.002730622 0.038330071 0.0027829451 0.038630828 0.995547 -0.07556764
1089592452.8302 0.99637067 -0.077964962 0.0027470449 0.038679469 0.0028088987 0.038988374 0.99545389 -0.076298863
1099588679.2453 0.99641055 -0.078643292 0.0027578603 0.03905274 0.0028252155 0.039319791 0.99501574 -0.076953977
1109584905.6604 0.99653506 -0.079575539 0.0027924236 0.039443966 0.0028857132 0.03972223 0.99485803 -0.077490315
1119581132.0755 0.99647999 -0.080553323 0.0027933922 0.039791815 0.0028917813 0.040092476 0.99461979 -0.077952661
1129577358.4906 0.9962821 -0.081367075 0.0028740261 0.04017562 0.0029315203 0.040483758 0.9945026 -0.0784356
1139573584.9057 0.9959603 -0.082437813 0.0029294919 0.04049943 0.0029885871 0.040855385 0.99461907 -0.079152882
1149569811.3208 0.99587679 -0.083280079 0.0029991313 0.040850025 0.0030664448 0.041196641 0.99472839 -0.080015987
1159566037.7358 0.99557197 -0.083897054 0.0030616708 0.041175924 0.0031268168 0.04150828 0.99478734 -0.081063092
1169562264.1509 0.99543476 -0.084578902 0.0030506961 0.041541733 0.0031492524 0.041871265 0.99465692 -0.081917971
1179558490.566 0.99536681 -0.085454434 0.0030609367 0.041953828 0.0031905451 0.042250875 0.99447334 -0.082578905
1189554716.9811 0.99539471 -0.086076558 0.00313251 0.042293001 0.0032228157 0.042582601 0.99419272 -0.083128005
1199550943.3962 0.99532795 -0.087011218 0.0031818934 0.04268162 0.0032753702 0.042982385 0.9939996 -0.083492577
1209547169.8113 0.99512893 -0.087931797 0.0032372773 0.043023914 0.003315324 0.04331404 0.99396491 -0.083906189
1219543396.2264 0.99495667 -0.088834666 0.0033183205 0.043402106 0.0034133 0.043729208 0.99392176 -0.084339187
1229539622.6415 0.99462831 -0.089645565 0.0033561867 0.043769509 0.0034787618 0.044071823 0.99410081 -0.085093796
1239535849.0566 0.99440944 -0.09025681 0.0034211157 0.044111934 0.003580261 0.04442938 0.99416441 -0.086027443
1249532075.4717 0.99403381 -0.090964533 0.0035031333 0.044435125 0.0036332009 0.044734482 0.99397576 -0.086913496
1259528301.8868 0.99382472 -0.091508955 0.0035307184 0.044818461 0.0036977474 0.04508413 0.99373615 -0.087787747
1269524528.3019 0.99366516 -0.092326581 0.0036443677 0.045139384 0.0037687048 0.045411572 0.99354517 -0.088514656
1279520754.717 0.99334246 -0.093107849 0.0036736757 0.045460049 0.0038179171 0.045687556 0.99325007 -0.089153044
1289516981.1321 0.9931882 -0.093986481 0.0037034992 0.045765731 0.0038389182 0.046016801 0.99332559 -0.089586526
1299513207.5472 0.99275434 -0.094891667 0.0037208479 0.046089482 0.0038805623 0.046396308 0.993397 -0.089992434
1309509433.9623 0.99234962 -0.09553872 0.0037139943 0.04644639 0.0039072325 0.046710417 0.99347514 -0.090703815
1319505660.3774 0.9919368 -0.096312061 0.0037730131 0.046794839 0.0039327219 0.047039129 0.99354225 -0.091335207
1329501886.7925 0.99163687 -0.096937448 0.0037940759 0.047138341 0.0039326865 0.047394253 0.99350125 -0.092435509
1339498113.2075 0.99138784 -0.097367048 0.0038071247 0.047506124 0.0039635636 0.047746919 0.99307227 -0.093189895
1349494339.6226 0.99117315 -0.098092042 0.003789132 0.047856554 0.0039330991 0.048099782 0.99266738 -0.093855664
1359490566.0377 0.99100101 -0.098839134 0.0038378295 0.048235931 0.0039855149 0.048463807 0.99243903 -0.09438923
1369486792.4528 0.99081933 -0.099352658 0.003872307 0.048646711 0.003966989 0.048847135 0.99224222 -0.094822377
1379483018.8679 0.99050081 -0.099938348 0.0039023226 0.049030956 0.0040138699 0.049234215 0.99227977 -0.095263928
1389479245.283 0.99017704 -0.10043463 0.0039550159 0.049432836 0.004029803 0.049621865 0.99226105 -0.095914483
1399475471.6981 0.98976183 -0.10082945 0.003947109 0.049816802 0.0040935092 0.05000443 0.99240828 -0.096625865
1409471698.1132 0.98940533 -0.10128176 0.0040272926 0.050237656 0.0040972922 0.050448105 0.9924497 -0.097426765
1419467924.5283 0.98926091 -0.10163048 0.0040361192 0.050617471 0.0041162241 0.050852329 0.99222028 -0.09817341
1429464150.9434 0.98910785 -0.10198271 0.0041219071 0.051042087 0.0041980818 0.051239893 0.99209666 -0.098778158
1439460377.3585 0.98920965 -0.10246505 0.0041791666 0.051526237 0.0042504603 0.051715817 0.99186027 -0.099143907
1449456603.7736 0.98917222 -0.1030429 0.0043359604 0.051947299 0.0043828934 0.052158568 0.99169862 -0.09947069
1459452830.1887 0.98920768 -0.10377395 0.0044829734 0.052380614 0.0045165047 0.052573033 0.99183029 -0.099841058
1469449056.6038 0.98928148 -0.10458696 0.0046543423 0.052728795 0.0046560504 0.052963182 0.99201202 -0.10055023
1479445283.0189 0.98915619 -0.10523641 0.0047651432 0.053019397 0.0048183631 0.053291071 0.99213219 -0.10151902
1489441509.434 0.98896348 -0.10572645 0.0048944727 0.05334945 0.0049296971 0.05363334 0.99195063 -0.10232058
1499437735.8491 0.98879719 -0.1061343 0.0050286967 0.053664569 0.0050683953 0.053923808 0.99188095 -0.10326359
1509433962.2642 0.98879117 -0.10655428 0.0051263398 0.053987328 0.0051499307 0.054227695 0.99164295 -0.10402106
1519430188.6792 0.98879659 -0.10710409 0.0052047689 0.054284405 0.0052362438 0.054478187 0.99147922 -0.10461676
1529426415.0943 0.98888338 -0.10784641 0.0052916612 0.054544397 0.0052646715 0.054792427 0.99137843 -0.10506535
1539422641.5094 0.98894215 -0.10863407 0.005333446 0.054904357 0.005341507 0.055182517 0.99148774 -0.10550718
1549418867.9245 0.98866808 -0.10955919 0.0054020677 0.055186473 0.0054363143 0.055481579 0.99166083 -0.10623489
1559415094.3396 0.98858196 -0.11020184 0.0054796077 0.055497944 0.0054425672 0.05580553 0.99183589 -0.10696602
1569411320.7547 0.98830819 -0.11112081 0.0055158501 0.055798642 0.0054976828 0.05611214 0.99166375 -0.10772794
1579407547.1698 0.98831439 -0.11162816 0.0055757947 0.056096379 0.0055518085 0.056412984 0.99130934 -0.10874784
1589403773.5849 0.98819435 -0.1121802 0.0055537149 0.05644878 0.0055631008 0.056696527 0.99103105 -0.10943887
1599400000 0.98819095 -0.11259556 0.0055358931 0.056751404 0.0055367723 0.057077691 0.99071872 -0.1099056
1609396226.4151 0.98818785 -0.11331394 0.0055719302 0.057092529 0.0055440608 0.057405002 0.99050707 -0.11047353
1619392452.8302 0.98814631 -0.11394328 0.0056169908 0.057497919 0.0055305883 0.057758398 0.99049604 -0.11088091
1629388679.2453 0.98795295 -0.11468208 0.0056205969 0.057857752 0.0055761989 0.058196358 0.99071145 -0.11149761
1639384905.6604 0.98770177 -0.11543508 0.0056142844 0.058195893 0.0055729821 0.058599241 0.99090093 -0.11231191
1649381132.0755 0.98738927 -0.11610186 0.0056607705 0.058596466 0.0056215804 0.058957789 0.99086213 -0.11332586
1659377358.4906 0.98719633 -0.11689439 0.0056610368 0.059062243 0.0056521967 0.059387073 0.99085605 -0.11424431
1669373584.9057 0.98727983 -0.11734914 0.0057247221 0.059449516 0.0057145786 0.059762236 0.99048096 -0.11486454
1679369811.3208 0.98718965 -0.11799726 0.0057897326 0.059854086 0.0057413653 0.060176108 0.9902575 -0.11537167
1689366037.7358 0.98727214 -0.11866674 0.0058485866 0.060231537 0.005825147 0.060620904 0.99009514 -0.11579883
1699362264.1509 0.98734123 -0.11932905 0.0059364131 0.060601227 0.0058664754 0.061043978 0.99024457 -0.11625063
1709358490.566 0.98726308 -0.12008518 0.0060039936 0.061028294 0.0059743114 0.06144233 0.99021578 -0.11682124
1719354716.9811 0.98689222 -0.12072814 0.006095089 0.061429624 0.0060609374 0.061795279 0.9902392 -0.11748379
1729350943.3962 0.98657799 -0.1213395 0.0061604362 0.061836932 0.0061794668 0.062217198 0.99029362 -0.11846504
