!Keysight Technologies,N5222B,MY61253708,A.15.00.15
!Date: Wednesday, June 19, 2024 10:18:01
!Correction: S11(C  2-Port  ) 
!S21(C  2-Port  ) 
!S12(C  2-Port  ) 
!S22(C  2-Port  ) 
!S2P File: Measurements: S11, S21, S12, S22:
# Hz S  RI   R 50
10000000 0.9983058 -0.0031606257 0.00014036603 0.00048862246 -6.3426298e-005 0.00038054923 0.99825013 -0.0015612245
19996226.415094 1.0000273 -0.0025115609 7.523768e-005 0.00059806439 -1.4781486e-005 0.00061006541 1.0003259 -0.0022954941
29992452.830189 0.99969476 -0.0025070012 6.6239823e-005 0.00096206804 -1.1908414e-005 0.00097180909 0.99950659 -0.0026533306
39988679.245283 1.0000122 -0.0029871762 -2.8171591e-005 0.0013143617 1.6564314e-005 0.0013190056 0.99973392 -0.0030369908
49984905.660377 1.0002052 -0.0036686957 1.6989943e-005 0.0016732588 2.752099e-005 0.0016598704 0.9999069 -0.0035931766
59981132.075472 1.0003568 -0.004491061 -1.2663426e-005 0.001961655 8.1579201e-006 0.0019468026 0.99995828 -0.0041504204
69977358.490566 1.0002439 -0.0051179472 3.7701346e-005 0.0022777605 3.5362376e-005 0.0022716995 0.99977875 -0.0047395397
79973584.90566 0.99990261 -0.005690217 1.2058765e-005 0.002615002 4.9015507e-006 0.002589125 0.99942666 -0.0051730275
89969811.320755 0.9999454 -0.0057822168 2.5045825e-005 0.0029268684 -1.4462625e-005 0.0029448732 0.99969208 -0.0053830147
99966037.735849 1.0001721 -0.0064837337 2.6537338e-005 0.0032566378 4.4268265e-005 0.0032747688 0.99979192 -0.0061738491
109962264.15094 1.0001844 -0.0073500276 1.6906299e-005 0.0035918166 3.2629003e-005 0.003616808 0.99979007 -0.0069580972
119958490.56604 1.0002036 -0.0082699656 3.8104714e-005 0.0039198045 4.4935383e-005 0.0039405408 0.99981934 -0.0077559352
129954716.98113 1.0001991 -0.0091868937 3.0085212e-005 0.0042428928 4.5672292e-005 0.0042442712 0.99980122 -0.0086003244
139950943.39623 1.0000906 -0.009959884 3.2883821e-005 0.0045742514 3.7038364e-005 0.0045916834 0.99970293 -0.0093313493
149947169.81132 1.0000035 -0.010685205 3.2248674e-005 0.0049149897 3.9737439e-005 0.00492458 0.9996922 -0.0099396706
159943396.22642 0.99989635 -0.011223137 6.2101521e-005 0.0052168909 4.8155896e-005 0.0052420138 0.99972975 -0.010403425
169939622.64151 0.99987143 -0.011589386 5.3217635e-005 0.0055412087 5.9672515e-005 0.0055800211 0.99977398 -0.010843888
179935849.0566 0.99995559 -0.011828721 8.825236e-005 0.0058371387 7.6579629e-005 0.0058813863 0.99965549 -0.01123026
189932075.4717 1.0000266 -0.012620509 7.2674127e-005 0.0062119234 0.00010916521 0.0062342822 0.99988532 -0.011705428
199928301.88679 0.99995202 -0.013422191 0.00010450347 0.0065257316 0.00012231607 0.0065498212 0.99980867 -0.012665957
209924528.30189 0.9997372 -0.013972595 0.00010049029 0.0068553081 9.2370785e-005 0.0068642679 0.9995563 -0.013315499
219920754.71698 0.99988788 -0.014747262 0.00010220823 0.007185325 0.0001039824 0.0072030947 0.99945724 -0.013890892
229916981.13208 0.99972814 -0.015585721 0.00010451442 0.0074876873 0.00011743046 0.0075360145 0.99946284 -0.014663458
239913207.54717 0.99957812 -0.016334046 0.00014384148 0.0078136707 0.00012289414 0.0078636352 0.99942666 -0.015378233
249909433.96226 0.99957204 -0.016909063 0.00011712266 0.0081561161 0.00013856427 0.0081958715 0.99948603 -0.015948355
259905660.37736 0.9996556 -0.017518878 0.00015098788 0.0084732417 0.00016236166 0.0085205603 0.9996841 -0.016462356
269901886.79245 0.99983424 -0.018131003 0.00014090305 0.0088227214 9.0792309e-005 0.0088380724 1.0000497 -0.017171264
279898113.20755 0.9999246 -0.018788874 0.00016181706 0.0091473451 0.00013865088 0.0091898525 0.99984741 -0.017882437
289894339.62264 0.99986696 -0.019544512 0.00021262933 0.0094454568 0.00018668873 0.0095192119 0.99969208 -0.018731236
299890566.03774 0.99977696 -0.020063221 0.00021006656 0.0097675379 0.0001687312 0.009830636 0.99950171 -0.019110322
309886792.45283 0.99954897 -0.020567968 0.00020021125 0.01012942 0.00021442136 0.010144876 0.99944872 -0.019485071
319883018.86792 0.99972427 -0.021268666 0.00024288753 0.010456233 0.00019526109 0.010506607 0.99962264 -0.020021111
329879245.28302 0.99968773 -0.022074521 0.00021768454 0.010759985 0.00029241387 0.010780977 0.99973822 -0.020780325
339875471.69811 0.99946892 -0.022652492 0.00026863662 0.011055702 0.00021728233 0.011137958 0.99966955 -0.021574557
349871698.11321 0.99965453 -0.023609668 0.00027737045 0.011414068 0.00022044359 0.011452871 0.99966836 -0.022518128
359867924.5283 0.99946976 -0.024377197 0.00025057374 0.01173416 0.00028051296 0.01179521 0.99965286 -0.023391813
369864150.9434 0.99971676 -0.025140733 0.00031171646 0.012048404 0.00029860577 0.012147016 0.99964881 -0.024102718
379860377.35849 0.99953729 -0.025821134 0.00032360922 0.012427528 0.00032528327 0.012449448 0.99958879 -0.024816096
389856603.77358 0.99947083 -0.0263578 0.00032961834 0.012714446 0.00034705224 0.012750238 0.99948072 -0.025287479
399852830.18868 0.99933988 -0.027024776 0.00033205934 0.013036143 0.00036936859 0.013078994 0.99954748 -0.025875211
409849056.60377 0.99926984 -0.027415697 0.00039788586 0.013358369 0.00037175103 0.013384013 0.99948466 -0.026371656
419845283.01887 0.99919188 -0.027875841 0.00036725029 0.013669752 0.00040890276 0.01371985 0.9994216 -0.026940107
429841509.43396 0.99932313 -0.0285258 0.0004127617 0.014029907 0.00037506735 0.014076368 0.99953514 -0.027577966
439837735.84906 0.99919772 -0.029422566 0.00041280757 0.014331437 0.00043726282 0.01435007 0.99923193 -0.028697789
449833962.26415 0.99898142 -0.030244023 0.00040120771 0.014663358 0.00043814024 0.014701433 0.99882013 -0.029383451
459830188.67925 0.99887788 -0.030880809 0.00040349038 0.014960076 0.00043003308 0.015011746 0.99853981 -0.030069917
469826415.09434 0.99886113 -0.031573206 0.00048683584 0.015293731 0.00044165784 0.015358576 0.99826634 -0.030464858
479822641.50943 0.99878478 -0.032204002 0.00045286887 0.015624419 0.00047190674 0.015681583 0.99826974 -0.030869596
489818867.92453 0.99881148 -0.032629639 0.00048585422 0.015952535 0.00050353631 0.016024645 0.99850392 -0.031304538
499815094.33962 0.99894601 -0.033315837 0.00052568829 0.016294112 0.00052314391 0.016322207 0.9987545 -0.031856716
509811320.75472 0.9989301 -0.033681162 0.00055396301 0.016589094 0.00057210145 0.016640034 0.99897945 -0.032621484
519807547.16981 0.99891764 -0.034199089 0.00055649597 0.016919982 0.00058420608 0.017002482 0.99893296 -0.03327781
529803773.58491 0.99888557 -0.034772485 0.00059405901 0.01721302 0.00056145713 0.017319176 0.99877238 -0.033786803
539800000 0.99893999 -0.035421267 0.00058007007 0.017510323 0.00058678561 0.017626056 0.99864793 -0.034402087
549796226.41509 0.9987967 -0.036237597 0.0006129723 0.017905727 0.00061342819 0.017973937 0.99850047 -0.034817845
559792452.83019 0.99860597 -0.036957771 0.00063507911 0.018198263 0.00062087551 0.018311981 0.9984622 -0.035351902
569788679.24528 0.99856681 -0.037607431 0.00064003002 0.018533438 0.00065471279 0.018607682 0.99860996 -0.036025792
579784905.66038 0.99849397 -0.038144536 0.00069087686 0.01889785 0.00066449342 0.018958924 0.998757 -0.03674677
589781132.07547 0.99862099 -0.038848937 0.00069067441 0.019173414 0.00074108411 0.019274216 0.99892157 -0.037602186
599777358.49057 0.99876338 -0.039369643 0.0007539466 0.019514047 0.00073288474 0.019640042 0.99895751 -0.038334012
609773584.90566 0.99889874 -0.040165268 0.00078817958 0.019862706 0.00078095496 0.019918608 0.9987601 -0.039227165
619769811.32075 0.99894059 -0.040865153 0.00082394807 0.020165583 0.00082503725 0.020235507 0.99879324 -0.039701521
629766037.73585 0.99879134 -0.041517168 0.00083478913 0.020496909 0.00086154696 0.020570226 0.99863124 -0.040192783
639762264.15094 0.99863511 -0.042179137 0.00086225523 0.02080843 0.00088365586 0.020888146 0.9985497 -0.040711746
649758490.56604 0.99858278 -0.042701483 0.00089763897 0.021133708 0.00087962486 0.02119782 0.99862033 -0.04113777
659754716.98113 0.99847388 -0.04325518 0.00084534194 0.02146117 0.00089813024 0.021529695 0.99874765 -0.041704506
669750943.39623 0.99842197 -0.04372853 0.00088620512 0.021787187 0.00087410863 0.021870568 0.99878824 -0.042498529
679747169.81132 0.9984408 -0.044455752 0.00096376112 0.022124443 0.00096421537 0.022226447 0.99879086 -0.043425031
689743396.22642 0.9985925 -0.045326501 0.0010073287 0.022461075 0.00098452531 0.022546107 0.99861795 -0.044327229
699739622.64151 0.99868357 -0.046048552 0.0010244697 0.022765137 0.0010619918 0.022872962 0.99855506 -0.045042396
709735849.0566 0.99866235 -0.046931379 0.001046699 0.023066824 0.001038041 0.023151312 0.99835408 -0.045704424
719732075.4717 0.99858004 -0.047605962 0.0011075223 0.023388295 0.0010870313 0.023495462 0.99841613 -0.046324283
729728301.88679 0.99850565 -0.048143059 0.001120029 0.023699645 0.0011158036 0.023815937 0.99844205 -0.046764582
739724528.30189 0.9984017 -0.048844978 0.0011533769 0.024014039 0.0011545517 0.024135014 0.99855989 -0.047445551
749720754.71698 0.99831355 -0.049349889 0.0012205243 0.024327241 0.0011842805 0.024445798 0.99863249 -0.048161849
759716981.13208 0.99834234 -0.049901158 0.0012151552 0.024651311 0.0012297397 0.024772447 0.99856478 -0.048934251
769713207.54717 0.99823582 -0.050564706 0.0012307754 0.024972418 0.0012512356 0.025079947 0.99832863 -0.049649298
779709433.96226 0.99842709 -0.051155139 0.001268665 0.025323398 0.0012963552 0.025402864 0.99808753 -0.050277162
789705660.37736 0.99822885 -0.052003324 0.0013113664 0.025605133 0.0013062702 0.025723837 0.99774444 -0.051035881
799701886.79245 0.99816585 -0.052844495 0.0013708333 0.025898531 0.001306762 0.026010662 0.99765468 -0.051570833
809698113.20755 0.9981373 -0.053428814 0.0013598087 0.026201375 0.0013387536 0.026383845 0.99768633 -0.052003875
819694339.62264 0.99795914 -0.05404973 0.0013918169 0.026528923 0.0013792864 0.026663084 0.99775368 -0.052541971
829690566.03774 0.997926 -0.054594189 0.0014181081 0.026866339 0.0014229538 0.02700616 0.99798411 -0.053476423
839686792.45283 0.99805069 -0.055080444 0.0014268579 0.02718653 0.001444215 0.02726889 0.99802881 -0.054285854
849683018.86792 0.99807602 -0.055698611 0.0014469349 0.027539194 0.0014540949 0.027606519 0.99782372 -0.054989286
859679245.28302 0.99815989 -0.056440622 0.0015282184 0.027843071 0.0015160432 0.027951587 0.99760342 -0.055546552
869675471.69811 0.99805415 -0.057165742 0.0015549744 0.028132372 0.0015615914 0.028255153 0.99723727 -0.056104362
879671698.11321 0.99796116 -0.057808239 0.0015693153 0.02843678 0.0015900666 0.028573586 0.99720085 -0.056523617
889667924.5283 0.99775755 -0.058667451 0.0016063992 0.028750625 0.0015959246 0.028884646 0.99710673 -0.057000846
899664150.9434 0.99766695 -0.059271157 0.0016210834 0.029078133 0.0016674306 0.029194109 0.99713212 -0.05758971
909660377.35849 0.99759859 -0.060003385 0.0016497253 0.029363485 0.0016343351 0.02948574 0.99733019 -0.058405578
919656603.77358 0.99773741 -0.060595199 0.0016724528 0.02971405 0.0016883663 0.029837161 0.99726731 -0.059236586
929652830.18868 0.99765623 -0.061319202 0.0016992614 0.029980544 0.0016998872 0.030148407 0.99709034 -0.060102522
939649056.60377 0.99789047 -0.061920702 0.0017186543 0.030322626 0.0016988721 0.030440992 0.99698669 -0.060749382
949645283.01887 0.99787235 -0.062744752 0.0016921415 0.030648047 0.0017106256 0.030800313 0.99674881 -0.061266303
959641509.43396 0.99770617 -0.063357055 0.0017517786 0.031021906 0.0017372146 0.031128403 0.99668396 -0.061814874
969637735.84906 0.99769098 -0.064104646 0.0018033236 0.031361338 0.0018192539 0.03145479 0.99675298 -0.0621261
979633962.26415 0.99756193 -0.064771019 0.0018500257 0.03166509 0.0018439407 0.03176941 0.99673021 -0.062721394
989630188.67925 0.99762404 -0.065357774 0.001879192 0.031972229 0.0019156532 0.032086894 0.99692577 -0.063361973
999626415.09434 0.99762273 -0.065960854 0.001882528 0.032278758 0.0019161571 0.032450885 0.99688518 -0.064129382
1009622641.5094 0.99763346 -0.0666226 0.0019448493 0.032590367 0.0019659111 0.032792334 0.99676776 -0.064959735
1019618867.9245 0.9976933 -0.067411423 0.0019805883 0.032940101 0.0020260536 0.033108197 0.99654615 -0.065785915
1029615094.3396 0.99769974 -0.068291664 0.0020493828 0.033227332 0.0020893198 0.033390772 0.99619961 -0.066321969
1039611320.7547 0.99776286 -0.069074333 0.0020646546 0.033539098 0.0020855973 0.033679888 0.99613243 -0.066990525
1049607547.1698 0.99763614 -0.069997877 0.0020888294 0.033808384 0.0020977771 0.033960912 0.99611145 -0.067505151
1059603773.5849 0.99751306 -0.070630759 0.0021176655 0.034103539 0.0021299161 0.034288511 0.99616826 -0.068066031
1069600000 0.99738258 -0.071398169 0.0021290714 0.034434028 0.0021516783 0.034603246 0.99632132 -0.068812519
1079596226.4151 0.99736387 -0.072034016 0.0021303124 0.03476359 0.0021808743 0.03495007 0.99635077 -0.069539838
1089592452.8302 0.99734795 -0.072623402 0.0021559959 0.035088472 0.0021921536 0.035264641 0.99625951 -0.070239842
1099588679.2453 0.99736589 -0.073316962 0.0021883231 0.035429817 0.0022221562 0.035580393 0.99599302 -0.070869982
1109584905.6604 0.9974491 -0.074090898 0.0021689869 0.035707463 0.002217669 0.035909247 0.99577612 -0.071457595
1119581132.0755 0.99747872 -0.074991524 0.002212354 0.036085274 0.0022594337 0.036263295 0.99557054 -0.071878016
1129577358.4906 0.99729002 -0.075735301 0.0022448003 0.036428913 0.0023257993 0.036621951 0.9955436 -0.072319925
1139573584.9057 0.99702215 -0.076637536 0.0023034038 0.036735021 0.002349887 0.036917176 0.99557674 -0.072951049
1149569811.3208 0.99698919 -0.077488065 0.0023424921 0.037070449 0.0024090938 0.037226953 0.99564123 -0.073643737
1159566037.7358 0.99677384 -0.078131765 0.002370391 0.037362628 0.0024247291 0.037537802 0.9958297 -0.074667096
1169562264.1509 0.99665737 -0.078820646 0.002392957 0.037646949 0.0024670307 0.037879601 0.99562895 -0.075480312
1179558490.566 0.99659806 -0.079593122 0.0023956338 0.038039181 0.0024789241 0.038219761 0.99552941 -0.07618241
1189554716.9811 0.99659252 -0.080290258 0.0024468247 0.038371358 0.0025379704 0.038555041 0.99524653 -0.076682568
1199550943.3962 0.99651623 -0.081107974 0.0024799556 0.038731053 0.0025900155 0.038885586 0.99505973 -0.077094316
1209547169.8113 0.99631351 -0.081961244 0.0025111306 0.039048456 0.0026249746 0.039201926 0.99498963 -0.077437446
1219543396.2264 0.99611717 -0.082753375 0.0025872015 0.039394107 0.0026586251 0.03956582 0.99500573 -0.077846318
1229539622.6415 0.99592441 -0.083598852 0.0026276 0.039715499 0.002755465 0.039914884 0.99517322 -0.078447431
1239535849.0566 0.99561179 -0.084155083 0.0026901681 0.040039524 0.002808731 0.040196314 0.99534243 -0.079377681
1249532075.4717 0.99536502 -0.084888764 0.002744863 0.040346231 0.0028600439 0.040468384 0.99516565 -0.080171943
1259528301.8868 0.99517161 -0.085410088 0.0027964786 0.040662576 0.0029048957 0.040803041 0.99488258 -0.08103472
1269524528.3019 0.99499613 -0.086043358 0.0028610183 0.04097113 0.0029943381 0.041103967 0.99477482 -0.081729561
1279520754.717 0.99465293 -0.08687225 0.0029148054 0.041259687 0.0030154143 0.041373327 0.99448687 -0.082232267
1289516981.1321 0.99456525 -0.087645054 0.0029280465 0.04154462 0.0030286117 0.041681387 0.9944911 -0.082698226
1299513207.5472 0.99424231 -0.088519186 0.0029277522 0.04184635 0.0030366089 0.041988462 0.99462879 -0.083086699
1309509433.9623 0.99384445 -0.089198828 0.0029515717 0.042151939 0.0030558128 0.04226888 0.9946999 -0.083756164
1319505660.3774 0.99349117 -0.089921102 0.002923741 0.042479254 0.0030422397 0.042593956 0.99475408 -0.084444076
1329501886.7925 0.9932009 -0.090608656 0.0029725954 0.042807542 0.0030787289 0.042930521 0.99480832 -0.085342765
1339498113.2075 0.99296457 -0.091076046 0.0029973909 0.043105006 0.0031061787 0.043218635 0.994335 -0.086073905
1349494339.6226 0.99272114 -0.091626264 0.0029907865 0.043443218 0.0030679815 0.043564167 0.9940567 -0.086661458
1359490566.0377 0.99268246 -0.092267752 0.0029766597 0.043833293 0.0030777063 0.043890826 0.99388659 -0.087190807
1369486792.4528 0.99249208 -0.092719764 0.0030015726 0.044164315 0.0030942094 0.044256076 0.9937185 -0.087588996
1379483018.8679 0.99216926 -0.093254901 0.0030239858 0.044511545 0.0030836791 0.044595387 0.99370039 -0.08792714
1389479245.283 0.99184418 -0.093777448 0.0030445475 0.04487405 0.0031300224 0.044956908 0.99373472 -0.088635683
1399475471.6981 0.99150479 -0.094193667 0.0030707438 0.045262419 0.0031296164 0.045326091 0.99392712 -0.08927545
1409471698.1132 0.99117643 -0.094590016 0.0031211644 0.045585431 0.0031790922 0.045693211 0.99382681 -0.090067849
1419467924.5283 0.99098212 -0.09493196 0.0031112786 0.045967102 0.0031842031 0.046057396 0.99369168 -0.090717614
1429464150.9434 0.99083698 -0.09536764 0.0031806976 0.046390459 0.0032295045 0.0464307 0.99362814 -0.091370493
1439460377.3585 0.99099743 -0.095788687 0.003244156 0.046812497 0.003283699 0.046888471 0.99346006 -0.091638193
1449456603.7736 0.99105668 -0.096321523 0.0033525033 0.047193956 0.0033764513 0.047288235 0.9932431 -0.092030644
1459452830.1887 0.99102998 -0.096968055 0.0034814961 0.047576375 0.0034965128 0.04765721 0.99347365 -0.092317313
1469449056.6038 0.99107045 -0.097628117 0.003642479 0.047927629 0.0036325613 0.04803611 0.99358106 -0.092977405
1479445283.0189 0.9909485 -0.098203391 0.003769407 0.048186481 0.0037564216 0.048287544 0.99376202 -0.093903482
1489441509.434 0.99082649 -0.09876883 0.0039192457 0.048524708 0.0039038323 0.048593894 0.99364924 -0.094676703
1499437735.8491 0.99067891 -0.099136144 0.0039871149 0.048787404 0.0040264912 0.048886128 0.99350488 -0.095478356
1509433962.2642 0.99075007 -0.099651143 0.0040452098 0.049057037 0.0040618917 0.049155813 0.99334711 -0.096247464
1519430188.6792 0.99085093 -0.10013664 0.0041551292 0.049343161 0.0041362625 0.049405519 0.99316138 -0.096886784
1529426415.0943 0.99075842 -0.10086226 0.0042016134 0.049589802 0.0041890647 0.04969123 0.9931047 -0.097266436
1539422641.5094 0.99080074 -0.10156583 0.0042485734 0.049912643 0.0042388379 0.050006934 0.99309349 -0.097673506
1549418867.9245 0.99056041 -0.10244296 0.0042946767 0.05015339 0.0043005934 0.050236665 0.99336874 -0.098408937
1559415094.3396 0.99046648 -0.10303131 0.0043329746 0.050439961 0.0042958073 0.050574098 0.99357861 -0.099057138
1569411320.7547 0.99040741 -0.10385376 0.0043581035 0.05072831 0.0043764105 0.050840601 0.99349821 -0.099848568
1579407547.1698 0.9902243 -0.10425432 0.0044031669 0.050961196 0.0043752883 0.051106237 0.99311936 -0.10070238
1589403773.5849 0.99027097 -0.10490918 0.0044164602 0.051301688 0.0043979995 0.051425762 0.99290681 -0.10135216
1599400000 0.99019933 -0.10528594 0.0044162003 0.051590957 0.0043996172 0.05171895 0.99255699 -0.10186431
1609396226.4151 0.99015629 -0.10594887 0.0044136834 0.051900767 0.0043320372 0.052036155 0.99243158 -0.10239609
1619392452.8302 0.99009651 -0.10658935 0.0044276882 0.052232862 0.0043797009 0.052382797 0.99240154 -0.10278273
1629388679.2453 0.98985761 -0.10730878 0.0044135638 0.052571695 0.0043828599 0.052713502 0.99262226 -0.10331962
1639384905.6604 0.98967862 -0.10789052 0.0044344044 0.052891206 0.0043887594 0.053104516 0.99285716 -0.10418417
1649381132.0755 0.98942834 -0.10850877 0.0044414736 0.0532647 0.0044013504 0.053465199 0.99279612 -0.10500598
1659377358.4906 0.98925918 -0.10936481 0.004448643 0.053613737 0.0044481438 0.053806394 0.99271846 -0.10587901
1669373584.9057 0.98927623 -0.10971089 0.0044830316 0.053974323 0.004443361 0.054161184 0.99252874 -0.10655539
1679369811.3208 0.98929691 -0.11047122 0.0045418637 0.054386642 0.0044830637 0.054544814 0.99230421 -0.10717073
1689366037.7358 0.98927534 -0.11105841 0.0045820195 0.05470673 0.0045683775 0.054931633 0.9920814 -0.10734662
1699362264.1509 0.98946917 -0.11161926 0.0046254974 0.055106089 0.0045541283 0.055325877 0.99233907 -0.10778067
1709358490.566 0.98936224 -0.11226642 0.0046409685 0.055452816 0.0046382304 0.055684134 0.9922744 -0.10837235
1719354716.9811 0.98907101 -0.11284149 0.0047098342 0.055837136 0.004671013 0.056025874 0.99241704 -0.10902932
