!Keysight Technologies,N5222B,MY61253708,A.15.00.15
!Date: Wednesday, June 19, 2024 09:43:31
!Correction: S11(C  2-Port  ) 
!S21(C  2-Port  ) 
!S12(C  2-Port  ) 
!S22(C  2-Port  ) 
!S2P File: Measurements: S11, S21, S12, S22:
# Hz S  RI   R 50
10000000 0.99874753 -0.0027574003 0.00019658414 0.00079157169 2.4474597e-005 0.00019773621 0.99867171 -0.0012881458
19996226.415094 0.99884379 -0.0029841661 9.3865674e-005 0.00060648849 9.4637566e-005 0.00070332468 0.99908972 -0.0032609403
29992452.830189 0.99978238 -0.0024567842 4.9494236e-005 0.0010198106 -1.2279634e-005 0.0010212829 0.99953508 -0.0027392805
39988679.245283 1.0000436 -0.0029991269 5.0331029e-005 0.0013295503 -4.6179048e-007 0.0012906264 0.99967033 -0.0030185133
49984905.660377 1.0002159 -0.0037123263 1.790002e-005 0.0016499108 1.3176177e-005 0.0016532007 0.99982142 -0.0036267638
59981132.075472 1.000366 -0.0045733154 3.9165723e-005 0.0019678853 1.1495024e-005 0.0019880806 0.99983042 -0.0041784942
69977358.490566 1.0001824 -0.0051228423 2.0531144e-005 0.00235279 2.4575489e-005 0.002296316 0.99971753 -0.0047364924
79973584.90566 0.99992335 -0.0057497621 3.547722e-005 0.0026303127 6.8725785e-006 0.0026839825 0.99939984 -0.0052103102
89969811.320755 0.99995869 -0.0059184134 1.4852965e-005 0.0029878407 2.1825195e-005 0.0029955958 0.99962878 -0.0054315627
99966037.735849 1.0001659 -0.0066289157 3.7398073e-005 0.0033218556 -1.0963937e-005 0.0033170935 0.99970651 -0.0062686503
109962264.15094 1.0001148 -0.0075514019 4.3769251e-005 0.0036470133 2.0771928e-005 0.0036654589 0.99968427 -0.0070765465
119958490.56604 1.0002179 -0.0084391236 3.944221e-005 0.003958371 2.4386449e-005 0.0039971853 0.99970454 -0.0079321265
129954716.98113 1.0001414 -0.0094272792 3.749039e-005 0.0042994991 5.6286692e-005 0.0043437486 0.99970114 -0.0088198483
139950943.39623 1.0000939 -0.010210838 3.9453822e-005 0.0046517081 4.4932851e-005 0.0046764854 0.9996047 -0.0095458999
149947169.81132 0.99995708 -0.010914475 4.310091e-005 0.0049506896 2.8592069e-005 0.0050056293 0.99953651 -0.010124594
159943396.22642 0.99991572 -0.011491477 5.9305225e-005 0.0053072218 3.7659658e-005 0.0053282566 0.99964714 -0.010629475
169939622.64151 0.99989825 -0.011835977 5.8616395e-005 0.0056496435 6.5299799e-005 0.0056767208 0.99969763 -0.011048719
179935849.0566 0.99993581 -0.01206091 5.8799284e-005 0.0059332778 7.2268187e-005 0.0060435794 0.99959236 -0.011458784
189932075.4717 1.0000459 -0.012892544 9.3762064e-005 0.006264925 7.4591953e-005 0.0063313143 0.99982524 -0.011983067
199928301.88679 0.99999303 -0.013736129 9.871705e-005 0.0066103712 7.8535173e-005 0.0066607166 0.9997437 -0.012882978
209924528.30189 0.99976259 -0.014260262 9.6196891e-005 0.0069413874 9.0235728e-005 0.0070120944 0.99946505 -0.013529822
219920754.71698 0.99988508 -0.015192807 0.00011801254 0.0072731525 0.00011814735 0.0073299417 0.99930775 -0.014207006
229916981.13208 0.99967295 -0.015996546 0.00012712856 0.0076221214 0.00013027224 0.0076633194 0.99929428 -0.014982074
239913207.54717 0.99949437 -0.016613061 0.00014674226 0.0079087485 0.00012515137 0.0080210399 0.99929506 -0.01569573
249909433.96226 0.99958771 -0.017283261 0.00014079525 0.0082717864 0.00013669766 0.0083317263 0.99940133 -0.016320288
259905660.37736 0.99958551 -0.01786983 0.00013381336 0.0085307257 0.0002003354 0.0086534955 0.99958205 -0.016895086
269901886.79245 0.99974847 -0.018657565 0.00015101931 0.008916528 0.00017849891 0.0089648562 0.99986261 -0.017582178
279898113.20755 0.99985671 -0.019171298 0.000144677 0.0092630517 0.0001530461 0.0093305781 0.99971205 -0.01829879
289894339.62264 0.99975121 -0.02000469 0.00014654268 0.0095850322 0.00019415142 0.0096494164 0.99961036 -0.019052774
299890566.03774 0.99967813 -0.020423323 0.00018005259 0.0098673441 0.00019612559 0.010002914 0.99940675 -0.019519657
309886792.45283 0.99952757 -0.021011598 0.00016603817 0.010224859 0.00024869741 0.010351935 0.99932301 -0.019884922
319883018.86792 0.99957824 -0.02162993 0.00024126377 0.010606231 0.00020220922 0.010647874 0.99942553 -0.020423353
329879245.28302 0.99957275 -0.022399694 0.000292012 0.010903075 0.00021503773 0.011000241 0.99954641 -0.021132976
339875471.69811 0.99942762 -0.023175828 0.00025834295 0.011239874 0.00025258854 0.011305353 0.99943811 -0.022018962
349871698.11321 0.99964589 -0.023945689 0.00030677533 0.011515034 0.00026351446 0.011695116 0.99949926 -0.022887707
359867924.5283 0.99943846 -0.024789214 0.00029383879 0.011846976 0.0002930765 0.011975375 0.99949503 -0.023813754
369864150.9434 0.99960202 -0.025535136 0.00031429157 0.012227499 0.00031836028 0.012381023 0.99947113 -0.024521589
379860377.35849 0.99945426 -0.02622284 0.00031255302 0.012560377 0.00035292516 0.012675057 0.99933934 -0.025151774
389856603.77358 0.99950826 -0.026824921 0.00028378144 0.012892939 0.0003316775 0.012950113 0.99932194 -0.025683641
399852830.18868 0.99922574 -0.027376533 0.00034804922 0.013206203 0.00033782516 0.013341978 0.9993633 -0.026133507
409849056.60377 0.99920183 -0.027839877 0.00037573648 0.013489272 0.00040210926 0.013676198 0.99933022 -0.026661765
419845283.01887 0.99930865 -0.028227359 0.00041785138 0.013831056 0.00042737229 0.014032628 0.99931008 -0.027194738
429841509.43396 0.99932885 -0.028986156 0.00037179701 0.014212964 0.00043193996 0.014319029 0.999475 -0.02798602
439837735.84906 0.99922818 -0.029790178 0.000468374 0.014513398 0.00045042788 0.014648686 0.99925363 -0.028895006
449833962.26415 0.99913651 -0.030640692 0.00043707294 0.014843959 0.00044717034 0.014927934 0.99885225 -0.029709667
459830188.67925 0.99899089 -0.031367898 0.00045570312 0.015134797 0.0004374939 0.015320233 0.99865091 -0.03038764
469826415.09434 0.99897516 -0.032170445 0.0004907106 0.015508218 0.00046298187 0.015632106 0.99838561 -0.030934006
479822641.50943 0.99880368 -0.032769181 0.00049265008 0.015835704 0.00047485065 0.01597498 0.99837708 -0.031377338
489818867.92453 0.99894327 -0.033179522 0.00051148888 0.016161164 0.00055294391 0.016317509 0.99873924 -0.031855226
499815094.33962 0.99895656 -0.033867419 0.00055054808 0.016466307 0.00057108607 0.01662392 0.99903458 -0.032420248
509811320.75472 0.99911225 -0.034341808 0.00054965308 0.016822597 0.0005625207 0.016957924 0.99912453 -0.033259813
519807547.16981 0.99907136 -0.034840792 0.00053005526 0.017094567 0.0006212187 0.017277334 0.99907821 -0.033993959
529803773.58491 0.99899065 -0.035530388 0.00055269059 0.017471338 0.00056449324 0.017624138 0.99889475 -0.034458041
539800000 0.99903226 -0.0361325 0.00059086783 0.017827552 0.00062684761 0.017936178 0.99878472 -0.035191804
549796226.41509 0.99883926 -0.036960244 0.00061232131 0.018118732 0.0006299559 0.018288966 0.9986282 -0.035577416
559792452.83019 0.99870324 -0.037723213 0.00065655261 0.018422579 0.00068477262 0.018614694 0.99842787 -0.036157548
569788679.24528 0.9986223 -0.038280576 0.00067812251 0.018778365 0.00070319045 0.018950621 0.99865729 -0.03684476
579784905.66038 0.99853992 -0.038899891 0.00073224516 0.019126711 0.00071088853 0.019300088 0.99880123 -0.037608646
589781132.07547 0.99864364 -0.039631099 0.00072687119 0.019429207 0.00076373853 0.019596769 0.99885774 -0.0385212
599777358.49057 0.99874824 -0.040218353 0.00077624433 0.019759124 0.00077212323 0.020002583 0.99890065 -0.039236307
609773584.90566 0.99886447 -0.041040108 0.00080870645 0.020105481 0.00084416923 0.02033131 0.99883705 -0.039996944
619769811.32075 0.99889672 -0.041730016 0.00087437546 0.020436455 0.00086573372 0.020594666 0.99878812 -0.040660292
629766037.73585 0.99882591 -0.042322516 0.00088622048 0.020763587 0.00091498438 0.020935353 0.99856436 -0.041138232
639762264.15094 0.99868226 -0.043000147 0.00090759853 0.021094505 0.00087234145 0.021243256 0.99847454 -0.041606098
649758490.56604 0.9985112 -0.043529168 0.00089410739 0.021378627 0.00090516824 0.021586584 0.99851316 -0.042162761
659754716.98113 0.99844283 -0.044047624 0.0009291349 0.021728668 0.00091047306 0.021888845 0.99862385 -0.042631388
669750943.39623 0.99842012 -0.04450798 0.00090006879 0.022067457 0.00091525912 0.022309707 0.99865377 -0.043368757
679747169.81132 0.99833679 -0.045333609 0.00099187857 0.022441534 0.00099398743 0.022652566 0.99864513 -0.044363044
689743396.22642 0.99857432 -0.04607901 0.0010525547 0.022715367 0.00099455845 0.022949897 0.99845749 -0.045265287
699739622.64151 0.9985795 -0.046901226 0.0010637566 0.023090038 0.0010721795 0.02326929 0.99841881 -0.046000838
709735849.0566 0.99858105 -0.047728695 0.0011046476 0.023376165 0.0011056197 0.023575624 0.99812889 -0.046583898
719732075.4717 0.99858731 -0.048432082 0.0011337413 0.023681793 0.0011263466 0.023897413 0.99824154 -0.047257721
729728301.88679 0.9984014 -0.048974067 0.001158026 0.024030779 0.0011620019 0.024227494 0.99822128 -0.047678441
739724528.30189 0.99835569 -0.049634337 0.0011960221 0.024331268 0.0012058844 0.024567662 0.99841583 -0.048389778
749720754.71698 0.99827754 -0.050156176 0.0012200926 0.024624981 0.0012094681 0.024886962 0.99848354 -0.049098492
759716981.13208 0.99830037 -0.0506531 0.0012599146 0.024981882 0.0012518903 0.025214497 0.99836349 -0.049806416
769713207.54717 0.99818325 -0.051400244 0.0012688348 0.025264919 0.0012904238 0.025536725 0.99812257 -0.050512582
779709433.96226 0.99846464 -0.052002367 0.0013198386 0.025635833 0.0013452551 0.025857955 0.99790174 -0.0511797
789705660.37736 0.99819189 -0.052814811 0.001340217 0.025942966 0.0013647694 0.026170485 0.99764037 -0.051855862
799701886.79245 0.99817955 -0.053685963 0.0013651969 0.026253667 0.0013471488 0.026471104 0.99756896 -0.052447885
809698113.20755 0.99815351 -0.054245323 0.0013986686 0.026569165 0.0014327539 0.026804751 0.9975884 -0.052896053
819694339.62264 0.99800205 -0.054955572 0.0014521279 0.026908942 0.0014198148 0.027148409 0.99765891 -0.053515255
829690566.03774 0.99803853 -0.055635273 0.0014490504 0.027224261 0.0014799796 0.027448814 0.99793386 -0.054389924
839686792.45283 0.99799049 -0.056012452 0.0014541792 0.027513316 0.0015326147 0.027778544 0.99796414 -0.05522868
849683018.86792 0.99810112 -0.056685947 0.0015158204 0.027860658 0.0015198025 0.028140184 0.99792135 -0.055908658
859679245.28302 0.99810338 -0.057421356 0.0015653307 0.028203093 0.0015721973 0.028451385 0.99760389 -0.056548327
869675471.69811 0.99801689 -0.05817765 0.0016113184 0.028502502 0.001625347 0.028763108 0.99724209 -0.057110488
879671698.11321 0.99795359 -0.058790252 0.0016234992 0.028834317 0.0016673172 0.029082948 0.99723607 -0.057554226
889667924.5283 0.99780726 -0.059620082 0.0016720211 0.02913468 0.0016579712 0.029403543 0.99708873 -0.057985395
899664150.9434 0.9976418 -0.060272694 0.0016762959 0.029436603 0.0017391667 0.029726386 0.99711502 -0.058646172
909660377.35849 0.99759501 -0.061064407 0.0017158887 0.029753145 0.0016907332 0.030018015 0.99727511 -0.059503064
919656603.77358 0.99780214 -0.06167382 0.0017270963 0.030092202 0.0017383345 0.030382361 0.99731165 -0.060342059
929652830.18868 0.99763566 -0.062299788 0.0017307233 0.030429758 0.0017586239 0.030685998 0.99719322 -0.061203212
939649056.60377 0.99791855 -0.062948465 0.0017553614 0.030709455 0.0018116469 0.031003395 0.99690664 -0.061925769
949645283.01887 0.99787122 -0.063859135 0.0017794576 0.03105486 0.0018078454 0.03136405 0.99670738 -0.062475841
959641509.43396 0.99776769 -0.06452626 0.001792049 0.031398267 0.0018323995 0.031697746 0.99672025 -0.06294325
969637735.84906 0.99766892 -0.065222681 0.0018896554 0.031764984 0.0018826397 0.032041926 0.99664849 -0.063311785
979633962.26415 0.99755615 -0.066025473 0.0019371444 0.032063015 0.0019225308 0.032335132 0.99673653 -0.063986279
989630188.67925 0.99749386 -0.066498011 0.0019482551 0.032370266 0.0019621709 0.032692425 0.99696451 -0.064641207
999626415.09434 0.99754047 -0.067042857 0.001963445 0.032688394 0.0020210166 0.033005495 0.99680817 -0.065374732
1009622641.5094 0.99756974 -0.067726463 0.0019743992 0.033073075 0.0020286152 0.033362094 0.99674654 -0.066163465
1019618867.9245 0.99770391 -0.068541825 0.0020501893 0.033348043 0.0021080887 0.033690549 0.9964025 -0.06705229
1029615094.3396 0.9976753 -0.069502532 0.0021006493 0.033662304 0.0021417793 0.033974078 0.99612403 -0.067610085
1039611320.7547 0.99771297 -0.070231318 0.0021326151 0.033946436 0.0021726526 0.034282736 0.99605793 -0.068266898
1049607547.1698 0.99752539 -0.071170427 0.0021673364 0.034309827 0.0022142483 0.034613904 0.99605864 -0.068827182
1059603773.5849 0.99746835 -0.07192421 0.0021984475 0.034536373 0.0022508428 0.03491658 0.99605501 -0.069384664
1069600000 0.99722254 -0.072584718 0.0021922616 0.034876831 0.0022559902 0.035213172 0.99622071 -0.070132136
1079596226.4151 0.99723196 -0.073238812 0.0022251634 0.035200927 0.0022804062 0.035568569 0.99621844 -0.070852809
1089592452.8302 0.99725944 -0.073898971 0.0022332454 0.035547718 0.0022894256 0.035878405 0.99620652 -0.071626276
1099588679.2453 0.99729431 -0.074511498 0.0022539981 0.035851222 0.0023432281 0.036212321 0.99579322 -0.072204143
1109584905.6604 0.99741042 -0.075326353 0.0022810604 0.036202904 0.0023452435 0.036549069 0.99563128 -0.072788283
1119581132.0755 0.99737817 -0.076263547 0.0023078835 0.036555078 0.0023614108 0.036899537 0.99544019 -0.073210523
1129577358.4906 0.99717557 -0.07700333 0.0023170616 0.036887079 0.0024010595 0.03724771 0.99532068 -0.073653519
1139573584.9057 0.99688828 -0.077966541 0.0023531662 0.037223525 0.0024831258 0.037605848 0.99543834 -0.074309945
1149569811.3208 0.99684304 -0.078802288 0.0024389692 0.037570298 0.0025123069 0.037906647 0.99546754 -0.075019628
1159566037.7358 0.99663705 -0.079490095 0.0024714936 0.037882909 0.0025374917 0.038252108 0.9956252 -0.075970918
1169562264.1509 0.99651849 -0.080074579 0.0024951734 0.03817258 0.0025506914 0.038549617 0.99546409 -0.076853633
1179558490.566 0.99645752 -0.080925226 0.0024732032 0.03850371 0.0025742108 0.038900133 0.99527752 -0.077458605
1189554716.9811 0.9964425 -0.081526428 0.0025412422 0.038882907 0.0026503131 0.03922841 0.99501628 -0.078062296
1199550943.3962 0.99643874 -0.082466394 0.0025602318 0.039228093 0.0027188119 0.039578713 0.99483323 -0.078515351
1209547169.8113 0.99624574 -0.083255082 0.0026220707 0.039543532 0.0027366085 0.039900906 0.99476713 -0.078767717
1219543396.2264 0.99602789 -0.084119052 0.0026589129 0.039898928 0.0027833544 0.040285308 0.99488801 -0.079217821
1229539622.6415 0.99572074 -0.084914684 0.00274482 0.040214296 0.0028506368 0.040616963 0.99498236 -0.079891741
1239535849.0566 0.99548614 -0.085559011 0.0027839914 0.040520243 0.0029204385 0.040938638 0.99512386 -0.080884576
1249532075.4717 0.99523407 -0.086358637 0.0028175416 0.040876057 0.0029817994 0.041211713 0.99496138 -0.08165586
1259528301.8868 0.99508262 -0.086768478 0.0029017292 0.041187502 0.0030374061 0.041527439 0.99469465 -0.082460403
1269524528.3019 0.99480605 -0.087486684 0.0029563345 0.041506317 0.0031221565 0.041853845 0.99449992 -0.083155304
1279520754.717 0.99454129 -0.088255145 0.0030167762 0.041811857 0.0031719906 0.042137176 0.99423456 -0.08369071
1289516981.1321 0.99440104 -0.089094639 0.003025366 0.042053271 0.0031691901 0.042385139 0.99432266 -0.08420819
1299513207.5472 0.99399459 -0.089911669 0.0030235853 0.042389013 0.0031660832 0.042746603 0.99434406 -0.084581405
1309509433.9623 0.99362844 -0.090652227 0.0030504176 0.042660452 0.0031962777 0.043030493 0.9944874 -0.085321143
1319505660.3774 0.99320728 -0.09131299 0.0030657025 0.0430521 0.0032279175 0.043384288 0.9944995 -0.0859254
1329501886.7925 0.99302006 -0.091916353 0.0030888952 0.043306038 0.003235016 0.043670341 0.99455321 -0.08679834
1339498113.2075 0.99268991 -0.092472434 0.0031078476 0.04366824 0.0032609217 0.043989949 0.99413764 -0.087569922
1349494339.6226 0.99250275 -0.092982702 0.003081548 0.044039588 0.0032415697 0.04432122 0.99383938 -0.088140823
1359490566.0377 0.99240482 -0.093609393 0.0030935593 0.044394217 0.0032173265 0.044673245 0.99367857 -0.088675231
1369486792.4528 0.99216348 -0.094149262 0.0030902699 0.044716656 0.0032573929 0.045012087 0.99347472 -0.089163721
1379483018.8679 0.99185622 -0.094689146 0.0031513099 0.045094687 0.0032447786 0.045374345 0.99344742 -0.089422569
1389479245.283 0.99158013 -0.095198035 0.0031953305 0.045482822 0.0033112951 0.045763321 0.9934718 -0.090176344
1399475471.6981 0.99113965 -0.095621735 0.0031458326 0.045806255 0.0032987632 0.046116546 0.99363267 -0.090846241
1409471698.1132 0.99091262 -0.096070983 0.0032478843 0.046203826 0.0033231096 0.046501875 0.99361145 -0.091664053
1419467924.5283 0.99073339 -0.096276373 0.0032426966 0.046579771 0.0033552349 0.046882108 0.99342489 -0.092320323
1429464150.9434 0.99066395 -0.09677434 0.0033005513 0.046958968 0.0033950023 0.047243819 0.9933877 -0.092851758
1439460377.3585 0.9906792 -0.09725596 0.0033840472 0.047417279 0.0034656785 0.047738262 0.99311399 -0.093176633
1449456603.7736 0.99066985 -0.097809523 0.0034870002 0.047751009 0.0035602814 0.048074979 0.99300545 -0.093595311
1459452830.1887 0.99073946 -0.098399758 0.0036182534 0.048184413 0.0036803372 0.048503809 0.99315453 -0.093895525
1469449056.6038 0.99074185 -0.099182248 0.0037717838 0.04852863 0.0038276482 0.048792392 0.99336499 -0.094508916
1479445283.0189 0.99066418 -0.099745952 0.003888051 0.048837438 0.003944952 0.049149275 0.99345201 -0.095378712
1489441509.434 0.99057204 -0.10020062 0.0040196404 0.049129114 0.0040779747 0.049461711 0.99322736 -0.096308678
1499437735.8491 0.99035692 -0.10057557 0.0041327961 0.049404941 0.0041883159 0.049745001 0.99322724 -0.097174287
1509433962.2642 0.99040622 -0.10102997 0.0042124572 0.049646087 0.0042734155 0.050034806 0.99305338 -0.097748786
1519430188.6792 0.99046171 -0.10155475 0.0042639952 0.049926646 0.0043182131 0.050249305 0.99291807 -0.098391563
1529426415.0943 0.99042588 -0.10220721 0.0043189656 0.050217647 0.0043496098 0.050592355 0.99276078 -0.098746687
1539422641.5094 0.99043095 -0.10316725 0.0043838904 0.050549936 0.0043862606 0.050865661 0.9928816 -0.099279709
1549418867.9245 0.9902401 -0.10388647 0.0044700662 0.05078356 0.0044817338 0.051156558 0.99307764 -0.099974319
1559415094.3396 0.99017584 -0.10458091 0.0045146458 0.051049531 0.0044840388 0.051446788 0.99330479 -0.1006577
1569411320.7547 0.99003655 -0.10532959 0.0045325784 0.051361036 0.0045888294 0.051739104 0.99318337 -0.10150693
1579407547.1698 0.98999429 -0.10584606 0.004540029 0.051631421 0.0045683458 0.052008275 0.99285388 -0.10223481
1589403773.5849 0.98993468 -0.10638422 0.0045739077 0.051913507 0.0045851227 0.0523495 0.99265331 -0.10299441
1599400000 0.9898898 -0.10684496 0.0045622122 0.052232809 0.0045908475 0.05262883 0.99227005 -0.10340649
1609396226.4151 0.98990089 -0.10742963 0.0045738099 0.052588943 0.0045330618 0.052917309 0.99204981 -0.10396091
1619392452.8302 0.98981327 -0.10799623 0.0045635626 0.052901968 0.0045974683 0.053287782 0.99207199 -0.1044412
1629388679.2453 0.98959672 -0.10876149 0.004615495 0.053224586 0.004579749 0.053626038 0.99222028 -0.10495898
1639384905.6604 0.9894256 -0.10946073 0.0045717815 0.053568274 0.0045699012 0.054024011 0.99246603 -0.10574614
1649381132.0755 0.98923266 -0.11006731 0.0045975987 0.053949494 0.0045865513 0.054363877 0.9924401 -0.10674483
1659377358.4906 0.98898941 -0.11089164 0.0046295505 0.054307707 0.0046268869 0.05475359 0.99247742 -0.10758334
1669373584.9057 0.98899239 -0.11133682 0.0046672146 0.054717164 0.0046871356 0.055114549 0.99217606 -0.10830053
1679369811.3208 0.98899716 -0.11201096 0.0046722712 0.055066083 0.0046980763 0.055528846 0.9920063 -0.10879591
1689366037.7358 0.98897839 -0.11256 0.0047603752 0.055484854 0.0047354568 0.055868279 0.9917897 -0.10898384
1699362264.1509 0.98907679 -0.11313158 0.0047877701 0.055831235 0.0048102355 0.05626237 0.99198651 -0.10942802
1709358490.566 0.98904443 -0.11383472 0.0048657265 0.05616881 0.0048462534 0.056649387 0.99197251 -0.10997216
1719354716.9811 0.9887805 -0.11443627 0.0049018729 0.056505412 0.0048765521 0.057029545 0.99205279 -0.11067489
